! Touchstone file exported from HFSS 2018.2.0
!        File:           E:/Julien/ICRH/WEST Antenna/Complete Numerical Antenna Model/WEST_ICRH_Capacitor.aedt
!        Generated:      5:40:25  janv. 09, 2019
!        Design:         WEST_ICRH_Voltage_Probes_depth_m5mm_optimetrics_silver_Part2
!        Project:        WEST_ICRH_Capacitor
!        Setup:          Setup1
!        Solution:       Sweep
!
! Variables:
!        D_cylinders = 100mm
!        D_cylinders_step = 110.908mm
!        d_half_wave = 3.33333333333333mm
!        d_mesh = 7mm
!        deemb1 = 150mm
!        deemb2 = 150mm
!        deemb3 = 100mm
!        depth = -5mm
!        diameter_bellows_fixed_center_1 = 76mm
!        diameter_bellows_fixed_center_2 = 72mm
!        diameter_bellows_fixed_left_1 = 76mm
!        diameter_bellows_fixed_left_2 = 71mm
!        diameter_big_wave = 74.925mm
!        diameter_cylinder_1 = 140mm
!        diameter_cylinder_2 = 110mm
!        diameter_cylinder_3 = 80mm
!        diameter_cylinder_4 = 50mm
!        diameter_cylinder_5 = 19.985mm
!        diameter_cylinders_fixed = 143mm
!        diameter_small_wave = 51mm
!        diametre_coax_external = 216mm
!        diametre_probe_cavity = 13mm
!        diametre_probe_external = 7mm
!        diametre_probe_head = 7mm
!        diametre_probe_internal = 3mm
!        length_bellows_fixed_center_1 = 4.1mm
!        length_bellows_fixed_center_2 = 6.042mm
!        length_bellows_fixed_left_1 = 4.1mm
!        length_bellows_fixed_left_2 = 13mm
!        length_cylinders = 45.5mm
!        length_cylinders_fixed = 7mm
!        length_probe = 114mm
!        length_probe_cavity = 23mm
!        length_probe_head = 9.5mm
!        parois_cavity_probe = 1mm
!        parois_probe = 1mm
!        thickness_cylinder_1 = 1.5mm
!        thickness_cylinder_2 = 1.5mm
!        thickness_cylinder_3 = 1.5mm
!        thickness_cylinder_4 = 1.5mm
!        top_probe = 14mm
!        y0_bellows1 = 223.3mm
!
# GHZ S DB R 50.000000
! Modal data exported
! Port[1] = 1:1
! Port[2] = 2:1
! Port[3] = 3:1
0.001            1.86366187318554 -4.95997187294387 -22.2193382246157 85.0737829386417 -97.9675468220797 -165.67738496704 
                -22.2193382246159 85.073782938646  -0.000953618258116128 -4.86997238967743 -117.413116513396 130.236476428087 
                -97.9675468220875 -165.677384967081 -117.41311651341 130.236476427386 0.203311756463971 2.20500875368593 
! Gamma         !               4.3767361791728E-05 0.0210023372331314 1.31171022517947E-05 0.0209716027582769 0.000388372467842814 0.0213639143102838 
! Port Impedance50               0                50               0                50               0                

0.002            0.224683283603031 -9.67106291659759 -17.1646619405655 80.2915214200187 -124.04324368762 -15.1304374359669 
                -17.1646619405706 80.2915214200092 -0.0782821153806044 -9.67491599626019 -108.974341200387 88.0380349344573 
                -124.043243687573 -15.1304374358585 -108.974341200414 88.0380349345874 0.0470569513102571 0.353189507140481 
! Gamma         !               6.21400296124553E-05 0.041979105781427 1.86234149760358E-05 0.0419355435989371 0.000556994124909896 0.0424956188062356 
! Port Impedance50               0                50               0                50               0                

0.003            -0.06422766778659 -14.3689368884448 -13.8656096960104 75.5706304166338 -135.641806763234 169.732268450768 
                -13.8656096960118 75.5706304166277 -0.179777591553454 -14.3920599089579 -107.225646484685 82.7596310051464 
                -135.641806763304 169.732268450304 -107.225646484687 82.7596310051596 0.0149933197187326 0.0136566271068381 
! Gamma         !               7.59683467613036E-05 0.062951342724996 2.27677486733159E-05 0.0628981260889162 0.000684869438394203 0.063585049211133 
! Port Impedance50               0                50               0                50               0                

0.004            -0.257701827436553 -18.9432611182252 -11.5594842614507 70.9972208345091 -124.106249509842 161.143924615211 
                -11.5594842614512 70.9972208345059 -0.313466466309733 -18.979530573622 -105.159028097974 80.5827939958006 
                -124.106249509853 161.143924615187 -105.159028097973 80.5827939957971 0.00615516803897811 -0.132408476341754 
! Gamma         !               8.76567199522438E-05 0.0839215740406809 2.62708456578021E-05 0.0838601074269865 0.000793381355899299 0.0846555888200347 
! Port Impedance50               0                50               0                50               0                

0.005            -0.446554907792596 -23.3579661502538 -9.83323474699682 66.5857848694649 -119.414427677002 156.399972519421 
                -9.83323474699687 66.5857848694631 -0.476372814969263 -23.4051390219858 -103.455552418908 78.5038321595275 
                -119.414427677017 156.399972519385 -103.455552418908 78.5038321595418 0.00302962610627798 -0.224953813955412 
! Gamma         !               9.80163173346675E-05 0.104890402157468 2.93757327872443E-05 0.104821668155849 0.00088984306044053 0.1057129014781  
! Port Impedance50               0                50               0                50               0                

0.006            -0.647107582918881 -27.5887121695542 -8.48736374547305 62.3573056407287 -116.19196415663 152.107146782626 
                -8.48736374547297 62.3573056407274 -0.663860478496552 -27.6453749803835 -102.069696316884 76.5658389785434 
                -116.191964156636 152.107146782607 -102.069696316884 76.5658389785415 0.0016924499849477 -0.297613831593342 
! Gamma         !               0.000107387658429384 0.125858213769256 3.21844378717933E-05 0.125782924198948 0.00097730860289949 0.126760600705935 
! Port Impedance50               0                50               0                50               0                

0.007            -0.861240725252184 -31.620127855141 -7.41041579012666 58.3269524990037 -113.673725289897 148.072006460944 
                -7.41041579012655 58.326952499003  -0.87088167754134 -31.6850452728446 -100.924733733216 74.7900870091299 
                -113.673725289895 148.072006460936 -100.924733733215 74.7900870091235 0.00102608675467906 -0.361531924482777 
! Gamma         !               0.000115997118038984 0.146825269606029 3.47648039488372E-05 0.146743953713594 0.00105781268309418 0.147801130926501 
! Port Impedance50               0                50               0                50               0                

0.008            -1.08683038816511 -35.4445317192615 -6.53312224700614 54.5027620975027 -111.597523279136 144.259258538121 
                -6.53312224700603 54.5027620975023 -1.09245274159391 -35.5164356300718 -99.962348439046 73.1806101003902 
                -111.597523279133 144.259258538111 -99.962348439046 73.1806101003832 0.000651672373399055 -0.421136873287699 
! Gamma         !               0.000124007569930315 0.167791735037404 3.71656455059127E-05 0.167704806267271 0.00113282741498051 0.168836050641649 
! Port Impedance50               0                50               0                50               0                

0.009            -1.32059185943547 -39.0605886916478 -5.80904040359774 50.8864751232036 -109.835285847512 140.657920415142 
                -5.80904040359764 50.886475123203  -1.32392347385309 -39.138110933272 -99.1405548811139 71.734230893008  
                -109.835285847514 140.657920415141 -99.1405548811138 71.7342308930093 0.000421695409470144 -0.478427347119692 
! Gamma         !               0.000131533600592941 0.188757717655401 3.94213041711368E-05 0.188665514108096 0.00120339273190018 0.18986637782062 
! Port Impedance50               0                50               0                50               0                

0.01             -1.55908501690472 -42.4719062469126 -5.20529177857227 47.474837122333  -108.311034874022 137.260440174621 
                -5.20529177857221 47.4748371223327 -1.5611320444151 -42.5535706141509 -98.4287737291288 70.44360817344   
                -108.311034874023 137.26044017464  -98.4287737291283 70.4436081734336 0.00027147532578925 -0.534396235633468 
! Gamma         !               0.000138655789531261 0.209723293061098 4.15559290632483E-05 0.209626099895769 0.00127024166047537 0.210892829106311 
! Port Impedance50               0                50               0                50               0                

0.011            -1.79911909507121 -45.6856986756594 -4.69767005480768 44.2609191301429 -106.974278623743 134.058415547785 
                -4.69767005480762 44.2609191301425 -1.80047800391288 -45.769937287372 -97.8042719051084 69.298701331892  
                -106.974278623744 134.058415547778 -97.8042719051082 69.2987013318923 0.000169440586155379 -0.589574852689173 
! Gamma         !               0.000145432608003497 0.230688518659161 4.35870435270095E-05 0.230586580836352 0.00133390681675849 0.231915948942739 
! Port Impedance50               0                50               0                50               0                

0.012            -2.03791335702445 -48.7116148748453 -4.26783865044091 41.2352949915721 -105.789043962869 131.04199970793  
                -4.26783865044087 41.2352949915717 -2.03893650593255 -48.7967919335722 -97.2498286178173 68.2878239801985 
                -105.789043962872 131.041999707938 -97.249828617817 68.2878239802014 9.8602527296035E-05 -0.644264478534958 
! Gamma         !               0.000151908561210198 0.25165344031643 4.5527985581714E-05 0.251546970677821 0.00139479403535492 0.252936172423171 
! Port Impedance50               0                50               0                50               0                

0.013            -2.27314341096518 -51.5607747918357 -3.90161244324702 38.3870142426199 -104.728521177142 128.20023220529  
                -3.901612443247  38.3870142426198 -2.27403333878542 -51.6452094400852 -96.7521979760286 67.3984803108675 
                -104.728521177141 128.20023220529  -96.7521979760289 67.3984803108638 4.89991097639165E-05 -0.69864387073776 
! Gamma         !               0.000158119137280267 0.272618095594688 4.73893911004144E-05 0.272507280678835 0.00145322734258479 0.273953855994943 
! Port Impedance50               0                50               0                50               0                

0.014            -2.50293060339442 -54.2450200038754 -3.58784253960649 35.7043610044491 -103.772104470044 125.521544112563 
                -3.58784253960648 35.7043610044489 -2.50379671767812 -54.3270047440438 -96.3010681315739 66.6180112341862 
                -103.772104470045 125.521544112564 -96.3010681315734 66.6180112341877 1.43522398226261E-05 -0.752822922036281 
! Gamma         !               0.000164093636700657 0.293582515533207 4.91800416777713E-05 0.293467520142938 0.0015094746922984 0.294969294415196 
! Port Impedance50               0                50               0                50               0                

0.015            -2.72580376044334 -56.7763594632272 -3.31765774111271 33.1754167729396 -102.903599498485 122.994214783558 
                -3.31765774111271 33.1754167729395 -2.72669780620259 -56.854173258699 -95.8883345261102 65.9340657483692 
                -102.903599498486 122.994214783555 -95.8883345261101 65.9340657483702 -9.52815896464638E-06 -0.806871092472156 
! Gamma         !               0.000169856773533543 0.314546725854655 5.09073444122119E-05 0.314427696780011 0.0015637624911263 0.315982732181482 
! Port Impedance50               0                50               0                50               0                

0.016            -2.94064936933147 -59.1665798369748 -3.08392883131041 30.7884574092563 -102.110061188456 120.606722900388 
                -3.08392883131045 30.7884574092564 -2.94158822050315 -59.238496385915 -95.5075780357281 65.3349215615696 
                -102.110061188456 120.606722900391 -95.5075780357281 65.3349215615677 -2.55637630959004E-05 -0.860833241867994 
! Gamma         !               0.000175429625437285 0.335510747924153 5.25776165604264E-05 0.335387816993756 0.00161628417040365 0.336994372582928 
! Port Impedance50               0                50               0                50               0                

0.017            -3.14665920215342 -61.4269870382565 -2.8808788477194 28.5322177320491 -101.381000797996 118.347990379298 
                -2.88087884771942 28.5322177320492 -3.14763971392751 -61.4912793016261 -95.1536813686288 64.8096838560242 
                -101.381000797995 118.347990379295 -95.1536813686286 64.8096838560248 -3.58588622774417E-05 -0.91473881805733 
! Gamma         !               0.000180830258101848 0.356474599563881 5.41962726477425E-05 0.356347886125907 0.00166720579079081 0.358004385370271 
! Port Impedance50               0                50               0                50               0                

0.018            -3.34328025564771 -63.5682477586924 -2.70379294663008 26.3960549972808 -100.707823681694 116.207535492008 
                -2.7037929466301 26.3960549972809 -3.34428895629268 -63.623189952765 -94.8225417355255 64.3483907807542 
                -100.707823681694 116.20753549201  -94.8225417355251 64.3483907807554 -4.19648033880824E-05 -0.968607377053247 
! Gamma         !               0.000186074189844165 0.377438295747117 5.57679636980006E-05 0.377307908664276 0.00171667020433279 0.379012913288232 
! Port Impedance50               0                50               0                50               0                

0.019            -3.53016940849356 -65.6003043598339 -2.54879851067409 24.3700380417078 -100.083418705163 114.175554908515 
                -2.54879851067411 24.3700380417081 -3.5311887444499 -65.6441725053552 -94.5108523918385 63.9420508804715 
                -100.083418705163 114.175554908512 -94.5108523918388 63.9420508804697 -4.50440314634475E-05 -1.02245199813731 
! Gamma         !               0.000191174772825797 0.398401849177001 5.72966914885419E-05 0.398267888416251 0.00176480047668937 0.400020077527597 
! Port Impedance50               0                50               0                50               0                

0.02             -3.7071537297475 -67.5323416662768 -2.41269614028073 22.4449836912973 -99.5018513993757 112.242952103085 
                -2.41269614028075 22.4449836912975 -3.7081659690641 -67.5634135594581 -94.2159345209187 63.5826330834679 
                -99.5018513993761 112.242952103083 -94.2159345209184 63.5826330834674 -4.59769065012241E-05 -1.07628145028153 
! Gamma         !               0.000196143522413887 0.419365270756384 5.87859072697216E-05 0.419227828649635 0.00181170285656051 0.421025982158097 
! Port Impedance50               0                50               0                50               0                

0.021            -3.87419653162494 -69.372789101939 -2.2928282925985 20.6124571323568 -98.9581303086091 110.401325025402 
                -2.29282829259852 20.6124571323569 -3.87518606534398 -69.3893443202417 -93.9356064846546 63.2630251874108 
                -98.95813030861  110.401325025399 -93.9356064846545 63.2630251874118 -4.5434162410237E-05 -1.13010159653443 
! Gamma         !               0.000200990406007455 0.440328569959791 6.02385983375543E-05 0.44018773220414 0.00185746939208203 0.442030717644596 
! Port Impedance50               0                50               0                50               0                

0.022            -4.03136881101988 -71.1293458129933 -2.18697624213826 18.8647487288173 -98.4480261893226 108.642919851618 
                -2.18697624213828 18.8647487288174 -4.03232336198578 -71.1296661370933 -93.6680810100354 62.9769724611535 
                -98.4480261893233 108.642919851616 -93.6680810100352 62.9769724611552 -4.39277684431098E-05 -1.18391632167347 
! Gamma         !               0.000205724094984349 0.461291755121761 6.16573635525498E-05 0.46114760157781 0.00190218022310144 0.463034363578654 
! Port Impedance50               0                50               0                50               0                

0.023            -4.17882551465924 -72.8090198152964 -2.09327863062606 17.1948363589782 -97.9679299631371 106.960548528816 
                -2.09327863062608 17.1948363589784 -4.17973661174725 -72.7913902588002 -93.4118830635952 62.7190039409383 
                -97.9679299631374 106.960548528814 -93.4118830635952 62.719003940936  -4.18476649983513E-05 -1.23772815500296 
! Gamma         !               0.000210352181452676 0.482254833656768 6.3044478308353E-05 0.482107438992935 0.00194590556051167 0.484036990766615 
! Port Impedance50               0                50               0                50               0                

0.024            -4.31678599435427 -74.4181748349786 -2.01016665002931 15.5963396975876 -97.514739272029 105.347449955357 
                -2.01016665002932 15.5963396975877 -4.31764896646988 -74.3808853312104 -93.1657821519927 62.4843493407614 
                -97.5147392720294 105.347449955357 -93.1657821519925 62.4843493407594 -3.94889411075926E-05 -1.29153869435303 
! Gamma         !               0.000214881361703889 0.503217812225093 6.44019495185675E-05 0.503067246445769 0.00198870736653921 0.505038662808315 
! Port Impedance50               0                50               0                50               0                

0.025            -4.44551802905243 -75.9625804881443 -1.93631215338356 14.0634708758783 -97.0857662358235 103.797028662317 
                -1.93631215338356 14.0634708758784 -4.44633170011592 -75.9039281858374 -92.9287319707792 62.2688407704686 
                -97.085766235823 103.797028662316 -92.9287319707792 62.2688407704679 -3.70723516680342E-05 -1.34534889813325 
! Gamma         !               0.0002193175890242 0.52418069685728 6.57315614181959E-05 0.524027025743823 0.0020306407577054 0.52603943728425 
! Port Impedance50               0                50               0                50               0                

0.026            -4.56532484068523 -77.4474628958454 -1.87058588844858 12.5909844875003 -96.6786629643188 102.302256944104 
                -1.87058588844857 12.5909844875003 -4.56609105404468 -77.3657549559108 -92.6998047250685 62.0687655232483 
                -96.6786629643184 102.302256944105 -92.6998047250685 62.0687655232469 -3.47600741365645E-05 -1.39915928840566 
! Gamma         !               0.000223666199163824 0.545143493047615 6.70349131689496E-05 0.544986778533883 0.00207175515885817 0.547039366649213 
! Port Impedance50               0                50               0                50               0                

0.027            -4.67653459802212 -78.8775538721525 -1.81202370925534 11.1741288539624 -96.2913833051952 100.853930343268 
                -1.81202370925534 11.1741288539624 -4.67725766014652 -78.7711106275951 -92.4780835972438 61.8805029708346 
                -96.2913833051938 100.853930343271 -92.4780835972439 61.8805029708362 -3.26679845082807E-05 -1.45297009308305 
! Gamma         !               0.000227932012095827 0.566106205824933 6.83134493572997E-05 0.565946506323231 0.00211209524035825 0.568038498910485 
! Port Impedance50               0                50               0                50               0                

0.028            -4.77949197365361 -80.2571375570514 -1.75979911150528 9.80859971855086 -95.92243002494  99.4337792678296 
                -1.75979911150527 9.80859971855077 -4.78017807856152 -80.1242958895615 -92.2623643640451 61.6988282179014 
                -95.9224300249359 99.4337792678322 -92.2623643640446 61.69882821791   -3.08753369268464E-05 -1.50678134594056 
! Gamma         !               0.000232119413725685 0.587068839807147 6.95684844828915E-05 0.586906210495983 0.00215170167125784 0.589036878150736 
