#  HZ   S   DB   R     50.00 
! Rohde & Schwarz Vector Network Analyzer 
! Rohde-Schwarz,ZNB8-4Port,1311601044102961,2.82
! Created: UTC 1/15/2019, 3:19:06 PM
! freq[Hz]                db:S11                  ang:S11                 db:S12                  ang:S12                 db:S13                  ang:S13                 db:S14                  ang:S14
!                         db:S21                  ang:S21                 db:S22                  ang:S22                 db:S23                  ang:S23                 db:S24                  ang:S24
!                         db:S31                  ang:S31                 db:S32                  ang:S32                 db:S33                  ang:S33                 db:S34                  ang:S34
!                         db:S41                  ang:S41                 db:S42                  ang:S42                 db:S43                  ang:S43                 db:S44                  ang:S44
! 
 5.450000000000000E7    -3.972288004012694E-1    1.154382817746111E2    -2.945357466463522E1     1.184228502194172E2    -1.007111587997120E2     1.134900790578308E2    -1.024834904518245E2     1.391323224601170E2
                        -2.941502600539404E1     1.183725187895726E2    -2.473300883230274E-1   -5.796761099634206E1    -7.404467495782448E1    -1.022547167731377E2    -7.793062355244220E1    -9.962689124273014E1
                        -1.092051142588219E2     1.307967370278971E2    -7.381635875974953E1    -1.034126214343992E2    -1.520597240781553       3.367086137450537E1    -1.040428175250107E2     1.295839564828082E2
                        -1.069675176810949E2     4.279685592509064E1    -7.798085948072487E1    -9.852044471103814E1    -1.011628889197073E2    -1.211496949785641E2    -1.528573249157522       4.064988415053102E1

 5.450200000000000E7    -3.958412593098477E-1    1.154008048960505E2    -2.945776633497561E1     1.183619129954474E2    -1.042389834769324E2     7.042562801450885E1    -1.034300326617415E2     1.482276117472894E2
                        -2.939947363786911E1     1.182939286825668E2    -2.470225501756306E-1   -5.806781192665735E1    -7.409075250098753E1    -1.025708552504074E2    -7.785401993037607E1    -1.015438350751145E2
                        -1.050166010891497E2     2.451763492438135E1    -7.423521520271669E1    -1.035688201640617E2    -1.519524157589896       3.364767739608605E1    -1.050028208006728E2    -3.342161903208498E1
                        -1.041822263341789E2     8.455598601196036E1    -7.795539178368284E1    -9.876447807101251E1    -1.088700717673730E2    -5.945469105410921E1    -1.527295101228726       4.062521625579158E1

 5.450400000000000E7    -3.942395504021256E-1    1.153586799347579E2    -2.946460326305666E1     1.183200664944852E2    -1.095267540293100E2    -1.111602758252673E2    -1.154338158134339E2    -1.291082333862263E2
                        -2.940139086214188E1     1.182122874846985E2    -2.478743675253594E-1   -5.816940030082949E1    -7.380755383497325E1    -1.025960238985052E2    -7.785324296888109E1    -9.837422510842561E1
                        -1.007569717562498E2     1.309456944034051E2    -7.424411566964804E1    -1.025284701007234E2    -1.518280797032324       3.362191581950779E1    -1.006583804766770E2     1.729282709087930E2
                        -1.056550907082465E2    -1.798993692590135E2    -7.705121774479883E1    -9.883124480576932E1    -1.019785902840898E2     2.992940111774301E1    -1.525969390476943       4.059718731702795E1

 5.450600000000000E7    -3.938210824488794E-1    1.153223539367733E2    -2.945505099745859E1     1.182298311367439E2    -1.065500077006548E2     1.393180697476870E2    -1.126975223463961E2     1.091924680443235E2
                        -2.940822330431185E1     1.181646942097047E2    -2.479018949920991E-1   -5.827232077984920E1    -7.381000552756842E1    -1.017400919342100E2    -7.746728408536724E1    -9.809270767631868E1
                        -1.112867074863498E2     1.320939395490256E2    -7.415898064453928E1    -1.012710087166540E2    -1.516972941375283       3.359751313436639E1    -1.050318534410249E2    -3.377264771163679E1
                        -1.055269063513501E2     3.526174566041743E1    -7.754597082168870E1    -9.638670243568616E1    -1.042576260881493E2    -1.522878515070198E2    -1.524957315113745       4.057292889528902E1

 5.450800000000000E7    -3.930248250477202E-1    1.152816494271609E2    -2.945394946621505E1     1.181189728384676E2    -1.113931337137593E2     1.174355455736512E2    -1.109191115712120E2     1.198500891441718E2
                        -2.940767151005514E1     1.180311596779241E2    -2.478608293510293E-1   -5.837179472865405E1    -7.413036382023094E1    -1.026614770594637E2    -7.770932722593058E1    -1.013894135988760E2
                        -1.119147671770898E2     1.320041569488061E2    -7.393864012091737E1    -1.015691604344266E2    -1.516667027465571       3.357109904571018E1    -1.039314905390960E2    -1.087202894186083E2
                        -1.110720578525024E2    -1.611013711325765E2    -7.823236099846081E1    -9.658430492701514E1    -1.034465327185373E2     1.261135938812355E2    -1.523871813595339       4.054814452388435E1

 5.451000000000000E7    -3.923536235928059E-1    1.152466369709323E2    -2.945109003477998E1     1.181288980045851E2    -1.050589529988746E2     1.377628237731153E2    -9.943008567012299E1     1.156617355195721E2
                        -2.940632847062198E1     1.179277674188636E2    -2.486420091381500E-1   -5.847801761972430E1    -7.397595079092942E1    -1.013904590157476E2    -7.762974631620884E1    -1.013712629466707E2
                        -1.140920588548235E2     8.904457023357713E1    -7.405091785070182E1    -1.029079778929703E2    -1.516122883187873       3.354977469083977E1    -1.089685526900725E2    -1.610702868419267E2
                        -1.100023869823890E2     1.603391399149080E2    -7.748666548067776E1    -1.011221440052946E2    -1.046915199522685E2    -1.486746108330250E1    -1.523868779583577       4.052538760797690E1

 5.451200000000000E7    -3.916574340083661E-1    1.152059066299712E2    -2.945237121062403E1     1.180516103627667E2    -1.085978511116688E2     1.594802654293249E2    -1.173096024742215E2    -7.289959466538163E1
                        -2.938129590554302E1     1.179756530698873E2    -2.487147353265881E-1   -5.857713878737575E1    -7.436531435933696E1    -1.025940463660635E2    -7.747816864617826E1    -9.742088806478304E1
                        -1.198403708338427E2    -3.706374136506555E1    -7.395263472461016E1    -1.041428425678700E2    -1.515544949637562       3.352254620421071E1    -1.058182884583957E2    -6.597614661955021E1
                        -1.017150820268265E2     1.769420885728514E2    -7.805132555408372E1    -9.667734977592410E1    -1.114952017345211E2    -6.284564500349659E1    -1.522831789950776       4.049949947516956E1

 5.451400000000000E7    -3.909172952669172E-1    1.151688934156033E2    -2.946066772211437E1     1.179122316742626E2    -1.021449859634149E2    -4.327844911379918E1    -1.056139452567177E2     1.386489895231199E2
                        -2.939049207865570E1     1.178824067588726E2    -2.479626051382328E-1   -5.867818392476306E1    -7.406796421543865E1    -1.005071968235729E2    -7.829726530051819E1    -1.000781718662513E2
                        -1.087682493700270E2     1.020424609113069E2    -7.394038030709966E1    -1.046667607435167E2    -1.515417077154319       3.349890030423084E1    -1.046663297471656E2    -3.804977006675419E1
                        -1.067026196379935E2     1.631600147452889E2    -7.749312766613311E1    -1.019278055034036E2    -1.151194677518478E2     1.271741170724756E2    -1.522041617604441       4.047561558417833E1

 5.451600000000000E7    -3.904914820881662E-1    1.151314841217051E2    -2.944295269229374E1     1.178597961368516E2    -1.023091995949179E2     5.288421740246456E1    -1.067082154767720E2     7.033004437198098E1
                        -2.939445907214191E1     1.177744424001810E2    -2.483455297927993E-1   -5.878060074282829E1    -7.404666879592492E1    -1.023242339324910E2    -7.796532506109942E1    -9.665730564446587E1
                        -9.964427182930130E1     9.658785239334868E1    -7.400283848109686E1    -1.030765255212018E2    -1.514739994324023       3.347851505492672E1    -1.208300688962849E2     1.453310350737602E2
                        -1.162031556681003E2    -4.099083689401336E1    -7.761142482448324E1    -9.934062299183857E1    -1.022815781022745E2    -3.881435593427376E1    -1.521602168821128       4.045341601097847E1

 5.451800000000000E7    -3.901608202683509E-1    1.150935738584437E2    -2.944346049511463E1     1.178281003749898E2    -1.064213553148944E2     1.663890661038420E2    -9.842833317662849E1     5.924031410476247E1
                        -2.939111327008852E1     1.177277602017431E2    -2.482108359236692E-1   -5.888324040429480E1    -7.414976168095220E1    -1.028429404161418E2    -7.804366046919347E1    -9.984232675416612E1
                        -1.108469264539720E2     5.770074226825324E1    -7.375193027486499E1    -1.028239753589020E2    -1.513595432452829       3.345218479628218E1    -1.028102336802354E2     4.077296098917892E1
                        -1.225859560369045E2     1.962856191654740E1    -7.802977914885618E1    -9.775056835178640E1    -1.014538420657946E2    -3.958917036328663E1    -1.521293453428243       4.042840796623506E1

 5.452000000000000E7    -3.896988908670728E-1    1.150531433821133E2    -2.944531538851781E1     1.177553617628249E2    -1.057619504013960E2     8.518679625719338E1    -9.876198646595250E1     1.687904924768845E2
                        -2.939535893934925E1     1.176346410297168E2    -2.493273056243427E-1   -5.898739860655078E1    -7.407364137576668E1    -1.028680476561760E2    -7.820613457780905E1    -9.783382054093806E1
                        -1.117458587679407E2    -1.670954172839432E2    -7.395804585772095E1    -1.024829203375422E2    -1.513249723831166       3.342811630629769E1    -1.066048380903004E2     1.959556512908251E1
                        -1.095990406072554E2     8.686582499126905E1    -7.796950338380650E1    -9.923838287910228E1    -1.037247174189065E2    -9.477440609175541E1    -1.520787953291093       4.040300093844692E1

 5.452200000000000E7    -3.889494216593507E-1    1.150167008992960E2    -2.944084134889655E1     1.176424296054487E2    -9.862767724205125E1     2.248271494238820E1    -1.004027105054711E2     9.850683018524474E1
                        -2.938610371426187E1     1.176313491723618E2    -2.487850272699590E-1   -5.909078567510655E1    -7.387136327106568E1    -1.036877128357431E2    -7.776507318968686E1    -1.020332261751208E2
                        -1.097124099720556E2     8.273472124960466E1    -7.359897992327657E1    -1.030387629887080E2    -1.513346151639561       3.340641527284153E1    -1.026698431569444E2    -1.723709202585403E2
                        -1.113042194578851E2    -1.311086613698181E2    -7.810018539945743E1    -9.708503237948733E1    -1.031864574347112E2     1.096489605499179E2    -1.519953066431366       4.037845383676328E1

 5.452400000000000E7    -3.891748344382748E-1    1.149761304443282E2    -2.944076184055280E1     1.175938220928274E2    -1.108186053681615E2     1.659758750404042E2    -1.035272382761325E2     6.398896115310063E1
                        -2.938832501436913E1     1.174698067288724E2    -2.496611590052671E-1   -5.919323003250143E1    -7.399198474184880E1    -1.025422784289610E2    -7.799570570222235E1    -1.005498054171119E2
                        -1.030114487033156E2     1.105176313973621E2    -7.392827390813599E1    -1.033758464823785E2    -1.513219083982884       3.337982111089517E1    -9.937387675803571E1    -1.591720247897190E2
                        -1.048693677330753E2    -7.688616086972293E1    -7.777697585534551E1    -1.004373125669513E2    -1.063813530810530E2     1.259230068850511E2    -1.519823855699812       4.035319041102743E1

 5.452600000000000E7    -3.889463221271466E-1    1.149400953746425E2    -2.943231987443474E1     1.175222809980762E2    -1.087095279657073E2     1.196565853213068E2    -1.044386515286839E2    -8.208348397698973
                        -2.938182810347707E1     1.174407749933480E2    -2.496615738585128E-1   -5.929785078935456E1    -7.406837117487524E1    -1.020321183112096E2    -7.779784339561336E1    -1.000534482485246E2
                        -1.063783388868601E2     3.988924902174989E1    -7.410127594283497E1    -1.028166062688929E2    -1.512503239215000       3.335508580877259E1    -1.002914726107157E2    -4.352144051171180E1
                        -1.073615746218210E2     1.542831817872919E2    -7.798466564418702E1    -9.731783815828867E1    -1.049999924310097E2    -1.794521631554893E2    -1.519196068439590       4.032955171652250E1

 5.452800000000000E7    -3.884735617228885E-1    1.149022207631425E2    -2.944702489728623E1     1.174265075129958E2    -1.003796673649886E2     1.000492693120132E2    -1.079996667418580E2    -1.409252374541389E2
                        -2.939215347809324E1     1.174409395219068E2    -2.502196736254045E-1   -5.939894685231819E1    -7.376387093073825E1    -1.021050587227928E2    -7.790880883361385E1    -9.857805020185555E1
                        -9.879060707866337E1     1.444077498073305E2    -7.400734989795001E1    -1.024562060035509E2    -1.511846119339741       3.332853627129607E1    -1.159991184725600E2     3.267705531382018E1
                        -1.075304079512209E2    -1.635547192796651E1    -7.831408220834589E1    -9.929434816929822E1    -1.119254478764533E2    -1.161079722147985E2    -1.518397281420702       4.031087983723731E1

 5.453000000000000E7    -3.877949738932791E-1    1.148634217861925E2    -2.943902393507500E1     1.174240692980551E2    -1.062077321784139E2    -7.210810838178153E1    -9.717263282686089E1     1.027592088447472E2
                        -2.937823932541051E1     1.172636718370023E2    -2.497892146979742E-1   -5.950042203780173E1    -7.424476558841602E1    -1.015101429631229E2    -7.727881814430484E1    -9.852927803887870E1
                        -1.006551432562211E2     2.241681532923860E1    -7.406716980998559E1    -1.035192601750832E2    -1.512207405783157       3.331020657253121E1    -1.004951863003394E2     1.671183956712386E2
                        -1.120044989369916E2     1.390797695683415E2    -7.782781891020645E1    -1.013503200529672E2    -1.071486345205908E2     9.243160788100224E1    -1.518050724503613       4.028453674033775E1

 5.453200000000000E7    -3.881019988049478E-1    1.148243734852301E2    -2.944532112118404E1     1.172996517879900E2    -1.024327716202816E2     3.121158740853061E1    -1.027620591703022E2     1.526115663072768E2
                        -2.937938188938958E1     1.171952437641646E2    -2.501123793414763E-1   -5.959980542097060E1    -7.393369897020168E1    -1.028693869275355E2    -7.799782041366311E1    -9.856940147334771E1
                        -1.004065816092529E2     7.972753083981164E1    -7.396908845254700E1    -1.046291372361389E2    -1.512243236383678       3.328226724778586E1    -1.018799307819761E2     1.109283661908292E2
                        -1.055053189116031E2     1.362305098797023E2    -7.781555206638495E1    -9.938841234000729E1    -1.065386863520858E2    -1.219592629557906E2    -1.518042937757072       4.025679561895485E1

 5.453400000000000E7    -3.873564389308812E-1    1.147859410009930E2    -2.942926379530345E1     1.172326239483425E2    -1.111115022046674E2     1.300231193187095E1    -1.033713462010731E2     4.087882671880880E1
                        -2.937372713564859E1     1.172070582961522E2    -2.504163756163310E-1   -5.970841189468366E1    -7.382271869378629E1    -1.029691600700066E2    -7.758522100839082E1    -9.870057800461021E1
                        -9.933945335158656E1     9.626147402412319E1    -7.401564739599679E1    -1.029253513455790E2    -1.511537482255058       3.325995516678079E1    -1.042152108354660E2     4.053936322076218E1
                        -1.058838224652980E2     9.736075533862770E1    -7.778467548814157E1    -1.006113862136196E2    -1.114469265432458E2     9.645269007514008E1    -1.517282685089927       4.023102336628698E1

 5.453600000000000E7    -3.872769739569676E-1    1.147475652799209E2    -2.943040017560153E1     1.171386911714556E2    -1.120481307471220E2    -5.085564646980616E1    -1.018648864498858E2     1.574888451680592E2
                        -2.937270457795967E1     1.171508598829135E2    -2.506014313549969E-1   -5.981004593156541E1    -7.401966036222400E1    -1.015740527288638E2    -7.816324653994056E1    -1.022470005904852E2
                        -1.061613492864231E2    -9.014646952822724E1    -7.377627101297468E1    -1.036451720296730E2    -1.511763587802110       3.323681424114135E1    -1.156593535146394E2    -2.331319658196314E1
                        -9.712267919995361E1     1.009041135196480E2    -7.801596958299042E1    -1.009395528299951E2    -1.122374584487986E2     1.293416557123865E2    -1.516583713319344       4.020953613086684E1

 5.453800000000000E7    -3.871336282615803E-1    1.147117262310795E2    -2.942734749447319E1     1.171264364429846E2    -1.047143271522635E2    -1.770032148689321E2    -9.615368208982670E1     6.590613205582359E1
                        -2.936524760387254E1     1.170799499758447E2    -2.506088258234167E-1   -5.991053237164440E1    -7.390920354370344E1    -1.033921437872012E2    -7.784778923703080E1    -9.946782260976498E1
                        -1.037536598720740E2    -1.778834925628507E2    -7.377001440154376E1    -1.029918369178597E2    -1.511121156811464       3.321211671393178E1    -1.150604960667107E2     5.297663185537778E1
                        -1.033200763453850E2     1.173248461407179E2    -7.781477124544887E1    -9.974084163511996E1    -1.078236106399820E2     3.168461295825903E1    -1.516640598086059       4.018651544828807E1

 5.454000000000000E7    -3.864881729614140E-1    1.146718787831028E2    -2.942454151536599E1     1.170371019543086E2    -1.066335130682348E2     1.101961692324736E2    -1.054532355643928E2     1.162585983563412E2
                        -2.936994090594304E1     1.169885645241172E2    -2.507247949651389E-1   -6.001501063949991E1    -7.388399313602785E1    -1.018894823632085E2    -7.766918778271236E1    -1.005231056434730E2
                        -1.131682126367913E2    -1.601114727968435E2    -7.352662382074337E1    -1.020083465014853E2    -1.511277378059138       3.318794055351621E1    -1.100540237777801E2     1.666138196399979E2
                        -1.069265401372557E2     8.341975593924542E1    -7.788318020312123E1    -9.901029206877014E1    -1.007744790876864E2    -1.695943638846596E2    -1.516835592491984       4.015965198173527E1

 5.454200000000000E7    -3.858683525333451E-1    1.146330153675879E2    -2.942226731428758E1     1.169896780248840E2    -1.019739456329817E2     5.959355676858321E1    -1.070260206233078E2    -2.631604699198704E1
                        -2.936469462064153E1     1.168615426190911E2    -2.501143564938530E-1   -6.011958411522508E1    -7.382539644971514E1    -1.039337959719351E2    -7.795700747065644E1    -9.895930088896547E1
                        -1.036150337616294E2     1.680991084494453E2    -7.397236322579352E1    -1.026585762748016E2    -1.511728549396278       3.316371772586178E1    -1.149834753832931E2    -1.394116757550204E1
                        -1.163735873455304E2     1.771716275871416E2    -7.764384528211167E1    -1.012476202039795E2    -1.057338996478118E2     5.302009133703487      -1.515892719570636       4.013664161010933E1

 5.454400000000000E7    -3.863002857658838E-1    1.145950174517503E2    -2.942069034315896E1     1.169292990471527E2    -1.103614122639251E2     7.144133025371795E1    -1.080235885004858E2     8.213278910225422E1
