#  HZ   S   DB   R     50.00 
! Rohde & Schwarz Vector Network Analyzer 
! Rohde-Schwarz,ZNB8-4Port,1311601044102961,2.82
! Created: UTC 1/15/2019, 3:09:15 PM
! freq[Hz]                db:S11                  ang:S11                 db:S12                  ang:S12                 db:S13                  ang:S13                 db:S14                  ang:S14
!                         db:S21                  ang:S21                 db:S22                  ang:S22                 db:S23                  ang:S23                 db:S24                  ang:S24
!                         db:S31                  ang:S31                 db:S32                  ang:S32                 db:S33                  ang:S33                 db:S34                  ang:S34
!                         db:S41                  ang:S41                 db:S42                  ang:S42                 db:S43                  ang:S43                 db:S44                  ang:S44
! 
 5.050000000000000E7    -3.261672631136083E-1   -1.595554547025494E2    -3.430598235756975E1    -1.266878421924662E2    -1.038309303845266E2     5.950427653429339E1    -1.027993918462221E2    -6.491554184850274E1
                        -3.429432595145889E1    -1.267470225847985E2    -2.634295204165602E-1    8.662345958465620E1    -8.328720219765573E1    -2.469222489179750      -8.250058903419065E1    -9.162526697353070E-1
                        -1.157540759841969E2     1.317431562500079E2    -8.366540868797642E1    -3.159228313145535      -1.531229500242130       8.218116588935298E1    -1.028774013222105E2     9.022730115576580
                        -1.014625139673826E2     1.221217211151552E2    -8.263642965974368E1     2.744915063797762      -1.028467244898527E2    -1.186220520897740E2    -1.550176989504401       8.955862192568685E1

 5.051000000000000E7    -3.258169635325419E-1   -1.597774806097795E2    -3.429469148614255E1    -1.269521705928824E2    -1.135697029162204E2    -1.368553231319033E2    -1.081321919152901E2     8.481143651938673E1
                        -3.425355166009690E1    -1.270335212560086E2    -2.635362629386643E-1    8.633853955903309E1    -8.268263809369395E1    -9.644310404483587      -8.262457799137829E1    -5.166986461892266E-2
                        -1.051879552475668E2    -1.008784087203005E2    -8.254350128664046E1    -7.892275297294572      -1.529462768054933       8.205976819255618E1    -1.062231074838907E2    -8.381975411621374E1
                        -1.012069456546784E2    -9.351112394233169      -8.219385505282239E1     5.921123777203857E-2   -1.269897949533182E2     3.260579299518835E1    -1.548874416489012       8.943183132411782E1

 5.052000000000000E7    -3.254495090334533E-1   -1.599990414320688E2    -3.427964011036825E1    -1.271907046877010E2    -1.047673857184806E2     1.796869086518634E2    -1.063236217372975E2    -1.492984875420686E2
                        -3.426295248154655E1    -1.273596506792750E2    -2.630105611480683E-1    8.605839146362297E1    -8.287794808945739E1    -4.686876350905138      -8.192914199354487E1    -5.454562632337430E-1
                        -1.032539504350100E2     6.813807884213229E1    -8.366709515605599E1    -8.126639645674925E-1   -1.528252099259745       8.194209407491471E1    -1.012253704608696E2     1.122493760262043E2
                        -1.057324772121418E2    -5.964864949612723E1    -8.308030939902665E1    -7.623353515409267E-2   -1.046589486319286E2     1.454519732567289E2    -1.547409255058680       8.931183571796399E1

 5.053000000000000E7    -3.253491218431407E-1   -1.602234582513652E2    -3.427472864480021E1    -1.274016370801474E2    -1.008864374561404E2    -9.728474967148952E1    -1.064420366496205E2     1.328695108264953E2
                        -3.423902399441283E1    -1.276154064850983E2    -2.615135327637290E-1    8.577056259557075E1    -8.327311627627188E1    -2.388456118332807      -8.257050054097532E1     2.036721737409606
                        -1.072614588854749E2     1.394032764155921E2    -8.242064801679129E1    -2.060410846908437      -1.527466548722691       8.181784168450359E1    -1.050520311900486E2     1.142165990408033E2
                        -1.015624400759512E2     1.504867217806512E2    -8.258475056459297E1    -6.250343992082828      -1.052133091552123E2    -3.024723519789195E1    -1.546064604739880       8.918943673717355E1

 5.054000000000000E7    -3.249532246942465E-1   -1.604491430273553E2    -3.426274052327908E1    -1.277176420443085E2    -1.134754941119584E2     1.261881461872510E2    -1.049924199442185E2     2.610502083742758
                        -3.422523778419489E1    -1.278880139977711E2    -2.615783554861698E-1    8.548657508165357E1    -8.240481415717376E1    -9.987860075621777      -8.221693895573512E1    -8.230265709270203
                        -1.086261349759795E2    -1.452161553850224E2    -8.306259352539971E1    -8.381733614012513E-1   -1.526670017238958       8.169571976216292E1    -1.128644463672980E2     8.418794894935139E1
                        -1.035443599725487E2     1.073637897533305E2    -8.252072644295069E1    -2.246351761270015      -1.134992241853398E2     7.054694832967826E1    -1.544912883855291       8.906507622620757E1

 5.055000000000000E7    -3.251318617343884E-1   -1.606717973132622E2    -3.424967050907193E1    -1.279562484931581E2    -1.043584654998994E2    -7.562997602865212E1    -1.033944228325540E2     4.191209255268934E1
                        -3.421133311013291E1    -1.280312123397183E2    -2.606213588246021E-1    8.520161848145665E1    -8.337499582907208E1    -4.269755310592770      -8.267616668464841E1    -7.877067491094422
                        -1.033445612805834E2    -4.791225454201036E1    -8.367715318654811E1    -4.667852899276624      -1.526115012175830       8.157871411596429E1    -1.160880983153637E2     1.456313700458433E2
                        -1.001734323430840E2     4.814607317781157E1    -8.277009759155669E1    -3.385455815586933      -1.100314742748902E2    -1.454897641736595E2    -1.544368808791816       8.894394294240138E1

 5.056000000000000E7    -3.247102823897806E-1   -1.608962120735361E2    -3.423716131098278E1    -1.282161275083012E2    -1.070723042127111E2     1.529451952046332E2    -1.106043575088292E2    -1.377373810184068E2
                        -3.420544547272674E1    -1.282351139054381E2    -2.599791992160762E-1    8.491646052363279E1    -8.225803707996191E1    -5.162905946947832      -8.236202037065939E1     5.056385727845280
                        -1.117336391054898E2     1.602582871371210E2    -8.254117398915841E1    -4.220497036798627      -1.525739720142752       8.145771025467555E1    -1.148696435028483E2     1.682539258276294E2
                        -1.039750448317019E2    -1.769267373478635E2    -8.229989562947857E1    -4.118240501596424E-1   -1.067603697487101E2    -1.549628996000941E2    -1.543714452581449       8.881955412339184E1

 5.057000000000000E7    -3.243756989884035E-1   -1.611183826418042E2    -3.422480245534135E1    -1.284469978337627E2    -1.022805200520750E2     6.700298946244831E1    -1.046344348389260E2     3.262136922551961E1
                        -3.419077178121666E1    -1.286826244654819E2    -2.599338822256204E-1    8.462780741784681E1    -8.203958989061729E1    -7.782260910968942      -8.258850853886813E1     1.004271367288455
                        -1.052138256073252E2     8.205361085982821E1    -8.305987462964217E1    -8.038014821371384      -1.525431282614787       8.133727968177608E1    -1.045785678666301E2     1.620288718595066E2
                        -1.069492923292186E2     6.288977963928967E1    -8.255976778384112E1    -1.905035007440892      -1.010013450493833E2     4.026137705567671E1    -1.542738812998899       8.869717996215793E1

 5.058000000000000E7    -3.248304817842574E-1   -1.613398233000549E2    -3.423179204320771E1    -1.287428018399722E2    -1.058359073114916E2     4.942635834453550E1    -1.061680112710785E2    -1.571470165453883E2
                        -3.419350782242695E1    -1.288165802052262E2    -2.590755868075492E-1    8.434326903452215E1    -8.221196672639293E1    -7.582907547512606      -8.245590145878256E1    -1.204934141610650E1
                        -1.073521849749901E2    -1.659730537991472E2    -8.234692720513678E1    -8.230247016334889      -1.524970424580424       8.121389015458738E1    -1.109206442656578E2    -1.780106325662916E2
                        -9.850369902509860E1     1.371129015768863E2    -8.228354442992819E1    -5.347232717691549      -1.007167239383645E2    -7.150114118944870E1    -1.541907112100107       8.857617421479178E1

 5.059000000000000E7    -3.251415093489095E-1   -1.615668698157453E2    -3.421619348791501E1    -1.288711507574284E2    -1.061937162799666E2    -1.187755114553745E2    -1.039919198181331E2     2.411318066740233E1
                        -3.417385400843996E1    -1.290300064465856E2    -2.587693318881724E-1    8.405954621550960E1    -8.237297655813249E1    -2.990220357577073      -8.251315050676990E1    -2.889799965742165
                        -1.018710782293637E2    -1.455312558177022E2    -8.380373760446874E1    -5.844379582809967      -1.524470286371792       8.109604811247002E1    -1.082964782472165E2    -2.401478449867778E1
                        -1.097525585676707E2    -1.163390991084530E2    -8.213360693463329E1    -2.180009666998341      -1.023740436784093E2     1.283547080750923E2    -1.542124505393773       8.845230779839260E1

 5.060000000000000E7    -3.249092123955744E-1   -1.617858981721456E2    -3.419302721086197E1    -1.292050467880473E2    -1.030358340657397E2    -1.395023401701904E2    -1.128278522831548E2     1.000165288766324E2
                        -3.415868856683727E1    -1.293563872270584E2    -2.577618206765124E-1    8.377577892221096E1    -8.268879128409721E1    -1.278218749146262E1    -8.288295715030445E1    -5.498920144907460
                        -1.084731711078710E2     8.564624824285305E1    -8.288814669604646E1    -6.979321349915674      -1.524740906008882       8.097278259467424E1    -1.111186240250087E2     1.314025539177665E2
                        -1.054761028981294E2     1.326214327698486E2    -8.237517566139977E1     2.004495562243876      -1.239649883346831E2     1.034123126579315E2    -1.541521657250636       8.833351921261549E1

 5.061000000000000E7    -3.252597578535882E-1   -1.620097599793263E2    -3.420276551865454E1    -1.293728746339492E2    -1.035382487129417E2    -1.254642910687162E2    -1.007937086354671E2     4.863012767944431E1
                        -3.413209181377011E1    -1.295749076448334E2    -2.578591757852391E-1    8.348793899245635E1    -8.251014162574907E1     2.027227170260054      -8.169567325193198E1    -5.223166210672026
                        -1.060636339484883E2     1.439016493030584E2    -8.264760278353309E1    -7.482299022994249      -1.523087359526576       8.085596797989126E1    -1.083940709218943E2     1.362207880374995E1
                        -1.030804517851466E2    -1.298321936751280E2    -8.316007991198718E1    -2.823425384475265      -1.080375448800830E2     1.595610256428877      -1.540659160951089       8.820804469293408E1

 5.062000000000000E7    -3.250161316563898E-1   -1.622343545903285E2    -3.417429312937227E1    -1.296391735057751E2    -1.069058165481101E2    -3.594214165790917E1    -1.264319885010233E2    -1.501262792705736E2
                        -3.412874318931302E1    -1.298429853300089E2    -2.570453903064928E-1    8.320403819333008E1    -8.303149200861537E1    -1.204601269035783E1    -8.094685774286856E1    -4.688959255941282
                        -1.050368289889861E2     6.708290814751886E1    -8.333806714486451E1    -4.253277449344299      -1.523309313697884       8.073161192096099E1    -1.177393306915716E2     1.307478338447031E2
                        -1.026172849593908E2     9.220575089258372E1    -8.219795354878340E1    -2.751396354383651      -1.067621951187794E2    -1.132721196283503E2    -1.540430184474825       8.808656136400001E1

 5.063000000000000E7    -3.251619671187612E-1   -1.624569598029721E2    -3.417822300471659E1    -1.300365476896602E2    -1.092682832618073E2     1.613985183422392E2    -1.001907538106878E2    -1.077144160822265E2
                        -3.410433544764959E1    -1.301859718777969E2    -2.572040664184151E-1    8.291790213084433E1    -8.300884627874086E1    -7.882466003430144      -8.305931792557375E1    -6.164098551845369
                        -1.093913983682273E2    -1.093467582418706E2    -8.285025252835339E1    -7.454865397123180      -1.523159757449347       8.061186164589067E1    -1.091445105639349E2    -9.338870841310023E1
                        -1.049050901794046E2    -1.563323720501962E2    -8.215209391244343E1    -4.302721365873497      -1.049305922545307E2     5.296985977150369      -1.540213039274230       8.796352385956136E1

 5.064000000000000E7    -3.257539274462429E-1   -1.626810322758683E2    -3.415821609677674E1    -1.302191847079023E2    -1.026539466040196E2    -5.470856154215240E1    -1.010180709080134E2    -1.587793898720445E2
                        -3.410467220271786E1    -1.303194451666575E2    -2.561127709191891E-1    8.263215555574126E1    -8.311084098021567E1    -6.527104683104414      -8.336458190369646E1    -3.984320401990281
                        -1.055669513271453E2     1.731863110758708E2    -8.285681154612237E1    -5.960072174244546      -1.521987682209935       8.048748051523096E1    -1.098409680893939E2     7.208452887200174E1
                        -1.170344721832104E2     7.287873875697542E1    -8.193087701958879E1    -8.164189606976246      -1.048022257734708E2    -1.213069871950239E2    -1.539635423620668       8.783914544697291E1

 5.065000000000000E7    -3.260700535736639E-1   -1.629053357952900E2    -3.416002312307111E1    -1.304501995994643E2    -1.044632543180039E2    -7.371291262472279E1    -1.062197804034787E2    -1.323095615777467E2
                        -3.410378589440199E1    -1.305640577196629E2    -2.556448024509622E-1    8.234186533977928E1    -8.240432126621099E1    -8.188860640690209      -8.201411161320520E1    -5.386529250435064
                        -1.156186423865486E2     1.355313493544805E2    -8.326605800218339E1    -1.118482737106717E1    -1.521725568734269       8.037118192101524E1    -1.067718381028482E2     5.911893935240401E1
                        -1.039808527803234E2    -5.941705532561642E1    -8.252211105582356E1    -6.405185451267509      -1.085754928521155E2     9.272338533444255E1    -1.539268117951214       8.771831381774872E1

 5.066000000000000E7    -3.261191641925503E-1   -1.631270528109010E2    -3.412175637284344E1    -1.307157060496180E2    -1.033339589644637E2     1.137071617614450E2    -1.037880900292103E2    -1.598475498360375E2
                        -3.406133568846647E1    -1.308947819497103E2    -2.560614145405381E-1    8.205332556172104E1    -8.298490893051023E1    -8.043516566810117      -8.260607518625878E1    -8.364357894648310E-1
                        -1.013175509264487E2    -6.449119591154563E1    -8.402709868985400E1    -8.778657061581331      -1.521545365663561       8.024748834743178E1    -1.072122636916380E2     6.367735950285012E1
                        -1.009789087470239E2    -2.914944973318743E1    -8.313139868279023E1    -3.496617332882568      -1.008127621657380E2    -7.454060219804354E1    -1.538153919187890       8.759957114984469E1

 5.067000000000000E7    -3.269283004124430E-1   -1.633525557946237E2    -3.411988955221764E1    -1.310020379369737E2    -1.030429519837315E2    -1.198326449427522E2    -1.147873028351819E2    -1.001175726626364E2
                        -3.406334051476169E1    -1.309754094459410E2    -2.549315248722934E-1    8.176901021121164E1    -8.271570380692540E1    -4.174581942285974      -8.227536153661950E1    -2.386257655195262
                        -1.048303540114915E2     1.582080073038070E2    -8.314779261941578E1    -1.279451658149611E1    -1.521325503547258       8.012514840580113E1    -1.149672899193549E2    -1.421399542127953E2
                        -1.136607377831995E2    -1.011335615509311E2    -8.158109798121870E1    -1.098242670691045      -1.021931013247166E2     9.611460022682714E1    -1.538478242654980       8.747398352431532E1

 5.068000000000000E7    -3.267756255788673E-1   -1.635760129811070E2    -3.409723863911199E1    -1.312888210772275E2    -1.073836985120682E2    -1.060515805385797E2    -1.046069642778508E2     1.256324675966171E2
                        -3.405475176694176E1    -1.313235300788338E2    -2.546010558079104E-1    8.148516920013816E1    -8.412275088789764E1    -1.071106299941905E1    -8.276753191209554E1    -4.646672535654014
                        -1.069960135668441E2     1.613534376370195E2    -8.271373490558605E1    -9.873966437000131      -1.520468717689504       8.000795904011878E1    -1.027837400392884E2     2.234587972930432E1
                        -1.090718726381355E2    -1.198887658748082E2    -8.231155835479696E1    -6.785858660073838      -1.043719247254940E2    -6.853684509775614E1    -1.538285468226686       8.735127867339391E1

 5.069000000000000E7    -3.271344849935310E-1   -1.637984207725064E2    -3.410945943237280E1    -1.315090156543202E2    -1.042002514741170E2     2.520689956042416E1    -1.022707736868873E2     1.414640854234589E2
                        -3.404997131031340E1    -1.315292862968579E2    -2.544906555355191E-1    8.120002211505560E1    -8.290057170153884E1    -9.356134427288724      -8.267437263360783E1    -1.902553819869668
                        -1.023790143599530E2    -8.954632925129776E1    -8.238652665080055E1    -9.845689333041138      -1.520208105105462       7.988956730296910E1    -1.109863384128680E2     9.855454575255946
                        -1.038796367794046E2     1.228536525420306E2    -8.210298017717561E1    -2.293944673981366      -1.034148816570606E2    -2.265350996293036E1    -1.537974895457145       8.722841030282149E1

 5.070000000000000E7    -3.272493878031246E-1   -1.640192518821457E2    -3.408646690616794E1    -1.317413340831054E2    -1.072796852488370E2     1.010209246470730E2    -1.019658163321945E2    -1.274645451864960E2
                        -3.403925301062628E1    -1.317685124369168E2    -2.537556818496808E-1    8.091266075181055E1    -8.220951611206658E1    -7.972408881438699      -8.215908766391669E1    -5.773603167598968
                        -1.120613828576698E2     5.783858452697056E1    -8.249948351965999E1    -5.333935003516278      -1.520252806960621       7.976399545015789E1    -1.154221529041272E2     1.488905771488831E2
                        -1.050146976616702E2    -1.605399420709813E2    -8.204977938774383E1    -6.539487632264737      -1.141446404397029E2     3.032813894148006E1    -1.537291050701697       8.710545435989725E1

 5.071000000000000E7    -3.271380200971342E-1   -1.642457505885905E2    -3.406402705169769E1    -1.319630794429467E2    -9.962053327423485E1    -6.265623387968159E1    -1.150410580293016E2    -7.100446568955362
                        -3.402409448344933E1    -1.321642506241662E2    -2.536915187097387E-1    8.062320424258694E1    -8.292093820968312E1    -9.074907531619450      -8.121450897271947E1    -9.616184377201796
                        -9.867761017074372E1    -1.464347297595767E2    -8.220199019745249E1    -5.980823211959947      -1.519768007991442       7.964736999731103E1    -1.074050602107975E2    -4.205416368756377E1
                        -1.042456928298366E2     9.652491775146925E1    -8.211548685929601E1    -5.769057117589583      -1.040875348917652E2    -1.270353754837579E2    -1.537695891873224       8.698368708887756E1

 5.072000000000000E7    -3.274819103408805E-1   -1.644668672646901E2    -3.406372652085011E1    -1.322264677529677E2    -1.001399859579819E2    -3.740314315378960E1    -9.958727529165122E1    -2.132091231314789E1
