#  HZ   S   DB   R     50.00 
! Rohde & Schwarz Vector Network Analyzer 
! Rohde-Schwarz,ZNB8-4Port,1311601044102961,2.82
! Created: UTC 1/15/2019, 2:27:12 PM
! freq[Hz]                db:S11                  ang:S11                 db:S12                  ang:S12                 db:S13                  ang:S13                 db:S14                  ang:S14
!                         db:S21                  ang:S21                 db:S22                  ang:S22                 db:S23                  ang:S23                 db:S24                  ang:S24
!                         db:S31                  ang:S31                 db:S32                  ang:S32                 db:S33                  ang:S33                 db:S34                  ang:S34
!                         db:S41                  ang:S41                 db:S42                  ang:S42                 db:S43                  ang:S43                 db:S44                  ang:S44
! 
 5.450000000000000E7    -2.423338908972666E-1   -5.554638213686393E1    -2.943953037081976E1     1.190397301704090E2    -7.625250047097784E1    -9.494149016990740E1    -7.275955645481247E1    -1.006049170314745E2
                        -2.940074600012461E1     1.189407606908868E2    -2.730876355235803E-1    1.134802395598453E2    -1.154868791458204E2    -8.284109260806339E1    -9.759511163347756E1     1.149079022964827E2
                        -7.659320614973703E1    -9.636284926114743E1    -1.093038827854841E2    -1.108314268152194E2    -1.476385000349320       4.481880798386408E1    -1.088496848359206E2     1.143126209594348E2
                        -7.290589477847669E1    -1.023817736184221E2    -1.040742029508413E2     1.479485848975643E2    -1.110896544488591E2    -6.081923057160896E1    -1.502893079632669       3.691270614716316E1

 5.450200200200200E7    -2.418098588485335E-1   -5.565183045176357E1    -2.944135090523498E1     1.190045748161974E2    -7.649558457372130E1    -9.358982654567522E1    -7.270163690756208E1    -1.007120793277720E2
                        -2.940073149544879E1     1.189766046082353E2    -2.734488937139606E-1    1.134425009197700E2    -1.024581893971084E2     1.631899259494898E2    -1.032673417090140E2     1.147832122973117E2
                        -7.647604830353362E1    -9.481874996184453E1    -1.052491056890835E2     8.341734483051485E1    -1.474857094933330       4.479475652243946E1    -1.061448736557127E2    -7.397010222429725E1
                        -7.277935902802456E1    -1.016054495054016E2    -1.004892356192340E2     8.711124504590070E1    -1.033144790145390E2    -1.449169416855968E2    -1.501744232465862       3.688927380218900E1

 5.450400400400400E7    -2.406300187542460E-1   -5.576012743517161E1    -2.944912203463699E1     1.189192777367877E2    -7.667710768438613E1    -9.339478573209094E1    -7.268803443906535E1    -1.005622143673049E2
                        -2.939856427145965E1     1.188776476972929E2    -2.733513621769146E-1    1.134057699302374E2    -1.020710169408188E2     1.799836894319564E2    -1.031106213427641E2     1.216568141191981E2
                        -7.617347081879905E1    -9.414517513950946E1    -1.037988217226126E2     9.353137363648467E1    -1.474074096221093       4.477119996709840E1    -1.014363608554798E2     4.207529177677221E1
                        -7.272013482822047E1    -1.017049780705809E2    -9.709383730313525E1     9.532457105183471E1    -1.082906361754218E2     7.658012468072695E1    -1.500285400131276       3.686877414305258E1

 5.450600600600600E7    -2.400816187011546E-1   -5.586362581885442E1    -2.944267545484626E1     1.188546904938976E2    -7.627180606422381E1    -9.759838448120920E1    -7.276239390327207E1    -1.024689225196628E2
                        -2.938484169814127E1     1.188491776041960E2    -2.731794874628113E-1    1.133664495168997E2    -1.149686261930587E2     8.845921317005322E1    -1.032093038389042E2     1.202832378154388E2
                        -7.648862252035939E1    -9.595968480388538E1    -1.107016454803636E2     6.186710970974416E1    -1.473379534874550       4.474840937230616E1    -1.036504348577584E2     8.068596712248677E1
                        -7.285274011743950E1    -1.019413476390686E2    -1.122212443070129E2    -1.626928523230141E2    -1.173316362714270E2    -9.952036070224554E1    -1.499302600664588       3.684312012852556E1

 5.450800800800801E7    -2.390765395636567E-1   -5.597197496918371E1    -2.943493654349629E1     1.187570280726039E2    -7.640248239555997E1    -9.612341746660009E1    -7.292595679300347E1    -1.015319191800755E2
                        -2.939884716495970E1     1.187190354240000E2    -2.729519268875869E-1    1.133295812934264E2    -1.055710182783019E2     1.435613474414754E2    -1.130844549851796E2     1.780130088631410E2
                        -7.648854976677821E1    -9.396565941897042E1    -1.053802291253313E2    -4.255751938858961E-2   -1.472359431944261       4.472967881367453E1    -9.947319017413813E1     2.495227691546221E1
                        -7.280431404540391E1    -9.906350460718505E1    -1.060416461366594E2     3.380574265646512E1    -1.017226657631946E2     8.066314262131971E1    -1.498619940881090       3.681669774545338E1

 5.451001001001001E7    -2.388216323488171E-1   -5.607708961401834E1    -2.943504939377696E1     1.187156953728234E2    -7.668531734460670E1    -9.828485760014534E1    -7.290293164275126E1    -1.019465696987841E2
                        -2.939270788898147E1     1.186943008881798E2    -2.733888018650391E-1    1.132911203106242E2    -1.057675672683422E2     6.277335706679786E1    -1.085340878201221E2     1.127178531815480E2
                        -7.652616344716479E1    -9.294129838344787E1    -1.075557091249497E2    -7.983240877666540E1    -1.471055826252950       4.470292258185805E1    -1.035469750187890E2     3.931969785234471E1
                        -7.298121817618343E1    -1.003281629231885E2    -1.011187473288285E2     6.086227440400788E1    -1.062008810208096E2    -1.049164179751209E2    -1.497353530667032       3.679604631048476E1

 5.451201201201201E7    -2.380796637609173E-1   -5.618167370783284E1    -2.943230958536618E1     1.186189014549788E2    -7.613615138153821E1    -9.409102027085329E1    -7.277848990455213E1    -1.011844731429172E2
                        -2.939528563433978E1     1.186258766249304E2    -2.729497564533221E-1    1.132547370106070E2    -1.027351812812947E2     3.640598135818551E1    -9.856544908014408E1     9.091906653686600E1
                        -7.687752259003395E1    -9.389370119691496E1    -9.932437006299242E1     3.749832433299718E1    -1.470883770239447       4.467681025350493E1    -1.105621088431588E2    -2.029356499334101E1
                        -7.288261610055345E1    -1.015488160711178E2    -1.099844542398086E2     1.079883452411731E2    -1.107271608086606E2    -9.418109706893804E1    -1.497665032622643       3.677186334196947E1

 5.451401401401401E7    -2.379886203524793E-1   -5.628970176652715E1    -2.942897945554309E1     1.185449958003038E2    -7.644086653680709E1    -9.587985917799045E1    -7.273513258589166E1    -1.024504582226916E2
                        -2.938334469340297E1     1.184763304272291E2    -2.720671403407511E-1    1.132134596452867E2    -1.006703625071520E2     1.000720196252576E2    -1.125202331987103E2    -1.521442303828189E2
                        -7.630033580139526E1    -9.414560298444285E1    -1.050449459201857E2     1.001251514052821E2    -1.470302155662282       4.465686027496277E1    -1.054136184288549E2    -4.430247226639914E1
                        -7.267112924143329E1    -1.012508701883859E2    -1.098843762987079E2     1.570207889238290E2    -1.010100584692681E2    -1.535188634893286E2    -1.496198721271528       3.674706584990591E1

 5.451601601601601E7    -2.375201182742482E-1   -5.639480633385961E1    -2.942704450625800E1     1.184585840605498E2    -7.641396423909318E1    -9.411695736148951E1    -7.299229573284174E1    -1.016144723891535E2
                        -2.938187452350442E1     1.184265321999889E2    -2.726617584599851E-1    1.131817372482559E2    -1.080181500224922E2     8.505828934360179E1    -1.005347089915877E2    -1.540530231654323E2
                        -7.624865930947306E1    -9.389146073405561E1    -1.025973319087751E2     1.178995353020329E2    -1.469920826820305       4.462895169056557E1    -1.086637296532477E2     5.107515344738067E1
                        -7.256370725001548E1    -1.015084493296661E2    -1.015195293665147E2     9.188181298830010E1    -1.211119141568724E2    -2.676498269471462E1    -1.495403499563284       3.672066609156160E1

 5.451801801801802E7    -2.371471195149244E-1   -5.649903245170373E1    -2.942314173531134E1     1.183984884846323E2    -7.608560529230188E1    -9.533233317895153E1    -7.290770628237870E1    -1.011182416546912E2
                        -2.939262381845066E1     1.183458333106847E2    -2.729954216982571E-1    1.131403447652305E2    -1.099094019121677E2    -3.207674484981618E1    -1.104127630272445E2     1.707946679386939E2
                        -7.656144736387938E1    -9.602366428739811E1    -1.056343643356605E2     1.454301023250182E2    -1.469749205569292       4.461020660775039E1    -1.085952662405023E2     8.397527625058751E1
                        -7.261232725329924E1    -1.015124852121689E2    -1.089648019944503E2     5.827530814009224E1    -1.169549908716470E2     1.369043943483355E2    -1.495725033515031       3.670174244206125E1

 5.452002002002002E7    -2.373403990056670E-1   -5.660782202763447E1    -2.941974105393262E1     1.182745321155796E2    -7.654096643170524E1    -9.597509281473747E1    -7.280524473601963E1    -1.015308998667806E2
                        -2.938172722584027E1     1.182918386648126E2    -2.730427307099608E-1    1.131007302192066E2    -9.819645399332245E1     7.644005828029728E1    -9.744208298406574E1     6.537589643879926E1
                        -7.658668254432710E1    -9.580016312450778E1    -1.066884253157584E2     1.161029744757602E2    -1.468873173094440       4.458764368936437E1    -1.077844690199122E2     1.489447215246255E2
                        -7.281211457211757E1    -1.021179859706415E2    -9.904592044853702E1     6.434944933914173E1    -1.145719823120062E2     4.228960598912765E1    -1.494622705138491       3.667523496551929E1

 5.452202202202202E7    -2.367011372345726E-1   -5.671527163061630E1    -2.941949876134052E1     1.182376327606536E2    -7.644294027502717E1    -9.644504681960373E1    -7.280641516113003E1    -9.994145707763818E1
                        -2.936511101659247E1     1.181995177903285E2    -2.723111542319142E-1    1.130652653833375E2    -1.128077692924707E2    -8.382843846365419E1    -9.864804324906750E1     1.218334924654235E2
                        -7.674766901533576E1    -9.520464571211544E1    -1.071855915334121E2    -1.038639299109055E2    -1.468795304523712       4.456507588770450E1    -1.163251384298829E2     2.640012581345654
                        -7.256271728923792E1    -1.033352004930947E2    -1.099711154766996E2     1.398796949654426E2    -1.007164388616337E2     5.589826948744266E1    -1.494399768511644       3.665193689194580E1

 5.452402402402403E7    -2.365624045601382E-1   -5.681863113545460E1    -2.941806471691534E1     1.182153401590450E2    -7.638397227236150E1    -9.836906654191547E1    -7.257629042911113E1    -1.020520842501858E2
                        -2.936170360744645E1     1.181715519007851E2    -2.727042663263148E-1    1.130301978963819E2    -1.058118711096074E2     1.212096301731652E2    -9.829027418771625E1     1.345104850334431E2
                        -7.673127253162805E1    -9.714295898711293E1    -1.031671167569355E2     2.048886632972203E1    -1.468604672211268       4.454253498049011E1    -1.061107155990833E2    -1.012458497084545E2
                        -7.230940536853629E1    -1.008426257044259E2    -1.024273283010827E2     1.077993336807703E2    -1.172077894381665E2     1.214743326503615E2    -1.493572227145840       3.662680612977414E1

 5.452602602602603E7    -2.361556933858917E-1   -5.692562888147575E1    -2.940690009333823E1     1.181157401077886E2    -7.634108877587104E1    -9.745159741742116E1    -7.275008622688750E1    -1.019924975004921E2
                        -2.937228593354224E1     1.180070528323743E2    -2.729448355305305E-1    1.129910783097199E2    -1.153952709749435E2     1.114574614719010E2    -9.558367915998119E1     1.256042706539891E2
                        -7.683741334465709E1    -9.438817439553075E1    -1.073316102624292E2    -1.603487281663424E1    -1.468452895113136       4.451971752035556E1    -1.041644251716451E2    -9.099189722047539E1
                        -7.253816609370296E1    -1.014707505538991E2    -1.038870067896606E2     1.202593038885945E2    -1.010388104165814E2     1.525530556839360E2    -1.493308428689128       3.660617595682491E1

 5.452802802802803E7    -2.362376009468518E-1   -5.703095166712883E1    -2.940410512219773E1     1.180639847928121E2    -7.641487550253432E1    -9.495746882177653E1    -7.277950634352368E1    -1.015332838912910E2
                        -2.936139933530317E1     1.180013647736324E2    -2.725718084392261E-1    1.129544775512236E2    -9.987843667113495E1     8.369173693594102E1    -1.043621605719548E2     6.321356604308546E1
                        -7.639756849146282E1    -9.655999539978583E1    -1.001963715529767E2     1.156734467148650E2    -1.467714201585111       4.449672272932359E1    -1.069369703535675E2    -4.865367082907689E1
                        -7.280617710679667E1    -1.008506805421220E2    -1.096137888100985E2     5.720146584835057      -1.031018875724579E2    -1.286074712299199E1    -1.493089088237745       3.657853996618585E1

 5.453003003003003E7    -2.358689304589704E-1   -5.714043510915302E1    -2.940575332608138E1     1.179337233544213E2    -7.675958435196901E1    -9.529031713772228E1    -7.262722477723796E1    -1.025152171688544E2
                        -2.935805511510108E1     1.178384710651748E2    -2.725431714457366E-1    1.129158979090730E2    -1.203920147838951E2    -2.708958068582548E1    -1.017527002198635E2     1.036390461485443E2
                        -7.658711426232179E1    -9.644146829372022E1    -1.065469714516667E2     5.201571183639150E1    -1.467939706642127       4.447071781403819E1    -1.037016113744286E2     8.422402304431772
                        -7.261845819518405E1    -1.020931607600664E2    -1.030466017795364E2     9.465069968377760E1    -1.187453630067846E2    -8.535197008566281E1    -1.492471706132290       3.655815460806786E1

 5.453203203203204E7    -2.353732442376969E-1   -5.724574794216075E1    -2.940946708497702E1     1.178847680257193E2    -7.682735274424856E1    -9.637305342994748E1    -7.289394060508468E1    -1.027756515825342E2
                        -2.936093713589361E1     1.178995933930605E2    -2.727611925169747E-1    1.128792520491850E2    -9.903386779596742E1     5.653968652223407E1    -1.146630146571116E2    -2.843669154145310E1
                        -7.629019657623043E1    -9.613464686668321E1    -1.025754376868055E2     9.801400769751618E1    -1.467377939197145       4.445374266300184E1    -1.059158384805939E2     2.144272773138117E1
                        -7.256020476743397E1    -1.028077887701193E2    -1.049502513540130E2     1.315543066112918E2    -1.056453874368599E2    -1.782445282235992E2    -1.492518583295166       3.653227945980227E1

 5.453403403403404E7    -2.352229375719729E-1   -5.735539972919788E1    -2.940568343648672E1     1.178544998104926E2    -7.634170045775881E1    -9.539185950689604E1    -7.270570952324165E1    -1.029895192470028E2
                        -2.936248897636722E1     1.178323513904387E2    -2.725567552733406E-1    1.128391393257505E2    -1.033801782490966E2     1.123902590098955E2    -1.019234952638144E2     9.808127453629481E1
                        -7.641534024568780E1    -9.751788884325281E1    -1.007690309993941E2     8.361962454394977E1    -1.466604651560759       4.442460212934246E1    -1.151606229546256E2     6.000687708885564E1
                        -7.251458424457320E1    -1.015774653799091E2    -1.098095046398344E2     6.858779728999920E1    -1.138744661756462E2    -1.447988462846585E2    -1.491948304955678       3.650940730807231E1

 5.453603603603604E7    -2.350829054879325E-1   -5.746185141879541E1    -2.939551149032943E1     1.177415971416901E2    -7.663534743828849E1    -9.588660617102937E1    -7.279797004436836E1    -1.018065408901413E2
                        -2.935936026821722E1     1.176812971102098E2    -2.727410729645102E-1    1.128004369943827E2    -9.679838691185887E1     1.160442657868021E2    -9.783855102583145E1     9.095566890820119E1
                        -7.694981850695258E1    -9.764113585475775E1    -1.016844352569689E2     1.000843784583543E2    -1.466842955302360       4.440539964685515E1    -1.084471863038695E2     1.675495958219044E2
                        -7.285871616758362E1    -1.024190674169346E2    -9.931960350599988E1     1.331183180746288E2    -1.015815608400928E2    -1.763220348003508E2    -1.491678944751667       3.648327511304801E1

 5.453803803803804E7    -2.353108668400989E-1   -5.756529678197857E1    -2.940327716935229E1     1.177187941211152E2    -7.651014466862173E1    -9.229181196808908E1    -7.240630942155447E1    -1.027936433901695E2
                        -2.935729405721305E1     1.176588161245820E2    -2.721488916526809E-1    1.127661348846837E2    -1.129719364779778E2     1.369709190474298E2    -1.006823990178176E2     1.528729341797467E2
                        -7.682195801997342E1    -9.464928077421222E1    -1.220510992756033E2     6.361299992368795E1    -1.466614171021443       4.437848717212455E1    -1.024866405207497E2     2.315146973426150E1
                        -7.291189379108127E1    -1.028627197411912E2    -1.082893769431318E2     1.066402912585859E2    -1.021042705387791E2    -1.297747334664182E1    -1.491421907909595       3.646050361846863E1

 5.454004004004004E7    -2.348861147626017E-1   -5.767158895763487E1    -2.938552623363166E1     1.175809237596802E2    -7.646913237930635E1    -9.698958075349377E1    -7.285782827039986E1    -1.047909776850225E2
                        -2.933665006863622E1     1.175237963113544E2    -2.722638495894156E-1    1.127287224688687E2    -1.100263764087415E2     1.183107855634819E2    -1.049792062438317E2     9.508287122316985E1
                        -7.669989965690709E1    -1.000663160663747E2    -1.056873555808497E2     1.155709788115973E2    -1.466422569667580       4.435819807526781E1    -1.091274805864054E2    -1.143412564737104E2
                        -7.272687527138474E1    -1.019242951350090E2    -1.034522635113985E2     1.339273367836053E2    -1.016015413873319E2    -1.122784483390351E2    -1.491519101166836       3.643649869873060E1

 5.454204204204204E7    -2.349696917204822E-1   -5.778242475124920E1    -2.940200632494032E1     1.175337972270259E2    -7.634269657549035E1    -9.553386927882282E1    -7.266714985795942E1    -1.038804632330563E2
                        -2.935337531916264E1     1.174643685891745E2    -2.719271182195764E-1    1.126884249902988E2    -1.025966327453564E2     4.292835565200153E1    -9.781492838307815E1     5.473746213362661E1
                        -7.628521834954347E1    -9.484109415832852E1    -1.111383303793213E2     1.610416413802147E2    -1.466407446405407       4.433505911857881E1    -1.068972396657331E2     1.481746675722276E2
                        -7.264022391938428E1    -1.037135334004839E2    -1.019952959051959E2     1.182211352556239E2    -1.077533025154512E2     1.725361490166717E1    -1.490456008984311       3.641407481540309E1

 5.454404404404405E7    -2.344265413864298E-1   -5.788818806248011E1    -2.939453236542070E1     1.174478971070408E2    -7.635961679221543E1    -9.594048455157972E1    -7.273654527933955E1    -1.037339528346592E2
