#  HZ   S   DB   R     50.00 
! Rohde & Schwarz Vector Network Analyzer 
! Rohde-Schwarz,ZNB8-4Port,1311601044102961,2.82
! Created: UTC 1/15/2019, 2:38:53 PM
! freq[Hz]                db:S11                  ang:S11                 db:S12                  ang:S12                 db:S13                  ang:S13                 db:S14                  ang:S14
!                         db:S21                  ang:S21                 db:S22                  ang:S22                 db:S23                  ang:S23                 db:S24                  ang:S24
!                         db:S31                  ang:S31                 db:S32                  ang:S32                 db:S33                  ang:S33                 db:S34                  ang:S34
!                         db:S41                  ang:S41                 db:S42                  ang:S42                 db:S43                  ang:S43                 db:S44                  ang:S44
! 
 5.450000000000000E7    -2.327584101038796E-1   -5.464965823809014E1    -2.963360471573794E1     1.195546477610439E2    -7.215870694866877E1    -9.475967626656217E1    -7.664833723660371E1    -1.003020620946403E2
                        -2.959592540956045E1     1.195325531357192E2    -2.685851247270419E-1    1.134996049557594E2    -1.016785599490677E2     1.567679810674726E2    -9.901369911327518E1     8.874864450291676E1
                        -7.219206839652631E1    -9.710952135099367E1    -1.047120185724003E2     5.356899339383725E1    -1.474823851939551       4.482372285485985E1    -1.038130227906270E2    -1.381660311213266
                        -7.692014870151164E1    -9.930202277474726E1    -1.106230894976279E2     1.390952604508406E2    -1.098404163152752E2     1.505884681773170E2    -1.502974719576227       3.692089421686686E1

 5.450200200200200E7    -2.317510513657465E-1   -5.475297020578598E1    -2.962759181229840E1     1.195197714540565E2    -7.226949340058033E1    -9.530697436065861E1    -7.707124267980771E1    -9.846303144572249E1
                        -2.958186779453402E1     1.194210320944115E2    -2.684629119455383E-1    1.134643825176599E2    -1.067637717490174E2     1.367854090202202E2    -1.034542316112930E2     1.043089088937952E2
                        -7.226593822474243E1    -9.581549952235001E1    -1.160203397077420E2     1.755146276356449E2    -1.474207288216889       4.479754344249622E1    -1.088417757279414E2     1.518647972716441E2
                        -7.689325741249164E1    -1.011479551884808E2    -1.120100576531794E2     3.526773236170159E1    -1.107010719921648E2     1.479663351072054E2    -1.502039807815722       3.689046298055416E1

 5.450400400400400E7    -2.310609733421119E-1   -5.485498085103745E1    -2.962739249711389E1     1.194194554920066E2    -7.260321173429455E1    -9.467271634686296E1    -7.678260146979673E1    -9.783080696266650E1
                        -2.957722409521792E1     1.193705630459410E2    -2.683712039295202E-1    1.134245611519939E2    -1.055110711754850E2     1.706349025905629E2    -1.081937418486007E2    -1.584176837777367E1
                        -7.214985392786682E1    -9.593065303556101E1    -1.013495566674903E2     9.150776142556398E1    -1.473055314879685       4.477723514594634E1    -9.875745743326634E1    -1.601227278747219E2
                        -7.696594673799280E1    -1.010345567499367E2    -1.086580605397700E2     1.333607191671413E2    -1.145256898494281E2     3.269332046008759      -1.500871020223004       3.686927670376623E1

 5.450600600600600E7    -2.303041872268058E-1   -5.496388876276897E1    -2.962821684572327E1     1.193528164908610E2    -7.219688932207961E1    -9.585229765884053E1    -7.694596783734292E1    -9.834777008963481E1
                        -2.957741564199906E1     1.193026551437145E2    -2.683166464511130E-1    1.133855698704006E2    -1.056169398192120E2     9.067500670724054E1    -1.068644071539180E2     1.277964197848493E2
                        -7.247449175113813E1    -9.456350944780149E1    -1.074509024647846E2     9.255499373893804E1    -1.471968587953702       4.475319462822433E1    -1.158360564871735E2     1.228744000043503E1
                        -7.694893885241557E1    -9.653349119380114E1    -1.045759234274351E2     1.714046932274982E2    -1.012915619037682E2    -1.123656727623408E2    -1.499727487933958       3.684189610451318E1

 5.450800800800801E7    -2.299171108848769E-1   -5.506317122427365E1    -2.961851470622058E1     1.192662841993067E2    -7.223049786046568E1    -9.384434012081437E1    -7.737188081301446E1    -9.857566071074824E1
                        -2.956680267499010E1     1.192622888812829E2    -2.688305712467719E-1    1.133511519987472E2    -1.055644127650027E2     1.036408757491119E2    -1.031424404391559E2     3.421317241878295E1
                        -7.224294345302187E1    -9.579690491167622E1    -1.034499599931522E2    -1.778290807466944E2    -1.471187674595135       4.472777183939532E1    -1.085135518693042E2    -1.683819347116686E2
                        -7.708368562188491E1    -1.003427757200732E2    -1.035194278656936E2     1.603203094524643E2    -1.119739000637601E2    -1.292516280532339E2    -1.498787009975115       3.682101804672755E1

 5.451001001001001E7    -2.292924347110416E-1   -5.517152217847773E1    -2.961438557419098E1     1.191848851196019E2    -7.248063586431874E1    -9.533963634391185E1    -7.739574929532918E1    -1.016172251434175E2
                        -2.957176207291352E1     1.191872166184539E2    -2.680223700518472E-1    1.133106753279195E2    -1.044212059844047E2    -8.864089285660901E1    -1.039316853312911E2    -1.653344585802311E2
                        -7.209700890413524E1    -9.535536990461986E1    -1.076196902686958E2     1.163866574202351E2    -1.470853225730914       4.470567261316618E1    -1.103493089962915E2     1.459676704126048E2
                        -7.668692395021476E1    -1.005229760465095E2    -1.214022004677623E2    -5.152345883490956E1    -1.104995572985569E2    -2.619175515153687E1    -1.497413244230478       3.679733201321677E1

 5.451201201201201E7    -2.285379238482292E-1   -5.527553296521862E1    -2.962117336435991E1     1.191030094160936E2    -7.234421762689686E1    -9.534948181075230E1    -7.656989715287145E1    -9.875053915657051E1
                        -2.957875480219999E1     1.191031806570992E2    -2.685240279655878E-1    1.132721607958873E2    -1.032734850659532E2     1.578881673473088E2    -1.031828901569510E2     1.086087944981724E2
                        -7.204850128419812E1    -9.609219756404360E1    -1.075980068181873E2     8.771844061285042E1    -1.470023927505285       4.468177061171360E1    -1.030217781465533E2    -9.224650281695395E1
                        -7.743383219926625E1    -9.997420232591659E1    -1.000864386868028E2     1.511661248442447E2    -1.036641408827993E2    -6.655617682625051E1    -1.497214624839623       3.677369921618427E1

 5.451401401401401E7    -2.280361829156876E-1   -5.537874878140253E1    -2.962249846862149E1     1.190465010491082E2    -7.227418832095015E1    -9.522836629481584E1    -7.690125788234735E1    -1.009272057790888E2
                        -2.957627064107047E1     1.190663394074216E2    -2.684158187693193E-1    1.132367219371708E2    -1.108395484322982E2     1.376767929791915E2    -1.066809553008828E2    -2.096203421162685E1
                        -7.229430182693760E1    -9.501612071773810E1    -1.130983461944956E2    -1.214777635282396E2    -1.469691465701475       4.466141108373211E1    -1.073146753257471E2    -7.339375531180352E1
                        -7.715049781545315E1    -1.007005118069903E2    -1.035741053471070E2     1.309401310604260E2    -1.093243901724385E2     1.096290380970174E2    -1.496509146607804       3.675144056731510E1

 5.451601601601601E7    -2.283166601525714E-1   -5.548728421967436E1    -2.960688357356011E1     1.189549990967951E2    -7.217596110717706E1    -9.661242003765661E1    -7.737166146755722E1    -9.868017821942654E1
                        -2.956398111369124E1     1.189059354279361E2    -2.685856680985394E-1    1.131961091087990E2    -1.070181372391464E2     1.180004847105765E2    -1.109370151363562E2     4.740606461172828E1
                        -7.250053041026132E1    -9.590705036657937E1    -1.018838722744843E2     1.350806916400724E2    -1.468856101765451       4.463991770599827E1    -1.178990161818949E2    -1.071510515744301E2
                        -7.680554051912120E1    -1.013316673603925E2    -9.965520243444851E1     7.662128713620442E1    -1.061986673244413E2     1.491202278316416E2    -1.495848217063959       3.672796769118904E1

 5.451801801801802E7    -2.270050650121404E-1   -5.558926717430236E1    -2.961809298995279E1     1.190043287819179E2    -7.228402597745485E1    -9.617212583712821E1    -7.686388169316612E1    -9.922655969252079E1
                        -2.956929187312851E1     1.189002965351887E2    -2.681995014006924E-1    1.131580386413510E2    -1.026444842521636E2     1.277214008679242E2    -1.025445679092046E2     3.399862722078246E1
                        -7.221955985632776E1    -9.501478753370633E1    -1.065222686733743E2     1.284070577192758E2    -1.469202078574604       4.461695174126840E1    -1.109580356026814E2     1.011665893112616E2
                        -7.700092931759156E1    -1.015398474914072E2    -1.019246624945106E2     1.078245574091432E2    -1.000567238874784E2    -1.098253627015847E2    -1.495331376319884       3.670268972321566E1

 5.452002002002002E7    -2.271908687942355E-1   -5.569758562159078E1    -2.961137650262540E1     1.188466439670238E2    -7.234897208568705E1    -9.522021292160738E1    -7.662792601720717E1    -1.033653408251996E2
                        -2.955697828823777E1     1.188105729096370E2    -2.686536935609041E-1    1.131228743477611E2    -1.005137089794642E2     1.076072701315079E2    -1.012255399006517E2    -1.682510493244592E2
                        -7.226938824067032E1    -9.656410572269178E1    -9.873137562917398E1     4.330918525058142E1    -1.468115824376032       4.459323489038724E1    -1.059599414767940E2     1.341521512183760E2
                        -7.749318397465301E1    -1.007009781955576E2    -1.049358250021165E2     5.590826389962859E1    -1.070986509726159E2    -1.257686880083975E1    -1.495138404693273       3.668052264633380E1

 5.452202202202202E7    -2.268856320000526E-1   -5.580105814330534E1    -2.959896671771025E1     1.187870785720847E2    -7.237266566443653E1    -9.482622622149350E1    -7.660295737229365E1    -1.008175424530795E2
                        -2.956091244639315E1     1.187670588939503E2    -2.678751647804125E-1    1.130844756940271E2    -1.024441831948565E2     1.199381332256443E2    -1.185715740034479E2    -1.050335904311594E2
                        -7.209876992039882E1    -9.548017576249465E1    -1.077639476089510E2     3.500223789587276E1    -1.468325525547084       4.456908503022012E1    -1.050654664382631E2     3.947886416991297E1
                        -7.722004635060810E1    -1.002442202763191E2    -9.990869470639369E1     1.348150274370377E2    -1.089975107097229E2     4.019044510368668      -1.494474750381722       3.665509105767870E1

 5.452402402402403E7    -2.264496693615169E-1   -5.590494959805470E1    -2.960193846467857E1     1.186815350645049E2    -7.213977690492897E1    -9.574880391976900E1    -7.676429437667845E1    -9.957181390489694E1
                        -2.956420285352261E1     1.187048928210268E2    -2.680162770060543E-1    1.130482732256182E2    -1.078000400325163E2     8.739845149780511E1    -1.020905019317044E2     1.385500269715782E2
                        -7.233586966685526E1    -9.637012005877037E1    -1.008081057004125E2     1.064230648893171E2    -1.466977571673930       4.454415964094004E1    -1.110069719900223E2    -6.125130247695139E1
                        -7.686319869216496E1    -9.996322279002742E1    -1.017473921471313E2     9.539413960663080E1    -1.124993914997145E2     4.139554955242149E1    -1.493383264700610       3.662855769781402E1

 5.452602602602603E7    -2.261352857487159E-1   -5.601337933194228E1    -2.961423804488745E1     1.186160191050555E2    -7.234546088284684E1    -9.479925212383479E1    -7.714546938748720E1    -1.026307209156249E2
                        -2.955350804487165E1     1.186211458722237E2    -2.677268397936511E-1    1.130106927894164E2    -1.039903848208960E2     2.859463944942747E1    -1.068493680542948E2     1.720579250195595E2
                        -7.230848911500348E1    -9.418753839385377E1    -1.099889330357681E2     7.177035309726097E1    -1.467125524957208       4.451941891288093E1    -1.053941816882111E2    -6.217714591763371E1
                        -7.714636791522271E1    -1.020945450276811E2    -9.865074964645609E1     8.961476274568979E1    -1.029575560276686E2     1.110490534140286E2    -1.493210116550850       3.660664324324461E1

 5.452802802802803E7    -2.262078116861486E-1   -5.611568775841191E1    -2.959755082141446E1     1.185954173809630E2    -7.236282506644726E1    -9.648252266825840E1    -7.669813591127779E1    -1.020934308905646E2
                        -2.955687506854341E1     1.184718466087197E2    -2.682362578353851E-1    1.129723699805466E2    -1.082478884354452E2     4.184271691488137E1    -1.129813948242081E2    -1.233881084770559E2
                        -7.202212592176491E1    -9.596960505417178E1    -1.072348740203649E2    -1.659626007945683E2    -1.466758098742563       4.449924538344616E1    -1.062008273532208E2     1.591305397865746E2
                        -7.692267226548862E1    -1.021566817497799E2    -1.094319691480651E2     1.565535001481317E2    -1.053036561998720E2     2.940052454677481E-1   -1.492634886909146       3.658134796136857E1

 5.453003003003003E7    -2.260966474344618E-1   -5.622033776610299E1    -2.960155487258896E1     1.185493691708507E2    -7.210928250432929E1    -9.435336453609347E1    -7.688172831380398E1    -1.008208607031314E2
                        -2.955239094684511E1     1.184635458322267E2    -2.681186074110025E-1    1.129303940764099E2    -9.989926528775116E1     1.186259223213415E2    -9.938149455737742E1     1.151758751413044E2
                        -7.220507529498892E1    -9.676487420078958E1    -1.223790657129042E2     7.419927718184292E1    -1.466223139718631       4.447831726271708E1    -1.046370612691585E2     5.771516813607889E1
                        -7.702857849516118E1    -9.990475227019040E1    -9.975561337918228E1     1.353440388554626E2    -1.066389216114539E2    -1.359309188159306E2    -1.493195339201974       3.656025527876184E1

 5.453203203203204E7    -2.256638625350257E-1   -5.632898860271957E1    -2.959528717775164E1     1.184342752129254E2    -7.210626546058970E1    -9.650926551887847E1    -7.702868683252595E1    -1.012849278606905E2
                        -2.955387071855080E1     1.183670370938710E2    -2.680505364425174E-1    1.128961827495821E2    -1.031498196274728E2     1.156503492016327E2    -1.114980324974583E2     1.495862445880595E2
                        -7.207570880414936E1    -9.359090704774248E1    -1.075404170094141E2    -2.335022460966287E-3   -1.466238477010540       4.445094481643095E1    -1.068118600477460E2     4.727679257616069E1
                        -7.718039195487565E1    -1.006353786722428E2    -1.081641549670289E2    -1.767455959347639E2    -1.028160265069051E2     1.548005662813501E2    -1.492178154781280       3.653326795323362E1

 5.453403403403404E7    -2.257980548019336E-1   -5.643430884502855E1    -2.959460775202581E1     1.183655199940168E2    -7.231637811843382E1    -9.653553542152240E1    -7.675446159762441E1    -1.003723002087055E2
                        -2.954827360931624E1     1.183291177715118E2    -2.679356585248271E-1    1.128583619804943E2    -1.109801802940269E2     2.266756447954244E1    -1.076329669645996E2     2.788216508634675E1
                        -7.217800454061360E1    -9.536868968093251E1    -1.087203220831747E2     2.687895327869202E1    -1.466436804323064       4.443141024534361E1    -1.081122142713594E2     8.260355013306710E1
                        -7.715800077692585E1    -1.044774693189616E2    -1.013733604919903E2     1.430933842307329E2    -1.051865349828994E2     6.846230233703761E1    -1.492062688725541       3.651139570457925E1

 5.453603603603604E7    -2.251930318714104E-1   -5.653723420596133E1    -2.959368042667744E1     1.183101050315722E2    -7.236935754888177E1    -9.641086483061814E1    -7.644484853625946E1    -9.960842852850068E1
                        -2.953577476173479E1     1.182424291419477E2    -2.679477941743034E-1    1.128210936990538E2    -1.101860870230601E2    -1.068564239943398      -1.122117533894191E2     5.697620774884237E1
                        -7.205565302901930E1    -9.630218213930661E1    -1.007088152640973E2     7.984670843829471E1    -1.465866640701415       4.440820109181336E1    -1.000894239297180E2    -2.254989073096744E1
                        -7.710037677988262E1    -1.011684108600005E2    -1.134927843326892E2    -1.616231396674731E2    -1.068095215735308E2    -4.196203464866586E1    -1.492112481126834       3.649177333933957E1

 5.453803803803804E7    -2.252083610396464E-1   -5.664505461900680E1    -2.959151674823998E1     1.181701842462745E2    -7.229464932635203E1    -9.471781157630423E1    -7.737862849951816E1    -1.019520947478042E2
                        -2.954765616375420E1     1.181442092884419E2    -2.680029701726752E-1    1.127848519626607E2    -1.013506439358566E2     1.047309083276120E2    -1.106350264477536E2     6.888956969173987E1
                        -7.216146410429046E1    -9.691729376985285E1    -1.060480608003338E2     1.068295216899336E2    -1.465106303449728       4.438062496446135E1    -1.032731788176776E2     1.755265858606554E2
                        -7.692624337843660E1    -1.009201600686477E2    -1.126015887743404E2     6.441106434890136E1    -1.072595486017690E2    -1.475588048561276E2    -1.491726186914750       3.646634615284054E1

 5.454004004004004E7    -2.247911560473577E-1   -5.674930208930118E1    -2.958548897737369E1     1.181083268398043E2    -7.245993224105875E1    -9.622093658805481E1    -7.687428794308674E1    -1.021011978219776E2
                        -2.953112262321946E1     1.180623353488058E2    -2.677499995394630E-1    1.127419599374669E2    -1.001478865176446E2     5.111007550835216E1    -1.014325972324524E2     8.644701398910364E1
                        -7.225193679016371E1    -9.668615632675807E1    -9.689567015752832E1     5.963501284997400E1    -1.464920352972492       4.436020883173443E1    -1.103379527612795E2    -1.386157945744142E1
                        -7.684377976644701E1    -1.020930554397623E2    -1.008455614910849E2     5.402676846257958E1    -1.116619428445829E2    -1.056661808713913E2    -1.491659065474876       3.643929142105493E1

 5.454204204204204E7    -2.250516662011356E-1   -5.685724602424012E1    -2.958312190643224E1     1.180644772104616E2    -7.215119250069462E1    -9.501813823178848E1    -7.684434505555639E1    -1.014766124057259E2
                        -2.952607465326858E1     1.180168598185479E2    -2.678432144240037E-1    1.127087834238310E2    -9.741259605038358E1     1.025220928630421E2    -1.072230720703600E2     1.200741096658131E1
                        -7.225790903356028E1    -9.624512972599401E1    -1.002081764944531E2     1.390324653113773E2    -1.464818957641877       4.433767977035294E1    -1.034462091523657E2     1.217046764842188E2
                        -7.657745509276701E1    -1.012983285485358E2    -1.034563205389807E2     1.442222865399623E2    -1.079202867029925E2    -1.797578012843570E2    -1.491339499900634       3.641849623051536E1

 5.454404404404405E7    -2.243713172516607E-1   -5.696074933142504E1    -2.958868414402989E1     1.180021204250444E2    -7.208200231794831E1    -9.529047762982076E1    -7.712514556418196E1    -1.004796205067598E2
