#  HZ   S   DB   R     50.00 
! Rohde & Schwarz Vector Network Analyzer 
! Rohde-Schwarz,ZNB8-4Port,1311601044102961,2.82
! Created: UTC 2/5/2019, 1:42:23 PM
! freq[Hz]                db:S11                  ang:S11                 db:S12                  ang:S12                 db:S13                  ang:S13                 db:S14                  ang:S14
!                         db:S21                  ang:S21                 db:S22                  ang:S22                 db:S23                  ang:S23                 db:S24                  ang:S24
!                         db:S31                  ang:S31                 db:S32                  ang:S32                 db:S33                  ang:S33                 db:S34                  ang:S34
!                         db:S41                  ang:S41                 db:S42                  ang:S42                 db:S43                  ang:S43                 db:S44                  ang:S44
! 
 5.525000000000000E7    -1.773381836643900E-1   -9.887632417498347E1    -9.710866086245079E1    -3.065907916423764      -6.793820305757996E1    -1.145157357836883E2    -8.773465886910225E1    -8.126008486869381E1
                        -9.974486038175469E1    -1.007653294928447E2    -1.965837912121253E1    -4.975351994902113      -1.091735572540181E2    -1.518289249766252E2    -9.984961592076959E1    -7.922708976337897E1
                        -6.805647121040101E1    -1.155595779705134E2    -9.882962773261306E1     1.494898942621256E2    -1.333026057971740       5.214050278969506E1    -1.053193119132461E2    -7.935176988688603E1
                        -8.416222148295923E1    -1.200799094841060E2    -1.082117528774299E2     1.012207304370229E2    -9.814849010013103E1     1.316174884410044E2    -1.327161107831744       4.587913292177512E1

 5.525025000000000E7    -1.775582335662074E-1   -9.889482739544297E1    -9.540456032283305E1    -4.238157528736492      -6.770647508840212E1    -1.144091246029191E2    -8.735278858937878E1    -1.038304057986865E2
                        -1.082099077958659E2    -8.538572601943933E1    -1.966128609460095E1    -4.982275684614373      -1.008484409661399E2    -8.898406107338774      -1.017867429504058E2    -2.832051603372027
                        -6.768705995578827E1    -1.148801761562779E2    -1.091667874231303E2     1.746452391571080E1    -1.333848247062847       5.213804761221749E1    -9.606488298079420E1    -6.563564883162518E1
                        -8.601466348142463E1    -1.202781198409667E2    -9.620164424901829E1     1.469409629165447E2    -1.034896325462564E2     7.302387993425859E1    -1.327078164250324       4.587524157394954E1

 5.525050000000000E7    -1.769985534491057E-1   -9.891693660300950E1    -9.603589871503409E1     1.692098104640133E2    -6.797452268074547E1    -1.134704493442012E2    -8.383254476493305E1    -1.002273163058902E2
                        -1.109165233266160E2     3.286508925351523E1    -1.966340026514544E1    -4.983150810368926      -1.037265040194646E2    -5.075866991921723E1    -1.011260772852844E2     1.290312699686434E2
                        -6.777277367683091E1    -1.146828903375215E2    -1.037032251536126E2    -1.133566302456786E2    -1.332984027485617       5.212895814413877E1    -1.017053914381744E2    -1.631347169240769E2
                        -8.462634578202126E1    -1.065574328801452E2    -1.128795317403916E2    -1.447855079333091E2    -1.000080828058557E2     8.225337898626587E1    -1.326584794139686       4.586423407789654E1

 5.525075000000000E7    -1.771945638212339E-1   -9.893567029689250E1    -1.102828789453957E2     1.367598871822927E2    -6.813417883412691E1    -1.132539239954418E2    -8.600330522658261E1    -1.043885635703475E2
                        -1.008220348923083E2    -1.638355190962853E2    -1.966090275641488E1    -4.961311630883918      -1.090175964650470E2     7.825218103691086E1    -1.078184804300080E2     3.568842682164229E1
                        -6.790562836646953E1    -1.149531373458591E2    -1.027583330050470E2     1.741588311430441E2    -1.332560466632013       5.212723205441350E1    -9.450708452215089E1     1.624738770045236E2
                        -8.509249211966346E1    -1.003817842491559E2    -1.022653125363589E2     1.494782983461669E2    -1.164533268018881E2    -6.502168343590486E1    -1.327156252273359       4.587252060872955E1

 5.525100000000000E7    -1.772833898804928E-1   -9.895749956405676E1    -9.445166588849210E1     1.870225382718490E1    -6.795881920952067E1    -1.141298763687308E2    -8.295304342770324E1    -1.081906059511503E2
                        -1.041636532926583E2     1.477748813559712E2    -1.966004903509647E1    -4.949463253022525      -9.580613764042531E1     1.118208365229483E1    -1.079259189700453E2     6.391633447036654E1
                        -6.799853080937480E1    -1.153343605509129E2    -9.624857821120740E1    -1.502180088997164E2    -1.332924558796150       5.213173049354869E1    -1.014649505878087E2    -1.128644669322498E2
                        -8.470366346591632E1    -1.061205205376669E2    -9.943357604422772E1     9.794714548682387      -1.004978418368316E2     1.000645863889072E2    -1.327479276537517       4.586508055995930E1

 5.525125000000000E7    -1.771605903371368E-1   -9.897328504680323E1    -9.655637849073770E1    -5.226802407886863E1    -6.755624529541863E1    -1.115929435424957E2    -8.385427807181162E1    -9.277428084326770E1
                        -9.913303487150097E1     1.575882294080678E2    -1.965939797647130E1    -5.026137883852733      -1.026230034683445E2     4.872898239376784E1    -9.899349890209543E1    -1.005890547073742E2
                        -6.778630075253538E1    -1.156397840694658E2    -9.281650807021808E1    -1.619117261516810E1    -1.332612877044175       5.212953774821764E1    -9.825945399977776E1    -9.431989714924778E1
                        -8.461410344993908E1    -1.061994655559224E2    -1.010313329206306E2    -8.871055111634448      -9.438478358253181E1     3.252582003373860E1    -1.326536897656658       4.585980224210668E1

 5.525150000000000E7    -1.774173048654828E-1   -9.899623277417315E1    -1.021676749105179E2    -9.496203414968885      -6.807116775288455E1    -1.169419569662279E2    -8.460528393929620E1    -1.066275141124401E2
                        -1.027908762097945E2     9.610574015739611E1    -1.966188957365277E1    -4.981457017444056      -1.029915836616562E2     6.376834254794426E1    -1.019683650897605E2    -4.113879515713531E1
                        -6.814683413774526E1    -1.141748451653954E2    -1.078239725459348E2    -6.907964189009580E1    -1.331861946023875       5.211610592128623E1    -9.748062121867791E1     2.965933715460527E1
                        -8.339694803891953E1    -1.121903776673587E2    -9.497868336298915E1    -7.034816830373269E1    -9.842378747943766E1    -7.673953133095422E1    -1.326819574863151       4.586481368750275E1

 5.525175000000000E7    -1.776005462798154E-1   -9.901489472190345E1    -9.262264377436432E1    -3.663566409538679E1    -6.788339104889739E1    -1.167954186855679E2    -8.428213251107115E1    -1.080205243632473E2
                        -1.134398455829844E2    -9.423085040862480E1    -1.966133641292878E1    -5.020601120609112      -9.779503726058675E1    -1.609832166835314E1    -1.129871484807023E2    -1.133943481288479E2
                        -6.777335397279647E1    -1.148762820489593E2    -9.619469964251280E1     1.357788258239075E2    -1.332778087893847       5.211746301729359E1    -1.140805519717387E2    -2.505458170664363E1
                        -8.397798844555672E1    -1.183881458326819E2    -9.514285431933280E1     5.118088083687366E1    -9.279089108431697E1     1.809512762320074E1    -1.326082866712387       4.585045774987992E1

 5.525200000000000E7    -1.786159148268132E-1   -9.904275435876009E1    -9.742033174978430E1    -3.761070004115206E1    -6.773788815534158E1    -1.148053051170036E2    -8.382125158363637E1    -1.151680674213077E2
                        -1.015084902452237E2     1.253327038046955E2    -1.966726562889690E1    -4.978024621008613      -1.079981643257035E2     2.554953471277565E1    -9.678872801818690E1     6.083430140036678E1
                        -6.799589227202320E1    -1.145533359196327E2    -9.433191593946729E1    -1.796203106153387E2    -1.331909396706843       5.211215654343203E1    -9.776759010694417E1    -1.612874268005657E2
                        -8.597449531431184E1    -1.183892032825027E2    -1.090084075523552E2     4.770306420120677E1    -9.559413284770913E1     1.086668704699784E2    -1.327622283388772       4.585426202416893E1

 5.525225000000000E7    -1.765023613731837E-1   -9.905961579947153E1    -9.424236227639969E1    -1.385521092981369E2    -6.792233229447787E1    -1.149927523201175E2    -8.865294588610071E1    -1.063817179112084E2
                        -9.997245731761669E1     1.490377576756380E2    -1.966645109085639E1    -5.047973917301593      -1.000255324125065E2    -1.190484484814059E2    -1.078881808811359E2    -4.991908752906682E1
                        -6.797620281216445E1    -1.134573318392532E2    -1.044995711535001E2     5.406996814303011E1    -1.332412764142080       5.210355545568900E1    -1.025697317095507E2    -1.503507667531258E2
                        -8.410964854485141E1    -1.124618486534209E2    -1.110509960260382E2     4.566046715956392E1    -9.297155777867950E1    -1.542876555550782E2    -1.325948740647751       4.585789768329320E1

 5.525250000000000E7    -1.768736254628535E-1   -9.908257830111896E1    -1.004806596396262E2    -1.610274666317857E2    -6.819523133046748E1    -1.143516600559138E2    -8.568589391991112E1    -1.004760880741517E2
                        -1.049261222261652E2    -1.647754072430776E2    -1.966142478166891E1    -5.028933918122140      -9.831343588448536E1    -1.434221883646520E1    -9.745364405587196E1    -4.650043799894306E1
                        -6.765433648383714E1    -1.148901380509673E2    -1.041484726263789E2     1.464678088996610E2    -1.330981825254179       5.211253908360748E1    -9.322225752763012E1    -1.153192328205462E2
                        -8.516699093561677E1    -1.073814490059560E2    -9.980982559356684E1    -3.213889269717768E1    -9.553109004335589E1     3.392973115745437E1    -1.326007246166449       4.584449608191243E1

 5.525275000000000E7    -1.775780370250019E-1   -9.910581630231395E1    -1.029172101189276E2    -9.856129161461949E1    -6.814072023587598E1    -1.170312081374526E2    -8.508757463644039E1    -1.097635641229602E2
                        -1.010525310783499E2    -6.246350371454878E1    -1.966735406529111E1    -4.988821421770737      -1.028260736701586E2     1.531916761222257E2    -9.801371924594073E1    -1.450021456036499E2
                        -6.788451165186550E1    -1.169200533251142E2    -9.908383613873647E1     1.189862744441075E2    -1.331550089917554       5.210219603531625E1    -1.006083490850149E2     1.231644929701559E2
                        -8.677375232711442E1    -1.073337230531882E2    -9.945731741033879E1    -7.396327955455246E1    -9.683786161495647E1    -1.416103528672677E1    -1.327019312837653       4.584219146411867E1

 5.525300000000000E7    -1.774761706006159E-1   -9.912324101287430E1    -1.174044085120016E2    -6.482761939387279E1    -6.778324947109455E1    -1.136086484019517E2    -8.785053557572061E1    -1.206226871455153E2
                        -1.041838168645632E2    -1.675586385230539E2    -1.965368991332423E1    -5.012472494439741      -1.031824875733439E2     9.735936570836893E1    -1.039853216365675E2    -8.045682008054591E1
                        -6.787767804159782E1    -1.135217113898343E2    -1.033660697358503E2    -3.762629787497326E1    -1.332131660275159       5.210278131380126E1    -9.489498003035502E1     3.475967839337633E1
                        -8.530962802242158E1    -1.222819837179241E2    -9.520034527511703E1    -1.372462509134611E1    -1.093478663939216E2     1.091304505597946E2    -1.325367233308656       4.583914319777917E1

 5.525325000000000E7    -1.772215060302754E-1   -9.914312533206048E1    -1.065120952971125E2     5.127691940924670E1    -6.809539752131326E1    -1.130378809821503E2    -8.673330192945656E1    -1.095890604650323E2
                        -1.138966588675581E2    -5.651018337293915E1    -1.965949648008886E1    -5.008950360011325      -1.052364253991917E2    -8.732954443340002E1    -1.043201068502893E2     1.401636246785423E2
                        -6.755144975712642E1    -1.145168403510198E2    -1.021390606540416E2    -1.438772955547391E2    -1.332011673504709       5.209746432144736E1    -9.804912535455432E1    -1.676379765000303E2
                        -8.417102899997525E1    -1.321368464397152E2    -9.720658373011055E1    -1.037362317978842E2    -1.032095616049086E2     1.477841463145654E2    -1.325246446960010       4.583886682007628E1

 5.525350000000000E7    -1.772864906194734E-1   -9.916900353835398E1    -9.513649793774390E1    -1.184508387623459E2    -6.836773536319907E1    -1.145012617598405E2    -8.608939087960570E1    -9.666617033224783E1
                        -1.050498145097927E2     3.534280760932357E1    -1.966005540506249E1    -4.987670617430173      -1.064854333241779E2     1.759074217451003E1    -1.040009850350775E2    -1.798593054873554E2
                        -6.802364579587399E1    -1.148876960211355E2    -1.054392204577104E2    -3.039424999186185E1    -1.332378048938465       5.209136672384886E1    -9.667235484951733E1    -1.532751410034635E2
                        -8.697596163254974E1    -1.272222716297610E2    -1.048523674346725E2     3.811023814840542E1    -9.689815277483511E1    -1.735977868043701E2    -1.326290510492840       4.582972068587841E1

 5.525375000000000E7    -1.778915833424744E-1   -9.919547839014321E1    -1.008269438830369E2    -1.075483909926331E2    -6.763202816815975E1    -1.141154157091290E2    -8.493341329540056E1    -1.034023802287851E2
                        -1.028581661948049E2     1.769644231673960E1    -1.965970620844320E1    -4.992967023390512      -1.168043753197053E2     1.005892363303036E2    -1.085780834379812E2    -1.191298156198919E2
                        -6.791858324426576E1    -1.156424137008123E2    -9.838945387805603E1    -1.297892326352400E1    -1.331101884293483       5.209174940066911E1    -9.853576137745505E1     1.782741079096863E2
                        -8.533439620533370E1    -1.122731831908455E2    -1.033895297526860E2    -2.204208763080772E1    -9.763882137783342E1    -1.367974625687063E2    -1.325459627324790       4.583359426984453E1

 5.525400000000000E7    -1.774854783685468E-1   -9.921043277707150E1    -1.096041869174296E2    -7.323111563840173E1    -6.765119338888896E1    -1.169683276699197E2    -8.561998443066649E1    -1.282675418045388E2
                        -1.282907500166148E2     1.014005809162374E2    -1.965541836596765E1    -4.993049378821556      -1.141857323395594E2    -1.691602099757316E2    -1.114174986453651E2     9.332103400322653E1
                        -6.811210098340069E1    -1.159247800970568E2    -9.806117089260897E1    -1.248322522829377E2    -1.330382509388653       5.210056826190677E1    -9.463076320472970E1     1.600988799960250E2
                        -8.665529646421337E1    -1.203010305968777E2    -9.897646136585173E1    -3.555226777550498      -9.454681501987457E1     4.221035774691926E1    -1.324891750919800       4.582192258648347E1

 5.525425000000000E7    -1.776539673094401E-1   -9.922734443954313E1    -1.038865764681970E2    -1.539424623418241E2    -6.792154710411805E1    -1.170506466580712E2    -8.515236733312668E1    -1.073918499107733E2
                        -9.671917643939281E1     1.771730561718941E2    -1.965637175717158E1    -4.959156369964168      -9.433242115268325E1    -1.173504405250426E2    -1.169552462070760E2     1.754000868805041E2
                        -6.795995339432767E1    -1.134777978968207E2    -1.065613185413472E2    -6.201142138188602E1    -1.330223840794763       5.208938275191451E1    -9.974099829368656E1     7.272104052514854E1
                        -8.585736484585276E1    -9.936717344023022E1    -1.054984190575124E2    -4.072005273835620E1    -9.592626902502489E1     5.022194253280173E1    -1.325100713254358       4.581790187263648E1

 5.525450000000000E7    -1.783064146141076E-1   -9.924146036572070E1    -1.020486013899225E2     5.027752046726148E1    -6.799696639004137E1    -1.159668704946088E2    -8.602264148894710E1    -1.135501775553723E2
                        -1.105422271594843E2    -3.218149660115316E1    -1.965426941346250E1    -5.035950666185805      -1.313527441678470E2     8.261853698779251E1    -1.023317746523632E2     1.515092345403221E2
                        -6.729455600012203E1    -1.143055999787778E2    -1.059528449906476E2     1.632555250103521E2    -1.331490466950321       5.208273029367903E1    -1.021233662498378E2     1.372050090383756E2
                        -8.748460933326071E1    -1.015127251483946E2    -9.988905353647229E1     8.929787398243647E1    -9.633958695401594E1     6.734391219916046E1    -1.326337111570298       4.581796098992960E1

 5.525475000000000E7    -1.786358634919034E-1   -9.926380192260740E1    -1.015790058305007E2     6.266283638436749E1    -6.778295621621076E1    -1.155142764409435E2    -8.605577935942458E1    -1.030142741527179E2
                        -9.508939336155349E1    -7.180360679203990E1    -1.965903449605808E1    -5.053666247210061      -1.100598058199971E2    -6.049643765728354E1    -9.958849503457583E1     4.250260450550224E1
                        -6.777932247581349E1    -1.147055273049778E2    -9.840790895440712E1     1.235127366381245E2    -1.328985866481110       5.208034813887736E1    -9.508326129989916E1    -1.406080783188407E2
                        -8.597803083449071E1    -1.185153580071132E2    -9.580228237762074E1    -1.564516270534454E2    -1.072330350311284E2    -1.302788913830326E2    -1.325535712445348       4.582141675394765E1

 5.525500000000000E7    -1.785481903152046E-1   -9.929110740437452E1    -9.893669293764194E1     4.054091205841266      -6.798843065444389E1    -1.150379451318206E2    -8.452977535899643E1    -1.151740034134689E2
                        -1.039260142914492E2    -3.930998385471338E1    -1.965917021630594E1    -5.010896526821685      -1.000767723885571E2     1.777979374095358E2    -1.072252220204626E2     1.294109142308639E2
                        -6.771419050116808E1    -1.158179241623367E2    -1.036092241809683E2     4.426731426689305E1    -1.330850454131479       5.207699857667311E1    -1.043835508656744E2     5.139102261089517E1
                        -8.611111061861024E1    -9.408432259954802E1    -1.040910409295285E2     8.734976402917533E1    -1.021586736424118E2     2.611592715120068E1    -1.324558336328366       4.582135582327148E1

 5.525525000000000E7    -1.785486676444726E-1   -9.931488157229933E1    -1.005769497602166E2    -1.652335478998749E2    -6.768764475022302E1    -1.121167810053956E2    -8.598606740804284E1    -1.067333632106045E2
                        -9.694697899917938E1     6.460465749719489E1    -1.966012546361946E1    -4.986817252049340      -1.054332928988020E2     8.616751763881676E1    -9.480821638341618E1     1.192705736898008E2
                        -6.781267246126231E1    -1.151902598057797E2    -9.797705793175686E1    -1.437048695402378E2    -1.330535933324943       5.207208117882600E1    -1.022231071201992E2    -8.354213687269944E1
                        -8.517358007139683E1    -1.034564835178964E2    -9.092108215258182E1    -1.214724142224747E2    -1.014897555391470E2     5.771017301344160E1    -1.324819197683818       4.581277348722170E1

 5.525550000000000E7    -1.790615007334638E-1   -9.933680360261587E1    -9.448801212517823E1     7.531763607011840      -6.762053085990058E1    -1.146865043117059E2    -8.602291765737473E1    -1.087508685970022E2
