#  HZ   S   DB   R     50.00 
! Rohde & Schwarz Vector Network Analyzer 
! Rohde-Schwarz,ZNB8-4Port,1311601044102961,2.82
! Created: UTC 2/5/2019, 12:10:37 PM
! freq[Hz]                db:S11                  ang:S11                 db:S12                  ang:S12                 db:S13                  ang:S13                 db:S14                  ang:S14
!                         db:S21                  ang:S21                 db:S22                  ang:S22                 db:S23                  ang:S23                 db:S24                  ang:S24
!                         db:S31                  ang:S31                 db:S32                  ang:S32                 db:S33                  ang:S33                 db:S34                  ang:S34
!                         db:S41                  ang:S41                 db:S42                  ang:S42                 db:S43                  ang:S43                 db:S44                  ang:S44
! 
 3.000000000000000E7    -1.960606137755175E-1    1.051222758479464E2    -8.616884835032840E1    -1.108727737272004E2    -8.518106317100292E1    -1.752460999436468E2    -8.672843221347191E1     3.325334917831571E1
                        -1.015158852030800E2     1.466959775838135E2    -1.980497762972771E1    -3.823940388960109      -9.198945786785507E1    -9.841029236072963E1    -1.043927752886742E2     9.205760067283845E1
                        -8.316724588477783E1    -1.307515610688562E2    -8.677770744377335E1    -7.903723858629522E1    -8.856197401639099E-1   -1.989257297176218      -8.384954323265185E1    -3.427460323218961E1
                        -8.271851721481519E1     9.776235628664990E1    -9.151042740426243E1     1.735328913560266E2    -8.344431295651705E1     4.315828009305938E1    -8.944336104889444E-1   -6.960845449688111

 3.002500000000000E7    -1.913558189439659E-1    1.047736950047474E2    -9.147555398383055E1     2.240839389605132E1    -8.508037586179304E1    -4.973861197703147E1    -8.298698186215420E1     1.439987185035440E2
                        -1.058692996305330E2     1.145190425766312E2    -1.982000695491482E1    -3.383097328635711      -8.968541580473988E1     7.284046374419657E1    -1.033600146161738E2    -1.138960796620528E2
                        -8.780398303051383E1    -1.100928922825401E2    -8.400416476947282E1     8.123319536946418E1    -8.835811705517240E-1   -2.304746888975881      -8.330191891186595E1     6.842025552524316E1
                        -7.857436815621090E1     1.423168049327230E2    -1.059448930876102E2     9.862173441088682E1    -9.441295436311683E1    -1.290081415469171E2    -8.917142206698405E-1   -7.220833733687320

 3.005000000000000E7    -1.893811747497879E-1    1.045567558224564E2    -8.284288677492363E1     3.207574777120170E1    -9.811025805331207E1    -1.022861724997794E2    -8.922954702635332E1    -1.085442489440437E2
                        -9.069859724748903E1     8.960789135131905E1    -1.978270309303416E1    -3.620077728261906      -9.299058143919220E1     9.676781919045708E1    -9.151327201537703E1    -9.655152376813284E1
                        -8.649905561908584E1    -9.467360498911638E1    -7.946433616494133E1     1.739967803883087E2    -8.922377619465255E-1   -2.577264534302165      -8.697624215013809E1    -8.752990075442579
                        -9.426352551873475E1     1.536405526190865E2    -8.245046206616239E1    -1.409609237319977E2    -8.782019732389601E1     8.275323796834239E1    -8.949076068200563E-1   -7.570879018695538

 3.007500000000000E7    -1.884073835482022E-1    1.042113704269987E2    -8.164615484939630E1     8.023446132655471      -8.553017728577129E1     8.256599404124136      -8.699363672245670E1     1.300798911671459E1
                        -1.001154534219790E2    -7.372849218737962E1    -1.978644268170544E1    -4.001186840449813      -8.671488520721560E1     4.051476319373109E1    -9.653208366055934E1    -5.113845440925577E1
                        -9.156665574318380E1     1.376650686741967E1    -8.553535003583690E1     6.881826552494820E1    -8.805681590269149E-1   -2.857801715855830      -9.575780357611959E1    -3.236091583485388E1
                        -8.532183600615669E1    -8.944376262723790E1    -8.415362286157320E1    -3.719496510425595E1    -1.075007902351710E2     6.695794779510682E1    -8.906877060393071E-1   -7.836912089185175

 3.010000000000000E7    -1.855736226309981E-1    1.039673179639262E2    -9.053298118692949E1     1.672558932873701E2    -8.903934558854775E1     1.623028742576439E2    -9.028234994737917E1    -1.534440281110240E2
                        -1.005075634390791E2    -1.273077771207166E1    -1.979170947276898E1    -3.383160432410977      -8.921884792398529E1    -1.300234892267244E2    -9.117462540647962E1    -7.419067564905194E-1
                        -8.863982475725747E1    -6.994019905728075E1    -8.543754509049620E1     1.502696363059725E2    -8.929203036745781E-1   -3.124296391156494      -9.064930430947671E1    -1.368230861796534E2
                        -8.426605773274977E1    -1.687017463991565E2    -9.050483361931848E1     1.213741644688899E2    -8.230418382622418E1    -1.165869540320113E2    -8.952485665254628E-1   -8.124025240605912

 3.012500000000000E7    -1.899483292596106E-1    1.036597058248838E2    -9.425766710859841E1    -1.044501959557637E2    -9.676513139711211E1     4.326139516942809E1    -8.889829450688994E1    -1.019566910277851E2
                        -9.200677447447177E1    -3.023730021680412E1    -1.976531263383263E1    -3.634387595682108      -9.202388851219192E1     1.014946434311610E2    -9.683695352185224E1     1.517295357274295E2
                        -8.556017527843574E1     1.504704883520792E2    -8.353965989338489E1     4.993716847236090E1    -8.888224079800920E-1   -3.459876743381008      -9.225356100371667E1    -1.174609326141354E2
                        -9.232316256454224E1    -1.081966086750149E2    -8.741406260756939E1     1.306256920805598E2    -9.387874834659776E1    -1.341821694782134E2    -8.961402796346016E-1   -8.437673390638929

 3.015000000000000E7    -1.799235894463001E-1    1.033545690299408E2    -8.736505792091023E1     1.786074237406408E2    -8.401622655094926E1     3.184712437213965E1    -8.346581749690542E1     8.257408365573335E1
                        -9.559220019403412E1    -2.267735303200111E1    -1.981512937355993E1    -3.655740910349171      -8.717239530607327E1    -2.223742686614954E1    -8.423105049415460E1     3.418882868444855E1
                        -8.755481002694366E1    -8.721739619304788E1    -8.539536924197877E1     1.493008262432867E2    -8.828083864842816E-1   -3.664671836982877      -7.943264819172485E1    -2.692578820453556E1
                        -8.735908076240067E1    -5.388221098779650E1    -8.694644913252530E1    -8.134479908640545E1    -7.747710501486004E1     7.306356090141465E1    -8.898121424119256E-1   -8.751844675231412

 3.017500000000000E7    -1.834198872785195E-1    1.030205271490046E2    -9.121325269401214E1    -5.505282180636154E1    -8.075244917633377E1    -1.150725514053982E2    -7.862685158077017E1    -1.556958601101515E1
                        -9.661212920424960E1     1.314497755114562E2    -1.981561906777231E1    -3.707279887196487      -8.792589668673438E1    -7.360157412605717E1    -8.598985719274759E1     8.507915718158360E1
                        -9.023537311496924E1    -4.587263415726514E1    -8.393122389801951E1    -9.634148409432555E1    -8.846364359167287E-1   -3.995147303407870      -8.352976449146838E1     1.145837656377847E2
                        -9.048101180487622E1     5.820222325410286E1    -8.341670061846577E1    -1.726666599429009E2    -9.120740744362480E1     2.927530847891323E1    -8.884901048602587E-1   -9.026501385497888

 3.020000000000000E7    -1.750755711772872E-1    1.028021541578376E2    -8.183061385483723E1     1.104176351088919E2    -8.815606186588261E1    -1.058791242984674E2    -9.090913455080366E1     1.263257181900541E2
                        -8.903544393169659E1    -6.382321055095417E1    -1.980105472914203E1    -3.695490260943586      -9.029019450152291E1    -3.245808039313911E1    -1.044678659462784E2     5.603113717619649E1
                        -8.952708479355135E1    -5.602432040337720E1    -9.047829923406182E1     4.693404269001421E1    -8.878205171382658E-1   -4.298169147636165      -9.023632254718112E1     6.682760198016837E1
                        -1.131157106889001E2    -1.558630745202212E2    -8.699082549806735E1     1.794987811715592E2    -9.301406858116073E1    -1.361276785428544E2    -8.931027068399954E-1   -9.368593883348389

 3.022500000000000E7    -1.867819291257317E-1    1.024697503166824E2    -9.753265773083975E1     7.848451606108033E1    -8.807291528833073E1    -1.744881778366109E2    -8.328158619792544E1    -1.905697727317056E1
                        -8.912245136470689E1    -8.199865192890355      -1.979048138318119E1    -3.733023816084288      -8.524463130820820E1    -9.842083302368653E1    -8.579861310169049E1     1.407162496779149E2
                        -8.714684802510715E1     1.596354913353908E1    -8.858642278150859E1     7.293304442426538E1    -8.867815268588877E-1   -4.610945830421644      -9.209921277806514E1     2.725912431110332E1
                        -8.646622930031427E1    -4.912732567482711E1    -8.305248553632275E1     1.346347818252675E2    -8.578950129678279E1    -6.155769008786115E1    -8.983615605391442E-1   -9.629840455524496

 3.025000000000000E7    -1.864131982997226E-1    1.022112631829767E2    -9.416070577513970E1     1.154773133000771E2    -9.954214798537242E1    -5.406543365063430E1    -8.783506073366394E1    -1.303372226432055E2
                        -9.329736896394519E1     1.425636543629706E2    -1.982758427260672E1    -3.731654616960918      -1.056718355783710E2    -9.023485326092121E1    -8.358616722630430E1    -4.750125414475487E1
                        -9.419812486916312E1    -6.284135331674076      -8.442007171419930E1    -9.041249131346230E1    -8.887928865205473E-1   -4.887768124659946      -8.796385902622515E1     1.674460581783516E2
                        -8.189019318482578E1     7.685472170936856E1    -8.489654585356674E1     1.170167502773164E2    -8.507028409019873E1    -1.050199463199803E2    -8.987107834088355E-1   -9.972376071432466

 3.027500000000000E7    -1.820364849872027E-1    1.018858121698720E2    -9.322239448569363E1     1.415770787735648E2    -7.576326220664139E1     1.640761937953978E2    -8.369089024198115E1    -1.504647291165771E2
                        -8.694648806793211E1    -1.302542158430280E2    -1.977700273097743E1    -3.625960175331545      -8.703447461006576E1    -3.758590097781275E1    -9.428529053503580E1    -9.090995538617952E1
                        -8.979243517704397E1     4.857339443467873E1    -8.307512097954540E1    -6.049376237383575E1    -8.871290035949551E-1   -5.168774970053240      -8.928432100787023E1     1.392509142247734E2
                        -1.050393054601454E2     5.892280950639714E1    -8.526376004440550E1     5.880188240287933E1    -8.631712571104295E1     2.881938212486666E1    -8.975735848210447E-1   -1.023209989336926E1

 3.030000000000000E7    -1.848395829538526E-1    1.015637812797871E2    -8.968059711200455E1    -1.187487568023157E2    -9.982405930355112E1    -1.328671543268259E2    -8.385013703658376E1    -1.237900637603009E2
                        -9.643284596162395E1     1.752293074956218E2    -1.982890920148402E1    -3.937046362579057      -9.028554317735292E1     1.425533127557595E2    -8.645060645428828E1     8.711891512324563
                        -8.737801989997676E1    -4.958617173033831E1    -8.464740827840815E1     1.581671672166253E2    -8.860393238129388E-1   -5.470010682122866      -8.897069862981061E1     8.894824144305096E1
                        -8.643687066213559E1     1.204983575609171E2    -8.441331543319112E1    -3.896573211940196E1    -7.899026804214023E1     5.057117604956794E1    -8.962637130200681E-1   -1.056813390124741E1

 3.032500000000000E7    -1.802282229082553E-1    1.012725695489450E2    -8.582354222102993E1     1.492779301479704E2    -8.505932652048736E1     5.866832807639835E1    -7.946813947284734E1     8.836678528675947
                        -9.019120047068557E1    -3.123576813432941      -1.985297825433122E1    -3.613521436970332      -8.826410701618819E1    -8.300508168331224E1    -8.880509423806329E1    -1.022946805660827E2
                        -8.962356926401681E1    -4.009895499062340E1    -1.002263913427132E2     1.271890556758610E2    -8.873749709375921E-1   -5.812870111721206      -8.554561409009992E1    -2.399438231760076E1
                        -9.687120375474720E1    -1.000588553452156E2    -9.218654158460622E1     4.308028598079601E1    -1.039288354714423E2    -1.249764572297246E2    -8.959594064890996E-1   -1.085261239798431E1

 3.035000000000000E7    -1.777506523829451E-1    1.010003910408819E2    -8.197169162012818E1     1.298289006387457E1    -8.205738363980373E1    -2.175448891596835E1    -8.633848766767771E1     7.457653528435167
                        -9.343602256661471E1     1.500257600050660E2    -1.980167704394773E1    -3.682073945379014      -8.904537708048761E1     1.391890227061653E2    -9.061424210560786E1     9.797771119140140E1
                        -8.921968023503294E1     1.160716752749703E2    -8.946442654564098E1     1.776409235558179E2    -8.869825805880943E-1   -6.074348408818615      -9.161847884352898E1     1.703552833615630E2
                        -8.733908938583446E1    -2.689428787462665      -8.843267207530147E1    -2.006836683891339E1    -8.893865505842398E1    -1.292565209526090E2    -8.959836375518188E-1   -1.116978580383043E1

 3.037500000000000E7    -1.805366494031581E-1    1.006937330175395E2    -8.809967839051582E1    -1.114535360652535E2    -8.149597497122414E1     7.593231806024413E1    -8.234579779499350E1    -1.189117012183426E2
                        -8.955579248784795E1    -5.276408264574404E1    -1.975039597139702E1    -3.968988729133970      -8.403311358209777E1    -7.490100991086993E1    -9.031108848125287E1     1.242184531675582E2
                        -8.733035327392000E1     1.492408898978113E2    -8.346835134355730E1     1.583526583817705E2    -8.792203860542092E-1   -6.365326954777013      -8.758760779700685E1     3.484672102589431
                        -8.399778003545409E1     1.796427092250517E2    -8.435057314925598E1     2.958692478089240E1    -8.869311625177133E1     1.154804099781619E2    -9.017235267341408E-1   -1.147226019059963E1

 3.040000000000000E7    -1.836560574473867E-1    1.004130587026559E2    -7.943386296784860E1     1.185162318263698E2    -8.082667901621549E1     7.235872000549172E1    -9.476962980616676E1     5.946626611291034E1
                        -8.617707103041148E1    -4.349448283536634E1    -1.982315179909256E1    -3.572587064021727      -8.838451787564463E1    -4.194068733509501E1    -1.070776695131927E2    -1.751846421381421E2
                        -8.255491175456591E1    -3.880206136887912E1    -8.226966510175498E1     1.341520700139164E2    -8.871340234593184E-1   -6.656458143647886      -8.476722119039771E1    -1.269288170831942E2
                        -7.952223553091227E1     3.839350276683899      -9.013301050485228E1    -7.776553168538695E1    -1.002046437840915E2     2.287044277335439E1    -8.944793849584023E-1   -1.174771126093786E1

 3.042500000000000E7    -1.811138418258416E-1    1.000872242399688E2    -8.313497213041836E1    -1.322531769067823      -8.051584535365873E1    -1.199027722159220E2    -9.049002931748501E1     1.327177191919377E2
                        -9.153098104395727E1    -1.414199659174748E2    -1.978993136866982E1    -3.691732440612664      -8.539684126166209E1     1.561786317553341      -1.044179622235284E2    -1.036040830215954E2
                        -8.139549269488666E1     1.360163631479669E2    -8.666109558413402E1     1.646449513349613E2    -8.844689772865320E-1   -6.991697491842944      -9.770552836573393E1     1.561121645682277E2
                        -8.511945289531455E1    -2.636771178481196E1    -8.748880428375583E1     5.616300316146415E1    -8.932861458161079E1    -1.147182463375143E2    -8.913777485442904E-1   -1.207629630702415E1

 3.045000000000000E7    -1.772088336884682E-1    9.981435351032263E1    -8.469862994107240E1    -3.772271987238805E1    -9.063374297868533E1     6.151940811004103E1    -1.107709096860025E2    -1.596305891436460E2
                        -9.465820660373052E1    -5.232458403816003E1    -1.978774574038924E1    -3.771595605160600      -1.097978466783414E2     3.962289078753929E1    -8.720160084672686E1     3.095887149295791E1
                        -9.857467622609116E1    -9.103624086293586E1    -8.564612171485561E1    -4.795765011649040E1    -8.875813147005246E-1   -7.239037904933231      -8.610199558421920E1     1.406926026479821E2
                        -8.601599030646533E1    -4.973773398198760E1    -8.245984677990849E1    -2.182255976486655E1    -8.455131863686245E1     5.283286752588262E1    -8.900645354274197E-1   -1.237295760707994E1

 3.047500000000000E7    -1.752009539453792E-1    9.950435327251708E1    -8.739222685594652E1    -3.274037527497642E1    -8.468486291952442E1    -2.085700628520011E1    -8.433458672798025E1     4.003479575936584E1
                        -9.364885717513735E1     1.181793981165226E2    -1.982056757779014E1    -3.665846416224765      -9.196628565294951E1    -1.273759715718508E2    -9.197337228214184E1     3.686543590724984E1
                        -9.015725551381179E1     1.435536166952158E1    -8.391909493452913E1     1.147626769425659E2    -8.830918966573238E-1   -7.569386838370297      -8.364692004712157E1     5.590257739005456
                        -8.269931265056215E1     3.930003201816874E1    -8.271583429778316E1    -2.503053527481480E1    -9.098895346342690E1    -8.159811447918528E1    -8.916798612118909E-1   -1.263837164189122E1

 3.050000000000000E7    -1.686790947806589E-1    9.920476256935481E1    -8.629169556189984E1    -1.652791569761654E2    -8.994162655215919E1    -1.558727837106621E2    -8.967691913979321E1     3.280289367780526E1
                        -9.877231836775655E1     7.687005081308347E1    -1.981090187895074E1    -3.792650361429318      -8.834696361102230E1    -7.167916536933466E1    -8.445281366652742E1    -1.610526431524206E2
                        -8.441640492911809E1    -1.989032442157129E1    -8.916032963905649E1    -6.727651458167371E1    -8.899693760396001E-1   -7.858520218478912      -8.147358874678476E1     4.136565682319186E1
                        -8.660889819626704E1    -1.323360835606631E2    -9.060042032048919E1    -1.183095985761342E2    -7.688503209150323E1     1.201808285568886E2    -8.935544886209746E-1   -1.296872203256370E1

 3.052500000000000E7    -1.759243928492332E-1    9.894531071631792E1    -7.953060967379530E1    -1.160890742936081E2    -8.965245830531367E1    -9.493375267262633E1    -8.681637008020670E1    -9.980754211593920E1
                        -8.935032542427911E1    -1.325267267846029E2    -1.981287958498717E1    -3.843113121286403      -8.939200145392503E1    -1.464537619871819E1    -9.500976793493868E1     1.698191355665362E2
                        -9.014169427070570E1     9.794317604580641E1    -8.875220295944314E1     7.381290058769993E1    -8.870358069020283E-1   -8.081422773946589      -8.615265929176661E1     1.633902756247838E2
                        -8.622044441004634E1    -1.103522962127311E2    -8.455731422397864E1     1.793615020819935E2    -9.039029648449984E1     4.142328518800910E1    -8.940789691053037E-1   -1.326909150516036E1

 3.055000000000000E7    -1.756199461144350E-1    9.864793092715850E1    -8.613983405567720E1     9.263600609182620E1    -8.436507226140566E1     8.673766645880136E1    -9.731813231963157E1     1.310331704266226E2
