#  HZ   S   DB   R     50.00 
! Rohde & Schwarz Vector Network Analyzer 
! Rohde-Schwarz,ZNB8-4Port,1311601044102961,2.82
! Created: UTC 2/7/2019, 11:22:52 AM
! freq[Hz]                db:S11                  ang:S11                 db:S12                  ang:S12                 db:S13                  ang:S13                 db:S14                  ang:S14
!                         db:S21                  ang:S21                 db:S22                  ang:S22                 db:S23                  ang:S23                 db:S24                  ang:S24
!                         db:S31                  ang:S31                 db:S32                  ang:S32                 db:S33                  ang:S33                 db:S34                  ang:S34
!                         db:S41                  ang:S41                 db:S42                  ang:S42                 db:S43                  ang:S43                 db:S44                  ang:S44
! 
 5.525000000000000E7    -1.976677042719879E1    -6.376844991858803      -9.311134509413520E1    -1.110345388211911E2    -9.067445564710654E1     5.498532843672552E1    -1.030765903995673E2    -1.720675382029339
                        -9.278441739127490E1    -8.629631046762756E1    -2.385283592427651E-1   -9.985193393517363E1    -8.767717256805506E1    -1.466172516253033E2    -6.982005698034241E1    -1.118547845238281E2
                        -1.043270558419199E2    -2.591617134254745      -8.165025252342177E1    -7.054185352944316E1    -1.351381053712750       4.840881945614868E1    -8.502057089884525E1     1.436594641578962E2
                        -8.054521953459835E1     1.294296947841761E2    -7.074234358739658E1    -1.177784131784698E2    -8.682249362307793E1     1.500475757175086E2    -1.349528019403754       5.545302396692293E1

 5.525025000000000E7    -1.976077021946206E1    -6.427601923696598      -8.140148435469506E1     1.041141186687854E2    -9.053660174924497E1     3.949195349160918E1    -9.012740550058197E1     1.385494643889221E2
                        -8.505953813077278E1     1.123390536932579E2    -2.390492255434797E-1   -9.987564554672804E1    -1.043307816312412E2    -7.469769918929761E1    -6.908024711565382E1    -1.109709542477842E2
                        -8.254708324157933E1    -2.378269625893694E1    -8.922402818920037E1     5.280996958759152E1    -1.352284590064794       4.835455418118372E1    -9.161538354565643E1     2.887272974706213E1
                        -8.906868319296144E1     4.094768671596629E1    -6.814584091254461E1    -1.240778837960193E2    -8.796761554668098E1     7.722136651075597E1    -1.350357457040436       5.546826598243394E1

 5.525050000000000E7    -1.977813490479062E1    -6.386623568613956      -9.249390389887691E1     2.219479567925737E1    -9.306722655315674E1     1.171552188953372E2    -8.256721581195177E1    -8.735914878900556E1
                        -8.573376240510130E1     1.035130215227915E2    -2.344625253329932E-1   -9.987190129521676E1    -8.067140176489828E1    -1.153190180840661E2    -6.964444548670292E1    -1.124262717442088E2
                        -9.939663915229986E1    -8.284090782956767E1    -8.049513597207658E1    -1.054048283719298E2    -1.350445833842878       4.837796436995409E1    -9.273162975255418E1    -1.237796694710458E2
                        -9.030987244772128E1     1.217289226483717E2    -7.013500537068413E1    -1.100853581603125E2    -9.358452215867536E1     2.205163311262551E1    -1.352732959098854       5.547469945234899E1

 5.525075000000000E7    -1.975914493905214E1    -6.258832886041445      -8.583612785604053E1     3.927061881377136E1    -8.592419147409149E1    -2.054698128358869E1    -8.365290045167512E1     6.543454345688862E1
                        -8.576381900859911E1     1.369951360616167E2    -2.357735357869683E-1   -9.991292605387567E1    -8.122956910825735E1    -7.387852563635151E1    -7.029277365454958E1    -1.292038367157695E2
                        -9.774384962045923E1    -1.488735365219616E2    -9.009357836436334E1     4.947201053632118E1    -1.354090333846822       4.840904237777216E1    -8.730339686221072E1    -4.412259546214951E1
                        -8.683981651454639E1     1.397057088147953E2    -7.073580084570639E1    -1.146856322940885E2    -9.221476765570571E1    -9.026194192997878E1    -1.349672788069027       5.542634216654673E1

 5.525100000000000E7    -1.973633738169777E1    -6.389949847117999      -8.965342324209740E1    -4.229333747643145E1    -8.736732791336883E1     1.602697652677521E2    -9.515320913385202E1    -9.250516089617700E1
                        -8.705126381396069E1     1.412756535895276E2    -2.374366814380227E-1   -9.991482363475112E1    -8.167227236161369E1    -2.486476735550720E-1   -6.969220070059662E1    -1.174956506648375E2
                        -9.080259685050808E1     1.148813131424862E1    -8.722867468292391E1     1.625943242280192E2    -1.351571691458665       4.837180350913636E1    -9.470860353844421E1    -4.772961030847609E1
                        -8.350548700696913E1     6.068482127750141E1    -6.786944545700231E1    -1.107659866994750E2    -9.571483069376384E1     1.619422107797104E1    -1.352986702497409       5.542430365411973E1

 5.525125000000000E7    -1.975530851186801E1    -6.363589285818217      -1.004206586943027E2     9.614433669790896E1    -8.609218094903498E1    -5.672812113462142E1    -9.194721619680837E1    -2.142229207304706E1
                        -9.125175330586187E1    -6.352707813413366E1    -2.342525655418701E-1   -9.994477969862282E1    -7.950211096697957E1    -9.165569528640732E1    -6.977875847919069E1    -1.091349588240781E2
                        -8.390239247364164E1    -6.935714615004986E1    -8.139327220619907E1    -8.015040047160308E1    -1.354481733152824       4.839268954713285E1    -8.663032231267763E1     1.013252686045527E2
                        -8.447229506767238E1     4.486482982334537E1    -6.791184545007549E1    -1.131981207826633E2    -8.345245266271867E1     1.754165444642010E2    -1.352606874208715       5.543138184557019E1

 5.525150000000000E7    -1.975544075130488E1    -6.445429277002697      -8.654458401939880E1    -1.361910645301779E2    -1.001335333868750E2    -7.860812180017481E1    -9.588634602991789E1    -1.642629836092816E2
                        -7.803717469561762E1     1.165351786735059E2    -2.392444410468756E-1   -9.995523141755909E1    -8.480822747155733E1    -1.117037323948403E2    -6.942363827674289E1    -1.169995230427295E2
                        -7.935292288785821E1     1.492768186067220E1    -8.057553198961608E1    -8.925666697848440E1    -1.350453659635786       4.838278025462996E1    -1.168503934717423E2    -1.239855678448038E2
                        -8.304843303536981E1     1.413418796192609E2    -6.817499923216087E1    -1.040307948885878E2    -8.445773105027884E1     4.017519145694568E-1   -1.350340875752837       5.541411543693637E1

 5.525175000000000E7    -1.975674648905817E1    -6.059010935818691      -9.719724597612776E1     1.078951961691658E2    -9.360523365527369E1     5.555335139919554E1    -9.966796588118278E1     1.427488271836801E2
                        -8.383040558921977E1    -4.923155049818891E1    -2.362906816192308E-1   -1.000304150475366E2    -8.334721990059053E1    -1.123299950595335E2    -6.951081727425874E1    -1.175413862189572E2
                        -9.163730338143834E1     3.898317580020611E1    -8.423453425474040E1    -1.335366824121680E2    -1.346780202516002       4.834824457728048E1    -8.456790508338423E1     1.698076133233224E2
                        -9.268248076452312E1    -7.971452790029144E1    -6.903227238258171E1    -1.226459696028650E2    -9.484548524587537E1    -1.057731218063625E2    -1.353638884382568       5.543338428729236E1

 5.525200000000000E7    -1.975697568231303E1    -6.274064931307993      -8.538597806856350E1    -1.566639247954051E2    -9.414253070547460E1     1.140724166972367E2    -1.023395784895055E2     1.751707793453322E2
                        -1.012607365985215E2     1.225018524603844E2    -2.360698461777533E-1   -9.999201662802841E1    -8.820867843215062E1    -1.011117941028797E2    -7.050958576732654E1    -1.210178844782520E2
                        -9.622586869852519E1     5.416946378102852      -8.140116276105806E1    -1.500852924701170E2    -1.349475931664030       4.833548368330984E1    -8.608728453789556E1    -1.062187426014708E2
                        -9.361769019939294E1     7.810407703799477E1    -6.782021749254851E1    -1.111546391673248E2    -8.067042687658559E1    -1.713529992487063E2    -1.351178636392897       5.539660314774634E1

 5.525225000000000E7    -1.974755985990991E1    -6.400717019529800      -8.558139372535590E1    -2.663172136967321      -1.092406517916321E2     4.299185891823634E1    -8.938230752920973E1     1.238350924785026E2
                        -9.145765563679416E1     7.221769452787424E1    -2.393187039453332E-1   -1.000182629557596E2    -8.205169508663290E1     7.422921572253706      -6.944421816203563E1    -9.801796168701246E1
                        -8.917265836297986E1     7.794745684811543      -8.293614676920586E1    -7.442087418862737E1    -1.351494625790453       4.833236322094392E1    -8.318754053466172E1     1.261244182368699E2
                        -9.014748728811452E1     8.734816778666598E1    -7.023621898707181E1    -1.176621056355578E2    -8.225151411747279E1     5.286943060372283E1    -1.354884724157768       5.542953101407775E1

 5.525250000000000E7    -1.975663313025197E1    -6.401404469042308      -9.152012055543999E1     1.786012943877236E2    -8.776303227874161E1    -1.158765463353290E2    -9.125493372916553E1     1.329784830021480E2
                        -8.096578698814005E1     1.444039817584095E2    -2.335501921605761E-1   -1.000401475996052E2    -8.253126893029902E1    -9.996840247775990E1    -6.955526389425620E1    -1.244378299552345E2
                        -8.387958713362295E1    -1.652267415473047E2    -8.141838396955089E1    -1.508014042472671E2    -1.351064876435154       4.831907237916907E1    -8.621962979010776E1     6.257350152271692E1
                        -9.228600513035576E1     2.456021961154177E1    -7.015269215040202E1    -1.039079492177704E2    -9.039348856581178E1    -1.648407553767233E2    -1.343440013441368       5.541877122862932E1

 5.525275000000000E7    -1.976487597540788E1    -6.383497365080511      -9.131624192270945E1    -1.241575813133749E2    -8.755102334407917E1     4.629002172577013E1    -9.322926921551760E1    -9.625119915115873
                        -8.504180586973274E1    -1.626451688143629E2    -2.328678770555294E-1   -1.000848497314684E2    -8.301458738949627E1    -1.330863259612424E2    -6.819780256380308E1    -1.168008495465131E2
                        -9.127425898809625E1     1.398208340090024E2    -9.308116889250314E1    -9.893936801119921E1    -1.347189899375859       4.836538065352237E1    -8.774103450707031E1     1.173492532624879E2
                        -8.885959053263767E1     1.332512227287318E2    -6.777728712835622E1    -1.133750992784066E2    -9.256392825730131E1    -1.134396176598521E2    -1.350594153248115       5.542847692599352E1

 5.525300000000000E7    -1.977672552696924E1    -6.399634629015507      -1.018664146289080E2     1.188071946944161E2    -8.704595697297266E1    -1.460470717721497E2    -8.664598984188082E1     9.718174712903175E1
                        -8.529224058090617E1     8.809380532046237      -2.362288862151500E-1   -1.000851637140554E2    -8.093558136342114E1    -1.669357454656890E2    -6.848776247954487E1    -1.215722052509460E2
                        -8.509496399887887E1     1.343314387625206E2    -7.694323984172959E1    -1.009509636968893E2    -1.352686886245648       4.835035458468378E1    -9.453552173232961E1    -1.653757723357545E2
                        -8.041357867944643E1     9.732402151890641E1    -7.191173494556929E1    -1.093909052449893E2    -8.444279476717807E1     8.939532317180810E1    -1.353120965542993       5.542915709938001E1

 5.525325000000000E7    -1.975265817687382E1    -6.626876548073142      -8.458199832445393E1     9.911274970216604E1    -9.882282841428315E1    -6.615707809933572E1    -8.500893815534765E1    -1.473245967764320E2
                        -8.596551035529478E1    -5.118487838062756      -2.355418954307930E-1   -1.000921089906563E2    -8.433465458238882E1    -7.157879317520680E1    -7.020446269495680E1    -1.146754415393927E2
                        -8.952831666705535E1     2.155942714414515E1    -9.444547333363560E1    -8.902553938925847      -1.346377597941626       4.834430543981941E1    -1.017714993513821E2     1.438011519205660E2
                        -8.929352256426618E1     1.747632463611399E2    -7.087947052234945E1    -1.223577477640071E2    -9.511418354197063E1     2.604277786241285      -1.351636402842578       5.544009943280725E1

 5.525350000000000E7    -1.973959122373085E1    -6.329891335636520      -9.476587390449545E1     1.729230753266384E2    -9.128880868281341E1    -1.540141773677170E2    -1.063897197160456E2    -3.441502976724709E1
                        -8.532236310707384E1    -1.302979613528753E2    -2.333176333909674E-1   -1.001240299395633E2    -8.893298260802105E1     1.645859399354782E2    -6.918670418516523E1    -1.142876962905701E2
                        -8.576205752362164E1    -1.337398047384303E2    -8.921867427947858E1    -1.072912718165443E2    -1.350662198829003       4.829968487463802E1    -1.009453275810176E2    -5.010319041025643E1
                        -7.926740685255395E1    -1.431266401736768E2    -6.877621474363474E1    -1.030484636114905E2    -8.284497969686862E1     1.012608144270440E2    -1.349775318146556       5.543060192243886E1

 5.525375000000000E7    -1.976393653659499E1    -6.436239265969777      -8.781664888222878E1    -1.724715060585915E2    -8.673148327102318E1     1.163106645291265E2    -9.128148959195171E1    -1.425524491021386E2
                        -9.069698373543750E1     1.071091614583387E2    -2.344893888077682E-1   -1.001499777603468E2    -8.820345649934309E1    -6.006140380082168E1    -7.115231561407613E1    -1.146115417766215E2
                        -8.657853925988476E1    -1.259882527870832E2    -8.431686700246036E1    -9.440031485757346E1    -1.348114994220909       4.834897149410794E1    -8.440812998488266E1    -6.807826172452039
                        -7.978271872929129E1     3.651788538553311E1    -6.789024124006599E1    -1.137318733052698E2    -9.123745041720869E1    -5.271416580913341      -1.351501549361664       5.540645829347548E1

 5.525400000000000E7    -1.976323802930907E1    -6.414383225421128      -9.155435375851766E1    -1.267169454183831E2    -1.001025534343061E2     8.911244134479642E1    -8.945571685020869E1    -1.287263524753830E2
                        -8.540544225618034E1     1.127523256877411E2    -2.373368296059297E-1   -1.001788355204725E2    -8.219537364949581E1    -6.125718720631605E1    -6.858772539046126E1    -1.213812737915871E2
                        -9.081594928187633E1    -1.092326981456940E2    -8.558384629043377E1     1.097337784240434E2    -1.354014824001275       4.833046952130387E1    -8.845836870333152E1     3.418068498241287E1
                        -9.440083418308498E1    -5.961828648521373E1    -6.877879210892139E1    -1.057593201951600E2    -8.340395901354873E1    -1.678843095437844E2    -1.347597635131577       5.539230660240202E1

 5.525425000000000E7    -1.974825547915332E1    -6.263530625854383      -9.589737731215487E1    -4.274018935330133E1    -9.035191075662490E1    -9.797281148334066E1    -9.283438330169156E1     7.586465044737631E1
                        -8.549731750999888E1     1.369252323610756E1    -2.363339675654932E-1   -1.001959256772102E2    -9.032122584177769E1    -4.104720115665674E1    -6.894381832811450E1    -1.200354003037732E2
                        -9.340576981354930E1    -2.078429467680888E1    -8.844088541223141E1    -7.427744737308272E1    -1.354508713809114       4.834968552538621E1    -8.070847313479796E1     9.306015245183970E1
                        -9.326225372018861E1    -1.635485852963103E2    -6.847831685865590E1    -1.174740254879042E2    -8.841165779775479E1     1.350228327235082E2    -1.352218865786812       5.539359952220653E1

 5.525450000000000E7    -1.977537650255945E1    -6.410006474494606      -8.767875417207165E1     1.600515936812683E2    -9.243318361755193E1    -5.342603358392072      -8.627720746769680E1     1.125804840205413E2
                        -9.377203425434239E1    -1.273039497648600E2    -2.404406235335163E-1   -1.001839857829173E2    -8.585325735990095E1    -1.733631275834407E2    -7.008850862256108E1    -1.172641783001811E2
                        -8.164025473863623E1     4.495012793497279      -8.113444750349048E1    -1.021615400113841E2    -1.352135101087264       4.834301950911121E1    -9.369184402400295E1    -1.607632420990702E1
                        -8.090009457738496E1     1.198945291842540E2    -6.943215097909823E1    -1.212430346420673E2    -8.230486199231628E1    -1.695969542854449E2    -1.343723341169982       5.539841250505447E1

 5.525475000000000E7    -1.975518739544808E1    -6.324293270823234      -9.261136192536951E1     9.471204818459826E1    -8.933668606431615E1    -1.656208738018910E2    -9.772035795096052E1    -1.711988461164872E2
                        -8.503105198189951E1    -1.440381507848131E2    -2.380635187500637E-1   -1.002018456864633E2    -8.448848380079268E1     1.793787120353367E2    -6.903414294314906E1    -1.103039841908399E2
                        -8.844762284607903E1     1.579174626463603E2    -8.404368054024585E1     3.092347891561697E1    -1.345737355123721       4.832744717123720E1    -8.577913276382525E1    -7.254025749883207
                        -8.824374404523942E1     1.393676777209714E2    -6.911379618508042E1    -1.169615986573687E2    -9.266280475069874E1     1.259312687318444E2    -1.350398066551891       5.538300003564948E1

 5.525500000000000E7    -1.978626405249649E1    -6.319736828755636      -1.082430801961015E2    -1.502356352516101E2    -8.949533802049299E1     1.373701386236219E2    -8.517593606445490E1    -5.300718261108672E1
                        -8.535966973595664E1    -4.458057574492614E1    -2.371758509843611E-1   -1.002646909130939E2    -8.915717467451307E1     7.471361279925807E1    -6.980850731073478E1    -1.242985072899533E2
                        -8.651484459386708E1     1.492015686167686E2    -8.546862573942504E1    -1.056297866050509E2    -1.349643859150214       4.835083629181872E1    -1.046682079582343E2    -1.131155925245031E2
                        -9.744780421273146E1     3.865638472598480E1    -6.886023055236191E1    -1.079236331674122E2    -8.029976202018389E1    -6.681000927153741E1    -1.346799059752814       5.537098023594173E1

 5.525525000000000E7    -1.973717569674138E1    -6.292897297521889      -8.425299786646497E1    -9.896869455179953E1    -8.451527260364266E1    -1.179512208479401E2    -8.938049634444205E1     3.266670007993987E1
                        -8.737489881783425E1    -1.049130080379188E1    -2.414486711467864E-1   -1.003086400512034E2    -7.936104040395227E1    -1.008663449842216E2    -7.215200017100781E1    -1.171663510116856E2
                        -9.054830208675216E1    -1.129400212945925E2    -8.339718534913953E1    -7.022102521837367E1    -1.348485610209689       4.832620352530457E1    -8.612519899483741E1    -1.708391722826196E2
                        -9.405323179042989E1    -1.646270219088909E2    -6.760131435897951E1    -1.174504979231509E2    -8.628613746626884E1    -1.018685325832563E2    -1.347922676566683       5.539824653900512E1

 5.525550000000000E7    -1.974329418055872E1    -6.440994872350333      -8.990031835317730E1    -1.119089737984003E2    -8.915495059402751E1     9.565470162948915E1    -9.290795219177561E1    -3.285198922653272E1
