#  HZ   S   DB   R     50.00 
! Rohde & Schwarz Vector Network Analyzer 
! Rohde-Schwarz,ZNB8-4Port,1311601044102961,2.82
! Created: UTC 2/5/2019, 12:09:01 PM
! freq[Hz]                db:S11                  ang:S11                 db:S12                  ang:S12                 db:S13                  ang:S13                 db:S14                  ang:S14
!                         db:S21                  ang:S21                 db:S22                  ang:S22                 db:S23                  ang:S23                 db:S24                  ang:S24
!                         db:S31                  ang:S31                 db:S32                  ang:S32                 db:S33                  ang:S33                 db:S34                  ang:S34
!                         db:S41                  ang:S41                 db:S42                  ang:S42                 db:S43                  ang:S43                 db:S44                  ang:S44
! 
 5.525000000000000E7    -1.780618101735538E-1   -9.598424388707683E1    -9.908350640768541E1    -1.742976133217955E2    -8.105049287549966E1    -1.297287035221031E2    -6.940313630295870E1    -1.246238323396884E2
                        -8.852643419331412E1     1.072652811588558      -1.968806664176476E1    -4.973882287921144      -8.976392559849151E1     8.134372578077949E1    -9.580902793095355E1    -1.696297308025936E2
                        -7.877506493633773E1    -9.902952990526809E1    -8.985254856769004E1    -9.164831613275101E1    -1.336797582554332       5.212221662484456E1    -9.138968203335345E1    -1.523649171701954E2
                        -6.795265549137665E1    -1.124665736569660E2    -8.307495455244285E1     1.107052390198268E2    -7.894028884117850E1    -1.606697890736876E2    -1.328084558553564       4.585746034007702E1

 5.525025000000000E7    -1.788100082320090E-1   -9.601485962911275E1    -8.220037681508055E1     8.702414678260101E1    -7.816784408958532E1    -1.220971001575099E2    -6.904748883270726E1    -1.237149776603675E2
                        -9.193091692074850E1    -1.606747894936913E2    -1.968906036187518E1    -4.953902380697000      -8.635891714522106E1    -7.622978171316676E1    -8.913420161066087E1    -2.469455995603987E1
                        -7.954576666121974E1    -8.384670330120164E1    -9.279246916378509E1    -1.761403620732153E2    -1.331563150863792       5.216883261902176E1    -8.516001492588812E1    -8.690538159348353E1
                        -6.956908781702366E1    -1.168043331247757E2    -8.525778648456937E1    -1.693184139320928E2    -8.631056150633239E1    -2.452742657422081E1    -1.326229733292813       4.587626679347167E1

 5.525050000000000E7    -1.822489577915080E-1   -9.603540242574380E1    -8.155733954867077E1    -2.856455528955690E1    -8.731390761612731E1    -1.470179893072898E2    -6.803428356339941E1    -1.203726427312216E2
                        -9.246193567630090E1     1.009037970876250E2    -1.971933300503784E1    -5.174286247540049      -8.813480997960883E1     1.773398570133670E2    -9.143920909739377E1    -4.294200340428534E1
                        -8.103404093099195E1    -1.209579451319913E2    -8.791606638240683E1     5.783419030100716E1    -1.334765389759774       5.216536378473166E1    -8.501674101312902E1     1.491731119993958E2
                        -7.040283236468264E1    -1.193359286804223E2    -8.003941121705435E1     1.417844307437068E2    -8.888036031811778E1     3.129363518179840E1    -1.329172793802273       4.586081876682518E1

 5.525075000000000E7    -1.822249766002360E-1   -9.606438814443430E1    -8.609684002380668E1     9.014588692016429E1    -7.860909944928936E1    -1.191609993715114E2    -6.866525084204751E1    -1.195362043436988E2
                        -9.135845891424034E1     8.347338061880824E1    -1.970657113686647E1    -4.924055496166019      -8.977291094399581E1    -1.530156769862380E2    -9.785186880440972E1    -9.482964506982653E1
                        -8.566252343722209E1    -9.415689651736595E1    -9.035151490091988E1     1.149441128990606E2    -1.330618546142206       5.213091293241740E1    -8.387432300697539E1     1.625510146485890E2
                        -7.069488204528884E1    -1.138582657216130E2    -8.586512002701963E1     8.771632122748956E1    -8.749388898917395E1    -1.535621993525338E2    -1.329672084410610       4.584828050816876E1

 5.525100000000000E7    -1.819097132031133E-1   -9.607993524074738E1    -8.592270445892663E1    -1.534505600939107E2    -8.167534228600732E1    -9.630505025834952E1    -6.967352432227710E1    -1.158417555339204E2
                        -8.227538882510743E1     1.761644515351833E2    -1.971733795744953E1    -5.074302697358140      -9.212178884879293E1    -1.590505424595486E2    -9.925094425462575E1     1.082856661574664E2
                        -7.934267493588315E1    -1.038361688888335E2    -8.490588507196691E1    -1.451499437131647E2    -1.333568823716257       5.214232432766733E1    -8.599581203803973E1    -3.549090034443029E1
                        -7.078850819529554E1    -1.194681722511352E2    -8.443400650286921E1    -1.570173991007079E1    -8.287155015776763E1    -3.962935237938211E1    -1.332329470419160       4.584174533502606E1

 5.525125000000000E7    -1.805785128116879E-1   -9.611768499505108E1    -9.654711468588631E1    -1.243619616683557E2    -8.447330525060818E1    -1.431225941292827E2    -6.898182684298173E1    -1.069178567506063E2
                        -8.551270653492495E1    -4.005830578156284E1    -1.969836576733263E1    -4.954891803691296      -8.952165389300185E1    -4.428444160929170E1    -8.832622516653977E1    -8.819536382916868E1
                        -7.913381161253318E1    -7.029450652718428E1    -8.273065162279755E1     1.768403307866273E1    -1.336414172978493       5.208821264897668E1    -9.405728110914454E1     1.664706985956499E2
                        -6.947408040318804E1    -1.151336820572361E2    -8.851862040470780E1     1.326592900863034E2    -8.358666084642331E1    -8.011228635164756E1    -1.328350049585747       4.583805409302241E1

 5.525150000000000E7    -1.764469674284664E-1   -9.612865297821772E1    -9.120933138027588E1     3.979805874422409E1    -8.193501099361401E1    -1.315022491693504E2    -7.149351830448899E1    -1.170419853814239E2
                        -9.199724683036615E1     1.723459172923100E2    -1.970981967936340E1    -4.944688491232635      -9.394741836752138E1     4.265577412071880E1    -9.462384076009678E1    -1.487488160166731E2
                        -7.677781194787768E1    -9.526087267064960E1    -9.084559096546705E1    -1.251969241075226E2    -1.337184606914196       5.211346691280745E1    -9.485875546937373E1     1.648264759455938E2
                        -6.989482777948381E1    -1.088449668154487E2    -8.180267299960215E1    -1.733456238338640E2    -8.874392802022189E1    -2.068944958665928E1    -1.331946572673055       4.584025093084003E1

 5.525175000000000E7    -1.827759966343225E-1   -9.616499430908230E1    -8.667125138328247E1    -3.742934605199801E1    -8.348133967425247E1    -1.369221996123467E2    -6.859103924175253E1    -1.090219329111997E2
                        -9.272821797673286E1    -5.108388056325907E1    -1.972136403812753E1    -4.908363369616088      -9.032794010018657E1    -1.897515795434319      -9.243470594632589E1     1.793331686503456E2
                        -7.791840185969335E1    -1.226315561505310E2    -8.460219539299702E1     1.192945746819758E2    -1.334442900545004       5.212582452319349E1    -8.644002569133200E1    -8.602786772387105E1
                        -6.825706603824348E1    -1.068074307033138E2    -8.886306499128467E1    -8.419551878796017E1    -7.888211085791440E1    -3.030459804963822E1    -1.328312607981011       4.581927878955622E1

 5.525200000000000E7    -1.754944375768801E-1   -9.617206101507213E1    -8.036383292765898E1    -1.225471602985766E2    -8.068284043731161E1    -1.111739026658204E2    -6.825069236827335E1    -1.133044269190010E2
                        -1.016177609413383E2     1.126580778489013E2    -1.969209625108547E1    -5.105258731698966      -9.276630431565567E1    -8.292961809617992E1    -9.389954031533353E1     1.044669808992018E2
                        -7.996983951322891E1    -7.477699900530733E1    -9.269521211718569E1    -1.692054600737184E2    -1.333450663283042       5.205925189972561E1    -9.743141446723683E1     1.734941409450808E2
                        -6.838085415489414E1    -1.139959022300814E2    -8.212133536617654E1     8.482688216600407E1    -8.819757543517230E1    -6.135246799961563      -1.323648196920027       4.584883679724722E1

 5.525225000000000E7    -1.803614524989519E-1   -9.619053522651335E1    -8.454755286063679E1    -2.647537851766032      -7.910235660332410E1    -8.940143646485925E1    -7.097618963049621E1    -1.166744994685406E2
                        -9.108777768597423E1     1.704160556599933E2    -1.971267942908327E1    -4.967897549174185      -9.276533395079282E1    -1.606131556599344E1    -9.474439848241104E1    -1.030863894887207E2
                        -8.232732989175126E1    -8.658880286871576E1    -8.909418185298533E1    -1.583993779780823E2    -1.332898548474692       5.213833342732206E1    -8.822263107481868E1     1.449592695330883E2
                        -6.765840273137289E1    -1.287934027003664E2    -8.415603699796903E1    -1.374549627093092E2    -9.088359531220428E1    -4.606830740677468E1    -1.328486147954749       4.580719142614110E1

 5.525250000000000E7    -1.806877653217411E-1   -9.620497918716750E1    -9.096930090499507E1    -8.574782210876499E1    -7.827322852202676E1    -1.512281953607824E2    -6.871871332742003E1    -1.273833713354622E2
                        -9.260652489204452E1    -3.177042016383601E1    -1.970508125001851E1    -4.898056791601118      -9.095544353264882E1    -1.537388271117132E2    -9.348890917330795E1     5.385591817874011E1
                        -8.266975921369016E1    -1.397653978375499E2    -8.748969848266557E1     1.099320938513637E2    -1.335340170663750       5.208655625620817E1    -9.229721915613382E1     1.159778547691238E2
                        -7.035417038148584E1    -1.166606085159228E2    -8.654331006621824E1    -1.264528147454385E2    -8.414968521408079E1     6.103366579863292E1    -1.329781856886010       4.578210923576287E1

 5.525275000000000E7    -1.770183024537484E-1   -9.623139972918858E1    -8.208172395252079E1     1.755419336879729E2    -7.553378701646872E1    -1.334354126695503E2    -6.858988847552551E1    -1.163400499920730E2
                        -8.880225384987725E1    -7.016047739266136E1    -1.972259087389206E1    -5.092133961514818      -8.826892874644594E1     1.180898086018691E2    -8.476623580646492E1     1.494759006134296E2
                        -8.098172177998362E1    -1.213064920258964E2    -8.298579428174730E1     1.739668934106919E2    -1.330492521656612       5.209827793809814E1    -1.181985252130854E2     6.070021371897899E1
                        -7.031295228175520E1    -1.137680169164685E2    -8.069149567649588E1    -3.133068380439749E1    -8.392876733126735E1     1.714997429528652E2    -1.324011219604412       4.580705953438009E1

 5.525300000000000E7    -1.792500047765182E-1   -9.624496829170870E1    -9.908685377638726E1    -3.797335628073981E1    -8.411962123320441E1    -1.416308742062588E2    -6.840220007779780E1    -1.124274773760576E2
                        -9.902859698494441E1     1.437154379875016E2    -1.971316216197529E1    -5.097234687408157      -9.174739036114134E1    -2.844166787278588E1    -1.006233997898500E2     6.622311546203194E1
                        -7.663873150168342E1    -9.240035808859614E1    -8.773538016543486E1    -1.521732612209930E2    -1.334180562158944       5.210625459048414E1    -9.053218604745695E1    -1.401317203293759E2
                        -6.955753869915809E1    -1.201530065446494E2    -8.775110533556756E1     1.591116588286331E2    -8.229028004602560E1    -1.121586031732429E2    -1.333560333510877       4.581966273423812E1

 5.525325000000000E7    -1.765614273606653E-1   -9.628756025463105E1    -8.462336249696918E1     1.248643219678118E2    -8.324001084419632E1    -4.453308143925246E1    -6.927265843756919E1    -1.253643065620264E2
                        -8.414245342190414E1     7.141906117126784E1    -1.968683158174394E1    -5.063570422261837      -8.556137017686190E1     4.347058697251916E1    -1.009811492601068E2    -1.151160976421976E2
                        -8.369083050568642E1    -1.506134189882614E2    -8.920386306687762E1     7.563308650251611E1    -1.333993134500946       5.204959796342371E1    -8.822658572190011E1    -1.089392547248889E2
                        -6.861185058249798E1    -1.307326725302825E2    -8.371532306154514E1    -1.754019024183797E2    -9.187999822003285E1     4.724190725846903E1    -1.328558820438753       4.582761815387651E1

 5.525350000000000E7    -1.798955345726139E-1   -9.628607101085609E1    -9.165225173532660E1     3.184348680291266      -7.905736251657194E1    -1.209721881506046E2    -6.923173182111607E1    -1.165801976197384E2
                        -9.914902871689505E1     4.200270011439804E1    -1.967943195722433E1    -5.088979915636894      -8.721335956281877E1     4.712571788038478E1    -9.096942124817828E1    -1.559810085782053E1
                        -8.158359089205783E1    -1.394772651765259E2    -9.568668763345136E1    -1.026890374953278E2    -1.331086387276923       5.209374022543793E1    -9.079105066859492E1    -1.709563915961998E2
                        -6.895814941513469E1    -1.289956565141505E2    -9.929957122320477E1    -1.368491312659659E2    -8.745655240528095E1    -6.595891130757566E1    -1.330133296060704       4.580325165087209E1

 5.525375000000000E7    -1.804552183807992E-1   -9.630354370352963E1    -8.181518213544706E1    -1.743318422845660E2    -1.006465559809912E2    -1.102317284143296E2    -6.962042517190172E1    -1.184307094484540E2
                        -8.769424797388881E1    -5.121683244748995E1    -1.971921243072666E1    -5.092311247086272      -8.948760585281043E1    -1.226865867110309E2    -9.352372360234867E1    -3.715061542438094E1
                        -7.933724820459558E1    -1.090808253679012E2    -8.643352922058497E1     7.766957531595264E1    -1.331522184629122       5.207541356343076E1    -8.416780527623465E1    -1.018284181183768E2
                        -6.835396121428693E1    -1.171418943432980E2    -8.528125308243459E1     1.285780214664671E1    -8.604256232774955E1    -2.107991077617803E1    -1.326525641966784       4.582446103111965E1

 5.525400000000000E7    -1.814862920710705E-1   -9.632065407339046E1    -8.078817366706005E1     1.236742983749835E2    -8.503585231051170E1    -6.545816416594145E1    -6.906888737952394E1    -1.240421308944600E2
                        -8.938981592438935E1     2.816119628302511      -1.972284873584111E1    -5.097361767009116      -8.560232683132182E1    -1.939582086268919E1    -9.433302819330638E1    -1.241193272643318E2
                        -7.579776060463394E1    -1.004550747119684E2    -8.788095837568513E1     5.504209386511127E1    -1.337031628963012       5.206233769466358E1    -9.513082382562048E1     1.438739529864089E2
                        -6.978275141469892E1    -1.212694116602022E2    -8.774130936395397E1     6.053590373976479E1    -8.603884292760668E1    -1.432393571344483E2    -1.329551681711958       4.579880348926509E1

 5.525425000000000E7    -1.770249611577712E-1   -9.635370199613453E1    -8.268283354332925E1     2.497801520397089E1    -8.993764265979991E1    -1.289123435130010E2    -6.823897366992583E1    -1.167688727867220E2
                        -8.906524607283707E1    -8.028647127565202E1    -1.968690445047255E1    -5.101549560755609      -8.241334281250022E1    -1.002772038884186E2    -9.029602950861155E1    -1.493276682015569E2
                        -8.632482800425279E1    -1.155104189450544E2    -8.540097636571332E1     9.289128172091503E1    -1.333435295413470       5.207167079133517E1    -9.091911273221400E1    -4.554171558467259E1
                        -6.953516277707462E1    -1.108116901717841E2    -7.957345505530624E1     9.947955315869892E1    -9.326766594347006E1    -1.083544341757472E2    -1.329320457884908       4.580740588582533E1

 5.525450000000000E7    -1.825607745977542E-1   -9.636273209723450E1    -8.940841987310606E1    -1.170101918025592E2    -7.867542752274997E1    -1.256519857677038E2    -6.982653025478743E1    -1.081689736705016E2
                        -9.742903274199213E1     8.265711640568333E1    -1.970284399545727E1    -4.966510977417842      -8.479306026032714E1    -1.003433279523654E2    -9.959129712180788E1    -1.103055930240782E2
                        -8.125935989281376E1    -1.226414601028861E2    -8.435458973833516E1     4.903867784745486E1    -1.333104415395320       5.207751168931674E1    -8.994139716294625E1    -1.639308879778113E2
                        -6.937478984243585E1    -1.144970313130073E2    -8.984413945008627E1     2.142627849950001E1    -9.090051906850567E1     1.688911003285908      -1.328507606388724       4.582287964808806E1

 5.525475000000000E7    -1.806011776062569E-1   -9.640145855255416E1    -8.423186087870617E1     3.094426681256592E1    -7.733776349277981E1    -1.179538144415619E2    -6.896307184142714E1    -1.161836843502447E2
                        -8.735823030380642E1    -6.597526486800153      -1.969172183396070E1    -5.022441397286621      -9.167661876033314E1    -1.104594285926527E2    -8.965789910858692E1    -4.542437222946749E1
                        -7.881782860502469E1    -8.863636775216646E1    -8.957324320657320E1     1.451092559752916E2    -1.331033637262348       5.206771510470819E1    -9.487267044432683E1     4.514426184845276E-1
                        -6.945998833044735E1    -1.074109900684162E2    -9.577412287533859E1    -9.545904283360076E1    -8.822952297671239E1    -3.176084721206347E1    -1.328352125562445       4.580380379014439E1

 5.525500000000000E7    -1.801144141544009E-1   -9.641037545498411E1    -9.657151090921030E1    -1.421379907654434E2    -8.269092898381352E1    -9.456534369786695E1    -6.990608625469076E1    -1.181024131454544E2
                        -8.718342088097981E1     4.510793305531905E1    -1.968804186587390E1    -5.119125652651979      -1.009909922606813E2     5.038612339622346E1    -8.726214663885887E1    -1.765405946848338E2
                        -8.226454533458161E1    -1.248992582201733E2    -8.421792337885393E1    -6.697427238640259E1    -1.325276433022317       5.204256128596983E1    -8.545917786502568E1    -1.087793689694498E2
                        -6.925270159865391E1    -1.252228698872055E2    -8.531853135617698E1     1.185350369651592E2    -8.209038543535795E1     4.371736299715782E1    -1.327871656904512       4.583224395335252E1

 5.525525000000000E7    -1.776451331625564E-1   -9.641680209519069E1    -8.281513468750553E1     1.738605977623462E2    -7.712146119822337E1    -9.046057699929378E1    -6.994012757505915E1    -1.276816191042023E2
                        -9.866320118238492E1    -2.921879165447867E1    -1.969737613238006E1    -5.091399017279021      -9.275008829176885E1    -3.777831999557785E1    -8.560514754775147E1     1.680393462103175E2
                        -7.932239389383892E1    -6.005290769348736E1    -8.929983040868477E1    -1.297322948322894E1    -1.333371001374675       5.209636081373959E1    -8.982018943843870E1     2.116187910610263E1
                        -6.819655337600554E1    -1.177325326325836E2    -8.583576860072520E1     1.410742557748949E2    -9.769024369201900E1     9.680580646260371E1    -1.324668742224332       4.579967526360827E1

 5.525550000000000E7    -1.776112846762026E-1   -9.641642361673489E1    -8.052674926435245E1     1.005161544463778E1    -9.338297849596536E1    -1.513340020277020E2    -6.891420413290722E1    -1.168444472544976E2
