#  HZ   S   DB   R     50.00 
! Rohde & Schwarz Vector Network Analyzer 
! Rohde-Schwarz,ZNB8-4Port,1311601044102961,2.82
! Created: UTC 2/7/2019, 11:26:41 AM
! freq[Hz]                db:S11                  ang:S11                 db:S12                  ang:S12                 db:S13                  ang:S13                 db:S14                  ang:S14
!                         db:S21                  ang:S21                 db:S22                  ang:S22                 db:S23                  ang:S23                 db:S24                  ang:S24
!                         db:S31                  ang:S31                 db:S32                  ang:S32                 db:S33                  ang:S33                 db:S34                  ang:S34
!                         db:S41                  ang:S41                 db:S42                  ang:S42                 db:S43                  ang:S43                 db:S44                  ang:S44
! 
 5.525000000000000E7    -2.003769785164169E1    -5.484311858500095      -9.952525951971103E1    -3.070799442981304E1    -9.218427960267009E1    -9.589085962041176E1    -9.687946935069806E1     1.531185397305701E2
                        -8.468522605966246E1    -3.564487665081094E1    -3.101589706210758E-1   -1.002568016067111E2    -6.817564622211205E1    -1.182842624605500E2    -8.951656791254492E1    -1.587533307868067E2
                        -8.608724045691629E1    -1.666126482597847E2    -7.220526463780091E1    -1.269303643966693E2    -1.354116178571219       4.216502344667210E1    -8.294689897069831E1    -1.387522871135576E2
                        -9.379299997122855E1    -1.318696573281501E1    -8.288862850159454E1    -1.298557591638538E2    -8.217493467281150E1    -1.180066475914329E2    -1.366193842491259       4.891304034641330E1

 5.525025000000000E7    -2.005303858676970E1    -5.576689403314924      -1.024054696482372E2     8.820034088789825E1    -9.470959679639707E1    -1.417993568744637E2    -9.318936844865175E1    -1.129462006112988E2
                        -8.665530954283960E1    -9.993898725185768E1    -3.135526357831355E-1   -1.002569425457845E2    -6.808010114798793E1    -1.234188056663151E2    -7.883617050459650E1    -1.004904328039163E2
                        -8.749187612337155E1    -1.050034486846207E2    -6.907160475073472E1    -1.238693988734302E2    -1.357771536247963       4.216290492859486E1    -8.675085959363068E1    -8.125834907223060E1
                        -9.395144052132753E1    -1.169790445239768E2    -8.603817952933909E1    -1.080825731773847E2    -8.876084221273148E1     4.765662584344520E1    -1.372758332865858       4.893041986540969E1

 5.525050000000000E7    -2.003495489324564E1    -5.326481723435868      -8.993071282184647E1    -1.071059187662268E2    -9.365165811368321E1     1.598669355444366E1    -8.745108539393453E1    -1.573088421213174E2
                        -8.443145552144301E1    -8.538669848756230E1    -3.164566199248554E-1   -1.003121252939869E2    -6.792966807659764E1    -1.169254434794755E2    -7.884204434602606E1    -1.115642991645775E2
                        -8.471890309337638E1    -8.778859417537213E1    -6.887154830370959E1    -1.096398612602949E2    -1.354232825962616       4.216170818471722E1    -8.457494648507242E1     3.026630163235137E1
                        -8.349054304959071E1     9.383363040029830E1    -7.964083264889302E1    -1.529501225590388E2    -8.343644554386630E1     1.338156216741256E2    -1.368478386150198       4.891851793464040E1

 5.525075000000000E7    -2.004802680447442E1    -5.426682015128517      -9.008789073288264E1    -9.715644878575118E1    -8.645335022211501E1    -1.392701112996114E2    -8.825228626976261E1    -1.776244835677169E2
                        -9.608999315563992E1     1.040241963203537E2    -3.145537501078030E-1   -1.002963227000778E2    -7.038528598350385E1    -1.182475396632441E2    -8.328895592090306E1    -6.219075974865416E1
                        -9.384147725152485E1     1.254352334586338E2    -6.910150989213148E1    -1.232635953176896E2    -1.352558250433253       4.215627733558993E1    -9.189816239464841E1    -9.565922538310953E1
                        -8.097122733246899E1     1.045090644098266E2    -7.803541387433909E1    -1.173603990682185E2    -8.385515254921245E1     4.864160439431741E1    -1.368467580149803       4.893229696057304E1

 5.525100000000000E7    -2.006214481713153E1    -5.421100775231948      -9.701789699933212E1     1.736428736645129E2    -9.304663991962271E1     8.309450274863887E1    -9.313857866594411E1    -1.184173473789840E2
                        -9.228864821085645E1     6.160502767536006E1    -3.173984836083316E-1   -1.003648195744902E2    -6.776670340621963E1    -1.226104826663574E2    -7.961671321021093E1    -1.705878211091103E2
                        -8.365315785097153E1     1.614694702569241E2    -6.845352777950039E1    -1.205488646513808E2    -1.352804050618439       4.217964107496803E1    -1.034024113518806E2     7.773253341442349E1
                        -8.460131417383533E1    -6.758186123181909E1    -7.797043688168132E1    -1.220712243595889E2    -7.879329214226314E1     8.790796418217894      -1.372516018847581       4.891858046490409E1

 5.525125000000000E7    -2.005217648156106E1    -5.552423472386407      -9.034698244287739E1     1.137010890819152E2    -8.822900542138397E1     1.189711156399714E2    -1.002820839929986E2    -4.420121907316671
                        -8.482033515456222E1    -9.028858674311732E1    -3.146766309060714E-1   -1.003669021314750E2    -6.905522676569177E1    -1.223636235468052E2    -8.223798028713719E1    -1.271902991903971E2
                        -8.247404904459071E1    -1.736492683026944E2    -6.794195783378947E1    -1.243275644032244E2    -1.351325469731876       4.214729544982833E1    -9.682987244922556E1    -1.276561054560969E2
                        -8.920908992621813E1     1.620834185562503E2    -9.129987343260032E1     1.706800281925551E2    -8.945394828762281E1    -3.726295756638005E1    -1.371440232159274       4.893203508108300E1

 5.525150000000000E7    -2.008254611431554E1    -5.544174251221912      -9.119689129371247E1     1.191686738076749E2    -9.252248982382855E1     1.781280090852759E2    -9.653980315038984E1     4.879020376240557E1
                        -9.204424469132904E1    -1.389803617696057E2    -3.177877724619052E-1   -1.003469474188972E2    -6.943522126716709E1    -1.234700338375368E2    -8.214814688247193E1    -1.668963147966739E2
                        -8.027742287832271E1     7.363085038195629E1    -6.867648235336961E1    -1.217300435225169E2    -1.353855804526907       4.215255292173490E1    -8.960200969301209E1     1.009495702524124E2
                        -8.690852181208729E1     1.008629796667916E2    -8.491205105601013E1    -1.654736541629488E2    -9.669317092752331E1     1.755565580012101E2    -1.367769565746484       4.889582241737288E1

 5.525175000000000E7    -2.002222731096236E1    -5.479460853049984      -8.273152657324685E1    -6.174495265219208E1    -1.059980978969441E2     5.038784280664663E1    -9.167160330391150E1    -3.480811797777696E1
                        -1.054534844659945E2    -7.646614601669661E1    -3.158564753461046E-1   -1.004205239775227E2    -6.832544766220777E1    -1.182458178392016E2    -7.922603134889857E1    -7.449366693525364E1
                        -8.542175192270415E1    -2.609796510503773E1    -6.882829251392259E1    -1.195736515833808E2    -1.351559867701513       4.214343073755047E1    -9.365115968573178E1    -1.418189060321192E2
                        -8.362287332289716E1     1.373185728808584E2    -7.993772376147129E1    -1.318768477393790E2    -8.374843274994112E1    -1.765492974747886E2    -1.371735203415513       4.891103428589553E1

 5.525200000000000E7    -2.003599938102971E1    -5.582379030739336      -9.253218426617723E1     1.136892631757066E2    -8.615554900020534E1     1.400896529548236E1    -9.174241665936940E1     1.423662939008884E2
                        -9.169784595902382E1    -1.202574118182795E2    -3.131041895180769E-1   -1.004215045450336E2    -7.023381303836027E1    -1.141540650893256E2    -8.741141464754440E1    -1.209271908306475E2
                        -8.168197474217487E1    -1.669249184400686E2    -6.898123982645303E1    -1.201562820418683E2    -1.356650239038321       4.209604192525639E1    -8.890559212850147E1     1.170561041957254E2
                        -8.802216520843196E1     1.661654022767727E2    -7.799012713686042E1    -1.293205565263286E2    -8.801454752895977E1     1.531243323383106E2    -1.369935071517999       4.894180638083002E1

 5.525225000000000E7    -2.003071861867673E1    -5.377085396242664      -8.560221215280848E1    -7.396247746045631E1    -8.398209579858064E1    -1.766615098817372E2    -1.019816435593715E2    -1.105832312805934E2
                        -8.231572062665327E1     1.630918938282296E2    -3.137658765289145E-1   -1.004221946289173E2    -7.045672373986164E1    -1.257416517185328E2    -9.149675145966569E1    -8.796787933415071E1
                        -9.008400746080505E1    -8.086430498919360E1    -6.857434570344138E1    -1.310592110187033E2    -1.356468523345777       4.215777083846233E1    -8.813477029034817E1    -1.026152202077345E2
                        -8.279574212402459E1    -1.207257302809967E2    -9.252835837510523E1    -1.565990869867192E2    -8.485523418918393E1     2.923101699538707E1    -1.368296524728098       4.891625280033351E1

 5.525250000000000E7    -2.004644873845616E1    -5.493153355159399      -8.177203825644457E1    -1.629655892086489E2    -8.966118995128072E1    -4.037304308584140E1    -8.928424531263111E1     9.811957767700599E1
                        -9.599023302320777E1    -4.768969857286732E1    -3.070764878721720E-1   -1.004289792846556E2    -6.987579386259766E1    -1.221308573076692E2    -9.517929559927157E1    -1.112447475707035E2
                        -8.547095665346645E1    -3.252818189387238E1    -7.066461445131634E1    -1.108818089621843E2    -1.348865009923114       4.213939853808200E1    -8.970464862550736E1     7.675304023183566E1
                        -8.186315576875010E1    -1.269213312507127E2    -8.669789791353118E1    -1.469397424248341E2    -8.853740682904962E1    -4.872964613149608E1    -1.366558511212156       4.893050624523799E1

 5.525275000000000E7    -2.004676213513764E1    -5.571237463304401      -9.778032507635537E1     6.495872022446412      -9.456740031960591E1    -1.151990088084149E2    -8.589455432277369E1     7.010065254854565E1
                        -8.194538167490747E1    -5.914188300985860E1    -3.164659403333627E-1   -1.004870950045590E2    -6.787928376507469E1    -1.259436694270114E2    -7.962693407075798E1    -1.449916382580198E2
                        -8.811440143195300E1     9.573523672096668E1    -6.940103769779816E1    -1.216175049934621E2    -1.352766941422800       4.213802917944307E1    -8.873375211444825E1    -2.176757782674009
                        -9.165405852325284E1     1.200827272467546E2    -8.521275930788468E1    -1.284309850968542E2    -8.727872415613786E1    -1.035212637502337E2    -1.370986033416801       4.888809704510032E1

 5.525300000000000E7    -2.003321143178055E1    -5.589806968034747      -9.054791307437898E1    -2.772943668689798      -9.199577193962647E1    -1.414272103967153E2    -8.934302213649055E1    -1.714012543498535E2
                        -9.899183721831724E1    -1.314930105640154E2    -3.144667092125327E-1   -1.004964780006233E2    -7.124332422322161E1    -1.264160369536421E2    -9.321965353160927E1    -1.198529871461511E1
                        -9.208533784049946E1    -1.640129574994905E2    -6.831642006414198E1    -1.215770849609012E2    -1.355888740639429       4.215092473228354E1    -8.905680052279362E1    -1.631171900201434E2
                        -8.761829087843998E1    -9.859681796696553E1    -8.210025403546851E1    -1.178124817927254E2    -8.725516926975462E1     1.757855952249516E2    -1.369566215479235       4.889333201260610E1

 5.525325000000000E7    -2.004412175465060E1    -5.360301207208159      -9.028374197536807E1    -1.086202829307436E1    -8.876139068403093E1    -5.530363358523572E1    -1.005043393397735E2     2.979522318908926E1
                        -8.315832110022457E1    -7.937219939880382E1    -3.090086280375353E-1   -1.005036244312325E2    -6.809896689903438E1    -1.226368047533719E2    -8.729880520629874E1    -9.931501207013152E1
                        -8.384056441612857E1    -6.498327380662293E1    -6.925593299977987E1    -1.140597010446783E2    -1.351030998164778       4.214973242499955E1    -8.866664173231948E1     8.209258008267712E1
                        -9.540346188193780E1     1.646038979600086E2    -8.012907076427672E1    -1.346783218501237E2    -8.384301812661592E1     6.869128000042340E1    -1.366610576868562       4.887503557896724E1

 5.525350000000000E7    -2.004663851991908E1    -5.543815375708904      -8.946471284790101E1     1.087268017567361E2    -1.058230635330510E2     1.311706253227851E2    -9.507566385507148E1     8.587179400313978E1
                        -8.317284732483871E1     6.104202905076114E1    -3.122688028925748E-1   -1.005114308705531E2    -6.926895286543623E1    -1.143911643867214E2    -8.086886225720384E1    -9.480970510521989E1
                        -9.271309613002674E1    -1.314059148688099E2    -7.102853664263247E1    -1.266702298883201E2    -1.349705316841129       4.214061922689921E1    -9.595757480270420E1     6.021224250346412E1
                        -8.372063434048742E1     1.495600793154349E2    -8.848210358025314E1    -1.036351647787188E2    -8.118884903819256E1    -1.445939075086933E2    -1.368566314583059       4.890144069001877E1

 5.525375000000000E7    -2.004168362390925E1    -5.602199240603686      -9.710969393180749E1    -9.435827207310798      -9.367375178561849E1     1.613259511032724E2    -9.262415932073479E1     1.568103519232437E2
                        -8.259700421707883E1    -4.236196270876333E1    -3.170887821287350E-1   -1.005463036574452E2    -6.728507310403325E1    -1.218575524433891E2    -8.518149857060026E1     1.765606154939773E2
                        -9.389502593221451E1     7.380023164106976E1    -6.869194275545014E1    -1.259150038586061E2    -1.352700309628579       4.213590524542732E1    -8.952516832936597E1    -1.114098845587070E2
                        -8.277986368170815E1    -1.056963057283494E2    -8.216763842821837E1    -8.751997589340905E1    -8.300394732242179E1    -6.840643358802019E1    -1.372113277975031       4.888285638546997E1

 5.525400000000000E7    -2.005486624318245E1    -5.513579295084496      -9.229960331257084E1    -4.018050717103856E1    -9.307178489802551E1     8.512424819412577E1    -8.693220891846545E1     3.034169412914988E1
                        -8.454438323928343E1    -5.081765169626202E1    -3.142283036295177E-1   -1.005693259108905E2    -6.922279513775197E1    -1.265447975063976E2    -9.218621948463527E1    -3.833526130094943E1
                        -8.179003856961428E1     1.692660889916540E2    -6.849998041605218E1    -1.313911192836990E2    -1.348036660575051       4.208771094909700E1    -8.511661591949702E1     7.003602084632688E1
                        -9.430335546574662E1     1.519676580631368E2    -8.419544337554075E1    -1.334821087313447E2    -8.767079678294635E1    -7.771920394340800E1    -1.369574478179731       4.891792854955867E1

 5.525425000000000E7    -2.006810084490947E1    -5.440867719052377      -9.485128566672051E1     1.704633899017117E2    -9.186445945937447E1     9.415142047965037E1    -9.194842158738673E1    -1.514709555520518E2
                        -9.086761003779471E1    -1.295002705025933E2    -3.081787786161210E-1   -1.005966230863225E2    -7.021328287902394E1    -1.121684008311879E2    -8.436790442373818E1    -1.067788048340243E2
                        -8.552585171947875E1    -2.773831124237718E1    -7.053778449651577E1    -1.156600415363171E2    -1.354541230808018       4.210006206662237E1    -8.802628349541462E1     1.412277531420013E2
                        -8.104106904187738E1    -1.566506520080804E2    -8.270696998330149E1    -1.221531995499789E2    -8.594572568270898E1     7.708476298502804E1    -1.370611930851707       4.887086541927945E1

 5.525450000000000E7    -2.004141344402159E1    -5.244242290420454      -1.102923187438748E2     5.133492840870659E1    -1.009376287468005E2     1.442921270624501E2    -9.021351360719976E1     1.542958005463546E2
                        -9.070602916885413E1     1.265284290458512E2    -3.133187085395142E-1   -1.006404961059270E2    -7.035124533542594E1    -1.292940356332643E2    -8.098307414322082E1    -8.997139459302255E1
                        -8.381130966081584E1     1.065312495986428E2    -6.959274815366099E1    -1.055906007375224E2    -1.351423131253208       4.214068930839891E1    -9.465294533606024E1     2.329587448229672E1
                        -8.799756686875378E1    -1.009079143228665E2    -8.301693353432974E1    -1.227438571393750E2    -8.704306485645903E1    -1.808809555120499E1    -1.368330111965700       4.887060700725476E1

 5.525475000000000E7    -2.001133196615566E1    -5.540537166992499      -9.510229012730594E1    -9.882127160927067E1    -9.968372994610610E1    -1.565146494041214E2    -9.431757677873350E1     1.251930133040021E2
                        -8.357900417141457E1     1.230470935110397      -3.185122892410816E-1   -1.006255752010933E2    -7.028679814823903E1    -1.168507251979036E2    -7.902957472763310E1    -8.710968011332419E1
                        -9.342682660620082E1     1.008190377646874E1    -7.063321844887300E1    -1.181440825121555E2    -1.350957419742623       4.214114784705073E1    -8.502808260896970E1    -7.255933556994525E1
                        -8.520777187354219E1    -3.611376514136644E1    -8.219462269296388E1    -1.110082907042617E2    -1.086381777503087E2    -1.451327041315747E2    -1.365617562725260       4.887665539613685E1

 5.525500000000000E7    -2.001752657500689E1    -5.426810709434334      -9.713510661848515E1     3.535779198226512E1    -9.142763026041534E1     6.701865754873261E1    -9.416380606130828E1     2.504410141193153E1
                        -8.213140417049192E1    -1.071281833855455E2    -3.152226729674413E-1   -1.006583155371604E2    -6.784308620628528E1    -1.084957844503719E2    -8.492711537413079E1    -3.637806790788473E1
                        -8.941537691865479E1     1.640727866050160E2    -6.886178552347320E1    -1.182011314355568E2    -1.349764433741648       4.210050228361183E1    -8.406260426086547E1     1.043845365330924E2
                        -8.911555232783506E1     1.272621468772423E1    -9.176743040960842E1    -4.118119452949704E1    -8.942349207881973E1     7.823420809034131E1    -1.369783210867308       4.887140639572471E1

 5.525525000000000E7    -2.004770088833629E1    -5.547652799262880      -8.601602972360026E1    -6.483829765802342E1    -9.113370151673948E1    -1.632958670414816E2    -9.670637567820876E1    -1.272325884093558E2
                        -8.642119334089688E1    -1.234604908805882E2    -3.171055385544800E-1   -1.006877827613159E2    -6.970431643123214E1    -1.070064797364215E2    -8.654921349269456E1    -1.451352582342603E2
                        -8.662332390806046E1     6.221188625373620E1    -6.943795170037318E1    -1.277681308059713E2    -1.350644418997181       4.210755780207833E1    -8.147689267161792E1    -1.463241530730900E2
                        -8.392294570600789E1    -1.530526670800849E2    -7.950640895260915E1    -1.146765617006517E2    -8.617782692017288E1    -1.763281527067004E2    -1.367011971006429       4.886396273849385E1

 5.525550000000000E7    -2.003791487210224E1    -5.522460982597608      -9.293050892786312E1     5.891326948877206E1    -9.021918330658893E1     1.461261835856337E2    -9.290269640824194E1     2.788195362437990
