#  HZ   S   DB   R     50.00 
! Rohde & Schwarz Vector Network Analyzer 
! Rohde-Schwarz,ZNB8-4Port,1311601044102961,2.82
! Created: UTC 2/7/2019, 11:23:15 AM
! freq[Hz]                db:S11                  ang:S11                 db:S12                  ang:S12                 db:S13                  ang:S13                 db:S14                  ang:S14
!                         db:S21                  ang:S21                 db:S22                  ang:S22                 db:S23                  ang:S23                 db:S24                  ang:S24
!                         db:S31                  ang:S31                 db:S32                  ang:S32                 db:S33                  ang:S33                 db:S34                  ang:S34
!                         db:S41                  ang:S41                 db:S42                  ang:S42                 db:S43                  ang:S43                 db:S44                  ang:S44
! 
 3.000000000000000E7    -1.991932230127882E1    -2.019064775726736      -9.188585240651484E1    -1.254427446663894E1    -8.880947735498043E1     7.405230281118864E1    -1.038846290438822E2    -9.328401921468273E1
                        -9.161712910997645E1    -5.083452272676178E1    -2.104280602645189E-1    1.031365460663305E2    -8.451616084161232E1     1.163735599310512E1    -8.668788588307457E1     7.658682708057310
                        -9.052105308414220E1     5.460348307202901E1    -8.484264383187616E1     1.531651853918283E2    -9.025394570759395E-1   -6.596844843500537      -8.372128256194165E1     5.631103143537328E1
                        -9.001140962424441E1    -4.505386206919693E1    -9.281289795940062E1     1.690000814971454E2    -9.101573135282179E1    -1.401570220574048E2    -8.616318185661214E-1   -3.898811241768498

 3.002500000000000E7    -1.988724230589735E1    -1.879204518625379      -8.727431137563332E1    -1.033264676372687E2    -8.969238212955852E1    -3.468773004185731E1    -8.716585347575494E1     1.202305623211560E2
                        -8.500957401602541E1     1.337525137550396E2    -2.124520342049993E-1    1.028649621449959E2    -8.577636542795547E1    -1.422887188112569E2    -8.213835496177318E1     6.060895266927054E1
                        -8.549727259640166E1    -8.306254626078251E1    -9.838498770547750E1     1.005199307802151E2    -8.984674989562245E-1   -6.880462799595842      -8.425501582743391E1     7.721600415228075E1
                        -8.491788726763883E1     1.705350789451261E2    -9.000212908062861E1     6.718038028369514E1    -9.439359444976466E1    -3.108972901785631E1    -8.682604850762477E-1   -4.186504860030023

 3.005000000000000E7    -1.992529433582010E1    -1.884256931565026      -8.920285595508670E1    -7.143941827287650E1    -9.894403216937397E1    -7.883629549408545E1    -1.046970041187605E2    -1.782854436451528E2
                        -7.956287391404932E1    -1.232502462291287E2    -1.983395864817087E-1    1.025928071865920E2    -9.304669355777955E1    -1.305841807688453E2    -8.897876710911223E1     3.861462387710044E1
                        -8.675645703700907E1     6.559965046569147E1    -8.002533512600738E1     4.783986649072445E1    -8.946931021051024E-1   -7.162451751664319      -8.589143723881797E1     1.600700467616264E2
                        -8.754314062933283E1     2.764738713461275E1    -9.403564107906516E1    -3.753225820257629E1    -8.502752712287359E1    -7.915278677796289E1    -8.657980123003588E-1   -4.456416363968069

 3.007500000000000E7    -1.989269869776454E1    -2.109205321661564      -9.054077332216926E1     1.114038488501793E2    -8.928415140519489E1    -1.000281601211331E2    -9.246011997013355E1    -1.372333050997312E2
                        -8.498465519956014E1     1.211047181257136E2    -2.097121869332712E-1    1.022691476213868E2    -8.201324123116835E1     1.243755361615216E2    -8.489493309041522E1     1.075757672203969E2
                        -9.562853785164438E1     1.834572046027550E-1   -9.490272407395932E1     1.401856608231039E2    -8.951252044518516E-1   -7.505768435805927      -8.703174093234446E1    -1.180004307039255E2
                        -9.110203861691903E1     2.518819826695291E1    -8.656756770453784E1     1.110535535117849E2    -8.869052636174358E1     1.328204057406903E2    -8.683300331773768E-1   -4.761390935579992

 3.010000000000000E7    -1.988452502448387E1    -2.046567359275961      -9.543788786993629E1     6.013737492488216E1    -8.926569482412710E1     4.364304424418776E1    -9.209120855157937E1    -7.912331939573853E1
                        -8.909510393990458E1     2.976112014942093E1    -2.100966542375578E-1    1.019586055372391E2    -8.193515044281025E1    -9.423096551420977E1    -8.171020752981278E1    -3.664006113210855E1
                        -7.965275005079319E1     1.670444275962624E2    -8.522739714162556E1    -1.433347817322345E1    -9.021171717923938E-1   -7.808657399846039      -9.273345744736164E1    -1.174884779254632E2
                        -1.016321332463989E2     1.371559808237219E2    -9.271395498760620E1     5.194791966581429E1    -8.307601508150867E1     6.364228851566837E1    -8.691810198223897E-1   -5.060306185452261

 3.012500000000000E7    -1.987552414491962E1    -2.185912396388140      -9.203636406719883E1     3.499062560943487E1    -9.617899443738880E1     1.265601386267096E2    -8.860455920514019E1    -5.490685319161351E1
                        -8.375464658659035E1     7.425843308492790E1    -2.080002309868264E-1    1.016819032759784E2    -8.100544397990574E1     1.083693396205058E2    -8.398995154293212E1     4.830170495150266E1
                        -8.927916773372763E1    -7.641731354608567E1    -8.950362723697646E1     1.584472019245308E2    -8.994536077960630E-1   -8.035905079819841      -8.146704670718236E1     1.366864959655625E2
                        -8.352097629021540E1     7.233740195083561E1    -8.745931815522249E1     2.664812190887102E1    -8.747434253738899E1     1.456496180807181E2    -8.682998478759134E-1   -5.348944873046879

 3.015000000000000E7    -1.993299310037483E1    -1.975625305058329      -9.947206733481758E1     1.255052236300146E2    -9.030521181522835E1     1.314748942657417E2    -8.904328887447866E1     1.437742483213945E2
                        -7.757906526591309E1     1.691948806953354E2    -1.979048259674168E-1    1.013469001116925E2    -9.676029352999713E1    -9.050935705540488E1    -8.286580760073635E1    -4.634539980855303E1
                        -8.704526034670153E1     1.186787459282319E2    -9.287022287775855E1     3.017710332777067E1    -8.983149232374501E-1   -8.360328841119527      -8.674032327618909E1     1.529439432758830E2
                        -8.885742806877798E1    -1.155496145780865E2    -8.729431071363075E1    -3.125778950165095E-1   -1.077425961726633E2     1.573348026292966E2    -8.629322396473214E-1   -5.672194331256137

 3.017500000000000E7    -1.988855924553300E1    -1.847225179208387      -8.630063339162980E1     7.898136895476820E1    -8.638890615536282E1    -1.515533345520678E2    -8.953378379391927E1     5.455353967985101E1
                        -8.090885599029598E1    -7.533308590054668      -2.119900537787108E-1    1.010830374094484E2    -8.254745772436382E1    -4.923959435135135      -8.360036243542351E1    -3.998594207324251E1
                        -8.672612880965671E1     8.410250288348962E1    -8.186358051454019E1     1.726863652500781E1    -9.022270218586923E-1   -8.696586804440480      -8.173610209489306E1    -1.478082890636998E2
                        -7.719062372970589E1    -5.198740130139220E1    -8.930696714985950E1    -9.800490241749041E1    -8.504173601786525E1    -3.062407345977107E1    -8.648181945826117E-1   -5.942838028191884

 3.020000000000000E7    -1.988349372364018E1    -1.754805646777008      -8.830760181394990E1    -1.495616777071692E2    -9.159934261095185E1     1.495711796660254E2    -8.950157558393228E1     1.617464492288698E2
                        -8.076577822965403E1     9.816997720026498E1    -2.035207089289103E-1    1.007535903723181E2    -9.048153685581448E1    -3.852713277973425E1    -1.009338120088848E2     1.585619189265943E2
                        -8.551695085966168E1     1.489067452607898E2    -9.512759594135488E1    -6.491632101482665E1    -8.989634785121521E-1   -8.941476872232768      -9.172820710292592E1     6.314747122185977E1
                        -7.900127680503732E1    -1.826242458742323E1    -9.002334443486907E1     2.431108705500980E1    -8.787266937115113E1    -1.167877864531724E2    -8.656490862495149E-1   -6.241251327203226

 3.022500000000000E7    -1.991353402158122E1    -1.929919363984296      -8.558220205378709E1    -1.582696486136641E1    -9.004401957263468E1    -1.353873332092391      -9.415320883172558E1    -1.355578935007598E2
                        -8.314852889847307E1    -1.296550601302726E2    -2.012553148420642E-1    1.004379719154190E2    -9.273022557962131E1    -5.372875785288901E1    -1.047551133785683E2    -1.304735269514267E2
                        -8.180239685311067E1    -1.439615008142143E2    -8.348036364525414E1    -2.105333799443181E1    -8.974634515340957E-1   -9.269303958150861      -7.986987288983055E1     1.401794915210988E2
                        -8.385159564664498E1     1.773512483986660E2    -9.569344052132584E1     5.944681829764790E1    -8.760187272909958E1     1.280486681498706      -8.684897904186746E-1   -6.501928084438421

 3.025000000000000E7    -1.992608283081102E1    -2.046140773364364      -9.637917452158524E1     9.689554276578886E1    -1.063583100193182E2     1.736140571827647E1    -9.128554157038604E1     4.865162045246003E1
                        -9.709069723638550E1    -1.105350950135187E2    -2.039884135102544E-1    1.001236117385666E2    -9.482555124142826E1    -9.928005270028459E1    -8.424125204400980E1    -8.424167591927150E1
                        -8.155728651914495E1     1.571268008159041E2    -8.438988216070294E1    -7.974290764018198E1    -8.961600341140636E-1   -9.553017513570104      -8.305167057593175E1    -1.104685548913185E2
                        -8.094733687077080E1     1.285074778992797E2    -9.631110274206792E1     1.698031183935819E1    -8.681258807552602E1    -9.698213761487162      -8.687451798802319E-1   -6.774441030956642

 3.027500000000000E7    -1.989756165519307E1    -2.138067366037105      -9.405593049716666E1    -1.047352594079942E2    -8.954685242588283E1    -3.272505667619847E1    -9.201601794149015E1     2.443174527023719E1
                        -8.293390443021448E1    -6.629404030894050E1    -1.963355605080394E-1    9.986504332260758E1    -8.955275756836602E1     4.164808748201007E1    -8.720873497249605E1     2.509881323500222E1
                        -8.534248538857170E1     1.389788768612293E2    -9.217928372834609E1     5.930353352744065E1    -9.002739208705956E-1   -9.910813994803618      -9.169820129965140E1     1.172165618600872E2
                        -8.152854443608260E1     1.694671564234434E2    -8.771806545049672E1     1.757110342495426E2    -8.593652988677687E1     1.596827574794133E2    -8.641913259803015E-1   -7.091306811733375

 3.030000000000000E7    -1.987201289350681E1    -2.012094700246373      -9.371928337110481E1    -4.182541600334687      -9.090823321816507E1    -1.365757320089797E2    -1.027248945405213E2     2.865488103322056E1
                        -8.513799409629833E1    -9.555691105661818E1    -2.024251580747265E-1    9.958933416270124E1    -9.170654284354731E1     8.770502551689738E1    -8.230367885870896E1    -3.930316037945049
                        -8.943381953985410E1     5.412509977785319E1    -7.999898290912715E1    -2.063657230038560      -8.980823512694516E-1   -1.018771479395276E1    -8.242415792937129E1     7.371401702619056E1
                        -8.384321046999037E1    -1.113952486833117E2    -8.335825205201957E1     1.433931894190202E2    -9.634536393458245E1     1.292626555495207E2    -8.620348096013751E-1   -7.380180885656805

 3.032500000000000E7    -1.990503812939841E1    -1.922285363995212      -8.713010584966503E1    -1.538928850926246E2    -9.143376176980175E1     1.753167361265606E2    -8.993476215238817E1     3.401064907222695E1
                        -8.927810640432256E1    -9.755689316386221E1    -2.000001410590763E-1    9.931597326694673E1    -8.351722265554636E1    -9.239955977902035E1    -8.790752171001833E1    -1.934190204664009
                        -8.442139005799723E1    -9.761302492471302E1    -8.613009931910604E1    -1.438621688150196E1    -8.994228359558548E-1   -1.049896957130042E1    -8.986691546443376E1     1.323026784347448E1
                        -8.888812338565495E1    -5.461693567838543E1    -8.802522830531964E1     5.016125347944058E1    -8.386517019917602E1     4.312058908034212E1    -8.702392221273431E-1   -7.657498534720033

 3.035000000000000E7    -1.989019314079743E1    -1.981736797116819      -9.808131006148521E1     6.025241628334955E1    -9.488499472196823E1    -1.381462400813888E1    -8.539296032292334E1    -2.887640370678719E1
                        -1.022576159347873E2     1.722592465735752E2    -1.960884818859260E-1    9.895469668747663E1    -8.638505336646715E1     1.089024292298344E2    -8.501905097778355E1     3.275443668962018E1
                        -8.381467016128366E1     1.670063982712295E2    -9.292673520539809E1    -1.295242721666508E2    -9.000719617122008E-1   -1.078716383707470E1    -8.886756068375127E1     1.684674955872704E2
                        -8.280044692026721E1    -1.543026016863660E2    -8.530682061333675E1     1.306083581350599E2    -9.096844688611760E1    -1.508268695477075      -8.663368031277168E-1   -7.954576954620730

 3.037500000000000E7    -1.989228270956131E1    -2.293762023929416      -9.852980702186667E1     1.118300706453895E2    -8.903816804642457E1    -9.789670559707199E1    -8.804227458439199E1     6.576474839880140E1
                        -8.286400826342621E1    -1.344394854136210E2    -2.056893338020682E-1    9.868356623625023E1    -9.622815451191178E1    -9.326937656629930E1    -8.950650821223549E1     6.152667344187144E1
                        -8.077818599174077E1     8.034550929671566E1    -8.717396700261344E1    -1.853158897115315E1    -8.956331750043285E-1   -1.105043617377865E1    -8.505905636792974E1     1.330167299883168E2
                        -8.368737818507216E1    -8.926088886416282E1    -9.217491134868490E1    -1.351730185820793E2    -8.372093893106785E1     1.645367868951818E2    -8.602605528779274E-1   -8.289586354306701

 3.040000000000000E7    -1.988526481327596E1    -2.095653654689803      -9.290478333359187E1    -1.277232123525691E2    -8.552075557912586E1     1.191299156210607E2    -9.505515274275527E1    -1.708752984253951E2
                        -9.253415714597237E1     1.125365625313718E2    -1.994943316835435E-1    9.837450937509897E1    -8.214850527721900E1    -3.797606645611054E1    -9.391542163169643E1    -5.413808943281912E1
                        -8.473907559810458E1    -7.990228590616092      -8.793313323456752E1    -1.081230216969344E2    -9.021231983328669E-1   -1.139879248645473E1    -8.855285816271197E1    -1.603606605645032E2
                        -8.159083902187275E1     1.699438540566555E2    -9.494039910617377E1    -1.026142198678312E2    -9.663195519490830E1     1.261533299328633E2    -8.643815628187677E-1   -8.546183052384693

 3.042500000000000E7    -1.986792092320019E1    -2.087451702798189      -8.119298014268260E1     1.722614496953666E1    -9.705604597555188E1     4.604419355628870E1    -8.573980635912066E1     8.334828857490305E1
                        -7.861295270744363E1     1.184428553207076E2    -2.018124903987626E-1    9.811713651771045E1    -8.133847959387310E1    -9.224288220744855      -8.998813497432334E1     1.622503662657819E2
                        -9.252752797762442E1    -4.629998395822710E1    -9.485149179224661E1     1.684117202229481E2    -8.977202238476032E-1   -1.167538009866971E1    -8.594069448302670E1     3.927961779666554E1
                        -9.083396624467893E1     1.389103790382235      -8.596504187085128E1    -1.437879902114618E2    -8.887895712209837E1     1.546582771360298      -8.639190433321218E-1   -8.836088790262092

 3.045000000000000E7    -1.991098296984698E1    -2.208512179198810      -8.898779539013398E1     5.627013412715306      -8.934943592432990E1     8.784586035904513E1    -8.764367382352526E1     1.249953285546883E2
                        -8.450266056603944E1     2.743091259510336E1    -1.927776693288232E-1    9.777407670912210E1    -8.001565752516169E1     5.984383361369442E1    -8.525292578191177E1    -1.900477341796385E1
                        -9.739749426215576E1     1.158130656911140E2    -8.929516143679209E1    -1.403671117637815E1    -8.986195404624666E-1   -1.203805660198658E1    -8.273555650671371E1    -6.714896201953519E1
                        -9.436825555861674E1     3.989904186524282E1    -8.484449961346752E1    -7.739106055888333E1    -8.367770914796975E1     6.971357071671939E1    -8.616135126861946E-1   -9.093200182454000

 3.047500000000000E7    -1.991073879885170E1    -2.097217426383784      -9.267010780700504E1    -1.143638891421666E2    -8.965871916150562E1    -3.590772724083153E1    -9.468492574873119E1     1.333643500575026E2
                        -8.163464265897733E1     1.670265005493736E2    -2.048384682470572E-1    9.749085943737354E1    -9.520157497930330E1    -1.169092524647682E2    -9.051753169656629E1    -2.364261668548085
                        -8.166277986572324E1    -1.639171825410432E2    -8.570177195495317E1    -3.049472600027162E1    -8.975426022528530E-1   -1.231379339387686E1    -8.009198450911424E1     5.082707383277107E1
                        -8.123535650788131E1    -6.757709459773783E1    -8.363469550457782E1    -2.310913915953014E1    -8.849105632673059E1    -2.246227356147672      -8.658691361161707E-1   -9.454341953266386

 3.050000000000000E7    -1.986931889899102E1    -1.876955233246495      -9.404048429245509E1     1.260013788396123E2    -9.043605267158287E1     8.539407139366082E1    -8.439380385280575E1    -9.239408045812920E1
                        -9.058019310076000E1    -4.452861104912832E1    -1.948504300017412E-1    9.718363733077543E1    -8.310401950038806E1     1.422730595544134      -8.468579133924010E1    -9.890508679495473E1
                        -7.932058577714851E1    -1.584037452129039E2    -8.732848588019897E1    -8.827755925562441      -9.024656174272600E-1   -1.264133760731258E1    -8.392397440693779E1     5.838736119781592
                        -1.003699365203955E2    -1.952702060327551E1    -8.855808096298202E1    -1.541017476211065E2    -9.670514467396659E1    -2.488947794947598E1    -8.634657429244979E-1   -9.738903514652337

 3.052500000000000E7    -1.987871653932656E1    -1.997999283647954      -9.468502455693938E1     7.805721648009971E1    -9.738389038415232E1     5.126546178551751      -8.508479105386343E1     9.194392698301380E1
                        -8.322984802016302E1    -1.364571609938521E2    -1.994959844236448E-1    9.690140183421043E1    -8.855814368624478E1     5.891743112493417E1    -8.022049906056481E1    -3.982181310067176E1
                        -8.335956838010412E1    -3.123245610620971      -8.669649959621998E1     1.754128776696585E2    -8.962977046781677E-1   -1.293531729454028E1    -8.516984251817721E1    -4.148494675665838E1
                        -8.278496274754994E1    -5.077570260613184E1    -9.122768924066838E1    -1.419717565001643E2    -8.911495475113811E1    -1.705889042615535E2    -8.661721782976201E-1   -1.000338753538192E1

 3.055000000000000E7    -1.988780050246544E1    -2.203702890130530      -8.904050935538325E1     1.098043544242181E2    -9.108057506333688E1    -1.093955403596240E2    -8.895331882298974E1     5.127295582433629E1
