#  HZ   S   DB   R     50.00 
! Rohde & Schwarz Vector Network Analyzer 
! Rohde-Schwarz,ZNB8-4Port,1311601044102961,2.82
! Created: UTC 2/5/2019, 1:40:49 PM
! freq[Hz]                db:S11                  ang:S11                 db:S12                  ang:S12                 db:S13                  ang:S13                 db:S14                  ang:S14
!                         db:S21                  ang:S21                 db:S22                  ang:S22                 db:S23                  ang:S23                 db:S24                  ang:S24
!                         db:S31                  ang:S31                 db:S32                  ang:S32                 db:S33                  ang:S33                 db:S34                  ang:S34
!                         db:S41                  ang:S41                 db:S42                  ang:S42                 db:S43                  ang:S43                 db:S44                  ang:S44
! 
 5.525000000000000E7    -1.817462335464374E-1   -9.894421943137803E1    -9.869231301367620E1    -2.702811190362278E1    -6.784725186294548E1    -1.239019632500488E2    -7.495038728413843E1     1.698682190958528E2
                        -8.793022510855694E1     1.275618649234481E2    -1.966298604164566E1    -4.946593854980534      -9.691954008118501E1     1.725966408617259E2    -8.707971197012662E1    -5.815071604975706E1
                        -6.816295485616868E1    -1.232593444041003E2    -9.166543581724822E1    -1.074484426404718E2    -1.331016252383446       5.211895778572952E1    -8.245583723445648E1     1.371538716074269E2
                        -7.916444749751375E1    -1.259725307236699E2    -9.103031590071026E1     1.068281076277459E2    -8.747795824460182E1     2.635455349866003E1    -1.325728776910298       4.587740534557963E1

 5.525025000000000E7    -1.755502930407387E-1   -9.894658383360259E1    -8.442935443230246E1    -1.706810335448751E2    -6.787161003472663E1    -1.112434652933968E2    -8.661275561801725E1    -4.785621769284259E1
                        -9.513024117433758E1    -1.778595360390297E1    -1.968602462548775E1    -5.154203568477865      -9.110021299079489E1    -1.165763382897526E1    -8.888866338584174E1     1.073167429721987E2
                        -6.822863349875838E1    -1.193098074966634E2    -8.357018575316113E1     8.456158210648334E1    -1.327715970185794       5.212545326498377E1    -8.870990926721264E1     1.799650322201420E2
                        -1.089305626796368E2    -4.627435744870442      -9.696124625800036E1    -4.299699615018454E1    -8.925975210966689E1    -1.987230814160597E1    -1.325703483520145       4.587505027222289E1

 5.525050000000000E7    -1.820762174003842E-1   -9.898370391545703E1    -8.678454031007158E1    -7.987340419779053      -6.934355832671477E1    -1.215085019646977E2    -8.256899643948677E1    -1.369331809644064E2
                        -8.714893085947922E1    -1.341480103131108E2    -1.968622033607104E1    -5.037311942639036      -8.573812600527646E1    -3.978128008079627E1    -9.845687645915666E1    -1.254463173556777E2
                        -6.732997649346130E1    -1.098546162440340E2    -8.459923293332497E1    -6.060478748860533      -1.328921930785898       5.215632117744475E1    -8.580744980448566E1    -1.491539346869635E2
                        -8.846918705755749E1    -9.177232655823045E1    -8.123366627998038E1     1.658207292817726E2    -8.374594033629775E1    -5.631190144038924E1    -1.326380221394456       4.586799361489474E1

 5.525075000000000E7    -1.795720075235130E-1   -9.898934959151475E1    -8.023033985505178E1    -8.792512145129682E1    -6.786381085718999E1    -1.114952470403852E2    -8.346690777497500E1    -1.043116600234097E2
                        -9.017771236369343E1     1.370350843924199E2    -1.967144470076981E1    -4.943159026193369      -8.596752813574192E1    -7.140400643403541E1    -8.887919193089915E1    -1.770991497401068E2
                        -6.789481943232360E1    -1.150041138463817E2    -7.763682066042355E1     8.529027053074894E1    -1.331635678099797       5.212733640974155E1    -8.638210831125517E1    -1.369392794746747E2
                        -8.114399917128232E1    -1.568248686413812E2    -8.781535286068035E1     2.269415558197994E1    -9.522285957655043E1    -4.473757232932495E1    -1.325448151539225       4.586708141602919E1

 5.525100000000000E7    -1.784751111031652E-1   -9.899123054664257E1    -9.080656392477495E1    -6.676820945914325E1    -6.724205208903314E1    -1.113174884800516E2    -8.269120561073855E1    -9.965555217252253E1
                        -8.398941693568054E1    -8.606342940786608E1    -1.966084823460331E1    -4.851782206896260      -9.189766864285704E1    -6.051421910940642E1    -9.082791893902048E1    -9.574515657126187E1
                        -6.931240187690301E1    -1.222867643770756E2    -8.632007742681361E1     1.603022125085960E2    -1.331906520444026       5.213558065205511E1    -8.728647155382967E1    -1.009223581892485E2
                        -9.369398609068006E1    -1.783098483350462E2    -8.269457506637315E1    -1.390984903553704E1    -8.379453438735943E1    -1.198618482683364E2    -1.327829061765168       4.584638916972136E1

 5.525125000000000E7    -1.775552219114073E-1   -9.903754580571160E1    -8.105879471044588E1     1.655313103315712E2    -6.791560269709773E1    -1.179186223356655E2    -8.582947324102244E1    -2.655745499839758E1
                        -8.765517694140799E1     2.610056819148069E1    -1.962782311668849E1    -5.011634416795980      -9.656296753132820E1    -1.518544288717914E2    -8.996283346149698E1    -7.968328926365224E1
                        -6.681567446140033E1    -1.112885153526063E2    -9.310674002645732E1     1.154265441142722E2    -1.327772096414753       5.211205796471490E1    -8.068023529315921E1     7.079627278772082E1
                        -9.172395054251778E1    -1.016961343513399E2    -8.704789366373430E1     1.701323316174760E2    -8.372641604552331E1     1.429924975685140E2    -1.324594417690957       4.585954007592630E1

 5.525150000000000E7    -1.809957257678621E-1   -9.905552513110929E1    -8.307092385643023E1     3.478161899420377E1    -6.614393508022216E1    -1.158857565196453E2    -8.175833628105862E1    -8.896791179461799E1
                        -9.097514688108704E1     4.680714981738002E1    -1.967232015479475E1    -5.138498266090230      -9.788876509902102E1     5.847624120792456E1    -8.772049359462054E1    -8.794463858518490E1
                        -6.765064493055621E1    -1.023413294981263E2    -8.458603989786275E1     1.042314759844401E2    -1.332187452329820       5.213606610349264E1    -9.912304138501570E1     3.566125076060882E1
                        -9.461340713793427E1     1.734806977116836E2    -8.902884845678079E1    -1.091140612785219E2    -8.446206868455116E1    -1.763809848492504E1    -1.325110194777933       4.587235185069461E1

 5.525175000000000E7    -1.768473701290257E-1   -9.908018673824751E1    -9.688869556185412E1    -4.629911992740083E1    -6.754264138746834E1    -1.219934001872209E2    -9.440888496089670E1     2.302685126807262E1
                        -8.606778474947134E1     7.209997426185655E1    -1.965095191790069E1    -5.033298235962177      -9.717902150700414E1     1.248691981326868E2    -9.145363123394799E1     1.590678568723763E2
                        -6.824918611426253E1    -1.153098995537776E2    -8.465574717787469E1    -1.199138132150164E2    -1.330722494998444       5.209874852713634E1    -8.306503387126412E1    -7.125755522839068
                        -8.893249650737901E1    -1.295337007235164E2    -8.618360934954359E1     7.702748559018367E1    -8.240679959196321E1    -6.267618089169724      -1.328891069353738       4.584247411783503E1

 5.525200000000000E7    -1.779162344366716E-1   -9.909589286369472E1    -8.373359596202506E1    -1.615152925308643E2    -6.856416970612331E1    -1.122990468112751E2    -7.812143141417829E1    -8.563242322844549E1
                        -8.909522581431611E1     9.151760294770122E1    -1.967810315566944E1    -4.891952949750554      -9.474372341808285E1     9.332085667661437E1    -8.527249761605818E1     6.736317442511242
                        -6.759973314034100E1    -1.151176518773512E2    -8.436987940199698E1    -1.316618142297767E2    -1.333745280673756       5.210535768022954E1    -8.413640876876801E1     4.085863080188150E1
                        -7.751095209957002E1    -1.113070201830947E2    -8.196822908923161E1    -7.247879944258102E1    -1.086580617475652E2    -9.467123955396211E1    -1.326778774848611       4.586277481389701E1

 5.525225000000000E7    -1.789519367607248E-1   -9.912686714178837E1    -8.166055951499840E1     3.796777408442080E1    -6.943646367027230E1    -1.175268172530864E2    -1.143789837408955E2    -9.026989485189137E1
                        -8.828729365426987E1    -1.750864667612442E2    -1.965275855031024E1    -5.018459606484006      -8.965549149323178E1    -1.727249700608015E2    -8.656794942835164E1     1.589783219340281E1
                        -6.791971579216445E1    -1.114975544716410E2    -8.208899784257760E1     1.316504723056967E2    -1.335613972589986       5.209717843693986E1    -8.336913783496308E1     1.347980041404869E1
                        -8.010018448549923E1    -1.171221494000978E2    -1.014138572339095E2    -1.200074942977542E2    -8.650694827003946E1    -4.571040061668563E1    -1.324734077996420       4.583619192713034E1

 5.525250000000000E7    -1.769571548547993E-1   -9.916078957104891E1    -8.369628475703547E1     3.356336610381587E1    -6.664464056250685E1    -1.090237622068240E2    -8.603871102376297E1    -1.028185102638843E2
                        -8.823677646679954E1    -1.367618900104656E2    -1.965137278057116E1    -5.067611764595086      -9.050109745357031E1    -2.544222884940021E-2   -9.185679215999201E1     2.096716355132061E1
                        -6.635178951676483E1    -1.202669673510261E2    -8.671782665898384E1     2.794124005821081E1    -1.330606221571765       5.211836038549770E1    -8.862974507748152E1    -1.644003536043311E2
                        -9.449740175424446E1    -1.779958293715751E1    -8.930821938993890E1     5.219162791463990E1    -8.848129986466992E1     1.352944110040450E2    -1.324837478953659       4.583908039472196E1

 5.525275000000000E7    -1.784552307947265E-1   -9.916809754834264E1    -8.218094800540877E1     7.919642859057866E1    -6.867419305678536E1    -1.134541327659838E2    -8.790462384747094E1     1.495026580480270E2
                        -8.618628297654061E1     8.026250751373780E1    -1.966655461111807E1    -4.966466995144283      -8.843101736856526E1    -9.498505055660064E1    -8.462792053407890E1     1.092910722220616E2
                        -6.907360708246841E1    -1.176357718233722E2    -8.844122722832778E1     6.682528130875348E1    -1.334333020850757       5.208110543563782E1    -8.057602841471763E1    -5.550710581364786E1
                        -8.555517420862857E1    -9.050330310081043E1    -8.242320383177984E1    -1.776299624513903E1    -9.308398411712017E1     1.787763906445856E2    -1.323012322703951       4.585617717952380E1

 5.525300000000000E7    -1.780201673931772E-1   -9.919745475073073E1    -8.118397971410795E1    -5.042929597226097E1    -6.787623891064879E1    -1.161521974593716E2    -8.488750088121194E1    -7.593162607964642E1
                        -9.263875763547239E1    -1.642520633667211E2    -1.968296032311448E1    -5.210879301126201      -9.431470330642929E1    -1.302657482596707E2    -9.461493658974511E1     1.664430398426107E2
                        -6.748378558614922E1    -1.206969197310172E2    -8.220195570370930E1    -8.626784362601316E1    -1.337282699689619       5.209200514126702E1    -8.218532345673579E1    -2.306115213492188E1
                        -8.295730792628157E1    -1.484619444505180E2    -8.717755544524874E1     1.610719953574416E1    -8.297685924841439E1    -1.682296111005593E2    -1.321580403116475       4.583751987329381E1

 5.525325000000000E7    -1.808579287846678E-1   -9.918903743406479E1    -8.246872882832214E1    -2.376548275976397E1    -6.972227530662295E1    -1.102001698725584E2    -8.199254260968797E1    -3.023232833719782E1
                        -8.695272710705942E1    -7.288452974926004E1    -1.965996372145342E1    -5.056885327665738      -8.475880572245900E1    -1.120610706023230E2    -8.705999308895953E1    -2.644522477670990E1
                        -6.764416949073603E1    -1.125380534482425E2    -8.907337656978532E1     2.724259621722912E1    -1.329985344198801       5.208633207926573E1    -8.967470372920917E1     1.359266705496196E2
                        -8.157290718188395E1    -1.333218362930319E2    -8.635222783329394E1    -1.500686169283149E2    -7.993649260760527E1    -1.702798304808291E1    -1.327516730910825       4.585118389924423E1

 5.525350000000000E7    -1.786259664780265E-1   -9.923298248323761E1    -8.646522073517548E1     1.377944538943868E2    -6.875578755657438E1    -1.120105903190122E2    -8.182660451259865E1    -6.321935814381890E1
                        -9.314496157878250E1     6.635169228333551E1    -1.968323677952558E1    -5.100268037445648      -9.326229696207247E1     2.644276302700691E1    -9.226156958141465E1    -1.507189920951639E2
                        -6.809596720985968E1    -1.031290189730215E2    -9.422503308734014E1    -1.530592372656669E2    -1.325967811604308       5.212521749826094E1    -9.486623055334057E1     1.165009050102399E2
                        -8.449269350599946E1    -9.894112973191382E1    -8.559640328546159E1    -1.272145745709595E2    -8.688668539647458E1     6.240356190812053E1    -1.324963758039167       4.583857820987127E1

 5.525375000000000E7    -1.777916518256009E-1   -9.922682063638587E1    -8.086220291578258E1    -5.704617877235576E1    -6.774833433637657E1    -1.140208968617919E2    -8.030915553698740E1    -1.256467901446811E2
                        -9.333492373802341E1     1.716019661163766E1    -1.963166684543667E1    -4.996003944155354      -9.610279151150287E1     1.016276233557165E2    -8.842944640959399E1    -2.107227464012363E1
                        -6.624347995168745E1    -1.142546732889734E2    -8.282322746898024E1    -1.368101545257397E2    -1.332141065419255       5.206305107460734E1    -8.663346182190881E1    -7.580468830104940E1
                        -8.227428221023050E1    -9.128295127943314E1    -9.658912851001973E1     4.460741134870595E1    -8.772554963696763E1    -1.719189371135934E2    -1.325238586908515       4.585242677989769E1

 5.525400000000000E7    -1.818593186248083E-1   -9.926676785242432E1    -9.153232444453951E1     8.763105018174370E1    -6.803261721794463E1    -1.223637736063566E2    -9.654734157672733E1     1.621394979000023E2
                        -9.579247962397572E1    -9.686352997040957E1    -1.963051949313875E1    -5.008252958189527      -9.243578760921096E1    -2.695103733575089E1    -8.756044568911239E1    -3.075604881753510E1
                        -6.754854848785928E1    -1.188092205014601E2    -9.038624755431015E1    -9.569522431941502E1    -1.326484262556773       5.207782017815385E1    -8.859840098771572E1    -5.142231854170753E1
                        -8.726828473440105E1    -1.022036348485417E1    -8.858798653193097E1    -3.548647289006987E1    -8.061827983245792E1    -3.750241687120882E1    -1.329635410773150       4.585063708979995E1

 5.525425000000000E7    -1.819069235357962E-1   -9.931671562470498E1    -8.540024867896534E1     1.563491469630975E2    -6.784858169669839E1    -1.202876430882146E2    -8.165725432931194E1    -9.649355971218576E1
                        -9.303877269359924E1     8.122596001192626E1    -1.967172708589187E1    -5.036383422615083      -9.925884843957920E1     1.740541385111809E2    -1.006277210321737E2    -8.552748011127140E1
                        -6.802338419865662E1    -1.250822211916531E2    -8.976210641775880E1     1.792903097087036E2    -1.329660755922706       5.208206037388476E1    -8.694754100287202E1    -7.416710744464339E1
                        -8.648474928211023E1    -1.625446905014938E2    -9.417759036738963E1     1.674254301533840E2    -8.859073032666021E1     1.737862816436782E2    -1.325875188049978       4.579782213957214E1

 5.525450000000000E7    -1.794013413854736E-1   -9.930963075388986E1    -9.735899245862058E1     1.639192681730530E2    -6.926210513039531E1    -1.130112736670418E2    -7.727669484832494E1    -1.412888675990988E2
                        -9.159711775658836E1    -1.035212715723592E2    -1.965525133853817E1    -5.275167365183357      -9.439088801683835E1    -1.673468926186434E1    -9.022356834265933E1    -1.076284890190352E2
                        -6.787722374799770E1    -1.126352590491136E2    -8.524910161162175E1    -1.179227740824235E2    -1.331267621611840       5.204383931516330E1    -9.012171941970200E1    -1.159086966096123E2
                        -8.228099376816019E1    -1.516703590426674E2    -9.482434178994402E1     2.195334438569902E1    -8.222124641252478E1     1.185342367187213E2    -1.326815466523682       4.583597861087196E1

 5.525475000000000E7    -1.758345100534763E-1   -9.933731986551443E1    -8.908313016515415E1     4.772438309041441E1    -6.673220490243259E1    -1.238762539418544E2    -8.693668929798939E1    -1.168259058839218E2
                        -8.897432459324872E1    -1.391122114412943E2    -1.964894750915133E1    -5.256985716073374      -1.012181833940127E2     1.356958892133953E2    -8.708184272268952E1     6.725468567510185E1
                        -6.772302416049529E1    -1.203659781536386E2    -8.479730704300508E1     1.015812593459535E2    -1.334959069556629       5.210211327772203E1    -9.072997213754782E1    -1.394195056383763E2
                        -8.676539903172545E1    -1.112334300315167E2    -9.064309963193961E1     7.473747875760937E1    -8.091596674881536E1    -6.615359511230260E1    -1.320323970550549       4.579990280349136E1

 5.525500000000000E7    -1.773143725494687E-1   -9.934495288041705E1    -9.443857721319287E1    -7.558595776310361E1    -6.815351154435378E1    -1.230915421435957E2    -7.798496692783699E1    -7.691572512374050E1
                        -9.458267179677719E1    -1.037930236076206E1    -1.964384756304151E1    -5.144082855198422      -9.174759632897064E1    -1.573073531817388E2    -8.570185632147124E1     1.402372124616502E2
                        -6.869682398583701E1    -1.156107127840991E2    -8.557205823209654E1    -3.609060035753279E1    -1.333463167289091       5.210423920578722E1    -8.133759085564348E1     9.987194392611995
                        -8.473119646871481E1    -8.650215889190039E1    -8.852877488599462E1    -5.500819315424648      -8.112090895771385E1     5.052079210935325E1    -1.324151103791364       4.583876514818069E1

 5.525525000000000E7    -1.779416598036690E-1   -9.935753431110624E1    -8.218398714225887E1    -5.886786660880540      -6.771742665910695E1    -1.149834404224034E2    -7.839973060893691E1    -8.563239057768784E1
                        -8.678128115860460E1     4.149199514183517E1    -1.966889922078776E1    -4.926161656229266      -9.378962466093512E1    -6.549482211098430E1    -9.149017224940097E1     5.962064065417609E1
                        -6.747030348185517E1    -1.100342130820770E2    -9.260907483384494E1    -1.646866387551864E2    -1.325505690298783       5.206770932602144E1    -8.333443552783177E1     1.345846431399789E2
                        -9.512574866328887E1    -1.078453359000119E2    -8.133759465368117E1    -9.972659151822488E1    -9.004757319694576E1    -1.671202899646107E2    -1.320839908924849       4.584403310056926E1

 5.525550000000000E7    -1.786634485995878E-1   -9.940074652931189E1    -8.762717718412817E1    -1.693688847639459E2    -6.806904072852517E1    -1.138698812549514E2    -8.362178554352485E1    -1.682534805713854E2
