#  HZ   S   DB   R     50.00 
! Rohde & Schwarz Vector Network Analyzer 
! Rohde-Schwarz,ZNB8-4Port,1311601044102961,2.82
! Created: UTC 2/7/2019, 11:27:03 AM
! freq[Hz]                db:S11                  ang:S11                 db:S12                  ang:S12                 db:S13                  ang:S13                 db:S14                  ang:S14
!                         db:S21                  ang:S21                 db:S22                  ang:S22                 db:S23                  ang:S23                 db:S24                  ang:S24
!                         db:S31                  ang:S31                 db:S32                  ang:S32                 db:S33                  ang:S33                 db:S34                  ang:S34
!                         db:S41                  ang:S41                 db:S42                  ang:S42                 db:S43                  ang:S43                 db:S44                  ang:S44
! 
 3.000000000000000E7    -1.982765815649874E1    -3.083707911801718      -9.336883597632421E1     1.549221786266959E2    -8.795411688309440E1    -1.175306297144797E2    -9.174118305664095E1     9.640273194707461E1
                        -8.661850422569479E1    -1.892710661862730      -2.431770139044659E-1    1.028962412015913E2    -9.176473701256970E1     6.576328388161612      -8.095527167539238E1    -1.433628083816266E2
                        -8.944702008556483E1    -1.506805232637492E1    -8.179262054989431E1     6.474145912893563E1    -8.985161972100721E-1   -1.005166502894650E1    -9.512807443386727E1    -8.081263387482265E1
                        -8.558413717365016E1     9.923156334921025E1    -8.724504964866026E1    -1.221850742315729E2    -8.905919273783081E1    -1.484530215926204E2    -8.657250547660185E-1   -7.348141787896227

 3.002500000000000E7    -1.983397841118297E1    -3.214991472350320      -8.738479934097001E1    -9.373012498244806E-1   -8.770265635976941E1    -1.534040823024756E2    -8.798324868260539E1     1.313447205783864E2
                        -8.584239013290549E1    -1.701426763773945E2    -2.420192556393619E-1    1.026027509066539E2    -8.928536830922610E1    -1.013995001524986E2    -8.598953640943607E1    -2.594032689288927E1
                        -8.167937084798183E1     1.269891141963103E2    -9.081252414941885E1    -6.099410867033897E1    -8.988285501715233E-1   -1.039455198446109E1    -8.545754366000081E1     3.293914004386735E1
                        -8.453013789244173E1     2.767833631364008E1    -9.272614274293193E1    -2.147862533274432E1    -8.436463109582192E1    -8.524109155699831E1    -8.689253621469429E-1   -7.653346346506397

 3.005000000000000E7    -1.982572792105114E1    -3.047433226884726      -8.696852129077524E1    -8.462159573398593E1    -8.984244337918177E1    -9.822791410687680E1    -9.232733361408107E1    -5.958940900456453E1
                        -8.979404338847689E1    -1.535366920339689E2    -2.377522946049090E-1    1.022846395998327E2    -8.479057696982834E1    -6.355255251524855      -8.575117213560061E1    -5.512287284574117E1
                        -8.308394574553994E1     1.370679132765012E2    -8.781009692525382E1     7.953014292674067E1    -8.940348604038795E-1   -1.069126255371892E1    -8.907055488436640E1    -1.730730420690244E2
                        -9.006110731348592E1     1.663214102727416E2    -8.567572566795016E1     2.335164563139576E1    -8.858487298134618E1     8.191439879294013E1    -8.662867819502885E-1   -7.975748933665426

 3.007500000000000E7    -1.981464065596207E1    -3.042567034401286      -9.233864556255000E1     6.649861347248373E1    -9.021725836808501E1     1.536312989826973E1    -9.081228987444439E1    -1.148602956621836E2
                        -7.985454919585362E1     2.092837731260074      -2.342375402287722E-1    1.020201168434536E2    -8.987141761007821E1     2.297830997132034E1    -8.261045922296034E1     9.025890390586486E1
                        -8.663894235568792E1    -1.108470172102037E-1   -8.327581676313801E1    -5.470006347122367E1    -8.994725759500801E-1   -1.098535064948611E1    -8.150032691916994E1     4.305267101433935E1
                        -8.142718399353028E1     6.079824183263369E1    -8.084333416611904E1     4.491635875684925E1    -8.786660106694386E1     1.034957346417092E2    -8.636761715737567E-1   -8.248084284658269

 3.010000000000000E7    -1.985053416116084E1    -3.225125728397758      -8.920071184247270E1     7.167113602362693E1    -8.766672294702829E1    -1.796562164581168E2    -8.694581150084881E1    -3.518135565779306E1
                        -8.529483283132423E1    -8.795791155658777E1    -2.368842239659516E-1    1.016890324648483E2    -8.399565064961723E1    -1.719353577248410E2    -8.424008452980941E1    -1.152003550017503E2
                        -8.654178944415301E1     1.202544029938380E2    -8.237412277713163E1    -3.651950603294724E1    -8.929895357706044E-1   -1.127024694482364E1    -8.498051561768607E1    -4.991368037634772E1
                        -8.837866991765836E1    -1.205670048145391E2    -8.923282852767629E1     8.420776108941325E1    -8.630188917389488E1    -9.611873796069077E1    -8.622850149012763E-1   -8.529863853890022

 3.012500000000000E7    -1.984696066900871E1    -2.865710603238889      -9.375259512778075E1    -1.662952231892427E2    -9.479843406530657E1    -8.244762487243426E1    -9.587114578365993E1     1.246725406214805
                        -8.235786021041689E1    -1.081248177006312E2    -2.398950698787182E-1    1.014200843013830E2    -8.465217672590642E1     1.400221089886938E2    -8.550220525165146E1    -1.260985029098628E2
                        -9.041830523259749E1    -2.518899968198650E1    -8.337626561603459E1     3.932769198901552E1    -8.937376649048333E-1   -1.156598435207687E1    -9.375559139374310E1     6.783025188219897E1
                        -8.528557142329311E1    -1.259241241866074E2    -8.878285109820693E1     1.174749100289869E2    -8.656385178500122E1     1.003629170415385E2    -8.680326126244221E-1   -8.840397186844424

 3.015000000000000E7    -1.982874768164698E1    -3.143558596485687      -8.798043470343572E1    -1.208237581604770E2    -9.408926136312880E1     7.340650657764637E1    -8.902891282521946E1    -8.503307859602707E1
                        -8.262263482115090E1     1.352684367031353E2    -2.307538948425999E-1    1.011410491105450E2    -8.656584898907560E1    -1.080770314561422E1    -8.273927315553041E1     1.557859689391775E2
                        -8.675553374730245E1     5.731059314841434E1    -8.838334847166179E1     4.156325360754505E1    -8.953656941798782E-1   -1.189701503180689E1    -8.588128328507980E1    -6.581528557950153E1
                        -9.091932227900946E1    -6.790111468170280      -8.039319614925955E1    -1.268703667438315E2    -9.667146960703123E1    -1.535491333050757E1    -8.678133705536615E-1   -9.106438531239782

 3.017500000000000E7    -1.982815697328457E1    -3.365473397689768      -8.924960130972048E1    -1.527873585735467E2    -9.564790911296889E1    -1.355094136814674E2    -9.112889362045154E1     8.710387343783917E1
                        -8.706764192979634E1     8.347978888066074E1    -2.236406343273578E-1    1.007951470074831E2    -8.889739613466162E1    -5.878594747433406E1    -8.310963446589335E1     1.655780571250858E2
                        -9.368552317282453E1    -8.461585218080282E1    -8.579724025689816E1    -5.694148948898761E1    -8.960323460139884E-1   -1.220526483481206E1    -8.373876132600606E1     1.680157004678110E2
                        -8.345827766623887E1    -3.836741976786266E1    -9.296230481076523E1     2.922140965933752E1    -8.455387134392964E1    -7.507432252282660      -8.717520696719279E-1   -9.378125723243134

 3.020000000000000E7    -1.983089657678697E1    -3.313907106383971      -8.364852852683661E1    -1.753426889554428E2    -8.618704693463275E1    -1.417396273207877E2    -8.903705448104810E1     2.417200952375962E1
                        -8.999668509578159E1    -2.946994331008227E1    -2.335708882265852E-1    1.005138099231405E2    -8.224209995009466E1     1.788056538168437E2    -8.259064902242449E1     9.862025290216597E1
                        -8.674810172747407E1    -8.975700010898386E1    -8.819864074384944E1    -2.781747665902715      -8.987621673003564E-1   -1.248347624061283E1    -8.211800542670119E1     1.405615687578315E2
                        -8.710873022286722E1    -2.051084921171729E1    -8.362884949476413E1     5.909051383951381E1    -8.789183363424448E1    -1.753290779875092E2    -8.617952616514497E-1   -9.696256372095469

 3.022500000000000E7    -1.984228603626373E1    -3.056260416362380      -8.494443864896896E1    -6.666250526261267E1    -8.328853468158533E1     4.717254521959472E1    -8.755432678760698E1    -4.533770612589226E1
                        -8.247477359149563E1     4.776732740583762E1    -2.200653796685964E-1    1.002066965526867E2    -9.699122920376594E1     1.317020853390885E2    -8.482572711256788E1     1.648242143533143E2
                        -9.120242391676051E1     1.242909682894676E2    -8.756439713038587E1     6.490234909888393E1    -8.967811734379526E-1   -1.280798527492468E1    -8.736751125292854E1    -1.318960618684455E2
                        -8.159623464795504E1    -1.453297903021926E2    -8.724471582418784E1     6.004813085478670      -8.657584501026868E1     2.368892375838711E1    -8.624152029833729E-1   -9.983114822979168

 3.025000000000000E7    -1.980888845516752E1    -3.140660270838443      -9.037674191902588E1     1.487767098609793E2    -9.628743421407081E1    -7.349845974978094E1    -1.023889066866194E2     1.064224069763404E2
                        -8.451076629382271E1    -1.242755876025308E2    -2.307607618477419E-1    9.991274856721280E1    -9.449736262156847E1    -1.179607374005018E2    -8.417838429502052E1    -1.737691344637868E2
                        -8.797863959451759E1     3.083272998956223E1    -9.027293680910796E1    -2.521426043104077E1    -8.957470322243419E-1   -1.308042291060500E1    -9.087152225096676E1     1.526156985757185E2
                        -8.566039366798096E1    -1.304711456515591E2    -8.457807374836423E1    -5.367256651219039E1    -8.881960674032312E1    -2.801536911433263E1    -8.638640791246776E-1   -1.031709551451348E1

 3.027500000000000E7    -1.984249969213450E1    -3.150286183014038      -8.304280560643824E1     6.181258048319423E1    -9.527017147875414E1     1.267826738325876E2    -1.000442252287327E2     7.656908649045234E1
                        -8.368224344938277E1    -1.381733112626223E2    -2.355998831085505E-1    9.961371906001627E1    -8.184427010640653E1    -7.601242689679270E1    -8.619571010744024E1    -8.308111576549210E1
                        -9.058746113834624E1    -1.410930274201070E2    -8.611974163257784E1     1.735636276458173E2    -8.913926859756560E-1   -1.342689200653504E1    -1.010081524263408E2     1.466218430404528E2
                        -8.384771588543332E1    -8.051005943813961E1    -8.507095750906986E1     8.005055399747195E1    -8.110502932346824E1    -8.951621655725832E1    -8.672295405321322E-1   -1.056867265740887E1

 3.030000000000000E7    -1.982818094126152E1    -3.197197757322591      -8.660924872379830E1    -1.793068129804462E2    -9.067754160637990E1     1.230806806250364E2    -9.608503507321953E1     1.148080424353507E2
                        -8.458751374103903E1    -6.379081116122354E1    -2.357832732997049E-1    9.934640889582880E1    -8.427274275006178E1    -1.381602019852102E2    -9.953340904281653E1    -7.205147423637013E1
                        -8.095518030532888E1     1.260577851844488E2    -8.736884693298165E1     1.204349234875604E2    -8.936973388269119E-1   -1.373232581733105E1    -8.282676664904096E1     1.618644351322938E1
                        -1.059624606611691E2    -1.331062250334014E2    -9.521076161434779E1     1.546877794058737E2    -8.563177648246986E1    -1.449049986907354E2    -8.713656342016793E-1   -1.085122113113474E1

 3.032500000000000E7    -1.982621679613810E1    -3.122595016941002      -9.274844757558324E1    -1.123850578218357E2    -8.707172904671333E1     7.621829849949329E1    -8.932481030577404E1     1.092400882710817E2
                        -8.713379870479976E1     1.626062435876094E2    -2.371240173207194E-1    9.905273722120745E1    -9.177474200121890E1     1.664917616158425E2    -8.578410089320023E1     1.475300801741788E2
                        -8.582710811185372E1    -1.726810322211263E2    -1.025660466739431E2     2.230987384902342E1    -8.976352193871312E-1   -1.401292220797451E1    -8.643321370531744E1    -1.170599173826985E2
                        -8.098165103428990E1    -5.578886177359817E1    -8.274609341873180E1    -4.547272099763961E1    -8.210536472256558E1    -2.921716121859998E1    -8.714436295506761E-1   -1.118084403590737E1

 3.035000000000000E7    -1.984812767020601E1    -3.166783806620010      -8.902829927510148E1    -1.406722504044958E2    -8.489004317787385E1    -1.309242808484079E1    -8.990389820906033E1     1.302478581611643E1
                        -8.631884087877971E1     1.565097923334168E2    -2.228690387722335E-1    9.870779352945303E1    -8.454201596232480E1    -1.196820471914793E2    -8.703348880737984E1    -1.407787607541091E2
                        -9.178417447622235E1    -1.173204874649758E2    -8.736733498700349E1    -3.805960374274510E1    -8.992590424045066E-1   -1.432067432663345E1    -8.229708618784900E1     3.872246803248366E1
                        -8.514421261798191E1     7.792565805490229E1    -8.875896014886902E1    -3.805059792697563E1    -9.151271609532428E1    -9.779266098980497E1    -8.651619038479985E-1   -1.144337134320439E1

 3.037500000000000E7    -1.985601947933645E1    -3.061685136966259      -8.659175987669244E1     1.399399338080509E1    -9.096428516075797E1     1.675652525411670E2    -8.770975190836018E1     6.975956634627332E1
                        -8.335327545437269E1     6.864737464994325E1    -2.270358153987898E-1    9.842759717506769E1    -8.789692735049385E1    -5.011619125410221E1    -8.580548344743067E1     9.146330331943609
                        -8.877143442167466E1     9.573086389979186E1    -9.871456022398262E1     1.447744304171009E2    -8.972612518477410E-1   -1.464421644377411E1    -8.615452934804628E1     1.775294332722744E2
                        -8.983249098246718E1    -1.003335156945275E2    -8.070166076797344E1     1.307025653656893E1    -8.801304290751236E1     5.926635530714466E1    -8.645245878001850E-1   -1.175371315509888E1

 3.040000000000000E7    -1.982774715441212E1    -3.091292201695962      -9.542520897927747E1     1.763106870586233E2    -9.374236907807678E1     3.098202183944551E1    -9.229340423348251E1    -1.778192358268946E2
                        -8.886611167865597E1    -9.363604572547096E1    -2.315448415686899E-1    9.815539707257852E1    -9.578391527842989E1     5.302957232392992E1    -9.300255394581113E1    -1.127237166344486E2
                        -8.332608751659424E1     9.287165194252825      -7.854214264622992E1    -9.830122808771820      -8.895740742268359E-1   -1.497071995971665E1    -8.071318294599045E1    -1.092337720353767E2
                        -8.394591648330909E1    -9.294466882584163E1    -7.890810718861690E1    -1.418521416433651E2    -8.994346471115149E1     9.426313380945034E1    -8.585948341216489E-1   -1.204817142585532E1

 3.042500000000000E7    -1.983191218822718E1    -3.148809532750186      -8.743535671304923E1     7.074408439537557E1    -8.698619046238724E1     2.002801781535912E1    -8.539570588031802E1     1.463619350147804E2
                        -8.313954287643129E1     1.736151615718266E2    -2.201248958950984E-1    9.780120788985137E1    -8.852751233460778E1    -1.418656289993074E2    -8.149088262358050E1    -1.460312547017870E2
                        -8.352262112176460E1     1.254869244807731E2    -8.087919641876623E1    -1.443745801895456E2    -8.925924848791498E-1   -1.523165010425608E1    -8.679680005513004E1    -4.433566069605483E1
                        -8.957264719254214E1     9.304882025683352E1    -8.460894820479659E1     1.708318804895437E2    -8.816099336963633E1    -1.377824876393520E1    -8.613215447981477E-1   -1.230822146949693E1

 3.045000000000000E7    -1.986446382304452E1    -3.059705979262660      -9.197702884657048E1    -1.510802581416218E2    -1.001615562736065E2     1.724035292564189E2    -9.898832475703145E1    -6.620292230216515E1
                        -8.491556055296691E1     8.129501280803088E1    -2.287699869177620E-1    9.753200738099770E1    -8.292753743755370E1     8.286640728245406E1    -8.571388218006345E1    -5.132888972052875
                        -8.209944029908321E1    -1.675361875310462E2    -9.087483942805241E1    -1.517101892975894E2    -8.948569472914887E-1   -1.549612814814916E1    -8.641549641580139E1    -3.499979750541191E1
                        -9.094691058769340E1    -9.258961687060601E1    -8.710404560907834E1     1.957023360044262E1    -8.934422403132220E1    -1.362029199715383E2    -8.644700707335434E-1   -1.263738814294650E1

 3.047500000000000E7    -1.983669713383947E1    -3.316584773393309      -8.126172140982604E1     1.110263391977187E2    -8.967124809992420E1    -1.027944306520100E2    -8.942727141695227E1    -3.875266883269411E1
                        -8.755900904057542E1    -3.659868088599361      -2.221355366176968E-1    9.721773306292025E1    -7.970226510329354E1     1.202272519170139E1    -1.002050021010214E2    -8.803601465993525E1
                        -8.949780425813563E1     4.034980979552797E1    -8.666475806368545E1    -7.565006578438219E1    -8.988448080433185E-1   -1.583823042816275E1    -9.789908739648807E1    -1.060546110836128E2
                        -9.461519446036314E1    -1.702264542872549E2    -8.847941527227297E1     2.082762862012222E1    -8.715868112711684E1    -2.491722205852560E1    -8.653580451253415E-1   -1.293619424598015E1

 3.050000000000000E7    -1.982687913121767E1    -3.131720548828159      -9.064160650172839E1     1.041979988165383E2    -9.456222979060490E1     1.566389622752648E2    -8.783808021546177E1     8.327171903792350E1
                        -8.770076556984195E1     9.121887711080986E1    -2.187653287413516E-1    9.691629078642214E1    -8.468412698620773E1    -1.492343741972105E2    -8.671447325017769E1    -1.857653819229359E1
                        -9.964069238752700E1     7.045272147907518E1    -9.372041496757908E1     9.554072507921502E1    -8.942956396014788E-1   -1.613482023493275E1    -8.502811392432690E1     1.690036944797500E2
                        -8.294570296752733E1    -4.139334180656419E1    -9.698022150791644E1     1.232715550848846E2    -8.114776827307219E1    -7.904821405792807      -8.623579212684629E-1   -1.321707824836063E1

 3.052500000000000E7    -1.980900767168155E1    -3.152246578262155      -9.965158218527655E1     8.692981898496947E1    -9.111718300947011E1    -1.705458773999294E2    -9.361366522079528E1    -1.371895820926651E1
                        -8.762639871940996E1    -1.156577189865444E1    -2.225307766000088E-1    9.666405312999680E1    -9.524668680180911E1     8.825177880355049E1    -7.942061521589790E1    -1.044923329645155E2
                        -8.981948866673289E1    -2.101465590250140E1    -8.402254965123412E1     3.639754860389237E1    -8.940025105628799E-1   -1.646151053951128E1    -8.893102501394796E1    -1.458752520849791E2
                        -9.020099121593900E1     6.184261580714357E1    -8.834339045379352E1     4.326862306108843E1    -9.103636127082885E1    -1.666941544005676E1    -8.587423100416275E-1   -1.349044196709377E1

 3.055000000000000E7    -1.980698379394102E1    -3.272628243814722      -8.769636110240576E1     1.678133725627052E2    -8.907295212623198E1    -4.628530110677251E1    -1.096166897949769E2    -1.586749810709564E2
