#  HZ   S   DB   R     50.00 
! Rohde & Schwarz Vector Network Analyzer 
! Rohde-Schwarz,ZNB8-4Port,1311601044102961,2.82
! Created: UTC 2/5/2019, 1:41:16 PM
! freq[Hz]                db:S11                  ang:S11                 db:S12                  ang:S12                 db:S13                  ang:S13                 db:S14                  ang:S14
!                         db:S21                  ang:S21                 db:S22                  ang:S22                 db:S23                  ang:S23                 db:S24                  ang:S24
!                         db:S31                  ang:S31                 db:S32                  ang:S32                 db:S33                  ang:S33                 db:S34                  ang:S34
!                         db:S41                  ang:S41                 db:S42                  ang:S42                 db:S43                  ang:S43                 db:S44                  ang:S44
! 
 3.000000000000000E7    -1.853496240458909E-1    1.052088244041181E2    -8.889734810097515E1     1.110646968438535E2    -8.335733758091679E1     6.934853362295337E1    -8.826283158480658E1    -5.547801721488397E1
                        -8.868315904490780E1    -1.559799178277504E2    -1.977733741641735E1    -3.988232203989160      -8.375603512423331E1    -9.638060181592992E1    -9.081065956844191E1    -6.572397731726807E1
                        -9.157624626002200E1     1.145708514938997E2    -8.587291894535676E1    -1.348441610934067E2    -8.921425456081171E-1   -1.946620492246953      -8.291987310768266E1     5.795416768769261E1
                        -8.623047303946827E1     2.442275353825873E1    -9.182811735147359E1    -1.787260532948781E2    -8.910636397982901E1    -6.396815830952056E1    -8.928329841637375E-1   -6.971240444132210

 3.002500000000000E7    -1.798108244653564E-1    1.048514700724328E2    -8.501405385581775E1     1.548010783724283E2    -8.611848894742087E1     9.710543685116065E1    -9.902539831199142E1     8.584989246260903E1
                        -8.444154874370815E1     1.305132688457285E2    -1.976521972548568E1    -3.781209278796251      -9.529485455729270E1    -7.763826607646345E1    -9.616210904271598E1     4.417973490319027E1
                        -9.045181879776126E1     1.242899264335996E2    -8.586880819215017E1     1.240657817622954E2    -8.952419354822718E-1   -2.247950699838648      -9.516848821494804E1     1.596623695598787E2
                        -9.636126424114434E1    -1.478128205539307E2    -9.132257056032316E1     1.703792661064798E2    -8.307336398311564E1     5.445293006630894E1    -8.906771187580449E-1   -7.266927665544671

 3.005000000000000E7    -1.825998927879989E-1    1.046026856030973E2    -8.958978904208647E1    -1.252235497053378E1    -9.856064250383679E1    -1.235923733119404E2    -8.028122628101335E1    -1.766046763492070E2
                        -9.233015104539192E1    -1.396951625904540E2    -1.979345435870313E1    -3.306127984035228      -8.932327459085326E1     8.588447881809314E1    -9.256132866337325E1     1.629231549159032E2
                        -8.661291327206462E1    -1.464427139370065E2    -8.438256191665056E1     6.302720670841283E1    -8.914474107940031E-1   -2.563643155412892      -9.712532597433628E1     4.530503618101479E1
                        -8.248882484640214E1    -8.578551813816304E1    -8.972402868366173E1     1.254589091908497E2    -8.999913405825237E1    -6.430626797843200E1    -8.955440035067506E-1   -7.589217054902785

 3.007500000000000E7    -1.768191637421966E-1    1.042987369265981E2    -8.886288703300940E1     5.743546471948771E1    -9.415476318161161E1    -1.734270990409898E2    -8.551268540464542E1    -5.861961080600096E1
                        -1.066994147490695E2     5.689628220895665E1    -1.980142657572672E1    -3.365669576449679      -8.789044470716327E1     1.353842916830297E2    -8.426592594022438E1    -1.640936674397238E2
                        -9.201680528219823E1    -8.773256852669730      -8.719811748989102E1     4.534854850644743E1    -8.890702640262096E-1   -2.835030787595418      -8.410143145993465E1    -8.731372012170390E1
                        -8.464142646021134E1    -1.659995380360270E2    -8.137121584262131E1    -1.239690837203203E2    -8.515257265873868E1    -1.340472020932128E2    -8.959203504107817E-1   -7.850903067486056

 3.010000000000000E7    -1.734054138527306E-1    1.040034032902586E2    -8.920550238188798E1    -5.518197161221802E1    -8.662849242768635E1    -1.467373054038457E1    -9.470807276857477E1    -1.746337039295372E2
                        -9.002397376729047E1     1.718108501017334E2    -1.977752231179903E1    -3.562909328180984      -9.003767708871280E1    -1.154854054298642      -9.441181190799276E1    -7.530174760468398E1
                        -9.307990222249090E1    -1.502926651536179E2    -8.240911538456595E1     5.238642839429058E1    -8.913309454411715E-1   -3.165008710079730      -1.086996016077413E2    -5.054519031949409E1
                        -9.014696806525356E1    -1.036010897390068E2    -8.684645850041456E1     1.375180040606368E2    -8.811589574043141E1     1.359878416120871E2    -8.976432843414735E-1   -8.144889907225560

 3.012500000000000E7    -1.779073145098718E-1    1.036929150608256E2    -8.658280544845110E1    -9.998728054317695E1    -8.077568518541357E1    -1.683532072230778E2    -8.785635804567468E1    -1.480751602244313E2
                        -8.506818278984252E1     6.164099908353239E1    -1.977626063360136E1    -3.572621544594209      -8.946217422055683E1    -1.665055141390504E2    -8.865806995334890E1    -1.793020399406398E2
                        -8.677319061869747E1     1.652826427200706E2    -9.001652662828234E1     7.146218171692745E1    -8.876422620003682E-1   -3.422785994075158      -8.961986039362066E1    -7.262247982726520E1
                        -8.166040095075385E1    -4.964126015635952E1    -8.160228491129665E1    -1.297818648897681E2    -8.128591610341979E1     1.467910304853602E2    -8.967433841684322E-1   -8.435844645918225

 3.015000000000000E7    -1.719644252452899E-1    1.034166220452215E2    -7.891615222932161E1    -6.590235455714608E1    -8.565260365023063E1     1.486320590148618E2    -8.065154430857081E1    -1.072076665396727E2
                        -9.614266796032018E1    -1.450846102696461E2    -1.975058918371098E1    -3.748436126040482      -9.324611929032990E1    -4.622705740896081E1    -9.387412117185178E1    -2.882162732968315E1
                        -8.907567053733371E1    -8.058305219413941E1    -8.524630834558207E1     4.939097647531759E1    -8.831957559065423E-1   -3.703800635842478      -9.194438047466620E1    -1.158641551941575E2
                        -8.583363883357534E1     1.739449604029882E2    -8.947390143154445E1    -1.739358169366560E2    -9.630967155340250E1    -1.514711470169624E2    -8.954358617026547E-1   -8.700967288131484

 3.017500000000000E7    -1.728003039389933E-1    1.031187610775009E2    -8.426857528129332E1    -1.316230034047030E2    -8.426465629949661E1     1.096685174309546E2    -8.289368507947798E1    -5.609029619258968E1
                        -9.120416958482161E1    -6.467480404858887E1    -1.979199455268421E1    -3.869405544882074      -8.651471669370127E1    -7.858136038378143E1    -9.031366555894168E1    -6.154844947103357E1
                        -8.228690148158903E1     5.169149007561976E1    -8.652463387256178E1     1.348630642301033E2    -8.871415464980642E-1   -4.031071497739744      -8.663191956520518E1    -4.719109807393355E1
                        -9.016865044371761E1     8.699085235468522E1    -9.001646593247517E1    -1.804597859103754E1    -9.275264185498276E1    -1.103758527260996E2    -8.942925084179567E-1   -9.028237252578800

 3.020000000000000E7    -1.689185696145467E-1    1.028469893890324E2    -8.627072736214552E1     9.948670949187525E1    -9.425223877621460E1     1.189050407711388E2    -8.426909996380562E1    -1.459208954385740E2
                        -8.585252466675860E1    -3.534877183815997E1    -1.976889184385358E1    -3.677099694340603      -8.646688753788217E1    -3.886198788765549E1    -9.149709041207309E1    -5.592187121480884E-1
                        -8.492491319916979E1    -4.674619756522105E1    -7.932698806392641E1    -6.257804861542739      -8.950507403793735E-1   -4.323524657554676      -8.170825047981109E1    -5.951242382234827E1
                        -8.530091395102741E1     1.049706311967124E2    -8.555968375513416E1    -1.225658141511281E2    -8.509246399830317E1     3.177373969720942E1    -8.952218844572972E-1   -9.342806594225522

 3.022500000000000E7    -1.782015194151612E-1    1.025322345274453E2    -9.854581492092922E1    -1.423404888419656E2    -8.620278957746223E1     8.252779822948294E1    -8.036916615828710E1     1.902677659424225E1
                        -8.698382589526275E1     1.144390317741567E2    -1.976823548554496E1    -3.495689525455265      -8.874999194780530E1     4.312918730421190E1    -9.041834213846700E1    -2.753613826608660
                        -8.097307623927647E1    -8.627762765536272E1    -8.639155478045549E1     1.477476961131388E2    -8.905791200236829E-1   -4.632993937736310      -8.125930062744745E1    -1.504477985886157E2
                        -8.260061563865779E1     1.360904500608191E2    -9.738580301598438E1    -1.774782523970978E2    -8.285841077412825E1    -1.495765109079470E2    -8.948063351367050E-1   -9.634627496212778

 3.025000000000000E7    -1.708317461684787E-1    1.022278299808807E2    -8.836564897452595E1     1.529906631178072E2    -8.393397688534637E1    -1.074213600819192E2    -8.992861386454344E1     3.637762942400212E1
                        -9.197300341905758E1    -6.804471475440568E1    -1.977626287319922E1    -3.828019905905631      -9.331859292731036E1     5.223878768073451E1    -8.371039433000738E1    -4.078946251055410E1
                        -8.770833686552319E1    -1.476990290082657E2    -9.561055921576546E1     3.641580821322231E1    -8.850096305333265E-1   -4.878129590732898      -7.721665162540934E1     1.190506771500613E2
                        -9.156484672404619E1     1.130619117874712E2    -9.474903794307022E1    -6.163857398708758E1    -9.094135055576238E1     1.171698679492997E1    -9.003272651136683E-1   -9.919285435134036

 3.027500000000000E7    -1.690662747489327E-1    1.019285873588449E2    -9.103202294417679E1     7.552401580270238E1    -9.634798052221606E1     1.440916251540015E2    -9.176214531953823E1    -1.031249483514981E2
                        -8.305972669683492E1    -1.354144053207161E2    -1.978647367584246E1    -3.656593525035011      -9.027035397368552E1     6.738737747338138      -8.762649142336925E1    -9.520794293541709E1
                        -8.769743699589310E1    -9.523540903652304E1    -8.441298804494744E1     1.761566422302525E2    -8.904872898344451E-1   -5.191104281168888      -8.561107705629982E1     1.047031382188679E2
                        -8.126690093740155E1    -2.583332287105751E1    -8.408365558892756E1     3.765852658067737      -9.687795357094103E1    -6.591951965223755E1    -8.938298395356119E-1   -1.023181803779080E1

 3.030000000000000E7    -1.725813085318775E-1    1.016530227399953E2    -8.329071286301080E1     1.110006518134214E2    -9.547074299595408E1    -1.425940067091090E2    -7.929535724523755E1    -1.573260419494941E2
                        -8.625881490429688E1     1.442800873543717E2    -1.977144045451572E1    -3.746848549710808      -8.454345846178896E1    -1.318506100342285E2    -8.777949008387830E1     1.429490856393865E2
                        -9.312509804729186E1    -1.645883446912844E2    -8.130401261782863E1    -8.605226635256292E1    -8.858024330423975E-1   -5.451272937823451      -8.133549677625460E1     1.496647721996507E2
                        -8.718908314583132E1     7.554783489836596E1    -8.314793330939659E1     1.709290068355217E2    -8.815774267567232E1     1.409167845829920E2    -8.985833179897029E-1   -1.052705962890832E1

 3.032500000000000E7    -1.675672230289610E-1    1.013273760232301E2    -9.025664052900082E1     5.250946799960329E1    -8.199915895011807E1    -1.101744094101243E2    -8.670514215101697E1    -1.990208385227202E1
                        -8.629974240196125E1     8.258082840671994      -1.985391240454178E1    -3.428137468917177      -8.524320913233888E1    -2.846565668788367E1    -8.264483391198949E1     1.469640842440108E2
                        -8.377738929152366E1    -9.368619208995835E1    -8.092138816453115E1    -9.662120569955056E1    -8.857148915474422E-1   -5.808846339290298      -8.837073231841501E1    -5.282647094272944E1
                        -7.974478600006879E1     1.050364463448868E2    -8.695909938144709E1     1.542436361629338E2    -1.021131094142476E2     1.067356967062011E2    -8.960969076660275E-1   -1.085007726437210E1

 3.035000000000000E7    -1.739181787304618E-1    1.010479445194674E2    -9.127730080964732E1    -8.631104429885343E1    -9.087731907205999E1     1.625878026410654E2    -8.503087303807448E1     5.414275171713746E1
                        -9.617756614932260E1    -1.843146280530109E1    -1.978426440808865E1    -3.495031737330935      -9.084255380641415E1     8.044103553346493E1    -8.383631805850216E1     7.086887298155263E1
                        -9.650174291348948E1    -1.731526004599265E2    -8.817929229442746E1     1.657970178531877E2    -8.885467569135147E-1   -6.107217067168399      -8.467862056980781E1    -7.212372859201851E1
                        -8.667367680267704E1    -1.571344230908714E2    -9.197195955438146E1     2.737316926933758E1    -1.119917977105140E2    -2.500425070197096E1    -8.978600871504454E-1   -1.114375923566157E1

 3.037500000000000E7    -1.732253288367648E-1    1.007534202347414E2    -9.299389288372139E1     1.457344798612974E2    -8.729843159293800E1     1.147122762379550E2    -8.295654260677381E1    -1.167061154513686E2
                        -9.468692192386904E1    -6.292923770618535E1    -1.978287182962621E1    -3.741486443518174      -8.640825604799623E1     1.183717618015377E2    -9.047181762212338E1     1.610554870523675E2
                        -9.197008091144983E1    -4.288312537154857E1    -9.556680962836620E1     3.985086438451452E1    -8.837814707418735E-1   -6.336274200246990      -8.387789257023626E1    -1.683592048344022E2
                        -9.010514313245109E1    -1.501311680037016E2    -8.640456436737770E1    -5.413828009372708E1    -8.591454514957987E1    -1.413586928824971E2    -8.911284747356573E-1   -1.143749687952918E1

 3.040000000000000E7    -1.665389169963902E-1    1.004740456366679E2    -8.987245399771133E1     2.209529448501051E1    -8.098802142485788E1    -9.682652687794455E1    -8.153661226292712E1     1.589252373105607E2
                        -8.835441578447815E1     9.826218759259987E1    -1.977921706648155E1    -3.602450864427644      -8.652060471879113E1    -5.198391350597427E1    -8.986191209227758E1    -1.448886709597798E2
                        -8.189891839548353E1    -3.144530878965415E1    -8.546389033933424E1    -4.671154399292067E1    -8.852423215857144E-1   -6.699618974356258      -8.902056292561039E1     1.138410372523055E2
                        -8.490353837589645E1     1.565856094831248E2    -9.014804187016333E1     6.724315807146716E1    -8.554463385980712E1     1.363604692962480E2    -8.923921027049389E-1   -1.177126544472395E1

 3.042500000000000E7    -1.671819593455392E-1    1.001848984504208E2    -8.159066080385556E1     6.114470929173567      -9.406602453869130E1    -1.450119507746138E2    -8.455382128573305E1     5.284540569583472E1
                        -8.801528583197766E1    -3.652088433222493E1    -1.977933744621601E1    -3.578266139006219      -9.974442558232339E1     1.011306570671450E2    -1.018191102507460E2    -9.816459458254703E1
                        -8.795350698917335E1     1.691102049661202E2    -8.522687332350057E1    -9.109839339585238E1    -8.894305229129279E-1   -6.993752569572671      -8.749957101017684E1    -5.732027429180789E1
                        -8.246299174182447E1     1.354528912576937E2    -8.755506216739720E1     1.336808135547445E2    -7.884024424227961E1     7.957410481024900E1    -8.964509764302441E-1   -1.205059252655876E1

 3.045000000000000E7    -1.656035658817392E-1    9.987143834651690E1    -8.652871842577233E1     1.654395418433298E2    -8.630989042828759E1    -1.195838827837237E2    -8.688051341823267E1    -2.027298796009307E1
                        -1.114873168570420E2     2.732021936440789      -1.979865898134447E1    -3.645016352507149      -8.944985251413615E1    -1.744872662409727E2    -9.927354875617695E1    -5.306672544553975E1
                        -8.091185841916257E1     1.219718803423896E2    -8.484959575169214E1     9.549574109591180E1    -8.847711942048377E-1   -7.242759055236623      -8.904961309008985E1     5.186844523954302E1
                        -8.963164678037848E1    -1.197066843981978E2    -8.883433046087686E1    -1.497735242009278E2    -9.185336013812064E1    -1.220926379344793E2    -8.956599312043809E-1   -1.234122760862118E1

 3.047500000000000E7    -1.689478395028065E-1    9.956360898792482E1    -1.035591108482043E2    -5.205558306395505E1    -8.964675556358839E1     1.598626409678435E2    -8.978085215775869E1     1.181704264910759E2
                        -8.751813183649810E1     1.737267300814398E2    -1.979622377450550E1    -3.819154958993493      -9.985783730880775E1    -3.438410918115270E1    -8.475289874306279E1     5.364529135645902E1
                        -8.588485287399374E1    -1.527214683747480E1    -8.972192921463801E1    -8.146712498536733E1    -8.851255624467347E-1   -7.529781396317369      -7.915338091666681E1     5.350863754122487E1
                        -8.608466736238697E1     1.009650699647198E1    -8.303834762273789E1    -1.678144714188261E1    -9.883935066006839E1     1.048510062488629E2    -8.979641825118909E-1   -1.266009420924382E1

 3.050000000000000E7    -1.556616684371950E-1    9.929240121123549E1    -8.417345359051302E1    -1.505737176093098E2    -9.494417944955413E1     7.265538037658591E1    -9.602575869263914E1    -2.301077573335600E1
                        -9.166523716303840E1    -1.562516500604064E2    -1.978556378879319E1    -3.560074894811226      -8.996383173564331E1    -5.700441204129826E1    -9.365647137695757E1     1.283508072931527E2
                        -9.450976265225631E1    -1.198747801184983E1    -8.254282165952638E1     1.417748837441225E2    -8.822908678285134E-1   -7.843415023965922      -9.110897928827804E1     1.886827229814867E1
                        -9.837847199398482E1     1.311323888573907E1    -8.767828522276912E1     7.431291473365273E1    -9.702461117580312E1     1.900535642693955E1    -9.026978686086795E-1   -1.294617582144048E1

 3.052500000000000E7    -1.626893638102618E-1    9.900228919407410E1    -8.250498436880156E1     1.067257904768640E2    -9.346001035280955E1     6.484031392701466E1    -8.391913037090761E1     6.127425513071817E1
                        -1.084653326030103E2     1.771038428102504E2    -1.979344446746994E1    -3.603005894704296      -1.031612661363272E2     1.256139374780583E2    -8.489745609589393E1     7.581724129195327E1
                        -8.298492169818074E1    -1.486908593717674E2    -8.985044487188517E1     5.206064105373181E1    -8.880797711515784E-1   -8.099827166517846      -8.410690922407127E1     5.828203759032376E1
                        -9.077430450760537E1     4.901892010138465E1    -8.476240613378651E1     5.987068908309399E1    -8.398604886794732E1     1.185487225711410E2    -8.975622027165358E-1   -1.321634052982396E1

 3.055000000000000E7    -1.584797840286247E-1    9.869149337602815E1    -1.046534683431666E2    -1.409453793040065E2    -8.783160280219336E1    -1.325260953492563E2    -8.712187707539728E1     3.927552489197507E1
