#  HZ   S   DB   R     50.00 
! Rohde & Schwarz Vector Network Analyzer 
! Rohde-Schwarz,ZNB8-4Port,1311601044102961,2.82
! Created: UTC 1/17/2019, 2:51:10 PM
! freq[Hz]                db:S11                  ang:S11                 db:S21                  ang:S21                 db:S12                  ang:S12                 db:S22                  ang:S22
 1.000000000000000E9    -4.688692168000429E1    -1.033818838477927E2    -4.309962432346616E-2   -1.523810138305636E2    -5.037340534043136E-2   -1.522206566503298E2    -5.026558631838412E1    -1.108403027959941E2
 1.001000000000000E9    -4.604873252767501E1    -1.041996236272948E2    -3.970889445119697E-2   -1.529261176690436E2    -6.014395913742467E-2   -1.527719191536187E2    -5.046226106063258E1    -1.128668600611311E2
 1.002000000000000E9    -4.561025664155275E1    -9.482681550530410E1    -4.236479431554378E-2   -1.535711180693470E2    -6.087404239829612E-2   -1.533032910018019E2    -4.799476336119853E1    -9.610623850108465E1
 1.003000000000000E9    -4.462301886763736E1    -9.943796467715033E1    -4.240593457196711E-2   -1.541007582989070E2    -5.503703180344100E-2   -1.538868217581541E2    -4.742575125790605E1    -8.321191691040258E1
 1.004000000000000E9    -4.441583429761504E1    -1.086273338780319E2    -4.833145066068204E-2   -1.546477006481712E2    -5.367334213253731E-2   -1.543804420367345E2    -4.780782013522774E1    -7.673794172753443E1
 1.005000000000000E9    -4.458939853733511E1    -1.056314747888243E2    -4.645063977343891E-2   -1.552021248598056E2    -5.916223735366515E-2   -1.549003868691406E2    -4.864139133785191E1    -9.136260527060477E1
 1.006000000000000E9    -4.454405243041280E1    -9.670732055808607E1    -4.164152798472210E-2   -1.557391052951983E2    -5.917877590734907E-2   -1.554371363580874E2    -4.582895384170953E1    -8.870139079220024E1
 1.007000000000000E9    -4.400949730163028E1    -1.003566605410490E2    -4.406349835419033E-2   -1.562551952844539E2    -5.917312361971187E-2   -1.559425005288029E2    -4.518745009144332E1    -7.689733518168443E1
 1.008000000000000E9    -4.265084192075116E1    -1.009153661287736E2    -4.277801251830194E-2   -1.567754284136173E2    -6.309516345099446E-2   -1.564612483176836E2    -4.572654730858287E1    -7.328501212397589E1
 1.009000000000000E9    -4.378442378456559E1    -1.082684421360602E2    -4.431843515287650E-2   -1.572826418427711E2    -6.439741147397532E-2   -1.569869620731628E2    -4.625103348578513E1    -7.743967524813866E1
 1.010000000000000E9    -4.336269437121871E1    -1.043379047849462E2    -5.220459299156603E-2   -1.577857964007347E2    -6.125468486380305E-2   -1.575053411165414E2    -4.603063027291410E1    -8.801805589988123E1
 1.011000000000000E9    -4.396329175835531E1    -9.553037466662838E1    -4.576306284634252E-2   -1.583029514575762E2    -6.089829173381475E-2   -1.580310918398398E2    -4.371829154022117E1    -7.350105294614355E1
 1.012000000000000E9    -4.379198789244939E1    -1.037723956137015E2    -4.241866091308464E-2   -1.588233829338685E2    -6.433316876791620E-2   -1.585445852437343E2    -4.388989829732669E1    -8.425339692066018E1
 1.013000000000000E9    -4.294933081189637E1    -9.726408925859239E1    -4.831682991914007E-2   -1.593495883726240E2    -5.830459357603014E-2   -1.590256479002958E2    -4.461601538172567E1    -7.598777933911165E1
 1.014000000000000E9    -4.304389337643485E1    -1.032286191799261E2    -4.803974021087418E-2   -1.598735723293120E2    -6.172767450107957E-2   -1.595591028781894E2    -4.359276329883453E1    -8.215314366562022E1
 1.015000000000000E9    -4.362684434075896E1    -1.000550255176723E2    -4.223713191993735E-2   -1.604033562076263E2    -6.109692476350477E-2   -1.600396483740446E2    -4.352818063946483E1    -8.277627351202976E1
 1.016000000000000E9    -4.397023461411961E1    -9.890059336155484E1    -4.700485573135442E-2   -1.608774107767498E2    -5.836229347927654E-2   -1.605413235863104E2    -4.428356429819971E1    -8.704295648000165E1
 1.017000000000000E9    -4.274512370965073E1    -8.850296102803726E1    -4.605284922565910E-2   -1.614280755603816E2    -6.611392118203840E-2   -1.610798814666106E2    -4.411732292607344E1    -7.516542028299975E1
 1.018000000000000E9    -4.365772313992692E1    -1.082170390029938E2    -4.623323057105344E-2   -1.619210512594419E2    -6.256755815709583E-2   -1.616125380366230E2    -4.406549861894437E1    -8.969288651589001E1
 1.019000000000000E9    -4.336109236105330E1    -1.109178865353285E2    -4.502427647504268E-2   -1.624301129223990E2    -6.244299727709422E-2   -1.621437027606926E2    -4.320751065809176E1    -7.419682758349650E1
 1.020000000000000E9    -4.395036780475979E1    -1.025819533672131E2    -4.769973825965414E-2   -1.629516796918944E2    -6.501836005526579E-2   -1.626672766980954E2    -4.369585186902051E1    -7.805391152396862E1
 1.021000000000000E9    -4.304881736751150E1    -1.011455844420932E2    -4.284518861756283E-2   -1.634408423310935E2    -6.035671810770472E-2   -1.631827481137097E2    -4.479930313345903E1    -8.372773037186586E1
 1.022000000000000E9    -4.473407927496641E1    -1.069580493741369E2    -4.924591135186492E-2   -1.640063637359512E2    -5.880830118894954E-2   -1.636745751126707E2    -4.489099794671715E1    -8.048840526793599E1
 1.023000000000000E9    -4.433241020168900E1    -1.005910317623390E2    -5.166438016895077E-2   -1.644561174099005E2    -7.021590602507850E-2   -1.641972106413637E2    -4.574917795064810E1    -8.075607656845051E1
 1.024000000000000E9    -4.482551085294784E1    -1.030287821304138E2    -4.746551357200733E-2   -1.649864724042075E2    -6.102715742735927E-2   -1.647162563619617E2    -4.456753076301560E1    -7.623935131753892E1
 1.025000000000000E9    -4.383052768862548E1    -1.038756449249366E2    -4.534330842920826E-2   -1.655203866694410E2    -6.018340662901089E-2   -1.652108822911233E2    -4.615646595211473E1    -7.603504936076445E1
 1.026000000000000E9    -4.642219881077562E1    -9.622721266328122E1    -4.342264391522899E-2   -1.660244017633315E2    -6.373718687118320E-2   -1.657245098881397E2    -4.565435504318715E1    -7.931888540794897E1
 1.027000000000000E9    -4.670392290070247E1    -1.103430890423205E2    -4.470009630422840E-2   -1.666075440003448E2    -6.551489010069686E-2   -1.662136732538038E2    -4.443351428778874E1    -7.809511850314372E1
 1.028000000000000E9    -4.587434583395299E1    -1.061309853109245E2    -4.220919856762936E-2   -1.670859797645004E2    -6.682147622245567E-2   -1.667774748224344E2    -4.654945506732058E1    -7.834665034606739E1
 1.029000000000000E9    -4.699067809211413E1    -1.026852961344614E2    -4.730137855300506E-2   -1.675999640333480E2    -6.544760338584323E-2   -1.673038423962316E2    -4.743990116281427E1    -7.694384037572419E1
 1.030000000000000E9    -4.730684113866545E1    -1.056729582711772E2    -4.251166543948051E-2   -1.681227984034546E2    -6.379223692381232E-2   -1.678226089528643E2    -4.691477470246609E1    -6.971096310348956E1
 1.031000000000000E9    -4.665436536195004E1    -1.109419037793056E2    -4.693677134377301E-2   -1.686164808412002E2    -6.365899842386856E-2   -1.683520775902271E2    -5.082156041011339E1    -7.254711671137866E1
 1.032000000000000E9    -4.799543797073201E1    -1.042663839238931E2    -4.061627116171608E-2   -1.691734514164032E2    -6.682690789672441E-2   -1.688335690587714E2    -4.886458165297646E1    -7.688539404681920E1
 1.033000000000000E9    -4.745405731956438E1    -1.167246490138879E2    -4.910338915954758E-2   -1.696327998594286E2    -6.498259769553144E-2   -1.693285565067531E2    -4.882704473565036E1    -7.062694443680636E1
 1.034000000000000E9    -5.018017277600633E1    -1.233945705404562E2    -4.647674727264518E-2   -1.701657299413997E2    -6.662736092966885E-2   -1.698591380924052E2    -4.816186820649090E1    -7.214216736206981E1
 1.035000000000000E9    -4.815509950940999E1    -1.060789637618030E2    -4.318283052429543E-2   -1.706700461918098E2    -6.575356182469848E-2   -1.703993914744863E2    -5.181205587713009E1    -8.146909205804089E1
 1.036000000000000E9    -5.321868104296400E1    -1.193979532482742E2    -4.512296083918620E-2   -1.712538102717718E2    -6.170768446051249E-2   -1.708749114333094E2    -5.309706085148438E1    -8.731708603251020E1
 1.037000000000000E9    -5.227501474640689E1    -1.190614129135137E2    -4.367861735685920E-2   -1.717228101406804E2    -6.581021052535127E-2   -1.714195927069654E2    -5.232107309454357E1    -6.425753543291796E1
 1.038000000000000E9    -5.802297304987208E1    -1.060756380564604E2    -4.754368302547108E-2   -1.722203689777063E2    -6.763711188121871E-2   -1.719319774022632E2    -5.225762305957396E1    -7.980448902763675E1
 1.039000000000000E9    -5.420145191733078E1    -1.159026551443985E2    -4.783159677828202E-2   -1.727754488200311E2    -6.739646181589443E-2   -1.724429006770174E2    -5.563121885036168E1    -4.245742758585692E1
 1.040000000000000E9    -5.915564488856454E1    -1.375584498756814E2    -4.301174673258948E-2   -1.732659367891463E2    -6.753366288838113E-2   -1.729883658183827E2    -5.675327650411236E1    -4.840719639072351E1
 1.041000000000000E9    -5.168937223284384E1    -1.528575405629583E2    -4.416293639362874E-2   -1.737754988334107E2    -6.598390837840870E-2   -1.734567732645552E2    -5.756539388111814E1    -9.936972258959649
 1.042000000000000E9    -5.351242888048056E1    -1.124238304862682E2    -4.534872786433331E-2   -1.743015152649440E2    -6.723864472614413E-2   -1.740139578295801E2    -6.393247428876147E1    -7.795789085816219E1
 1.043000000000000E9    -5.237647028079267E1    -1.608536152426944E2    -4.450802607010814E-2   -1.748032823982671E2    -6.791731361376464E-2   -1.744897020545311E2    -6.315285880769433E1    -5.824846650506046E1
 1.044000000000000E9    -5.475456672502904E1    -1.281608310429464E2    -4.254380969495177E-2   -1.753682519730784E2    -6.979463936926890E-2   -1.750244218277200E2    -5.728130276230548E1    -4.691001075399449E1
 1.045000000000000E9    -5.333162919245809E1    -1.394714926535096E2    -3.843550021013920E-2   -1.758482415441547E2    -6.794239981757479E-2   -1.755334920175946E2    -5.967782412326373E1    -3.365321302292831E1
 1.046000000000000E9    -5.211248556046438E1    -1.380793839028447E2    -4.282661078645055E-2   -1.763631417698583E2    -7.272502265277217E-2   -1.760673742784504E2    -6.008734265118430E1     6.385151873513872
 1.047000000000000E9    -5.335253616621596E1    -1.702245553047361E2    -4.879211571823894E-2   -1.768633360084255E2    -6.373270965737993E-2   -1.765672299908176E2    -7.312681742241816E1    -6.043772676772833E1
 1.048000000000000E9    -5.120074959875390E1    -1.452982971008815E2    -4.539782642517447E-2   -1.773745027372484E2    -6.531128307029976E-2   -1.770955110346665E2    -5.980528628353387E1     1.023347054503204E2
 1.049000000000000E9    -5.105319655058828E1    -1.555544539124290E2    -3.920569127070440E-2   -1.778789979912352E2    -6.824825178964321E-2   -1.775992289051794E2    -6.253636880521472E1     6.989738434311872E1
 1.050000000000000E9    -5.249011905767912E1    -1.621446577717382E2    -4.326854021239301E-2   -1.784535556880362E2    -6.726675603880894E-2   -1.780914305343755E2    -7.190124418850050E1     9.392080833901788E1
 1.051000000000000E9    -5.345575001581722E1     1.759586530211906E2    -4.478160766503568E-2   -1.789151137283809E2    -6.682333831189229E-2   -1.786544143797837E2    -6.503167213145014E1     1.718306886776004E1
 1.052000000000000E9    -5.162000587155073E1    -1.658740054449074E2    -4.552898753189640E-2   -1.794257071658037E2    -7.060535382714694E-2   -1.791590838165263E2    -6.706474554318740E1     8.166107050376283E1
 1.053000000000000E9    -4.906499069541091E1    -1.618574506793388E2    -4.192183025654973E-2   -1.799237304672940E2    -7.079318300113666E-2   -1.796786168507519E2    -5.913747348068312E1     6.970797439058210E1
 1.054000000000000E9    -5.259870472434180E1    -1.588388183677236E2    -4.425302194893750E-2    1.795068854417813E2    -6.692416371480754E-2    1.798580955236799E2    -6.581022716061528E1    -8.490827779406279
 1.055000000000000E9    -5.169234668395690E1    -1.739661510824497E2    -4.089852904668678E-2    1.790215070014830E2    -6.710295210398541E-2    1.793294106853967E2    -6.368057169345470E1    -3.085146816052562E1
 1.056000000000000E9    -5.303738549510244E1    -1.566284548884552E2    -4.332480628638959E-2    1.784832933084105E2    -6.270407994494498E-2    1.788315233772363E2    -5.841523372063055E1     7.972610449878276E1
 1.057000000000000E9    -4.950149912824085E1    -1.772053150623789E2    -4.439729334027368E-2    1.779777137731599E2    -6.987650482928003E-2    1.782774277384468E2    -5.825161191030504E1     6.637965518871511
 1.058000000000000E9    -5.074227228509191E1    -1.700607875364217E2    -4.321419108519871E-2    1.774989016250468E2    -7.111437147550799E-2    1.777872832580908E2    -6.272591691688133E1    -6.700596971699395E1
 1.059000000000000E9    -5.044773568743497E1    -1.685971275720724E2    -3.795221057315339E-2    1.769844499281192E2    -7.248855724375403E-2    1.772589074244338E2    -7.241069896907520E1    -1.797826238579252E2
 1.060000000000000E9    -4.769362115938268E1    -1.678751976508252E2    -4.614569953203079E-2    1.764480737286213E2    -6.691378909811609E-2    1.767292523587077E2    -6.996841734553019E1    -6.012617122326058
 1.061000000000000E9    -4.876844367130865E1    -1.481661683399148E2    -3.956399457118538E-2    1.759555673787359E2    -6.827327244466037E-2    1.762392977744132E2    -6.967126807497604E1     1.478414834443468E2
 1.062000000000000E9    -4.799852889866683E1    -1.540244073171210E2    -3.850268317133085E-2    1.754065774903990E2    -6.867911424195804E-2    1.757105176512846E2    -6.466792860736321E1    -7.084964524653090E1
 1.063000000000000E9    -4.965730573607370E1    -1.716585323598284E2    -3.996871378883005E-2    1.748691866592732E2    -6.787354173744517E-2    1.752217452428749E2    -5.361012219793925E1    -1.032959525933917E2
 1.064000000000000E9    -4.956563748252261E1    -1.574728503431193E2    -4.233145062765496E-2    1.743884155545993E2    -7.071353794136141E-2    1.747059651420894E2    -5.341475484513809E1    -1.198590395640365E2
 1.065000000000000E9    -4.747531744460778E1    -1.532155070384205E2    -4.068659401456576E-2    1.738544192126096E2    -7.043659051987773E-2    1.741841731147569E2    -5.692827283738591E1    -1.056983198449323E2
 1.066000000000000E9    -4.649978731944350E1    -1.514466812786069E2    -4.048691126365353E-2    1.733527656706244E2    -6.813023166873364E-2    1.736848101495572E2    -6.024181450203238E1    -7.389152819298508E1
 1.067000000000000E9    -4.733440605559728E1    -1.470487929195527E2    -4.262329412736270E-2    1.728534341422483E2    -6.700277102669243E-2    1.731422312740879E2    -5.867609960401875E1    -7.133754904850235E1
 1.068000000000000E9    -4.622726962272477E1    -1.507636773820594E2    -3.969408510040060E-2    1.722942769663629E2    -6.682251121293732E-2    1.726594052103268E2    -5.452882158811959E1    -1.073625168472295E2
 1.069000000000000E9    -4.591704523266796E1    -1.479078840247169E2    -4.253886484947636E-2    1.718310012208314E2    -7.006315580079517E-2    1.721233971299454E2    -5.092312559600877E1    -1.131250232276899E2
 1.070000000000000E9    -4.732899766980819E1    -1.593052355560484E2    -3.458221496504559E-2    1.713007661108375E2    -6.605020095264509E-2    1.716549148514587E2    -4.967673720038884E1    -1.094699231803002E2
 1.071000000000000E9    -4.793736732402361E1    -1.619169286705051E2    -4.071303128050644E-2    1.707978149929146E2    -7.472534127948241E-2    1.711151039863947E2    -5.031549413575081E1    -9.136038502941956E1
 1.072000000000000E9    -4.588179869214845E1    -1.466131199931111E2    -4.084312586970142E-2    1.702827069729966E2    -6.725565675176222E-2    1.705941299247711E2    -5.023220861301301E1    -1.129797058237884E2
 1.073000000000000E9    -4.540055495959933E1    -1.558474037217342E2    -4.348693937071865E-2    1.697616209175235E2    -6.484800485560700E-2    1.700834170573109E2    -4.928106051716690E1    -1.013881824812993E2
 1.074000000000000E9    -4.590829329929397E1    -1.527802310829955E2    -4.696994233166447E-2    1.692359174625491E2    -7.079938211196797E-2    1.695630910473397E2    -5.062924458587273E1    -8.728117149772189E1
 1.075000000000000E9    -4.682369253581366E1    -1.578401911175195E2    -3.700714752442914E-2    1.687060588209649E2    -6.859526797724139E-2    1.690416082195411E2    -4.832895922405552E1    -1.091174271815039E2
 1.076000000000000E9    -4.446035199364773E1    -1.507792246175240E2    -4.096555585131782E-2    1.682169136099477E2    -7.319867463802263E-2    1.685209735806531E2    -4.936979949381162E1    -1.126168283559257E2
 1.077000000000000E9    -4.517502960201593E1    -1.410747271309822E2    -3.838528607837355E-2    1.676722005673200E2    -7.235117385936520E-2    1.679864776403746E2    -4.871839600349482E1    -1.172435900074429E2
 1.078000000000000E9    -4.532962428009917E1    -1.494438680453784E2    -4.155230096594158E-2    1.672025223678294E2    -6.839981360754288E-2    1.675079444414599E2    -4.923247564629166E1    -1.077596407802082E2
 1.079000000000000E9    -4.436291486799519E1    -1.416761253349194E2    -3.668426809506537E-2    1.666547190180181E2    -7.096805335908238E-2    1.670060829849022E2    -4.846195571087474E1    -9.847081861008060E1
 1.080000000000000E9    -4.506788758656104E1    -1.480917551998047E2    -3.822468164257278E-2    1.661369915182862E2    -7.303810235969857E-2    1.665056108378319E2    -4.829990187140631E1    -1.120985966077025E2
 1.081000000000000E9    -4.507278091705274E1    -1.445770969790595E2    -3.704158333108423E-2    1.656472422174805E2    -7.185123312608803E-2    1.659965115615262E2    -4.779285435195483E1    -1.072551287837712E2
 1.082000000000000E9    -4.686147627309272E1    -1.587917722378654E2    -4.432456645304049E-2    1.651530507509856E2    -6.562145366904301E-2    1.654521406488959E2    -4.812200871046520E1    -1.027499987290242E2
 1.083000000000000E9    -4.492511485460646E1    -1.506127266366100E2    -4.248188750614959E-2    1.646175891822724E2    -6.765897864531005E-2    1.649588046067884E2    -4.765093391311061E1    -1.079931201183951E2
 1.084000000000000E9    -4.442703550877311E1    -1.616174630891980E2    -3.750528657570374E-2    1.641084819727897E2    -6.937251328596553E-2    1.644334628640756E2    -4.725762183749919E1    -1.029482515324053E2
 1.085000000000000E9    -4.570429079594873E1    -1.559927384778123E2    -3.875318485572223E-2    1.636016048189613E2    -6.954877115306872E-2    1.639269213617981E2    -4.722120485052639E1    -9.509829020873782E1
 1.086000000000000E9    -4.731567618354448E1    -1.684232664126094E2    -3.958437595989472E-2    1.630818895853562E2    -6.617931684457594E-2    1.634335051064786E2    -4.745384870021261E1    -1.068279369083465E2
 1.087000000000000E9    -4.739145391611893E1    -1.547518852607446E2    -3.562761027966991E-2    1.625596505233295E2    -7.446888673465558E-2    1.629563561175566E2    -4.863696264840917E1    -9.391153466469022E1
 1.088000000000000E9    -4.512663105693587E1    -1.604620151400615E2    -4.373069910854337E-2    1.620114362999640E2    -6.851646702432794E-2    1.624003330899830E2    -4.753318096947240E1    -9.253644223268361E1
 1.089000000000000E9    -4.648829347954791E1    -1.655148118733408E2    -3.739105531290954E-2    1.615311343308217E2    -7.144201002400534E-2    1.619087620272173E2    -4.684943485747894E1    -9.518907503935388E1
 1.090000000000000E9    -4.628933525717544E1    -1.615159355329132E2    -4.619523824763882E-2    1.610301508584809E2    -6.718972146340616E-2    1.613682748103149E2    -4.920483056098081E1    -1.035746692719807E2
 1.091000000000000E9    -4.709583742220323E1    -1.534031370231549E2    -3.586791642258193E-2    1.605131007403655E2    -6.593690521090778E-2    1.608552721010239E2    -5.162451862653946E1    -9.723647133784324E1
