#  HZ   S   DB   R     50.00 
! Rohde & Schwarz Vector Network Analyzer 
! Rohde-Schwarz,ZNB8-4Port,1311601044102961,2.82
! Created: UTC 1/17/2019, 2:49:18 PM
! freq[Hz]                db:S11                  ang:S11                 db:S21                  ang:S21                 db:S12                  ang:S12                 db:S22                  ang:S22
 1.000000000000000E9    -4.700678576141270E1    -1.182450707086392E2    -4.330480141593449E-2   -1.623922398144091E2    -5.620920953055365E-2   -1.622657396041521E2    -5.029764813513026E1    -1.282480735846478E2
 1.001000000000000E9    -4.553622610927110E1    -1.203654059797064E2    -4.157748364566238E-2   -1.629729579240295E2    -5.749554058305632E-2   -1.628297190529103E2    -5.033003934134497E1    -1.218920739668465E2
 1.002000000000000E9    -4.560569315252226E1    -1.124376045153431E2    -4.500328926408475E-2   -1.636230978176401E2    -6.236303193849599E-2   -1.633745526399276E2    -4.874687193116288E1    -1.070896008467229E2
 1.003000000000000E9    -4.501538052849477E1    -1.122876647625012E2    -4.062798749358213E-2   -1.641526382374169E2    -6.047347287751650E-2   -1.639599186655675E2    -4.748750267196133E1    -9.302323562952310E1
 1.004000000000000E9    -4.464770650807496E1    -1.216871925933104E2    -5.236271859515539E-2   -1.647259228096598E2    -6.029131257302070E-2   -1.644650350101913E2    -4.821424236460720E1    -8.271440451579893E1
 1.005000000000000E9    -4.453300546945826E1    -1.199892791071774E2    -4.902529316703743E-2   -1.653033517917754E2    -6.361177203063796E-2   -1.650144471851194E2    -4.939567737959295E1    -1.002300386935904E2
 1.006000000000000E9    -4.451030111607512E1    -1.113066957538296E2    -4.841439570423024E-2   -1.658382959608996E2    -6.156996544344039E-2   -1.655383296136848E2    -4.638245701341955E1    -9.790901581198297E1
 1.007000000000000E9    -4.423440467236389E1    -1.165269738468482E2    -4.795948327521443E-2   -1.663431885770259E2    -5.898134812097936E-2   -1.660851788695898E2    -4.536066479693421E1    -8.270886266352461E1
 1.008000000000000E9    -4.271078608777802E1    -1.161480966983946E2    -4.725774740506124E-2   -1.669036319880962E2    -6.268228923462485E-2   -1.665899033590111E2    -4.630057269685726E1    -8.417238702687146E1
 1.009000000000000E9    -4.415290226528907E1    -1.219898965583228E2    -4.779300790452120E-2   -1.674419731474762E2    -6.483902571678184E-2   -1.671119638263224E2    -4.656319931201593E1    -8.927573732383640E1
 1.010000000000000E9    -4.349465364946237E1    -1.186714261556851E2    -5.090874847726069E-2   -1.679418450440929E2    -6.401414316938214E-2   -1.676517823606310E2    -4.679569974013043E1    -9.345783918100999E1
 1.011000000000000E9    -4.395838187311740E1    -1.082175152856575E2    -4.830570335722775E-2   -1.684848875993425E2    -6.338011102531402E-2   -1.681689321492057E2    -4.386613671253366E1    -8.138981377456338E1
 1.012000000000000E9    -4.415175044960586E1    -1.167546138627595E2    -5.069387904475559E-2   -1.689936942278612E2    -6.564088887767630E-2   -1.687256741298296E2    -4.502924689531117E1    -9.331943356065463E1
 1.013000000000000E9    -4.334801593117049E1    -1.097933328799562E2    -4.980564265161470E-2   -1.695245585440163E2    -6.160606702454239E-2   -1.692378267904509E2    -4.524036766210016E1    -8.483396632524840E1
 1.014000000000000E9    -4.334665440712810E1    -1.180288189151993E2    -4.830369828625377E-2   -1.700600370342243E2    -6.201358484971816E-2   -1.697321777835259E2    -4.417188426180456E1    -9.000884790952668E1
 1.015000000000000E9    -4.386202383784014E1    -1.137659226235603E2    -4.584609858125351E-2   -1.705860405185448E2    -6.207305875637506E-2   -1.702571084736873E2    -4.427225281857616E1    -8.905044629714142E1
 1.016000000000000E9    -4.431180210369067E1    -1.102909251918359E2    -5.170633101761420E-2   -1.710791397653278E2    -6.560355050881146E-2   -1.707726530202669E2    -4.553202022286578E1    -9.464800198347501E1
 1.017000000000000E9    -4.314846367047768E1    -1.003900357048924E2    -4.815617755769097E-2   -1.716591832825808E2    -6.507961010788174E-2   -1.713094854360271E2    -4.495628743471962E1    -8.196163193939148E1
 1.018000000000000E9    -4.481368470074748E1    -1.203266521964499E2    -4.935414447972303E-2   -1.721683896150985E2    -6.334126538351120E-2   -1.718675503227432E2    -4.536395517605090E1    -9.598942369795721E1
 1.019000000000000E9    -4.421133088135504E1    -1.266950702114427E2    -4.805668170142622E-2   -1.726773161542627E2    -6.407479084921863E-2   -1.723747110321657E2    -4.428898250875520E1    -8.210308272809164E1
 1.020000000000000E9    -4.507577626775252E1    -1.176133118124988E2    -4.763461709855345E-2   -1.732003997711381E2    -6.399300926346821E-2   -1.729244110943730E2    -4.474976508140649E1    -8.509590235987783E1
 1.021000000000000E9    -4.422227480266147E1    -1.136572527657358E2    -4.787747176914297E-2   -1.737257423614620E2    -6.748724502448175E-2   -1.734302708573003E2    -4.652300863337830E1    -8.658765891716656E1
 1.022000000000000E9    -4.590104604424553E1    -1.242777044678290E2    -4.709939645343027E-2   -1.742732637156180E2    -6.161989365223480E-2   -1.739515044212881E2    -4.616670647044775E1    -8.250275571526787E1
 1.023000000000000E9    -4.549287169443261E1    -1.128326226762010E2    -5.410012588347993E-2   -1.747634107206769E2    -6.782905850022436E-2   -1.744691075798666E2    -4.720232796547759E1    -8.599244443916835E1
 1.024000000000000E9    -4.662286706374303E1    -1.171483061693560E2    -5.224848452215602E-2   -1.753041545423330E2    -6.113267651922998E-2   -1.749886311427981E2    -4.568379644145069E1    -8.591753883117369E1
 1.025000000000000E9    -4.486265700796245E1    -1.180917233921661E2    -4.734613263337597E-2   -1.758053579749806E2    -6.609933564351946E-2   -1.755270342812736E2    -4.848671025657336E1    -8.359955558643111E1
 1.026000000000000E9    -4.770661829796721E1    -1.070703236157599E2    -4.727326968428906E-2   -1.763657796112910E2    -6.937576919841723E-2   -1.760499623800064E2    -4.760705219399241E1    -8.664817036174925E1
 1.027000000000000E9    -4.846222098171975E1    -1.255997731788946E2    -4.901345952677390E-2   -1.769298182011645E2    -6.351891100005568E-2   -1.765579194390506E2    -4.651696537291146E1    -8.638360966010698E1
 1.028000000000000E9    -4.820086473905512E1    -1.223205864763955E2    -4.545540822239103E-2   -1.774221277411765E2    -6.293897966663267E-2   -1.770989551645939E2    -4.970252982713493E1    -8.533327160550866E1
 1.029000000000000E9    -4.866961313614070E1    -1.213063842191700E2    -4.868406587789885E-2   -1.779469679548328E2    -7.112332988559647E-2   -1.776475549930697E2    -4.941997753548553E1    -7.728825375091795E1
 1.030000000000000E9    -4.901447072905505E1    -1.230862758745306E2    -4.524639538775296E-2   -1.784817419202502E2    -6.905238787905084E-2   -1.781821990436650E2    -4.869395362090047E1    -6.595281824364639E1
 1.031000000000000E9    -4.837789373267800E1    -1.310490174302057E2    -4.659247546079653E-2   -1.789760601770948E2    -6.794504211521259E-2   -1.787259495902850E2    -5.232854798900610E1    -6.089375485546346E1
 1.032000000000000E9    -5.050495900291863E1    -1.229669335071854E2    -4.462515362746235E-2   -1.795321930221564E2    -7.110604122094061E-2   -1.792366421573616E2    -5.263403011264862E1    -8.164380408856295E1
 1.033000000000000E9    -4.972446221223937E1    -1.359997121218349E2    -5.088074166341709E-2    1.799573317190896E2    -6.502570092062060E-2   -1.797160208747098E2    -5.245431078003464E1    -7.414247043463240E1
 1.034000000000000E9    -5.218166111646912E1    -1.492406950882089E2    -4.717030185095650E-2    1.794750685808571E2    -6.840919595404164E-2    1.797266094726875E2    -5.034092191511785E1    -7.611028792011811E1
 1.035000000000000E9    -4.990385058343592E1    -1.323278862933447E2    -4.940576212104226E-2    1.789274592680509E2    -6.924589741016755E-2    1.792274426860059E2    -5.598027147789483E1    -7.701817566088890E1
 1.036000000000000E9    -5.636230228785508E1    -1.411297292152204E2    -5.017408512807683E-2    1.783444028469923E2    -6.945770650403209E-2    1.786813067172955E2    -5.971662878255528E1    -9.714118380179993E1
 1.037000000000000E9    -5.385499409366876E1    -1.471080360708132E2    -4.420773978251216E-2    1.778428562829529E2    -6.597567813415335E-2    1.781812454369286E2    -5.439565022437918E1    -4.766402956468614E1
 1.038000000000000E9    -5.968542522859265E1    -1.342127276718618E2    -4.772088935919601E-2    1.773400316174230E2    -7.078249082143470E-2    1.776535152476883E2    -5.616955217685113E1    -7.259605504683412E1
 1.039000000000000E9    -5.490567769213976E1    -1.373915870062693E2    -5.443386693057436E-2    1.767723815007896E2    -6.299012643415551E-2    1.770912316967432E2    -5.812695750841345E1    -2.099940978412410E1
 1.040000000000000E9    -6.120709636329863E1     1.736877353780513E2    -4.830448151683242E-2    1.762853155354412E2    -6.795219789815994E-2    1.765657957781254E2    -6.199842750638793E1    -2.586754932659248E1
 1.041000000000000E9    -5.160527670026995E1    -1.778918516495677E2    -4.483054583868952E-2    1.757296773979667E2    -6.949477063052478E-2    1.760631014681653E2    -5.718754022465831E1     1.380642292931623E1
 1.042000000000000E9    -5.555253736771352E1    -1.304854590829786E2    -5.192806561521129E-2    1.752589321999720E2    -7.118666853341633E-2    1.755117015067955E2    -6.558304221464674E1     5.222404787443436E1
 1.043000000000000E9    -5.117787913505885E1     1.675076319288350E2    -4.687931485571889E-2    1.747234148380598E2    -7.393331447102412E-2    1.750439719654009E2    -6.223479593250951E1     1.999085064093171E1
 1.044000000000000E9    -5.608664555765706E1    -1.607609333404869E2    -4.607356955675019E-2    1.741419750826877E2    -7.261819219971795E-2    1.744652199759837E2    -6.575985540413028E1    -2.918602228943033
 1.045000000000000E9    -5.372820049470970E1    -1.708291987468519E2    -4.086767608494259E-2    1.736397565479311E2    -7.475212171418438E-2    1.739507963885406E2    -5.976451969405091E1    -8.182632189940707
 1.046000000000000E9    -5.138111864905142E1    -1.637634039890056E2    -4.616087390696153E-2    1.731029919946193E2    -7.214040293843928E-2    1.734425614150190E2    -5.712217763229744E1     1.869197866597427E1
 1.047000000000000E9    -5.225989917471694E1     1.725366417931188E2    -5.064315112721308E-2    1.726352317159929E2    -6.664922824984748E-2    1.729042003591353E2    -6.618498492273338E1     2.834162287266812E1
 1.048000000000000E9    -5.132725132603076E1    -1.739289093278446E2    -5.352058359402039E-2    1.720836601887448E2    -7.209698543941913E-2    1.723689121084313E2    -5.435735627194566E1     7.087596848624455E1
 1.049000000000000E9    -5.024941123440091E1     1.771561804102385E2    -4.482726855961256E-2    1.715380576667957E2    -7.091635192492164E-2    1.718492525594273E2    -5.664217751549896E1     6.880832999993822E1
 1.050000000000000E9    -5.195885068270796E1     1.749700556758693E2    -4.669029549050001E-2    1.710239559561178E2    -6.827442524584725E-2    1.713567320195467E2    -6.193412881251966E1     5.600439799371270E1
 1.051000000000000E9    -5.079551380150175E1     1.622990569548385E2    -4.762193819738944E-2    1.704849676630448E2    -6.842465577928955E-2    1.707683557230151E2    -6.358959148692563E1     1.044640224539094E1
 1.052000000000000E9    -5.124005280427265E1     1.725474554053613E2    -4.501643577186697E-2    1.699861735514965E2    -7.075463265821783E-2    1.702555561411685E2    -5.788539034644103E1     9.385394314710285E1
 1.053000000000000E9    -4.837021636749114E1     1.764064447300554E2    -4.442692298536926E-2    1.694786345323864E2    -7.163643438397471E-2    1.697505167573888E2    -5.562397628308738E1     4.863285715343321E1
 1.054000000000000E9    -5.277253570890898E1    -1.747579784540095E2    -4.743439769561852E-2    1.689383537383237E2    -6.997773124493911E-2    1.692617739643264E2    -6.628609037186243E1     2.434725658824683E1
 1.055000000000000E9    -5.074155964932399E1     1.648958105492145E2    -4.638578027433785E-2    1.683951278961847E2    -7.238422015417136E-2    1.687231235303782E2    -6.853215571623720E1    -1.084178933533329E1
 1.056000000000000E9    -5.232728988600438E1    -1.730536444702550E2    -4.693357879300207E-2    1.678779088560864E2    -6.593518331526023E-2    1.682127395526285E2    -5.686394985559229E1     6.276600523066541E1
 1.057000000000000E9    -4.938064450820762E1     1.701436011448617E2    -4.365387819159037E-2    1.673464591556062E2    -7.374226381996676E-2    1.676588968357905E2    -5.673883658708442E1    -7.981481721010877
 1.058000000000000E9    -4.941175325530761E1     1.752104712681260E2    -4.361125256112770E-2    1.668486652264842E2    -7.549847984975626E-2    1.671394917779822E2    -5.885068887829161E1    -6.560430724604819E1
 1.059000000000000E9    -5.009806615417486E1    -1.762450615249941E2    -4.643705242505464E-2    1.663188602027405E2    -7.841760520287260E-2    1.666110136155805E2    -7.336157831921517E1    -4.312330009793574E1
 1.060000000000000E9    -4.767140953940655E1     1.774870646361021E2    -4.962224798393662E-2    1.657884741714882E2    -7.216987935579700E-2    1.660715757242130E2    -6.093616866002267E1    -4.010835561326322
 1.061000000000000E9    -4.853902994862600E1    -1.621400247847614E2    -4.530509540182653E-2    1.652925609097787E2    -6.904891477084245E-2    1.655744381208301E2    -7.113876956528347E1     2.488351268532054E1
 1.062000000000000E9    -4.769283565483399E1    -1.632526272822764E2    -4.362874522080133E-2    1.647869606515248E2    -7.478408163123095E-2    1.650140447542979E2    -5.849745511211125E1    -8.064391921740268E1
 1.063000000000000E9    -4.923387199213506E1     1.736497420707767E2    -4.008714165609355E-2    1.642318369105524E2    -7.341185165503070E-2    1.645426752564766E2    -5.388828422685207E1    -1.091041612552099E2
 1.064000000000000E9    -4.898826513313055E1    -1.692284117584864E2    -4.713096506056998E-2    1.636803567917244E2    -6.991887612524819E-2    1.640322618227943E2    -5.453400621135089E1    -1.293106100013841E2
 1.065000000000000E9    -4.753604342655039E1    -1.670020742537527E2    -4.453733161474676E-2    1.631317839234060E2    -7.187442853114948E-2    1.634606749951435E2    -5.651674740438538E1    -9.811645046551523E1
 1.066000000000000E9    -4.642243922645265E1    -1.636056639083124E2    -4.072192008507624E-2    1.626438417841227E2    -7.235621128764566E-2    1.629380440535335E2    -5.617622751810320E1    -9.862978775734915E1
 1.067000000000000E9    -4.652582893834605E1    -1.613635353652561E2    -4.530308937571151E-2    1.621369456855535E2    -6.729507037517668E-2    1.624397185532123E2    -5.457277644857279E1    -8.803419303939603E1
 1.068000000000000E9    -4.614600816131738E1    -1.623225918277497E2    -4.162402967671040E-2    1.615914126063223E2    -7.223242073627439E-2    1.619088541874635E2    -5.373636197318067E1    -1.116407347643199E2
 1.069000000000000E9    -4.551579604522101E1    -1.569483228264257E2    -4.843873374017923E-2    1.610594927613556E2    -7.408903680690078E-2    1.614005120468692E2    -5.066265650311868E1    -1.231521936825746E2
 1.070000000000000E9    -4.726117130025781E1    -1.728947983445316E2    -3.943353178566208E-2    1.605191471621944E2    -7.223820929102796E-2    1.608811463691283E2    -4.974381863652539E1    -1.198999602123979E2
 1.071000000000000E9    -4.783517204972612E1    -1.706334080951670E2    -3.741685237814088E-2    1.600107305303960E2    -7.508073769446196E-2    1.602992119281180E2    -4.975863605009977E1    -1.039487032529027E2
 1.072000000000000E9    -4.611051683103857E1    -1.597501223743596E2    -4.394303260560964E-2    1.595189375978103E2    -6.992546837259536E-2    1.598086486574455E2    -5.016309547912335E1    -1.143866739602354E2
 1.073000000000000E9    -4.553600879799720E1    -1.687911092732012E2    -4.311466330777939E-2    1.589467910203886E2    -7.807569499637093E-2    1.592862622012573E2    -4.822412260431613E1    -1.026202115554961E2
 1.074000000000000E9    -4.592294193818078E1    -1.679117743151986E2    -4.312070052324851E-2    1.584594658936530E2    -7.580594549116779E-2    1.587920074791877E2    -4.916187860558871E1    -8.961106742452941E1
 1.075000000000000E9    -4.705584890544036E1    -1.693432477489520E2    -4.163166388068065E-2    1.578877089659457E2    -7.625302571030175E-2    1.582539841555460E2    -4.757599743749023E1    -1.137683319083955E2
 1.076000000000000E9    -4.440865877655669E1    -1.629590054572993E2    -4.714898733466707E-2    1.574255320387361E2    -7.534628874536266E-2    1.577586770509026E2    -4.865473189189181E1    -1.101793065249891E2
 1.077000000000000E9    -4.503030826411757E1    -1.530593862686255E2    -3.829158362894780E-2    1.568212249530654E2    -7.099741649242181E-2    1.571839543700504E2    -4.930224679878789E1    -1.305433261474618E2
 1.078000000000000E9    -4.490278218059125E1    -1.627351251775001E2    -4.429809423845622E-2    1.563659697357300E2    -6.333760136663233E-2    1.566748336502786E2    -4.914699517616349E1    -1.119306823078958E2
 1.079000000000000E9    -4.429012072627897E1    -1.531035515812547E2    -4.276886327766038E-2    1.558209013171403E2    -7.327050707673763E-2    1.561552692300914E2    -4.832019626802885E1    -1.015257073195684E2
 1.080000000000000E9    -4.516257226634301E1    -1.628039124659009E2    -4.185860334297715E-2    1.552958092802917E2    -7.535649150472917E-2    1.556364651727437E2    -4.895152365270008E1    -1.127543999072322E2
 1.081000000000000E9    -4.527934116552000E1    -1.581447195010012E2    -3.996588614045552E-2    1.547979158996317E2    -7.304847291984978E-2    1.551341918868048E2    -4.765904599736410E1    -1.124424939437162E2
 1.082000000000000E9    -4.744155503197631E1    -1.653198486798580E2    -4.505971833617457E-2    1.542743880793180E2    -7.147540412337819E-2    1.545505679186873E2    -4.798524456380661E1    -1.062422774274382E2
 1.083000000000000E9    -4.597316567105480E1    -1.609690326892390E2    -4.929106243243120E-2    1.537275205358469E2    -7.042272267634876E-2    1.540861873228957E2    -4.776706270064399E1    -1.108041082345768E2
 1.084000000000000E9    -4.484249743831611E1    -1.757923816037061E2    -4.042683315658217E-2    1.532247334349285E2    -6.853562401468888E-2    1.535365046409105E2    -4.778094207141066E1    -1.017274737672435E2
 1.085000000000000E9    -4.634339645012818E1    -1.618025724098198E2    -4.310646649026059E-2    1.526829757057500E2    -7.677355774777987E-2    1.530188335819276E2    -4.749358320716743E1    -1.043408941251141E2
 1.086000000000000E9    -4.930320845544750E1    -1.751666238602250E2    -4.414729240192466E-2    1.521658027594886E2    -7.575559453068680E-2    1.524939662304904E2    -4.773918088832077E1    -1.043544477400638E2
 1.087000000000000E9    -4.792563966416027E1    -1.603981524575184E2    -4.384845434840839E-2    1.516121110769736E2    -7.797628124836881E-2    1.520211519862250E2    -4.877979711567090E1    -9.368532934060141E1
 1.088000000000000E9    -4.589379268301435E1    -1.728700850347329E2    -4.515430269483409E-2    1.510752309472274E2    -7.216037250748994E-2    1.514573323542419E2    -4.786136392914757E1    -9.354529989274354E1
 1.089000000000000E9    -4.732009437912868E1    -1.773950012203161E2    -4.456856254547475E-2    1.505877521559752E2    -7.358462925704504E-2    1.509473265978494E2    -4.670602704685874E1    -1.006524282397872E2
 1.090000000000000E9    -4.713327158241319E1    -1.737989095204503E2    -4.822431828317932E-2    1.500776016534415E2    -6.801216112850125E-2    1.504251806116311E2    -5.002183505000119E1    -9.640989707962474E1
 1.091000000000000E9    -4.726934386124511E1    -1.655536168585312E2    -4.072228793864564E-2    1.495287628107946E2    -7.243229875397333E-2    1.498718570915525E2    -5.229196514012180E1    -8.674478794714791E1
