#  HZ   S   DB   R     50.00 
! Rohde & Schwarz Vector Network Analyzer 
! Rohde-Schwarz,ZNB8-4Port,1311601044102961,2.82
! Created: UTC 1/17/2019, 2:37:24 PM
! freq[Hz]                db:S11                  ang:S11                 db:S21                  ang:S21                 db:S12                  ang:S12                 db:S22                  ang:S22
 1.000000000000000E9    -4.156245120317306E1     1.686612066152951E2    -7.080760977937044E-2    8.716014806863950E1    -8.448181605993851E-2    8.730068363664215E1    -3.980218167387206E1    -1.688166820989923E2
 1.001000000000000E9    -4.174105510496932E1     1.693714351436358E2    -7.290489367179145E-2    8.648423381769212E1    -8.645301304571423E-2    8.665225604658511E1    -3.926371674892205E1    -1.630521467449232E2
 1.002000000000000E9    -4.204818227952600E1     1.646112267915340E2    -7.640367049977132E-2    8.573987820487221E1    -9.002552633230099E-2    8.599983063537100E1    -4.081848638306934E1    -1.638310129683484E2
 1.003000000000000E9    -4.199822505876578E1     1.677539006122153E2    -7.166901560936757E-2    8.507740020030848E1    -8.270037899069814E-2    8.529003259549286E1    -4.019772056830717E1    -1.666568165541120E2
 1.004000000000000E9    -4.243063106269546E1     1.740304311599781E2    -7.831328990955305E-2    8.439777824466296E1    -8.631385875089194E-2    8.464075324269368E1    -4.004516460386297E1    -1.635714670387543E2
 1.005000000000000E9    -4.182484755553844E1     1.741017735399051E2    -7.752019895271632E-2    8.375401930243847E1    -8.979266763405411E-2    8.402768716082264E1    -3.947746934804122E1    -1.586600038600140E2
 1.006000000000000E9    -4.178331877878215E1     1.697641871434877E2    -7.975991467067820E-2    8.308535419661000E1    -8.917334911171763E-2    8.336540066203834E1    -4.040071505538643E1    -1.584861036240512E2
 1.007000000000000E9    -4.243199179948412E1     1.736313314716155E2    -7.786350692475737E-2    8.246596583407198E1    -9.037097038716230E-2    8.274135043229052E1    -4.044863387932251E1    -1.641957446276889E2
 1.008000000000000E9    -4.332461563564788E1     1.712639072327693E2    -7.505109386992914E-2    8.178846406556011E1    -9.187734747103532E-2    8.209138901260225E1    -4.061958683883128E1    -1.641986207835622E2
 1.009000000000000E9    -4.220543446843810E1     1.780776187134569E2    -7.459254871532561E-2    8.116921441727513E1    -9.490572869873423E-2    8.145229489744385E1    -4.005514192383333E1    -1.590047519721588E2
 1.010000000000000E9    -4.282822866933486E1     1.772742587223889E2    -7.902747721240376E-2    8.053866642865528E1    -9.506877566576460E-2    8.082630591519788E1    -4.102096044372357E1    -1.539223488185288E2
 1.011000000000000E9    -4.167674025567671E1     1.686806665069436E2    -8.055133351142560E-2    7.989058922460838E1    -8.664341736790789E-2    8.017472034299310E1    -4.106818038288532E1    -1.684592233659909E2
 1.012000000000000E9    -4.218081047974339E1     1.771712026838821E2    -7.715856049203496E-2    7.925887909164470E1    -9.339635151581294E-2    7.954100420392375E1    -4.100678153613050E1    -1.600095261717192E2
 1.013000000000000E9    -4.262385279897117E1     1.672838156571744E2    -8.106660771457065E-2    7.860848589212164E1    -8.621979635283043E-2    7.892068487631512E1    -4.096878405565371E1    -1.631711308600353E2
 1.014000000000000E9    -4.330090624426013E1     1.759332965613732E2    -7.937083131559398E-2    7.796624472335672E1    -8.895271550823593E-2    7.826790944297459E1    -4.179438347338093E1    -1.580191871810105E2
 1.015000000000000E9    -4.278440241135273E1     1.747329226633674E2    -7.452689730650876E-2    7.735614718829275E1    -9.273339110483066E-2    7.766927100098121E1    -4.169254975096257E1    -1.605302555165729E2
 1.016000000000000E9    -4.223941135885508E1     1.758259108827945E2    -8.068702452017915E-2    7.671456758390521E1    -9.171188344444026E-2    7.704458174846008E1    -4.113620305592615E1    -1.580504120309521E2
 1.017000000000000E9    -4.263475717134926E1     1.618741758597901E2    -7.789260883527412E-2    7.605192350059696E1    -9.281339682507511E-2    7.639640495323707E1    -4.138393011680862E1    -1.692433095954993E2
 1.018000000000000E9    -4.309505006500810E1    -1.761289900639701E2    -7.950927407922649E-2    7.543318386685232E1    -9.111964699786133E-2    7.573374897024574E1    -4.205460959839855E1    -1.556726516847323E2
 1.019000000000000E9    -4.406871997894402E1    -1.798180238638283E2    -8.077262219282422E-2    7.479910055712212E1    -9.002578347974843E-2    7.510454087866715E1    -4.267472330521439E1    -1.629327230087658E2
 1.020000000000000E9    -4.321328263051336E1     1.763373811310252E2    -7.702986817624366E-2    7.416797829021043E1    -9.701251962791879E-2    7.445941046962912E1    -4.246726553167328E1    -1.626040460716783E2
 1.021000000000000E9    -4.354368725034441E1     1.764390727031705E2    -7.498510459673345E-2    7.354193228108100E1    -9.833172316904061E-2    7.381599872250024E1    -4.151291879562477E1    -1.589524652314118E2
 1.022000000000000E9    -4.236751438795241E1     1.774327127639302E2    -8.190321641757996E-2    7.288227007963396E1    -8.951987604583506E-2    7.319915524392555E1    -4.188172266558225E1    -1.592288345460815E2
 1.023000000000000E9    -4.340613013779993E1     1.721046106888589E2    -8.025372104090489E-2    7.228236479626334E1    -1.004084932893562E-1    7.254957918986858E1    -4.184713440630066E1    -1.586030012250424E2
 1.024000000000000E9    -4.338995283126476E1     1.723299543474893E2    -7.871364753731161E-2    7.164544186458389E1    -9.338210455311295E-2    7.191783288101595E1    -4.277582888850412E1    -1.658403673124026E2
 1.025000000000000E9    -4.387531017668310E1     1.696465591125938E2    -7.487164439420832E-2    7.099044477542630E1    -9.588933466638788E-2    7.127293652981898E1    -4.204847113868040E1    -1.636009548749470E2
 1.026000000000000E9    -4.250074987569646E1     1.683286334001901E2    -7.770105803103330E-2    7.038032810958897E1    -9.499944721144495E-2    7.066089223298530E1    -4.292705604257348E1    -1.662207551962879E2
 1.027000000000000E9    -4.360663679014979E1     1.737004879642653E2    -8.042468171708540E-2    6.969176725528401E1    -9.386972393944539E-2    7.005312318378502E1    -4.339198980620678E1    -1.654318591810633E2
 1.028000000000000E9    -4.281334861754998E1     1.712208040506405E2    -7.251792742634876E-2    6.909131085300277E1    -9.296279609239837E-2    6.940316233710179E1    -4.249247534197956E1    -1.693415298430385E2
 1.029000000000000E9    -4.267435591728446E1     1.683787521794115E2    -7.766494229671109E-2    6.846058893795340E1    -9.927528432371525E-2    6.874475231849924E1    -4.218849150206606E1    -1.730514952311721E2
 1.030000000000000E9    -4.259922472635095E1     1.632341806874605E2    -7.666581146982261E-2    6.780455366645307E1    -9.606172365609667E-2    6.806664585206394E1    -4.273825248416969E1    -1.745739043455299E2
 1.031000000000000E9    -4.269479570777971E1     1.650709884615974E2    -7.538763387381849E-2    6.716817837797393E1    -9.302432843077665E-2    6.744830560098416E1    -4.192198214606829E1    -1.738147967251900E2
 1.032000000000000E9    -4.212623766827405E1     1.608013469447131E2    -7.303530458871595E-2    6.651490683265223E1    -1.005712611327623E-1    6.681658049524086E1    -4.229284841311470E1    -1.733177833113014E2
 1.033000000000000E9    -4.255428528718404E1     1.608718058209417E2    -8.197452904945185E-2    6.590833495871706E1    -9.589333361541323E-2    6.619209511900218E1    -4.207067557745955E1    -1.761602024354366E2
 1.034000000000000E9    -4.138213076085461E1     1.639169768820277E2    -7.822853489217158E-2    6.529874809399945E1    -9.854143525554904E-2    6.558248213326331E1    -4.203336130519070E1    -1.746422293857181E2
 1.035000000000000E9    -4.207759359894694E1     1.526593796271025E2    -7.423961432031737E-2    6.467282614958477E1    -9.851621623117672E-2    6.491751394664799E1    -4.233129421371058E1    -1.786135606679200E2
 1.036000000000000E9    -4.078771528530682E1     1.612539392591836E2    -7.868683335615316E-2    6.396240279073814E1    -9.519178038970204E-2    6.428491378149697E1    -4.072763734211586E1    -1.775834930904648E2
 1.037000000000000E9    -4.094912888771103E1     1.527120089435986E2    -7.617030545181225E-2    6.334528873486713E1    -9.773177753478073E-2    6.365995556062712E1    -4.080233450623315E1     1.720638663972177E2
 1.038000000000000E9    -3.990340431553702E1     1.515620737131178E2    -7.690827029804062E-2    6.268891489683842E1    -1.007157900887996E-1    6.304550595709772E1    -4.147575875537580E1     1.723280386130327E2
 1.039000000000000E9    -3.982063589424791E1     1.495257188362665E2    -7.905554362813819E-2    6.209380868637740E1    -9.609410917400246E-2    6.239302273542221E1    -3.997632681047152E1     1.686163097411147E2
 1.040000000000000E9    -3.910200716675248E1     1.535123328770154E2    -7.494951990019214E-2    6.143717563261525E1    -9.675929574491368E-2    6.173320724645047E1    -3.971487078695659E1     1.688183312325030E2
 1.041000000000000E9    -3.979012427735139E1     1.543495218245018E2    -7.973653499710361E-2    6.079387573902562E1    -9.821966304996876E-2    6.112469319788122E1    -3.938208958894126E1     1.700152833207142E2
 1.042000000000000E9    -3.922919058890908E1     1.476051123145838E2    -8.268811035795166E-2    6.017128268443292E1    -1.022485786208723E-1    6.046246141163095E1    -3.966335576992127E1     1.691262307851262E2
 1.043000000000000E9    -3.945509982101954E1     1.510101286885495E2    -7.778108702113562E-2    5.954298828607518E1    -9.937920836499720E-2    5.987217804728890E1    -3.960699565049107E1     1.680192317806905E2
 1.044000000000000E9    -3.894986615233205E1     1.462105524935008E2    -7.710542449638273E-2    5.887892111408190E1    -1.001467542158270E-1    5.919447298057833E1    -3.950782608936594E1     1.626533685310103E2
 1.045000000000000E9    -3.912632189097271E1     1.449257624510409E2    -7.129577853717709E-2    5.824785075435232E1    -1.017026438862668E-1    5.855261100556434E1    -3.905848471052523E1     1.579540929263472E2
 1.046000000000000E9    -3.905606899586462E1     1.430602131964182E2    -7.821651949841212E-2    5.763560006348766E1    -1.012182599552871E-1    5.794696108101908E1    -3.842507510160434E1     1.613690371513485E2
 1.047000000000000E9    -3.837804040270915E1     1.477053700838787E2    -7.967336825507831E-2    5.700898430944809E1    -9.247216506292762E-2    5.730705811901080E1    -3.869128769268171E1     1.593423968821275E2
 1.048000000000000E9    -3.866722432342188E1     1.424714378027414E2    -8.163608131265758E-2    5.637134710984641E1    -1.004512831994180E-1    5.666217068127794E1    -3.785546587964846E1     1.620343695743066E2
 1.049000000000000E9    -3.855108595201819E1     1.444346362227724E2    -7.128447822081717E-2    5.572593447832142E1    -1.018669275234691E-1    5.603207819580474E1    -3.804593025687458E1     1.587951902273486E2
 1.050000000000000E9    -3.797989676449683E1     1.435276624030840E2    -7.365649935615046E-2    5.508993534952992E1    -9.672348858339509E-2    5.540045671403900E1    -3.752053550738239E1     1.561000554642846E2
 1.051000000000000E9    -3.731006741175661E1     1.445878139739385E2    -7.707524898876825E-2    5.448917470962099E1    -9.567366613997833E-2    5.472618598095396E1    -3.725123753366204E1     1.520669470960867E2
 1.052000000000000E9    -3.780567004852599E1     1.422373989399922E2    -7.597859432739804E-2    5.384516332949932E1    -1.045736653798041E-1    5.411142640946034E1    -3.691289057030404E1     1.554499737256217E2
 1.053000000000000E9    -3.800239145371771E1     1.447371733647648E2    -7.264387901089633E-2    5.320499300775931E1    -9.713785246289031E-2    5.348165532389777E1    -3.649736021865337E1     1.547014777786442E2
 1.054000000000000E9    -3.714446095568387E1     1.395500802054026E2    -7.725613078373546E-2    5.255797614079795E1    -1.005194339407356E-1    5.288486362008425E1    -3.686433359347750E1     1.501361618939934E2
 1.055000000000000E9    -3.703888948940836E1     1.412060199985683E2    -7.484620471523608E-2    5.191696696473701E1    -1.002554212180521E-1    5.221989992495253E1    -3.659069719719211E1     1.505101738249856E2
 1.056000000000000E9    -3.657766985920471E1     1.396192499434430E2    -8.234870374255421E-2    5.129252080023257E1    -9.273195439909961E-2    5.161857164578169E1    -3.580287325510409E1     1.523680637744940E2
 1.057000000000000E9    -3.668906180289249E1     1.447167454879205E2    -7.609585845691166E-2    5.065054726989295E1    -1.012752747668167E-1    5.094227183760449E1    -3.580132871692564E1     1.486737234407231E2
 1.058000000000000E9    -3.667673047522888E1     1.398463341573030E2    -7.740163771858311E-2    5.004134450921671E1    -1.061616467684265E-1    5.033618047862110E1    -3.609948058242906E1     1.461456639288236E2
 1.059000000000000E9    -3.641235574140970E1     1.401852363773734E2    -7.034761550135693E-2    4.941448662459936E1    -1.061372943113352E-1    4.968670178574121E1    -3.595449062294370E1     1.493916302482305E2
 1.060000000000000E9    -3.677753028161089E1     1.419249221631426E2    -7.505614723870288E-2    4.878219732250739E1    -1.001401982676181E-1    4.904788462616075E1    -3.589355188438618E1     1.507636066328958E2
 1.061000000000000E9    -3.666228448072316E1     1.362694120968407E2    -7.635397884715749E-2    4.817586102536522E1    -9.377380882113115E-2    4.842065322013627E1    -3.572109092301778E1     1.485367629473649E2
 1.062000000000000E9    -3.640666009164584E1     1.374983705084107E2    -7.540754796590610E-2    4.750526570629990E1    -9.832332841674028E-2    4.776542962222403E1    -3.558533729888795E1     1.456460890529585E2
 1.063000000000000E9    -3.606790942653957E1     1.397798807731807E2    -6.741298962047675E-2    4.683623029511033E1    -9.893194596542509E-2    4.716906694204786E1    -3.647812128337548E1     1.453098102144802E2
 1.064000000000000E9    -3.646631612086581E1     1.371294132176848E2    -7.722901333934802E-2    4.623304442476271E1    -9.881762133382047E-2    4.652931603402139E1    -3.627649071376526E1     1.462140064066966E2
 1.065000000000000E9    -3.645408889415443E1     1.364282401044308E2    -7.362733911574036E-2    4.557292143564453E1    -1.005948706629517E-1    4.587359543045944E1    -3.574536507015512E1     1.457701968399241E2
 1.066000000000000E9    -3.629470825930508E1     1.375105374019712E2    -7.146942556808138E-2    4.495865295197278E1    -1.034884323389101E-1    4.522540298356253E1    -3.542177815943993E1     1.441680992303944E2
 1.067000000000000E9    -3.639513039334655E1     1.363593583854653E2    -7.325411895553782E-2    4.434295930261753E1    -9.377012969949243E-2    4.461824578375715E1    -3.545203062571105E1     1.431255905488304E2
 1.068000000000000E9    -3.655244693875482E1     1.366361495239600E2    -7.315839807583240E-2    4.364448105372497E1    -9.556558304201822E-2    4.401460418643885E1    -3.548016720849715E1     1.436215298054354E2
 1.069000000000000E9    -3.668033040335590E1     1.365663005952289E2    -7.682349702057767E-2    4.306094765254179E1    -1.004627564516020E-1    4.333342323900745E1    -3.596698024564807E1     1.444182922831322E2
 1.070000000000000E9    -3.608790367196726E1     1.374823638114844E2    -7.205769576702306E-2    4.240686908715715E1    -9.695155793325627E-2    4.275042102785545E1    -3.609580206543829E1     1.443172214870639E2
 1.071000000000000E9    -3.592695269494569E1     1.372021379963317E2    -7.260024013108396E-2    4.179743495708402E1    -1.046596910526510E-1    4.209372524773800E1    -3.568947628619375E1     1.412268542586689E2
 1.072000000000000E9    -3.652355814519670E1     1.352830862002391E2    -7.684930919067901E-2    4.112371511923857E1    -1.019203645256914E-1    4.144239857175097E1    -3.583630056282435E1     1.431397396734017E2
 1.073000000000000E9    -3.671751815993014E1     1.375616496386401E2    -7.483873231973290E-2    4.047339337887154E1    -1.010955784565686E-1    4.081322378716777E1    -3.600617369868700E1     1.425942856314300E2
 1.074000000000000E9    -3.636470051989549E1     1.363774171617746E2    -8.030950685220076E-2    3.987766828231038E1    -1.032956697604494E-1    4.017133928694289E1    -3.546175610370957E1     1.405268554592255E2
 1.075000000000000E9    -3.609619255425041E1     1.364773272394044E2    -7.037888987551222E-2    3.921774756897252E1    -1.004000919723832E-1    3.955606032333638E1    -3.592269729559196E1     1.414886346123508E2
 1.076000000000000E9    -3.703845160439032E1     1.349654307225039E2    -7.585942701260437E-2    3.861673464193722E1    -1.050035308912865E-1    3.889936948190557E1    -3.614477261850232E1     1.430524196028679E2
 1.077000000000000E9    -3.682226669185546E1     1.310700281385092E2    -7.113150513780955E-2    3.796327711706842E1    -1.033337612419654E-1    3.829290313003462E1    -3.628798292714515E1     1.424600756069736E2
 1.078000000000000E9    -3.669369254001448E1     1.326607104700570E2    -7.382623046161738E-2    3.736276643838817E1    -9.709525226473093E-2    3.764709366446402E1    -3.592060856548697E1     1.419928389980661E2
 1.079000000000000E9    -3.651155710832335E1     1.293569495241323E2    -7.148451933565339E-2    3.672419760640572E1    -9.661365307517378E-2    3.700401219892413E1    -3.600784126292641E1     1.389359345598828E2
 1.080000000000000E9    -3.662231622178216E1     1.326448961351789E2    -7.133187137904855E-2    3.606444957165730E1    -1.030779731838748E-1    3.637589308393527E1    -3.641733307609488E1     1.412590348193830E2
 1.081000000000000E9    -3.675264091330526E1     1.285216585249945E2    -6.787511253564173E-2    3.545140469624607E1    -1.016418917800636E-1    3.578052242504057E1    -3.620559900159153E1     1.379818212293704E2
 1.082000000000000E9    -3.599618648842825E1     1.337115834097152E2    -7.291484175159629E-2    3.482126172098806E1    -9.988447658916418E-2    3.508689064773236E1    -3.629601981045592E1     1.391899539391681E2
 1.083000000000000E9    -3.676886820438816E1     1.316653654620412E2    -7.994006483497936E-2    3.420070329169994E1    -9.982974995289795E-2    3.448720171157807E1    -3.619518742353798E1     1.383039720775227E2
 1.084000000000000E9    -3.703217022593606E1     1.358835222613427E2    -7.124800413265303E-2    3.352292803181760E1    -9.856606857659936E-2    3.385667385309310E1    -3.650891718380002E1     1.384671171114497E2
 1.085000000000000E9    -3.637400316211588E1     1.294234432904057E2    -7.343966603342898E-2    3.292349738758547E1    -1.036088418706732E-1    3.324378941627618E1    -3.608410524791122E1     1.320501655933941E2
 1.086000000000000E9    -3.617479576417524E1     1.309492544767639E2    -7.664883181040563E-2    3.226477274397611E1    -9.876998757783097E-2    3.256850699987975E1    -3.630642171975033E1     1.368176528886384E2
 1.087000000000000E9    -3.588058493444901E1     1.269377503343204E2    -7.214782926322326E-2    3.160631302915775E1    -1.066589786053043E-1    3.200694354101721E1    -3.608778024572716E1     1.354948333912620E2
 1.088000000000000E9    -3.648201237069023E1     1.290038047917023E2    -7.404037744560650E-2    3.096519543477857E1    -9.937269522171066E-2    3.133313993362370E1    -3.638968243748234E1     1.333122542755999E2
 1.089000000000000E9    -3.634899093847711E1     1.273413337046719E2    -7.299941731906573E-2    3.033917715763368E1    -1.048859300372082E-1    3.071636820198851E1    -3.665170128177883E1     1.323392990900839E2
 1.090000000000000E9    -3.628943832720161E1     1.270710025157320E2    -7.728460474101909E-2    2.971502154705152E1    -9.901284227180569E-2    3.005375671274351E1    -3.643794312473608E1     1.335381968986868E2
 1.091000000000000E9    -3.602531063750797E1     1.242646992674749E2    -7.293615037100623E-2    2.910900844554467E1    -1.052610902747823E-1    2.940638901226476E1    -3.573417000426137E1     1.340199619598347E2
