#  HZ   S   DB   R     50.00 
! Rohde & Schwarz Vector Network Analyzer 
! Rohde-Schwarz,ZNB8-4Port,1311601044102961,2.82
! Created: UTC 1/17/2019, 2:40:57 PM
! freq[Hz]                db:S11                  ang:S11                 db:S21                  ang:S21                 db:S12                  ang:S12                 db:S22                  ang:S22
 1.000000000000000E9    -4.388007669754665E1    -1.784695713043770E2    -6.617816827848359E-2    1.273649771415248E2    -7.949351808970798E-2    1.275017749501504E2    -4.398322699489862E1    -1.426947726737777E2
 1.001000000000000E9    -4.415549074338621E1    -1.760355509252716E2    -6.490482680098036E-2    1.267390912378589E2    -8.665034633472341E-2    1.269011452013761E2    -4.343366488128081E1    -1.295837799325429E2
 1.002000000000000E9    -4.383208777778506E1    -1.777820896609499E2    -6.783886444487712E-2    1.260236323434324E2    -9.032826189153864E-2    1.262768961581543E2    -4.482369950788684E1    -1.326447761736260E2
 1.003000000000000E9    -4.356127607602087E1    -1.772984158785361E2    -6.461682143148592E-2    1.254105767298650E2    -7.787698376805557E-2    1.255787791962413E2    -4.292667288583068E1    -1.342892139840219E2
 1.004000000000000E9    -4.496943176525515E1    -1.763407757180261E2    -7.198734879929783E-2    1.247980016816855E2    -7.889349106659400E-2    1.250171850744581E2    -4.231871986030522E1    -1.273523263324428E2
 1.005000000000000E9    -4.388964914672948E1    -1.722315312459046E2    -7.423529574277668E-2    1.241437166912796E2    -8.835637227257000E-2    1.244271862397201E2    -4.288414733844506E1    -1.183816067812205E2
 1.006000000000000E9    -4.368659014412803E1    -1.736847717530127E2    -7.133015347942559E-2    1.235153946983036E2    -8.303702707149961E-2    1.238071254358730E2    -4.314594859790282E1    -1.264297455170962E2
 1.007000000000000E9    -4.427025651982126E1    -1.775547787242452E2    -7.225903621313251E-2    1.229350500757123E2    -8.019493783134567E-2    1.232285549886749E2    -4.265820963053333E1    -1.302195202032430E2
 1.008000000000000E9    -4.439028143351693E1    -1.779411908877585E2    -7.058368391066826E-2    1.223143499195098E2    -8.595542224517716E-2    1.226328784454638E2    -4.285680920836616E1    -1.287282096087276E2
 1.009000000000000E9    -4.549274984956306E1    -1.682573745155251E2    -7.129717666542131E-2    1.217362562369573E2    -8.703452702588448E-2    1.219994440452110E2    -4.258842378681048E1    -1.221503458811439E2
 1.010000000000000E9    -4.547843772618990E1    -1.726050233245397E2    -7.040033267769885E-2    1.211360751310980E2    -8.814307320227766E-2    1.214223736821646E2    -4.392497211797519E1    -1.200982674727744E2
 1.011000000000000E9    -4.332025358137323E1    -1.696221555187929E2    -7.776027372292606E-2    1.205422098077714E2    -8.180179356863565E-2    1.208417142609473E2    -4.257820157154793E1    -1.342551267538852E2
 1.012000000000000E9    -4.563442127921274E1    -1.656907806116739E2    -7.309334698775398E-2    1.199433839747846E2    -8.546932624372053E-2    1.202267807800949E2    -4.346500212306138E1    -1.283501697343410E2
 1.013000000000000E9    -4.424602987832941E1    -1.748716839670147E2    -7.236973251447924E-2    1.193145783891155E2    -8.100893249426258E-2    1.196338364952328E2    -4.332371500067105E1    -1.252838257442280E2
 1.014000000000000E9    -4.617104011053068E1    -1.729221565032744E2    -7.295598221630496E-2    1.187322392539403E2    -8.358924081898951E-2    1.190570707199434E2    -4.361978812473373E1    -1.245909828333545E2
 1.015000000000000E9    -4.589839765044302E1    -1.674933406842202E2    -6.855831915859523E-2    1.181410021511730E2    -8.488762523883073E-2    1.184725275008101E2    -4.405496727891208E1    -1.265745086160809E2
 1.016000000000000E9    -4.537435394232638E1    -1.624756257106447E2    -7.033077150187606E-2    1.175518782938842E2    -8.573522730821966E-2    1.178440536213946E2    -4.415037828743236E1    -1.198605260110046E2
 1.017000000000000E9    -4.381355814777450E1    -1.721762670322840E2    -7.359795261683585E-2    1.169563456346204E2    -8.807913381515156E-2    1.172752259691681E2    -4.352609106862168E1    -1.298457472882368E2
 1.018000000000000E9    -4.854525929144461E1    -1.580653598778958E2    -7.175741409122413E-2    1.163544643016874E2    -8.784105731984994E-2    1.166662758308423E2    -4.513222628855066E1    -1.136659881244258E2
 1.019000000000000E9    -4.941026139081345E1    -1.733609297689866E2    -6.950622949894339E-2    1.157512746534615E2    -8.771190876669691E-2    1.160463602626516E2    -4.445302182655429E1    -1.231011526625608E2
 1.020000000000000E9    -4.821388928876675E1    -1.664059612729571E2    -7.333966190465048E-2    1.151770315420849E2    -9.020136738877821E-2    1.154554523286993E2    -4.526788870597592E1    -1.191790345955262E2
 1.021000000000000E9    -4.768228642719429E1    -1.622179566384651E2    -7.118832711924360E-2    1.145937308298397E2    -8.614719958608962E-2    1.148731422095176E2    -4.496126125658475E1    -1.139398465750998E2
 1.022000000000000E9    -4.812526251750499E1    -1.598254720518637E2    -7.341895637542839E-2    1.139808371416756E2    -8.364942128165064E-2    1.142878044244131E2    -4.483214038906309E1    -1.088973865536814E2
 1.023000000000000E9    -4.801238589796417E1    -1.603514725955022E2    -7.248722964876597E-2    1.134061310973502E2    -9.102110782199226E-2    1.136603842466428E2    -4.555951077766981E1    -1.059361964303094E2
 1.024000000000000E9    -5.019421551669181E1    -1.657335231389097E2    -7.244878391812734E-2    1.127936922338317E2    -8.496673325084381E-2    1.130837735014746E2    -4.580949437887716E1    -1.201406138711902E2
 1.025000000000000E9    -4.956589751646050E1    -1.758055779091008E2    -7.435932361826977E-2    1.122081823665781E2    -9.107760347736457E-2    1.124843485447738E2    -4.591896122452084E1    -1.080373915829064E2
 1.026000000000000E9    -4.820389079557374E1    -1.556896924572968E2    -6.400903049299803E-2    1.115897599581857E2    -9.141459486339723E-2    1.119120446664770E2    -4.701565231034239E1    -1.123578828969276E2
 1.027000000000000E9    -5.358587938859835E1    -1.614262959217139E2    -7.129771639482674E-2    1.109715258265084E2    -8.942338437945833E-2    1.113257400974124E2    -4.778205969377908E1    -1.115252686341517E2
 1.028000000000000E9    -5.041271168436141E1    -1.634210147290485E2    -6.934267028660622E-2    1.104001555450269E2    -8.821476518953487E-2    1.107205152608585E2    -4.695221476298897E1    -1.071296258589776E2
 1.029000000000000E9    -5.070341738007411E1    -1.644093685190451E2    -7.534836377640160E-2    1.097924401814148E2    -9.616017621958042E-2    1.100873667566909E2    -4.676423595121023E1    -1.132368244474342E2
 1.030000000000000E9    -5.113361108024628E1    -1.716951127755668E2    -7.126459437986044E-2    1.091922513912327E2    -8.871821811768124E-2    1.094955113820873E2    -4.798587323611927E1    -1.140930401013194E2
 1.031000000000000E9    -5.097915384460375E1    -1.751250849089228E2    -7.415839056605358E-2    1.086287635004955E2    -9.048686879945174E-2    1.088765383534713E2    -4.674719206214822E1    -1.020883466899913E2
 1.032000000000000E9    -5.117667645437525E1    -1.730697930371998E2    -6.747445713425405E-2    1.079780670861659E2    -9.494761911353450E-2    1.082902623055047E2    -4.780948656913323E1    -1.020681951286614E2
 1.033000000000000E9    -5.192794856452240E1    -1.793890744797114E2    -7.648696374056652E-2    1.074381314138167E2    -8.850549978259406E-2    1.077431518398406E2    -4.737530263364267E1    -1.077787862001937E2
 1.034000000000000E9    -5.155148105914773E1    -1.641930556556330E2    -7.211244087634217E-2    1.068534496104467E2    -9.295878777270816E-2    1.071738529927997E2    -4.698817781536101E1    -1.133440247513233E2
 1.035000000000000E9    -5.012210477484358E1     1.656943442782743E2    -6.922154779718645E-2    1.062479412380622E2    -9.172180114004636E-2    1.065409532739768E2    -4.863176898067835E1    -1.017501822354701E2
 1.036000000000000E9    -4.997708584453977E1    -1.561462262844470E2    -7.271855960061173E-2    1.055963057654891E2    -9.108155641506108E-2    1.059282804401864E2    -4.782292721135141E1    -1.073555504826167E2
 1.037000000000000E9    -4.926759493630243E1     1.736924872964854E2    -6.882691590648124E-2    1.050318283481788E2    -8.748022208275565E-2    1.053735653667679E2    -4.692439147528692E1    -1.226421607137729E2
 1.038000000000000E9    -4.809940562562424E1    -1.718852449936260E2    -7.309528687332813E-2    1.044407991201312E2    -9.317626310906657E-2    1.047319608562758E2    -4.817046502645317E1    -1.303958764755752E2
 1.039000000000000E9    -4.624605578059014E1     1.747587059608743E2    -7.263426012264074E-2    1.038184972104159E2    -9.180849464554827E-2    1.041499742728877E2    -4.729746571553844E1    -1.256642394646735E2
 1.040000000000000E9    -4.704916687162788E1    -1.685931350986148E2    -6.956388260066741E-2    1.032515413027177E2    -8.828463122297443E-2    1.035072740733983E2    -4.655537224288934E1    -1.316884567404301E2
 1.041000000000000E9    -4.901640439058361E1    -1.776512803795497E2    -7.104768619183439E-2    1.026348927810046E2    -9.301019858939671E-2    1.029941928374555E2    -4.578223680293630E1    -1.210514797948520E2
 1.042000000000000E9    -4.577687193886369E1     1.775191134095220E2    -7.413707103400560E-2    1.020429120897765E2    -9.442970147389479E-2    1.023617674515096E2    -4.736515150264215E1    -1.270681409853343E2
 1.043000000000000E9    -4.827948108064288E1     1.740854834757361E2    -7.087877740924480E-2    1.014744651019374E2    -9.776913351883815E-2    1.017957924369411E2    -4.741555106882927E1    -1.287200683187766E2
 1.044000000000000E9    -4.599601392437052E1     1.740462202980036E2    -6.390995900920476E-2    1.008373621321862E2    -9.718014113673233E-2    1.011944057935257E2    -4.761051427617333E1    -1.462125983748806E2
 1.045000000000000E9    -4.604720411578494E1     1.670854290724597E2    -6.082506905065434E-2    1.002534045103651E2    -9.333443516862366E-2    1.005582356821446E2    -4.551962430601155E1    -1.465298294308977E2
 1.046000000000000E9    -4.514383253777663E1     1.658657958358004E2    -7.021796547254799E-2    9.966589218704320E1    -9.168553922238268E-2    9.998621014868940E1    -4.497948147639789E1    -1.448973136015678E2
 1.047000000000000E9    -4.608405669761672E1     1.708251646289877E2    -7.740096792760716E-2    9.909284493690448E1    -8.895376070653049E-2    9.938632620762519E1    -4.572443337826297E1    -1.479045352225949E2
 1.048000000000000E9    -4.493146955252320E1     1.652669129580957E2    -7.056970851334835E-2    9.850253367008116E1    -9.457719560718141E-2    9.877966264961559E1    -4.530104692196107E1    -1.393955526264053E2
 1.049000000000000E9    -4.527457839209699E1     1.648532536389307E2    -6.586309197801168E-2    9.787630928112047E1    -9.164133638198778E-2    9.818505267299126E1    -4.554698709192252E1    -1.470667537968698E2
 1.050000000000000E9    -4.414243502776229E1     1.663073752051871E2    -6.769484794124245E-2    9.729263459702621E1    -9.217319608011011E-2    9.761885463090057E1    -4.466303906713500E1    -1.519134248490794E2
 1.051000000000000E9    -4.344820063821106E1     1.721029925190543E2    -6.550251082475024E-2    9.670151706254376E1    -9.326645150780148E-2    9.695434540785809E1    -4.225138753845992E1    -1.592140710402277E2
 1.052000000000000E9    -4.408258098932492E1     1.637918493960331E2    -6.591474883134106E-2    9.614612224089881E1    -9.315206601374700E-2    9.638232736189620E1    -4.333219620563332E1    -1.539965293229993E2
 1.053000000000000E9    -4.428608068872397E1     1.623253332483425E2    -6.992091222951426E-2    9.553987855781442E1    -9.575792139097010E-2    9.579379336075979E1    -4.230679695025916E1    -1.524334290931237E2
 1.054000000000000E9    -4.216548395088100E1     1.669655462378045E2    -7.018432901703038E-2    9.490529244100064E1    -9.127233920594870E-2    9.524877978896194E1    -4.214416160711728E1    -1.647553244334895E2
 1.055000000000000E9    -4.252701263482818E1     1.656938979504044E2    -6.721470735707544E-2    9.433397131207639E1    -9.349868066160705E-2    9.465824443802369E1    -4.175202267487506E1    -1.673040473380081E2
 1.056000000000000E9    -4.144445759655214E1     1.709420697135629E2    -7.156217177626996E-2    9.374362130638660E1    -8.634286276926582E-2    9.406408718478980E1    -4.085931180213466E1    -1.594093776887333E2
 1.057000000000000E9    -4.223399811477133E1     1.718763576430604E2    -6.580343988420379E-2    9.311838755009079E1    -9.407962284152682E-2    9.342959729649336E1    -4.022909687887256E1    -1.633721482849099E2
 1.058000000000000E9    -4.160734226250838E1     1.657919523964866E2    -6.632935541772216E-2    9.256418079147561E1    -9.643991318817349E-2    9.283247713082199E1    -3.986534523854093E1    -1.690070377154231E2
 1.059000000000000E9    -4.106896746687076E1     1.696971908061021E2    -6.577639970906551E-2    9.195053056815759E1    -9.721292497896922E-2    9.226239257676932E1    -4.029892553775872E1    -1.637177063389434E2
 1.060000000000000E9    -4.175692073461963E1     1.668707889436985E2    -6.502367367640194E-2    9.136556819275266E1    -9.393570702183592E-2    9.166703439782300E1    -4.047007257285031E1    -1.629242695955080E2
 1.061000000000000E9    -4.040456010763194E1     1.665348485726175E2    -6.842817093762875E-2    9.079396863306886E1    -9.465833537155023E-2    9.105750503532428E1    -3.999602424134665E1    -1.637733614028914E2
 1.062000000000000E9    -4.008726300091426E1     1.637810117011460E2    -6.226427682501486E-2    9.017129860234964E1    -9.512490907118441E-2    9.044353206907827E1    -3.921178277756497E1    -1.668889439150286E2
 1.063000000000000E9    -4.046929179136661E1     1.705213187291695E2    -6.193261943459499E-2    8.957533510583501E1    -1.000054778388237E-1    8.986319536668489E1    -3.994251841356711E1    -1.726622732979629E2
 1.064000000000000E9    -4.068775796131639E1     1.664189428922913E2    -6.933282767714274E-2    8.897350276396139E1    -9.540075279356956E-2    8.930807896889000E1    -4.016167779857114E1    -1.715107004638881E2
 1.065000000000000E9    -4.008396123088997E1     1.649979168273056E2    -6.923819312475220E-2    8.837673828363207E1    -1.003765234943975E-1    8.867993909799353E1    -3.949143771269861E1    -1.684543354528167E2
 1.066000000000000E9    -3.954000954896527E1     1.674565018001997E2    -6.577487323781622E-2    8.781116009602883E1    -9.678677854169261E-2    8.808963257432568E1    -3.893909009878122E1    -1.704474802655818E2
 1.067000000000000E9    -3.956935824118324E1     1.658159476782570E2    -6.432914154536254E-2    8.723861508873749E1    -9.066928910749325E-2    8.746419806385863E1    -3.868776590537536E1    -1.692260294025328E2
 1.068000000000000E9    -3.978978833624205E1     1.638227310960517E2    -6.943595188989797E-2    8.657735153540425E1    -9.344832581425583E-2    8.691166605957595E1    -3.897520219955224E1    -1.719496044309637E2
 1.069000000000000E9    -3.976609940311503E1     1.644612126839325E2    -7.028045318063361E-2    8.600847422065080E1    -9.402097272619325E-2    8.627063066913132E1    -3.909115056709479E1    -1.715870425873543E2
 1.070000000000000E9    -3.993336815432745E1     1.691566854403846E2    -6.744104184998136E-2    8.541928668568887E1    -9.240564811074725E-2    8.574628740640165E1    -3.914778340140622E1    -1.750503021745613E2
 1.071000000000000E9    -3.982039169704714E1     1.698988826971767E2    -6.303418383388393E-2    8.482179764137308E1    -9.773634555196627E-2    8.513881520575606E1    -3.821531820267676E1    -1.729303787408149E2
 1.072000000000000E9    -4.000178490229680E1     1.644090476878769E2    -6.780647902914960E-2    8.423204750609655E1    -9.622225827861973E-2    8.455515124439347E1    -3.855634020927293E1    -1.739074391324339E2
 1.073000000000000E9    -4.034646638015143E1     1.650990888675674E2    -6.833387899962687E-2    8.364447707699468E1    -9.891672215337698E-2    8.391906769919444E1    -3.872667503813658E1    -1.736422796810109E2
 1.074000000000000E9    -3.977643885603299E1     1.666195004344728E2    -6.999363453366539E-2    8.303960017698249E1    -9.503393522642162E-2    8.335052961255119E1    -3.787505202432846E1    -1.714745819966404E2
 1.075000000000000E9    -4.010442362367523E1     1.687687751884898E2    -6.180737044892333E-2    8.244288813379592E1    -9.519463389339550E-2    8.274948059277233E1    -3.840939344352282E1    -1.741095260020344E2
 1.076000000000000E9    -4.049787816610368E1     1.626096872075670E2    -6.890832507706268E-2    8.184210911740641E1    -9.707856272978351E-2    8.217255019165665E1    -3.964242415603334E1    -1.720222236046812E2
 1.077000000000000E9    -3.972069395755474E1     1.603905961232318E2    -6.568652476014919E-2    8.123371816400301E1    -1.003928480063877E-1    8.157720533129056E1    -3.936994398213574E1    -1.748272280821002E2
 1.078000000000000E9    -3.993105560843872E1     1.631370229782305E2    -6.513079539778767E-2    8.068436412474897E1    -8.836113758837588E-2    8.099213333116335E1    -3.898915052530670E1    -1.715212165184438E2
 1.079000000000000E9    -3.925886221284172E1     1.603596674687921E2    -6.313495209105230E-2    8.005787713376515E1    -9.532973347187002E-2    8.042644803203099E1    -3.857605515248122E1    -1.727396881610918E2
 1.080000000000000E9    -4.001636082743474E1     1.626601192304751E2    -6.233080716153452E-2    7.948729989983954E1    -9.631681433410119E-2    7.981061635979150E1    -3.925233911585729E1    -1.732073259781019E2
 1.081000000000000E9    -4.008560100234153E1     1.596563055188317E2    -6.048490230710697E-2    7.890065158435458E1    -9.245403964392907E-2    7.921779185771034E1    -3.878911471445607E1    -1.754738852962948E2
 1.082000000000000E9    -3.972051793721012E1     1.704797408573832E2    -6.676972977062599E-2    7.830204221965776E1    -9.013797220269965E-2    7.863381759694643E1    -3.867654291777836E1    -1.716374541373635E2
 1.083000000000000E9    -4.015462031556700E1     1.615684668661264E2    -6.470166562351870E-2    7.768815096050773E1    -9.050486844715198E-2    7.803838401347578E1    -3.907914237710702E1    -1.746368717545529E2
 1.084000000000000E9    -4.137124826399342E1     1.661498358953433E2    -6.588133609625714E-2    7.710919926152354E1    -9.085843271651954E-2    7.742864834117924E1    -3.909882367934974E1    -1.717410119247089E2
 1.085000000000000E9    -3.974775138570760E1     1.618896951125270E2    -5.918846987903102E-2    7.650939994669074E1    -9.587302153203126E-2    7.685927585107766E1    -3.868391709549480E1    -1.778977914722676E2
 1.086000000000000E9    -4.075844597109856E1     1.683158832739391E2    -6.894242455775090E-2    7.590371511068706E1    -9.410779481021153E-2    7.625128612474802E1    -3.896953216074380E1    -1.740102736755457E2
 1.087000000000000E9    -3.939578366612950E1     1.627913073132213E2    -6.089128173267798E-2    7.529162478717390E1    -9.940826326405089E-2    7.567723974548353E1    -3.871635412151431E1    -1.724634306277371E2
 1.088000000000000E9    -4.079760803770839E1     1.609675916621707E2    -6.769439862813050E-2    7.467794005133857E1    -9.386847490668550E-2    7.509166053659990E1    -3.907172804289862E1    -1.744698819087236E2
 1.089000000000000E9    -4.061050187515775E1     1.616712248290990E2    -6.830776586310217E-2    7.412047180585059E1    -9.083705890991486E-2    7.450231842231015E1    -3.908158092859962E1    -1.775879142768309E2
 1.090000000000000E9    -4.017152503254788E1     1.604856874586624E2    -6.891626324856259E-2    7.355165390267281E1    -9.021403896445276E-2    7.386438803377996E1    -3.989061069382321E1    -1.757209426960584E2
 1.091000000000000E9    -3.974197618737398E1     1.588695294642679E2    -6.141002852141730E-2    7.291515284611648E1    -9.770154653675425E-2    7.327012903440783E1    -3.920737506416558E1    -1.722483860480198E2
