#  HZ   S   DB   R     50.00 
! Rohde & Schwarz Vector Network Analyzer 
! Rohde-Schwarz,ZNB8-4Port,1311601044102961,2.82
! Created: UTC 1/17/2019, 2:33:17 PM
! freq[Hz]                db:S11                  ang:S11                 db:S21                  ang:S21                 db:S12                  ang:S12                 db:S22                  ang:S22
 1.000000000000000E9    -3.779404751314704E1     1.382883332965190E2    -8.006502052420375E-2    4.627193006553550E1    -9.198821020803405E-2    4.639500057801833E1    -3.610337481700107E1     1.509031486688602E2
 1.001000000000000E9    -3.808238780562675E1     1.389979745957815E2    -7.817766543212952E-2    4.554116420669150E1    -9.407693101730862E-2    4.570513521086447E1    -3.590633702778500E1     1.522405538716174E2
 1.002000000000000E9    -3.812440858679040E1     1.361973625607509E2    -8.263814383481720E-2    4.476279833679854E1    -9.998035588327178E-2    4.500353587074168E1    -3.688039238583762E1     1.516170510141001E2
 1.003000000000000E9    -3.831311975501811E1     1.392081455918959E2    -8.274357475288321E-2    4.407571226608992E1    -9.154589210859966E-2    4.423875707281685E1    -3.703433501010127E1     1.485851458774191E2
 1.004000000000000E9    -3.807099050484126E1     1.421005624917097E2    -8.691709664319769E-2    4.335365915585540E1    -9.478306137854838E-2    4.357784773711992E1    -3.710358709851025E1     1.466328605787207E2
 1.005000000000000E9    -3.796548009224269E1     1.398150450107087E2    -8.663310784484478E-2    4.263082978760480E1    -1.003120321360271E-1    4.291469135510070E1    -3.649611086750709E1     1.482958245955355E2
 1.006000000000000E9    -3.839649262014297E1     1.367251888261432E2    -8.595606244684111E-2    4.194072886239862E1    -9.800624823820234E-2    4.221632786372069E1    -3.736101326404179E1     1.505512273925489E2
 1.007000000000000E9    -3.840066882279789E1     1.395046504135800E2    -8.591056829382432E-2    4.126409228558302E1    -9.537776401667712E-2    4.152881204945260E1    -3.764557677700620E1     1.450151853575635E2
 1.008000000000000E9    -3.915373243008683E1     1.399236517548596E2    -8.353420686079054E-2    4.056395673806906E1    -9.941815545457028E-2    4.085778335781374E1    -3.773570584619042E1     1.436945689172633E2
 1.009000000000000E9    -3.813235165788949E1     1.408525512824082E2    -8.409447096507253E-2    3.988542283753959E1    -9.866400111836754E-2    4.016475225778252E1    -3.723791797020857E1     1.460216044445660E2
 1.010000000000000E9    -3.861416967815752E1     1.407398933146399E2    -8.777084375134608E-2    3.922387763812701E1    -1.045160700106849E-1    3.950729683389036E1    -3.746882140670590E1     1.477217504395094E2
 1.011000000000000E9    -3.864336066100645E1     1.328003919387883E2    -8.832041346846799E-2    3.855156522733802E1    -9.590758325320678E-2    3.882093352354492E1    -3.854059423271929E1     1.422844207875634E2
 1.012000000000000E9    -3.821077173086909E1     1.369580304190119E2    -8.577285711989417E-2    3.785964477867126E1    -1.026038738354697E-1    3.816294921672245E1    -3.769028003221980E1     1.459542997489163E2
 1.013000000000000E9    -3.907059127222775E1     1.326942950639942E2    -8.944156342805237E-2    3.716732292408658E1    -9.291165202801280E-2    3.746962043719662E1    -3.807147776832365E1     1.403935814260921E2
 1.014000000000000E9    -3.863527279457091E1     1.380724517068617E2    -9.103161442674464E-2    3.650285886676624E1    -9.683198623537237E-2    3.681312665433811E1    -3.837151814910924E1     1.445655008134981E2
 1.015000000000000E9    -3.859653397252216E1     1.343073383884445E2    -8.448260919267966E-2    3.580207918230315E1    -9.912804115270366E-2    3.614578407823620E1    -3.848428099436082E1     1.426965227508471E2
 1.016000000000000E9    -3.835894138431746E1     1.331801328850755E2    -8.305780050061176E-2    3.515229713103414E1    -9.905396027156498E-2    3.545894092983036E1    -3.780179485592664E1     1.439191475199683E2
 1.017000000000000E9    -3.914885561315635E1     1.268683048926276E2    -8.833731710922894E-2    3.447726946726159E1    -1.050834085547830E-1    3.479570483844449E1    -3.814825385043559E1     1.353750215030428E2
 1.018000000000000E9    -3.805478917171192E1     1.354270895613436E2    -8.760995369408080E-2    3.376403641713547E1    -1.020605021322661E-1    3.407897313133617E1    -3.817614416028732E1     1.425744207784821E2
 1.019000000000000E9    -3.822242969668583E1     1.362524389216029E2    -8.697520066853788E-2    3.312748133398244E1    -1.002024343581594E-1    3.343083377842131E1    -3.886832342778721E1     1.360180008239569E2
 1.020000000000000E9    -3.822096507108874E1     1.301705834296575E2    -8.715276926135733E-2    3.246087447239733E1    -1.053909121367197E-1    3.273295613156010E1    -3.829423462634289E1     1.372662465344125E2
 1.021000000000000E9    -3.862944870428512E1     1.300886665325870E2    -8.102047437920423E-2    3.179002439442634E1    -9.790605456390468E-2    3.206941806157353E1    -3.769500692389107E1     1.357645837528565E2
 1.022000000000000E9    -3.778513887746067E1     1.301384066471154E2    -8.571173223254136E-2    3.109994994553202E1    -1.007514414320987E-1    3.137211542479901E1    -3.782235327949279E1     1.330208007984153E2
 1.023000000000000E9    -3.811674358942037E1     1.254200443974047E2    -9.290451317440776E-2    3.042805510269136E1    -1.059767843586763E-1    3.071434020151591E1    -3.759719141586742E1     1.339011607258124E2
 1.024000000000000E9    -3.786734205453485E1     1.256542402027887E2    -8.882587528974328E-2    2.975167194917976E1    -1.014710211205727E-1    3.001601412841388E1    -3.804882468640165E1     1.307972619028274E2
 1.025000000000000E9    -3.846785831853143E1     1.256120718021849E2    -8.649398453303127E-2    2.908559857045369E1    -1.050313016857115E-1    2.934409032042596E1    -3.754766071908139E1     1.298220782440098E2
 1.026000000000000E9    -3.742442173980981E1     1.198731684779179E2    -8.258545243601578E-2    2.842447526522794E1    -1.033065748617254E-1    2.868933829280524E1    -3.767199036290754E1     1.302591765299107E2
 1.027000000000000E9    -3.722354821888592E1     1.236262266487120E2    -8.814011600732019E-2    2.766521207029581E1    -1.044841370236303E-1    2.802247205185849E1    -3.811885101779510E1     1.290625425369225E2
 1.028000000000000E9    -3.723869447634015E1     1.219338986768169E2    -8.429322475093219E-2    2.703335683264391E1    -1.065067122603492E-1    2.734760000358515E1    -3.722966504758495E1     1.247662262547130E2
 1.029000000000000E9    -3.706455206816166E1     1.202886322293776E2    -8.629758447433834E-2    2.634933587486894E1    -1.082003829985957E-1    2.663513945491485E1    -3.688675608527640E1     1.242405425187240E2
 1.030000000000000E9    -3.693869091121612E1     1.182504395780151E2    -8.377711378459063E-2    2.566393725091685E1    -1.039410116723967E-1    2.595732518587746E1    -3.711122081029505E1     1.209318559382512E2
 1.031000000000000E9    -3.680770532123318E1     1.189163577898028E2    -8.652881523362893E-2    2.501251966285151E1    -1.045970259328450E-1    2.527757395870933E1    -3.635155131825692E1     1.206492484942839E2
 1.032000000000000E9    -3.662903699200366E1     1.161543536888288E2    -8.337527118175667E-2    2.429771675955338E1    -1.113672460401677E-1    2.460542702612766E1    -3.647802984537817E1     1.219067363111773E2
 1.033000000000000E9    -3.642152457344636E1     1.182938795763380E2    -8.761838447341082E-2    2.366381957796491E1    -1.038836864602623E-1    2.396727453481497E1    -3.647919626145800E1     1.206067947611862E2
 1.034000000000000E9    -3.580549231625334E1     1.164004010603281E2    -8.826695841394117E-2    2.297300137137385E1    -1.099503955263061E-1    2.327921713585501E1    -3.660801528897230E1     1.185503810014963E2
 1.035000000000000E9    -3.625894789842146E1     1.134885610302955E2    -8.570334796684653E-2    2.232797789145025E1    -1.053017407507781E-1    2.257286446552278E1    -3.598224557916521E1     1.201501294044645E2
 1.036000000000000E9    -3.534339573393897E1     1.127034495048217E2    -8.773249949997460E-2    2.158155191518682E1    -1.021299223623654E-1    2.191891750813393E1    -3.580180978511424E1     1.199658884730518E2
 1.037000000000000E9    -3.552448035026955E1     1.118154183964456E2    -8.442893012649362E-2    2.092482750758263E1    -1.057132239908378E-1    2.124146892603012E1    -3.574048350777095E1     1.146286064599325E2
 1.038000000000000E9    -3.499764693265781E1     1.080392129518446E2    -8.836902393965787E-2    2.025374682761920E1    -1.120810434840199E-1    2.057575002241872E1    -3.567798766721839E1     1.155520275037036E2
 1.039000000000000E9    -3.521653723186872E1     1.082079846063583E2    -9.033056507224600E-2    1.957471738864893E1    -1.052790903966420E-1    1.989078719945917E1    -3.476929491433565E1     1.124654312490191E2
 1.040000000000000E9    -3.465461965433617E1     1.095219283617221E2    -8.745410694061569E-2    1.890183190729244E1    -1.054015136815173E-1    1.919507870019458E1    -3.506474430256394E1     1.122541696133164E2
 1.041000000000000E9    -3.486588517288011E1     1.124381825059608E2    -8.606981700193812E-2    1.820960483167180E1    -1.094224691314665E-1    1.853914607135276E1    -3.460620926913780E1     1.098291097255237E2
 1.042000000000000E9    -3.504012305941332E1     1.058015395676794E2    -8.854551552539763E-2    1.758161193520207E1    -1.101475169491383E-1    1.785533902753281E1    -3.445669308926692E1     1.120516548992827E2
 1.043000000000000E9    -3.447717100544998E1     1.108363761209659E2    -8.618970471484035E-2    1.690576389891957E1    -1.089062557450965E-1    1.720244268013387E1    -3.470108326883482E1     1.107695447407185E2
 1.044000000000000E9    -3.476696211565155E1     1.057753390891947E2    -8.421249336561910E-2    1.615682390297062E1    -1.088772548409465E-1    1.651192505799335E1    -3.464447398932826E1     1.088146142408456E2
 1.045000000000000E9    -3.474762817166252E1     1.069052889202574E2    -7.864285629724467E-2    1.551552037211441E1    -1.099198369849602E-1    1.583417266862733E1    -3.453144711291220E1     1.067498450494773E2
 1.046000000000000E9    -3.468672265642912E1     1.074298707860587E2    -8.808561758428135E-2    1.487276749297235E1    -1.060821556610214E-1    1.515560779958906E1    -3.405700484693546E1     1.067659825443309E2
 1.047000000000000E9    -3.422167179611223E1     1.073603933841447E2    -9.224366157401685E-2    1.418908842430388E1    -1.022259360370192E-1    1.448743190249182E1    -3.425354637181260E1     1.078189518104582E2
 1.048000000000000E9    -3.453177211578825E1     1.064169774133763E2    -8.936641830736852E-2    1.352181209349197E1    -1.080440451048619E-1    1.378772314555344E1    -3.357486119906709E1     1.081023503988469E2
 1.049000000000000E9    -3.437523762394174E1     1.063790652449987E2    -8.020167373137963E-2    1.282446594878156E1    -1.128451839069264E-1    1.311901288949710E1    -3.382566818004183E1     1.060430548950075E2
 1.050000000000000E9    -3.422017125566168E1     1.046195057591768E2    -8.321563760713857E-2    1.215441833028892E1    -1.038005998387552E-1    1.246837889247352E1    -3.379635663139302E1     1.050913540166600E2
 1.051000000000000E9    -3.382519109268054E1     1.041796006607810E2    -8.176018228418124E-2    1.150034361397496E1    -1.057916167365130E-1    1.174096294402815E1    -3.368703459632273E1     1.022245897008103E2
 1.052000000000000E9    -3.411861477656763E1     1.044985151780715E2    -8.816792745758251E-2    1.080214556958592E1    -1.118323954000625E-1    1.110797709594079E1    -3.352792664499053E1     1.041706346460973E2
 1.053000000000000E9    -3.424606260150690E1     1.069617173235205E2    -8.398865670053927E-2    1.017150477661375E1    -1.092919429444440E-1    1.041597259636677E1    -3.332624922348454E1     1.022608825578092E2
 1.054000000000000E9    -3.408880729180540E1     1.014241269477076E2    -8.546224820603354E-2    9.442838405427715      -1.085680680416231E-1    9.783415676879418      -3.370063580857702E1     1.009333505669066E2
 1.055000000000000E9    -3.378218034606019E1     1.025750171703776E2    -8.492309380351483E-2    8.784831069604808      -1.064440833880661E-1    9.094010861496797      -3.354862703837966E1     1.002072801529272E2
 1.056000000000000E9    -3.394463574520135E1     1.001491836938977E2    -8.803973995227729E-2    8.103550661494669      -1.056266389839685E-1    8.419939726221262      -3.307374469948042E1     1.018054614803545E2
 1.057000000000000E9    -3.362947247651056E1     1.039688003760930E2    -8.721813046181898E-2    7.415147978269927      -1.056069932202693E-1    7.727773325592116      -3.339077150316012E1     9.750088180565304E1
 1.058000000000000E9    -3.376964636876765E1     1.021074532088576E2    -8.378949806711009E-2    6.775909980847383      -1.091761219854766E-1    7.046196617012728      -3.374881229719800E1     9.815901554274919E1
 1.059000000000000E9    -3.375992350907999E1     1.009279949923623E2    -8.000714631587058E-2    6.081114386560970      -1.183945132797666E-1    6.392830559011628      -3.343511304215335E1     9.931958887809765E1
 1.060000000000000E9    -3.389913159484191E1     1.028639033929885E2    -8.450859497899746E-2    5.411681737726412      -1.093783859388722E-1    5.691226797351688      -3.337142552908549E1     9.803961460332050E1
 1.061000000000000E9    -3.417648052033319E1     9.931600828493893E1    -8.307926101774235E-2    4.747919041084837      -1.069565262016344E-1    5.040612990478431      -3.332331330611558E1     9.920858784691797E1
 1.062000000000000E9    -3.415366875842184E1     9.957732400444012E1    -8.168772787047939E-2    4.069338769759522      -1.144265412568995E-1    4.349709298895793      -3.352091577255953E1     9.572452988540098E1
 1.063000000000000E9    -3.350670702896516E1     9.874844219400268E1    -7.981803877134383E-2    3.368931541163542      -1.124014854656761E-1    3.691934837131388      -3.406583808670330E1     9.639781485798541E1
 1.064000000000000E9    -3.392008666130816E1     9.826195457854348E1    -8.258974649027964E-2    2.671878916010233      -1.087098032811150E-1    3.022967610333375      -3.390615030261444E1     9.808167624922425E1
 1.065000000000000E9    -3.408867813530831E1     9.895174439542902E1    -8.411107272688624E-2    2.026544706622246      -1.130255700866702E-1    2.344421429054695      -3.388519042515721E1     9.472428830250695E1
 1.066000000000000E9    -3.422846912294200E1     9.985354693693779E1    -7.952452050353653E-2    1.358847238310169      -1.147538390444638E-1    1.661279237238917      -3.357858602534266E1     9.439629121259020E1
 1.067000000000000E9    -3.432522197042329E1     9.781694960944870E1    -8.343246438202781E-2    6.991719079495093E-1   -1.077707566511884E-1    9.639164002841753E-1   -3.367495917255760E1     9.254305861682109E1
 1.068000000000000E9    -3.441131492367916E1     9.767360718486515E1    -8.387310659004685E-2    3.641065778496366E-4   -1.096661953355541E-1    3.393783778808108E-1   -3.391981182441383E1     9.298059426723088E1
 1.069000000000000E9    -3.455097534372712E1     9.823723084412796E1    -8.922879140369101E-2   -6.913118150515742E-1   -1.070988850661322E-1   -3.886982674393689E-1   -3.411803453483687E1     9.392533120140767E1
 1.070000000000000E9    -3.394438420937438E1     9.722445635793683E1    -8.106686043809049E-2   -1.333344172876057      -1.084380513046521E-1   -9.902491631781363E-1   -3.425905750557413E1     9.325724699528796E1
 1.071000000000000E9    -3.377929536484917E1     9.604795482025489E1    -8.091408475252368E-2   -2.001664334479054      -1.106417537428110E-1   -1.697017123631994      -3.425860077850389E1     9.014351755922687E1
 1.072000000000000E9    -3.447514340174707E1     9.666033276685512E1    -8.215925247211674E-2   -2.690727696352760      -1.128165416910792E-1   -2.374710753007566      -3.428655599991500E1     9.162164857882176E1
 1.073000000000000E9    -3.422596005989733E1     9.723606932654214E1    -8.505440099601953E-2   -3.387556197117105      -1.099446310402727E-1   -3.083060568711693      -3.441073881321156E1     8.865871215325890E1
 1.074000000000000E9    -3.425457868265663E1     9.557746854910822E1    -8.793751169053239E-2   -4.026406749870339      -1.113682827676014E-1   -3.738883342401173      -3.400598735240519E1     8.652225675429813E1
 1.075000000000000E9    -3.391365727545036E1     9.396754757122743E1    -8.350490543123587E-2   -4.731407010131719      -1.085746607573568E-1   -4.418999223359430      -3.453336564511241E1     8.909575861694317E1
 1.076000000000000E9    -3.460488267578552E1     9.640926705025534E1    -8.489762959084991E-2   -5.381293071861201      -1.106990856853932E-1   -5.073628469005074      -3.446566540148232E1     8.972443811343777E1
 1.077000000000000E9    -3.475943418272797E1     9.269588260954191E1    -8.433799606913360E-2   -6.095045231489538      -1.120050837594476E-1   -5.762687627953949      -3.437600538359315E1     9.021613006765826E1
 1.078000000000000E9    -3.449973599967309E1     9.308126825354383E1    -8.528664526770000E-2   -6.719413350389085      -1.028219787337961E-1   -6.438797405576281      -3.445639547744982E1     8.639364545933036E1
 1.079000000000000E9    -3.474701437188442E1     9.109878799141758E1    -7.895858074037623E-2   -7.398489241810899      -1.110139648609004E-1   -7.074223263042986      -3.454364547865821E1     8.470620498442273E1
 1.080000000000000E9    -3.437999436227096E1     9.230284861272938E1    -7.959087736550374E-2   -8.094211629007798      -1.139173167486337E-1   -7.791863288415942      -3.457091969754283E1     8.529177197269274E1
 1.081000000000000E9    -3.455375644160127E1     9.017358538114787E1    -7.519370559630727E-2   -8.751275934973689      -1.110721805356814E-1   -8.425196131452589      -3.456595029050685E1     8.337459170358171E1
 1.082000000000000E9    -3.402667143044630E1     8.948336968584046E1    -8.650831961347219E-2   -9.433312507363338      -1.069733069967365E-1   -9.133485812288747      -3.452862921721807E1     8.203593852053123E1
 1.083000000000000E9    -3.437257649417212E1     8.932822572474289E1    -8.673859527075742E-2   -1.011411094939184E1    -1.074383354523458E-1   -9.786923210098435      -3.445248693241153E1     8.262570536874792E1
 1.084000000000000E9    -3.402278237323283E1     9.205893443161226E1    -8.413108882071115E-2   -1.079500767170891E1    -1.052553137309557E-1   -1.050793963045443E1    -3.451832389976444E1     8.142265658612254E1
 1.085000000000000E9    -3.421011582441782E1     8.793162038684412E1    -8.367839434439953E-2   -1.146364171825220E1    -1.106333835619652E-1   -1.113354056537655E1    -3.460229293497457E1     7.862482778895175E1
 1.086000000000000E9    -3.361256676509345E1     8.629492850442898E1    -8.409599765717786E-2   -1.214355191733622E1    -1.139209407175510E-1   -1.181520420237037E1    -3.451998170926483E1     7.937750950059986E1
 1.087000000000000E9    -3.391944622387898E1     8.419510527000587E1    -8.025307902269946E-2   -1.283141066023500E1    -1.163830944124792E-1   -1.245731901374685E1    -3.414116422618309E1     7.697984785920500E1
 1.088000000000000E9    -3.408969761898088E1     8.738492027938102E1    -8.355944464719259E-2   -1.354157788159216E1    -1.056898978959560E-1   -1.317137412685887E1    -3.441866209856818E1     7.548087470888869E1
 1.089000000000000E9    -3.370447666284307E1     8.536342602668904E1    -8.079407498763945E-2   -1.416523974862943E1    -1.073557198330309E-1   -1.382535199345020E1    -3.452751516701652E1     7.514811012329388E1
 1.090000000000000E9    -3.387395054202873E1     8.486799800677106E1    -8.588631123992066E-2   -1.484300511736134E1    -1.077473973674444E-1   -1.452242048509869E1    -3.405504794979565E1     7.547541712063783E1
 1.091000000000000E9    -3.395396324500209E1     8.173785493917340E1    -8.205181481050697E-2   -1.550150177750865E1    -1.086429979592622E-1   -1.521009128301208E1    -3.380678057964401E1     7.502277884149589E1
