#  HZ   S   DB   R     50.00 
! Rohde & Schwarz Vector Network Analyzer 
! Rohde-Schwarz,ZNB8-4Port,1311601044102961,2.82
! Created: UTC 1/17/2019, 2:38:22 PM
! freq[Hz]                db:S11                  ang:S11                 db:S21                  ang:S21                 db:S12                  ang:S12                 db:S22                  ang:S22
 1.000000000000000E9    -4.262694666325388E1     1.753658936894196E2    -6.345190650852972E-2    1.072658461364737E2    -8.387167940544554E-2    1.073831993438279E2    -4.181477759494862E1    -1.535809978952308E2
 1.001000000000000E9    -4.296495695059608E1     1.786404071393591E2    -6.821773108242123E-2    1.065844220484166E2    -8.212300074603726E-2    1.067545648024250E2    -4.187676828710885E1    -1.440288959862683E2
 1.002000000000000E9    -4.314947376490615E1     1.756162047555584E2    -6.901277469050353E-2    1.058579154466688E2    -8.865826541644731E-2    1.061013636287418E2    -4.294476164922430E1    -1.446635052880721E2
 1.003000000000000E9    -4.254930663052434E1     1.738375182551663E2    -6.710797764401949E-2    1.052334958352840E2    -8.134937679035899E-2    1.054277234553439E2    -4.178784013445363E1    -1.505190169437686E2
 1.004000000000000E9    -4.380725970043437E1    -1.798929993464110E2    -7.596785165412152E-2    1.045905301353129E2    -7.758740101012540E-2    1.048055486064236E2    -4.133652374045970E1    -1.440408969512158E2
 1.005000000000000E9    -4.283910856035337E1    -1.750881014802108E2    -7.249610669129876E-2    1.039148348762969E2    -8.672873677710517E-2    1.042034304593776E2    -4.141149364513620E1    -1.376172277306363E2
 1.006000000000000E9    -4.271711250028378E1     1.775377997153531E2    -7.369960327229538E-2    1.032814732398885E2    -8.280637113336876E-2    1.035922507079297E2    -4.208679223136514E1    -1.423207274804238E2
 1.007000000000000E9    -4.352856263628178E1    -1.794947109544505E2    -7.380784826849936E-2    1.026573997705853E2    -8.290016991833715E-2    1.029242632152779E2    -4.177211458053467E1    -1.428006289293801E2
 1.008000000000000E9    -4.431297336406666E1     1.768883635453720E2    -6.911980255814425E-2    1.020273784557347E2    -8.667389167819997E-2    1.023349905801490E2    -4.203173937295823E1    -1.448239053555506E2
 1.009000000000000E9    -4.396771190382245E1    -1.720271156046825E2    -7.002524348344445E-2    1.014427965477914E2    -8.718492096057215E-2    1.017243482133391E2    -4.138322221144455E1    -1.407643110640753E2
 1.010000000000000E9    -4.450528628355740E1    -1.748258324352781E2    -7.125558596830395E-2    1.008022118318423E2    -9.078957211262202E-2    1.010864671109029E2    -4.269316979256046E1    -1.348776724446956E2
 1.011000000000000E9    -4.264886607489935E1     1.791007654713579E2    -7.577617518409648E-2    1.001971102116956E2    -8.260428537090324E-2    1.004742151167718E2    -4.221860454213707E1    -1.511921963784438E2
 1.012000000000000E9    -4.377257397018002E1    -1.708079887650369E2    -7.444339495166756E-2    9.956727547370969E1    -8.781538113299152E-2    9.986666944243159E1    -4.260746042802956E1    -1.412289501804607E2
 1.013000000000000E9    -4.360123803706914E1     1.778311459207656E2    -7.671343366596220E-2    9.895976950164230E1    -8.349831168436393E-2    9.924724067682290E1    -4.269417545245631E1    -1.409852905055967E2
 1.014000000000000E9    -4.476389425002570E1    -1.752475662639541E2    -7.638626286403848E-2    9.831627183938761E1    -8.339326878120107E-2    9.864672193846899E1    -4.330403319886405E1    -1.354659814488393E2
 1.015000000000000E9    -4.482402484999663E1    -1.753027882080188E2    -6.792337455052414E-2    9.773081350243005E1    -8.627892766059311E-2    9.805610102171467E1    -4.303109906524362E1    -1.394452385758473E2
 1.016000000000000E9    -4.338788824503472E1    -1.688848848493867E2    -7.578223392993705E-2    9.714703614767886E1    -8.489353153773169E-2    9.743878464691927E1    -4.255645491577794E1    -1.349659967010623E2
 1.017000000000000E9    -4.357707422024558E1     1.737373797198225E2    -7.377725298865678E-2    9.648035083048549E1    -9.186274930254736E-2    9.680621642444118E1    -4.296462071524607E1    -1.470971701440841E2
 1.018000000000000E9    -4.546087808507053E1    -1.615184702545698E2    -7.454546277165521E-2    9.588653434702650E1    -8.699642245749333E-2    9.617657623165667E1    -4.390126781933360E1    -1.276754855729989E2
 1.019000000000000E9    -4.693867422216442E1    -1.696964416529396E2    -7.185971307845900E-2    9.527032383444305E1    -8.773759324498075E-2    9.557280375339947E1    -4.396875133293776E1    -1.397986070441750E2
 1.020000000000000E9    -4.484502856477184E1    -1.699221249418831E2    -7.200063863582254E-2    9.465254384727432E1    -8.409916960693432E-2    9.494759201224240E1    -4.445956562014511E1    -1.349392816468882E2
 1.021000000000000E9    -4.552429799186204E1    -1.685626170512178E2    -7.133816752247291E-2    9.404809931244530E1    -9.166756635404585E-2    9.431365925463015E1    -4.375589646090765E1    -1.281022308413632E2
 1.022000000000000E9    -4.513634978832432E1    -1.673769977153350E2    -7.355680366466248E-2    9.342578738491967E1    -8.484954615638557E-2    9.371035833113392E1    -4.336732745378154E1    -1.310087636428001E2
 1.023000000000000E9    -4.558032552559453E1    -1.680041916474742E2    -7.573943285009653E-2    9.282392111781360E1    -9.311066808866209E-2    9.310287219908116E1    -4.379482119655408E1    -1.260247616832079E2
 1.024000000000000E9    -4.632635455999898E1    -1.735780882764533E2    -7.696013752382944E-2    9.220993059851909E1    -9.138239866100911E-2    9.248132246399636E1    -4.452683451210589E1    -1.390579183656524E2
 1.025000000000000E9    -4.694553962015522E1     1.789081819127813E2    -7.339877032168136E-2    9.161537634941570E1    -9.065094833674328E-2    9.186888206933530E1    -4.427978467922520E1    -1.284560163127251E2
 1.026000000000000E9    -4.476089728863989E1    -1.712589149412550E2    -7.208385729564394E-2    9.097239834832334E1    -9.270098760730637E-2    9.127485178685984E1    -4.568485351769608E1    -1.364240369466893E2
 1.027000000000000E9    -4.754914032549674E1    -1.689922200711401E2    -7.212171599629615E-2    9.030391307777180E1    -9.169028127062104E-2    9.067125248710811E1    -4.622264351078112E1    -1.331723257458705E2
 1.028000000000000E9    -4.574887912652098E1    -1.701961308795214E2    -6.945074016221625E-2    8.971976964025646E1    -8.876839757217524E-2    9.004115153843684E1    -4.548126664533326E1    -1.329461587111559E2
 1.029000000000000E9    -4.607781609142925E1    -1.757726620398790E2    -7.129567832494130E-2    8.909870116570974E1    -9.097125986106318E-2    8.938347141809221E1    -4.514971772864604E1    -1.398924266734996E2
 1.030000000000000E9    -4.598993302938601E1     1.799849730949760E2    -7.297143089357813E-2    8.848064587040025E1    -8.991929941813756E-2    8.876810741906083E1    -4.600352322547617E1    -1.397716625663246E2
 1.031000000000000E9    -4.566713740422730E1    -1.799896576076945E2    -7.656340343653209E-2    8.788012527011783E1    -8.889542295124200E-2    8.813618749399569E1    -4.465598421628250E1    -1.407995950409079E2
 1.032000000000000E9    -4.636290959324391E1    -1.794297903700605E2    -6.674032092024937E-2    8.722751549547616E1    -9.647057584923879E-2    8.753658984667339E1    -4.559985879211208E1    -1.381807178754159E2
 1.033000000000000E9    -4.583756412427269E1     1.748084062607190E2    -7.475365559382732E-2    8.665813607319629E1    -9.007278406398642E-2    8.694843375505079E1    -4.497114237957533E1    -1.398895153821173E2
 1.034000000000000E9    -4.537564691111449E1    -1.751796716825121E2    -6.992613044208358E-2    8.603711580745795E1    -9.097310088932027E-2    8.632459009793193E1    -4.474093219713606E1    -1.430329588291241E2
 1.035000000000000E9    -4.543855669604463E1     1.666639651471883E2    -7.185382113638336E-2    8.544731285677513E1    -9.301485608790469E-2    8.570276049947715E1    -4.600368894840238E1    -1.377739152076535E2
 1.036000000000000E9    -4.421805521181167E1    -1.792744164022687E2    -7.589823887046714E-2    8.474044583173537E1    -8.855290692876523E-2    8.508645216613374E1    -4.410725863637534E1    -1.461795081232386E2
 1.037000000000000E9    -4.433981970963685E1     1.693397431051627E2    -7.177676801675770E-2    8.416249877293006E1    -9.159753118104280E-2    8.447807329315043E1    -4.392320975298731E1    -1.525270550905926E2
 1.038000000000000E9    -4.298951074132675E1     1.714790532817324E2    -7.145405361659103E-2    8.359249490819674E1    -9.544315591373562E-2    8.384215059526912E1    -4.525692723199204E1    -1.543535246097173E2
 1.039000000000000E9    -4.250338288171903E1     1.645996983530250E2    -7.433663091103455E-2    8.291963519574630E1    -9.021619789144741E-2    8.323311241931476E1    -4.327722444487301E1    -1.590193883620769E2
 1.040000000000000E9    -4.203049355462778E1     1.718999148055779E2    -7.289284617313072E-2    8.232469604631541E1    -9.606906448221220E-2    8.260680536623073E1    -4.303456405367257E1    -1.641816306871471E2
 1.041000000000000E9    -4.339340332605174E1     1.737383854049607E2    -6.783618471855868E-2    8.170673963734781E1    -9.372321463083984E-2    8.202070598028827E1    -4.287819094920477E1    -1.592018358533078E2
 1.042000000000000E9    -4.182506439023661E1     1.641650337418786E2    -7.379780661694499E-2    8.109555124636319E1    -9.248843826562174E-2    8.137386395959024E1    -4.323574413617941E1    -1.627740631930113E2
 1.043000000000000E9    -4.282363832929740E1     1.687989444683647E2    -7.041852359475327E-2    8.048985464936330E1    -9.619346261504785E-2    8.080893114354218E1    -4.333278549191774E1    -1.600860488890347E2
 1.044000000000000E9    -4.183660082688199E1     1.634320220985340E2    -6.746232434221661E-2    7.984761799919959E1    -9.504707879091401E-2    8.018265818743724E1    -4.332382635949685E1    -1.730842856814893E2
 1.045000000000000E9    -4.181523125687524E1     1.595233523262023E2    -6.790189097168833E-2    7.925398370902431E1    -9.375952522097694E-2    7.956885214459000E1    -4.237919164261275E1    -1.765793638155798E2
 1.046000000000000E9    -4.176889278253825E1     1.584506379933882E2    -7.053520808343151E-2    7.864608438530047E1    -9.479439285254721E-2    7.893879097374320E1    -4.145409520406074E1    -1.707375898776967E2
 1.047000000000000E9    -4.178672027056103E1     1.635348761551252E2    -7.332093663688434E-2    7.803595848267719E1    -8.969818422160392E-2    7.831241904255506E1    -4.197501104126523E1    -1.758872301268213E2
 1.048000000000000E9    -4.121709545383089E1     1.578864238454130E2    -7.563387620367051E-2    7.740662662754812E1    -9.553492287781298E-2    7.769172929193509E1    -4.147628312188558E1    -1.714115330560989E2
 1.049000000000000E9    -4.139404517979928E1     1.604549134296667E2    -6.956371138089276E-2    7.677417822964632E1    -9.729579575974866E-2    7.707452364355756E1    -4.140208647288234E1    -1.752839295608684E2
 1.050000000000000E9    -4.058401902462932E1     1.570254626655775E2    -7.040424146920941E-2    7.616993659521182E1    -8.884875956358763E-2    7.648353760640164E1    -4.076744385738042E1    -1.797851903200057E2
 1.051000000000000E9    -3.985156770195317E1     1.605475420519006E2    -6.992021012096372E-2    7.559057975477053E1    -9.150420651955489E-2    7.583998229577455E1    -3.975983953922950E1     1.785195566697781E2
 1.052000000000000E9    -4.053427738952399E1     1.574204513447558E2    -6.850145680918386E-2    7.496314292901330E1    -9.408683090822320E-2    7.523461730528855E1    -4.011104036081795E1     1.797354248032063E2
 1.053000000000000E9    -4.065204790071551E1     1.588283817274043E2    -7.084177474102697E-2    7.435711337016498E1    -9.930472848936020E-2    7.458918382441222E1    -3.888520995051703E1    -1.794795186918452E2
 1.054000000000000E9    -3.909376159292351E1     1.554525318660720E2    -7.128282780366858E-2    7.372745693769684E1    -8.930239702616186E-2    7.407035653937231E1    -3.901081938187736E1     1.712071797745926E2
 1.055000000000000E9    -3.944269919157640E1     1.566735473368512E2    -7.249422732591421E-2    7.308901359622661E1    -9.299633146337520E-2    7.341558842531924E1    -3.907700795331581E1     1.717716513598897E2
 1.056000000000000E9    -3.864463689752947E1     1.577413985095903E2    -7.384770733117567E-2    7.248864401906364E1    -9.161860840413852E-2    7.283605369219221E1    -3.807900850220167E1     1.764338985591234E2
 1.057000000000000E9    -3.873602449753305E1     1.598763768187439E2    -7.329611391995608E-2    7.187131281040702E1    -9.308576684773237E-2    7.216502363973964E1    -3.800675212291233E1     1.727148246627616E2
 1.058000000000000E9    -3.844871411786581E1     1.552816716271119E2    -7.648228332818316E-2    7.126326162173615E1    -9.756297402264218E-2    7.158351142376031E1    -3.783630371771613E1     1.691040751567144E2
 1.059000000000000E9    -3.824626564500913E1     1.579709029121694E2    -6.298650790248017E-2    7.066182247644134E1    -1.010638986858833E-1    7.094286248811773E1    -3.801625106659103E1     1.725090727210018E2
 1.060000000000000E9    -3.880948713455504E1     1.580911470796599E2    -7.770650458092872E-2    7.005655250859724E1    -9.560743617193090E-2    7.029736891019290E1    -3.780192437232610E1     1.734463612868638E2
 1.061000000000000E9    -3.828087494017457E1     1.542220684644085E2    -7.146159179779811E-2    6.944663717655141E1    -9.326162626099367E-2    6.972255324855675E1    -3.761610969714048E1     1.715997797915994E2
 1.062000000000000E9    -3.807766938526373E1     1.537710574704501E2    -6.731367417814790E-2    6.881179084458496E1    -9.701002524528168E-2    6.907492835125478E1    -3.709079645484441E1     1.705602263857215E2
 1.063000000000000E9    -3.774410072948681E1     1.574557533776487E2    -6.872639883977029E-2    6.817688204053171E1    -9.603987042107173E-2    6.847332072288211E1    -3.798473698456510E1     1.662253378377305E2
 1.064000000000000E9    -3.811983218667542E1     1.532827571025788E2    -7.091261975686018E-2    6.758646306317482E1    -9.835678091996700E-2    6.789500435719552E1    -3.797185972334341E1     1.679390154900477E2
 1.065000000000000E9    -3.793366023764559E1     1.522631757194426E2    -6.988842987758091E-2    6.696144230534755E1    -9.716866151582787E-2    6.729493524163453E1    -3.742979981784813E1     1.695438444593937E2
 1.066000000000000E9    -3.765275682923846E1     1.536003922432805E2    -6.674389452306113E-2    6.635957428359238E1    -9.672777515971917E-2    6.662939700105639E1    -3.689074016514658E1     1.679470652182185E2
 1.067000000000000E9    -3.766253629906621E1     1.531035262311005E2    -6.816984735701191E-2    6.576154120758898E1    -9.467429920002345E-2    6.604021255812312E1    -3.699098571408919E1     1.679472219501947E2
 1.068000000000000E9    -3.800023975828380E1     1.524656170864549E2    -6.936346728511413E-2    6.510035361911733E1    -9.437982684795926E-2    6.544701223746998E1    -3.702207715310473E1     1.665624425450168E2
 1.069000000000000E9    -3.800134244376866E1     1.518850657638573E2    -7.331994848900708E-2    6.452768899476540E1    -9.667300884618633E-2    6.478887299074270E1    -3.757818604947143E1     1.671120439724928E2
 1.070000000000000E9    -3.761712839797630E1     1.552062910858011E2    -6.709422708357486E-2    6.389985712082929E1    -9.154736738911665E-2    6.423415884289034E1    -3.760785162216229E1     1.663391769246592E2
 1.071000000000000E9    -3.750588223036500E1     1.566001468320654E2    -6.407686427560544E-2    6.328982813715162E1    -1.004567989293212E-1    6.356545234830126E1    -3.705493320873195E1     1.658475374308213E2
 1.072000000000000E9    -3.783101857621772E1     1.514253908902813E2    -6.961272751622569E-2    6.263924652062278E1    -9.614671143927625E-2    6.295000817307578E1    -3.703929426287925E1     1.661122987414139E2
 1.073000000000000E9    -3.823063000854113E1     1.540237338507532E2    -6.754006070349661E-2    6.203818845324850E1    -9.717881125480458E-2    6.236704417509913E1    -3.731280951203883E1     1.646105506086477E2
 1.074000000000000E9    -3.765416506658048E1     1.542792518075086E2    -7.321630056809370E-2    6.142444467106271E1    -9.487046916716176E-2    6.176578743239508E1    -3.662294330887895E1     1.650519931419119E2
 1.075000000000000E9    -3.772707053006967E1     1.534643123692101E2    -6.468543603110989E-2    6.080760964364778E1    -9.329625060881500E-2    6.114542599946685E1    -3.734202454204262E1     1.660570608117327E2
 1.076000000000000E9    -3.869051424962314E1     1.502795274102405E2    -7.072684213809477E-2    6.020659706678632E1    -9.858688300879182E-2    6.053212039320752E1    -3.764525808506575E1     1.661956754695852E2
 1.077000000000000E9    -3.793023159591448E1     1.477723151744573E2    -6.825752290627143E-2    5.956781410098186E1    -1.004272739275356E-1    5.990997258110716E1    -3.785029741965753E1     1.648127720630642E2
 1.078000000000000E9    -3.804771624191734E1     1.491136506386494E2    -6.853472512606247E-2    5.901101817436437E1    -9.207711057197907E-2    5.929997893333695E1    -3.743525783919511E1     1.648008505584928E2
 1.079000000000000E9    -3.770842003701373E1     1.457004398586479E2    -7.079311902205611E-2    5.834004366928259E1    -9.296421413717414E-2    5.869950633553839E1    -3.738289554386451E1     1.627235296706518E2
 1.080000000000000E9    -3.819380495739295E1     1.497707501048534E2    -6.728975448620322E-2    5.773511582448139E1    -1.031190214710168E-1    5.806575047079343E1    -3.763657887521620E1     1.648825499698313E2
 1.081000000000000E9    -3.808674485039305E1     1.474332851724962E2    -6.775751268904467E-2    5.717196619916073E1    -9.769356131575097E-2    5.748701329079481E1    -3.755053718407012E1     1.609887408273012E2
 1.082000000000000E9    -3.734070978185864E1     1.543895575004992E2    -7.377511734092297E-2    5.653023252651366E1    -9.408741955319844E-2    5.682298723447030E1    -3.766241988737269E1     1.640100177512403E2
 1.083000000000000E9    -3.822908358663339E1     1.495064852442658E2    -7.141985902639540E-2    5.591491161808300E1    -8.998578876138731E-2    5.625713595017377E1    -3.755483938254203E1     1.633405325415784E2
 1.084000000000000E9    -3.874435992438522E1     1.553507167003337E2    -6.995014687931575E-2    5.531344526942485E1    -9.313959327167873E-2    5.563626000089404E1    -3.783358671275445E1     1.636175963145493E2
 1.085000000000000E9    -3.761676241106537E1     1.461353180787922E2    -6.723768692561016E-2    5.466438858039309E1    -9.679543178974309E-2    5.500645455546135E1    -3.743735408405357E1     1.588228566203188E2
 1.086000000000000E9    -3.789027087699216E1     1.518217135435460E2    -7.006520679447392E-2    5.405486224639655E1    -9.817569767769585E-2    5.439322971670582E1    -3.775267291996866E1     1.635312658088130E2
 1.087000000000000E9    -3.739921647305778E1     1.461192815131209E2    -6.849294051192835E-2    5.341330660505866E1    -9.820234282017068E-2    5.380258391598858E1    -3.742945697820376E1     1.622778703245233E2
 1.088000000000000E9    -3.808665801930861E1     1.473909673326732E2    -6.710496079962837E-2    5.278220081625285E1    -9.585781307322483E-2    5.317368990283663E1    -3.783878718161769E1     1.599449755259948E2
 1.089000000000000E9    -3.801165289333041E1     1.474081245345085E2    -7.420203137488339E-2    5.222011756828271E1    -9.653348225586014E-2    5.257747650454694E1    -3.781162442601958E1     1.572502816117631E2
 1.090000000000000E9    -3.781803425310245E1     1.457263422745800E2    -7.213384663026530E-2    5.162062084640272E1    -9.324931427149444E-2    5.195451166769697E1    -3.814096137297508E1     1.609429326401661E2
 1.091000000000000E9    -3.757301363199410E1     1.437013379540211E2    -6.782930881438150E-2    5.100867394712046E1    -9.761591007258424E-2    5.133291055055667E1    -3.729043099942260E1     1.619456515739570E2
