#  HZ   S   DB   R     50.00 
! Rohde & Schwarz Vector Network Analyzer 
! Rohde-Schwarz,ZNB8-4Port,1311601044102961,2.82
! Created: UTC 1/17/2019, 2:54:30 PM
! freq[Hz]                db:S11                  ang:S11                 db:S21                  ang:S21                 db:S12                  ang:S12                 db:S22                  ang:S22
 1.000000000000000E9    -4.540939896885612E1    -6.156244347585179E1    -2.943779577396813E-2   -1.322939206795452E2    -4.365926466483264E-2   -1.321550079455332E2    -4.790591388317507E1    -8.122278455847751E1
 1.001000000000000E9    -4.465128320557633E1    -6.262911046043422E1    -3.258338433751404E-2   -1.328659809437350E2    -5.261224525837663E-2   -1.326834218769672E2    -4.725313932877351E1    -8.194910780621524E1
 1.002000000000000E9    -4.398725989700951E1    -6.100370248720144E1    -3.526918843563409E-2   -1.334551038206504E2    -5.454107568772747E-2   -1.331921774567625E2    -4.498357663707539E1    -7.165609969389485E1
 1.003000000000000E9    -4.363448702764976E1    -6.163843091995577E1    -3.323139355269521E-2   -1.339736961661442E2    -4.641888552110424E-2   -1.337618375644646E2    -4.496092765512330E1    -6.405530690071630E1
 1.004000000000000E9    -4.336049202137949E1    -7.300289123976211E1    -3.780102935231803E-2   -1.345168102007197E2    -4.847936380473730E-2   -1.342319239449089E2    -4.532152337566014E1    -6.128862775974833E1
 1.005000000000000E9    -4.338161328991379E1    -7.018155142339896E1    -3.688669154183783E-2   -1.350387953143772E2    -5.046872060646659E-2   -1.347376726221465E2    -4.523659633578824E1    -7.516473727830154E1
 1.006000000000000E9    -4.334240601695625E1    -6.622799263494909E1    -3.644769282563812E-2   -1.355572692588003E2    -5.113380750314012E-2   -1.352642814320620E2    -4.375516552365590E1    -7.304110726627415E1
 1.007000000000000E9    -4.270361957465651E1    -6.855720013381742E1    -3.819026061298150E-2   -1.360343738499681E2    -4.784908191325710E-2   -1.357646476014899E2    -4.361653997491644E1    -6.006234525847699E1
 1.008000000000000E9    -4.139621305791187E1    -7.008034480072318E1    -3.536277292557326E-2   -1.365415340515474E2    -4.999484170668574E-2   -1.362539849412767E2    -4.382442371319971E1    -6.223244481726248E1
 1.009000000000000E9    -4.263059244689166E1    -7.584362905970909E1    -4.077787436394612E-2   -1.370460500104333E2    -5.046126970951112E-2   -1.367363137360141E2    -4.347116990979185E1    -6.991711784851260E1
 1.010000000000000E9    -4.181403750085973E1    -7.335223690853611E1    -3.978773537687987E-2   -1.375564591006229E2    -5.609905069622630E-2   -1.372509074763799E2    -4.270655421920189E1    -7.334373999545282E1
 1.011000000000000E9    -4.249757938078530E1    -6.419940589499689E1    -4.040212904706526E-2   -1.380406979248163E2    -5.226970823579425E-2   -1.377247087636984E2    -4.207755526906211E1    -5.723804440397361E1
 1.012000000000000E9    -4.219416764692941E1    -7.392616737515134E1    -3.619122556628333E-2   -1.385317589932902E2    -5.285016937399945E-2   -1.382347975705075E2    -4.209245190732243E1    -7.062485573233096E1
 1.013000000000000E9    -4.167535667033832E1    -6.587422620051586E1    -3.932425538240334E-2   -1.390499843509529E2    -4.704385220053556E-2   -1.387192927560642E2    -4.227366381893079E1    -6.290725631168056E1
 1.014000000000000E9    -4.156244585001095E1    -7.465723053210066E1    -3.581813198555130E-2   -1.395481237683021E2    -4.928643803844701E-2   -1.392167043013956E2    -4.121446202966388E1    -6.721168130358316E1
 1.015000000000000E9    -4.139714571394451E1    -7.203825623017100E1    -3.631881877284986E-2   -1.400042673454557E2    -5.310690509978652E-2   -1.396682167473569E2    -4.121645432921866E1    -6.586831939037442E1
 1.016000000000000E9    -4.204361226276411E1    -7.195215397149968E1    -3.977747859390379E-2   -1.405250917955026E2    -5.138280076015424E-2   -1.401699474765288E2    -4.164745336780834E1    -7.114121101914904E1
 1.017000000000000E9    -4.154323736493373E1    -6.018402657326412E1    -3.645295873136824E-2   -1.410249171157197E2    -6.082669338096633E-2   -1.406793165243209E2    -4.200199007460195E1    -6.057959108992036E1
 1.018000000000000E9    -4.126878482585843E1    -7.920412260753560E1    -4.078641191561523E-2   -1.415327897659976E2    -5.364264921997549E-2   -1.412085787207988E2    -4.086086616898145E1    -7.153815344674950E1
 1.019000000000000E9    -4.103702975948656E1    -7.984948279213985E1    -3.902931357285455E-2   -1.419795492135820E2    -5.288575151004237E-2   -1.417167404436916E2    -4.078358166267974E1    -6.026964466766459E1
 1.020000000000000E9    -4.164628092971967E1    -7.519827213267168E1    -3.770680537948974E-2   -1.424850389750738E2    -5.615837233687464E-2   -1.421903590563108E2    -4.093663628077103E1    -6.329675633620001E1
 1.021000000000000E9    -4.092497585266763E1    -7.468993998532545E1    -3.801527521596729E-2   -1.429912274087500E2    -5.250839097258334E-2   -1.426704721439389E2    -4.160388124049698E1    -7.158331620061784E1
 1.022000000000000E9    -4.222621759960199E1    -7.985642349255122E1    -4.013454506145063E-2   -1.434974829737933E2    -5.172907516714563E-2   -1.431866625186127E2    -4.160715149204866E1    -6.802271454629452E1
 1.023000000000000E9    -4.180306844009765E1    -7.260019049780910E1    -4.361300619139641E-2   -1.439406684000944E2    -5.938387926735472E-2   -1.436715172159587E2    -4.149833209529886E1    -7.044984313245708E1
 1.024000000000000E9    -4.215875776031144E1    -7.353462739078618E1    -3.846478251941252E-2   -1.444595111929927E2    -5.587973466930887E-2   -1.441700820806484E2    -4.133687766425042E1    -6.584752176010305E1
 1.025000000000000E9    -4.111313270958696E1    -7.267793525626844E1    -3.871240478467304E-2   -1.449403964320661E2    -5.311295831152783E-2   -1.446610503862412E2    -4.168603243576725E1    -6.912570609868425E1
 1.026000000000000E9    -4.300872727386977E1    -6.854060069614965E1    -3.603768141063377E-2   -1.454648984738270E2    -5.292273165658964E-2   -1.451717957375064E2    -4.140130387777684E1    -6.716990241167656E1
 1.027000000000000E9    -4.259460949877593E1    -7.928470057073072E1    -3.508915463730487E-2   -1.460020096185700E2    -5.696021220003875E-2   -1.456243178030595E2    -4.110993956969960E1    -6.568749535376114E1
 1.028000000000000E9    -4.266669381722093E1    -7.659325497351811E1    -3.497623499007302E-2   -1.464643466307166E2    -5.508785983255073E-2   -1.461099928506185E2    -4.210692813259929E1    -6.745893965833659E1
 1.029000000000000E9    -4.300454484751727E1    -7.580036973147531E1    -3.856789556066276E-2   -1.469594170345444E2    -6.032127647667741E-2   -1.466767347694304E2    -4.257900114294919E1    -6.482836822506040E1
 1.030000000000000E9    -4.312582161782977E1    -7.369146586881439E1    -3.327652806715301E-2   -1.474608336103627E2    -5.176958042933780E-2   -1.471638567905969E2    -4.215184898273746E1    -6.113458990119035E1
 1.031000000000000E9    -4.298667132434620E1    -7.613855278432290E1    -3.741676898060237E-2   -1.479468006218801E2    -5.372128551229130E-2   -1.476702215225365E2    -4.383025069856893E1    -6.478810095393908E1
 1.032000000000000E9    -4.374816824280877E1    -7.434188636681645E1    -3.273229178468668E-2   -1.484587566195144E2    -6.397657671746883E-2   -1.481272818813544E2    -4.302676646358037E1    -7.025626087166965E1
 1.033000000000000E9    -4.363772433342096E1    -7.888122374409105E1    -4.043429048955985E-2   -1.489146910392902E2    -5.511264745396657E-2   -1.486069458045299E2    -4.363325140732221E1    -6.893399408005089E1
 1.034000000000000E9    -4.489323332666027E1    -8.236487178397400E1    -3.821491152009390E-2   -1.494282458197970E2    -5.825095635565849E-2   -1.491056092878967E2    -4.279554156514459E1    -6.567628808715486E1
 1.035000000000000E9    -4.389444186711525E1    -7.293822058446833E1    -3.428886513137590E-2   -1.499125146603046E2    -5.767555058611279E-2   -1.496490259052959E2    -4.386357163529725E1    -7.013016649833674E1
 1.036000000000000E9    -4.624173153662754E1    -8.262909810607188E1    -3.649589808374456E-2   -1.504920054780169E2    -5.412875163549498E-2   -1.501030286256846E2    -4.492670024290664E1    -7.800474552621083E1
 1.037000000000000E9    -4.588171703637790E1    -7.640195869740651E1    -3.506209656979846E-2   -1.509215537440967E2    -5.834902487697979E-2   -1.506199580521243E2    -4.540213611970999E1    -6.848313651593375E1
 1.038000000000000E9    -4.816564037356643E1    -6.960375394528145E1    -3.687299314300102E-2   -1.514282853876244E2    -6.248426271710543E-2   -1.510717628691059E2    -4.452507130462959E1    -7.176471817771336E1
 1.039000000000000E9    -4.739834512928514E1    -7.057300190844666E1    -3.863477977310444E-2   -1.519090701466765E2    -5.679008977872949E-2   -1.515937337557415E2    -4.853803963472927E1    -6.540174821981762E1
 1.040000000000000E9    -4.950944687491180E1    -8.156182045865783E1    -3.901444810869820E-2   -1.524179733119323E2    -5.863773211931819E-2   -1.521106132872407E2    -4.746808893862617E1    -7.031237176442512E1
 1.041000000000000E9    -4.690265141572411E1    -9.312692555643811E1    -3.762438888735462E-2   -1.528961685152967E2    -5.914260476419603E-2   -1.525666147686534E2    -4.879105110139150E1    -6.659861619116636E1
 1.042000000000000E9    -4.748913509725406E1    -6.977972386164727E1    -3.717522730243775E-2   -1.534102876851382E2    -6.178735818043838E-2   -1.530980044529473E2    -4.871694793464384E1    -7.920934390676447E1
 1.043000000000000E9    -4.739689054255712E1    -9.910505948246234E1    -3.497129743049906E-2   -1.539080523334513E2    -6.097238125371604E-2   -1.535381333902114E2    -4.832704763192059E1    -7.576784090201927E1
 1.044000000000000E9    -4.822984598140395E1    -7.833884546199064E1    -3.402337963316989E-2   -1.544073127450780E2    -6.369325930723391E-2   -1.540851645108382E2    -4.858187758170095E1    -6.878395744795922E1
 1.045000000000000E9    -4.772417265969014E1    -8.411694867390116E1    -2.620548063701948E-2   -1.548910447160382E2    -6.056020009147518E-2   -1.545799579391946E2    -4.887214870217147E1    -6.639282851646350E1
 1.046000000000000E9    -4.740370126225818E1    -8.495558184333989E1    -3.766558183169677E-2   -1.553796237627678E2    -5.922433099153652E-2   -1.550700044786165E2    -5.136381212820286E1    -7.242149970019595E1
 1.047000000000000E9    -4.955935748006855E1    -9.766963960418741E1    -4.040029757942507E-2   -1.558389139816263E2    -5.656944157137644E-2   -1.555727791617936E2    -4.928882974422410E1    -7.813094595339955E1
 1.048000000000000E9    -4.785205056303308E1    -8.963847996871486E1    -4.010580577824759E-2   -1.563539573592618E2    -5.925803224154366E-2   -1.560787234280583E2    -5.451260768646318E1    -1.028967649306284E2
 1.049000000000000E9    -4.760451953505623E1    -9.521336745527184E1    -2.809186159941317E-2   -1.568530539560374E2    -6.179657444386129E-2   -1.565724864458528E2    -5.298760070013461E1    -8.713467599266134E1
 1.050000000000000E9    -4.973760407900915E1    -9.413956468998958E1    -3.493152614210301E-2   -1.573628913500312E2    -5.798718907498478E-2   -1.570222163118654E2    -5.285311292953079E1    -8.416880052732103E1
 1.051000000000000E9    -5.156381848733744E1    -1.127951806099779E2    -3.295256839378004E-2   -1.578339901159484E2    -5.709071697392949E-2   -1.575671666477192E2    -5.453294315666898E1    -6.464562205795592E1
 1.052000000000000E9    -4.864196319421407E1    -1.009834866400958E2    -3.612401466002957E-2   -1.583428312075788E2    -6.020880080804258E-2   -1.580609706076388E2    -5.622125201110974E1    -1.000104272484299E2
 1.053000000000000E9    -4.733094615998876E1    -1.077845304217028E2    -3.170912096390931E-2   -1.588003687195975E2    -5.971802419795180E-2   -1.585396795416964E2    -5.920265809543079E1    -1.135408446403533E2
 1.054000000000000E9    -5.125819727698793E1    -9.006266990061927E1    -3.577765171778329E-2   -1.593436469651589E2    -5.922484366472801E-2   -1.589881715819722E2    -5.368954295488145E1    -6.962820746472934E1
 1.055000000000000E9    -5.094494004181320E1    -1.174369215614522E2    -3.486908506711731E-2   -1.598250409472964E2    -6.089419243030045E-2   -1.595395677712869E2    -5.475715167904370E1    -8.506998989780426E1
 1.056000000000000E9    -5.137649302177449E1    -1.028113206294644E2    -3.451192870471771E-2   -1.603204346809870E2    -5.170113521768731E-2   -1.599724429587057E2    -5.972373598254877E1    -1.517056389221706E2
 1.057000000000000E9    -4.916714488995488E1    -1.279016470249370E2    -3.349875932216678E-2   -1.608074962493594E2    -5.864333425107170E-2   -1.605164769256029E2    -5.933267246157733E1    -4.112502035018809E1
 1.058000000000000E9    -5.100557343199458E1    -1.178768655927108E2    -3.407556566634038E-2   -1.612940543574027E2    -6.311305434020824E-2   -1.610192555589369E2    -5.537861950329173E1    -7.184214681303337E1
 1.059000000000000E9    -5.006844372520075E1    -1.180942215819054E2    -2.876695233638509E-2   -1.617992588823221E2    -6.421809148978806E-2   -1.614840765581955E2    -5.508117088434580E1    -1.081536477508015E2
 1.060000000000000E9    -4.700774067050502E1    -1.218022335542703E2    -3.173621078694505E-2   -1.622655768706918E2    -6.045996243927716E-2   -1.620054342144978E2    -5.633696348727408E1    -1.095956945296645E2
 1.061000000000000E9    -4.831998042280640E1    -1.049817811888153E2    -3.279213189604483E-2   -1.627453434088319E2    -5.927882669777878E-2   -1.624716206578464E2    -5.552272995327048E1    -1.273283050011890E2
 1.062000000000000E9    -4.809337580042121E1    -1.110516312351999E2    -3.247215687753291E-2   -1.632655984956079E2    -6.285113877276108E-2   -1.629837631724908E2    -5.739783303025953E1    -9.662090382376006E1
 1.063000000000000E9    -5.018652372476115E1    -1.348157196618529E2    -2.602101729786740E-2   -1.638015278643509E2    -6.353617992581040E-2   -1.634752493487405E2    -5.044009756656712E1    -8.987920726524835E1
 1.064000000000000E9    -4.881368595942568E1    -1.161567386901939E2    -3.758733541888530E-2   -1.642832104172788E2    -5.901510902277604E-2   -1.639583141212147E2    -4.991598451021486E1    -1.052605386301327E2
 1.065000000000000E9    -4.720450067305750E1    -1.143349241803739E2    -3.080872975010178E-2   -1.647895900660787E2    -6.345470606633105E-2   -1.644561412661008E2    -5.183866867588412E1    -1.026556390653604E2
 1.066000000000000E9    -4.642692312406938E1    -1.217513198139174E2    -3.693151172957761E-2   -1.652574648802515E2    -6.107423639283426E-2   -1.649489335653161E2    -5.323524488605578E1    -1.043364788171541E2
 1.067000000000000E9    -4.686495693656023E1    -1.126260502080451E2    -3.163432742444862E-2   -1.657111981762913E2    -5.591334842494840E-2   -1.654512034382195E2    -5.395006301186953E1    -8.904563365483335E1
 1.068000000000000E9    -4.621688968034764E1    -1.142325363956461E2    -3.074202073533419E-2   -1.662796856085522E2    -6.124402044940032E-2   -1.659332310289373E2    -5.040986890062564E1    -1.031342000836838E2
 1.069000000000000E9    -4.561905527685011E1    -1.149865552400216E2    -3.762657406396426E-2   -1.667344237373353E2    -6.080412301888821E-2   -1.664662839065823E2    -4.796263689673165E1    -1.040497791012872E2
 1.070000000000000E9    -4.679093369786021E1    -1.267916420850570E2    -3.023811510296043E-2   -1.672247441784280E2    -5.926834805809345E-2   -1.668746619553792E2    -4.739955770591016E1    -1.022820742030647E2
 1.071000000000000E9    -4.729102517218987E1    -1.278726510969555E2    -2.630815771634329E-2   -1.677081370792041E2    -6.517575216282855E-2   -1.674391442197289E2    -4.872871345889853E1    -9.389612217383441E1
 1.072000000000000E9    -4.530773248305451E1    -1.150441504990613E2    -2.906052517087029E-2   -1.682268951346702E2    -6.052932343837028E-2   -1.679270375912921E2    -4.795724739883766E1    -1.026282292956381E2
 1.073000000000000E9    -4.452812377416404E1    -1.223068296358488E2    -3.251849977177558E-2   -1.687536662933540E2    -6.422339217449416E-2   -1.683837474565470E2    -4.727268441073252E1    -9.327142189214547E1
 1.074000000000000E9    -4.538761187594564E1    -1.214050450981756E2    -3.820459678163631E-2   -1.692014906464731E2    -6.375213073101686E-2   -1.688967880457751E2    -4.998461079105599E1    -9.206623878701961E1
 1.075000000000000E9    -4.544905922372666E1    -1.263860807939739E2    -3.010800037965938E-2   -1.697029685526525E2    -5.871437540938822E-2   -1.693561931606267E2    -4.643516633254134E1    -9.735376735308788E1
 1.076000000000000E9    -4.352181883033235E1    -1.165646444495176E2    -3.231922504327634E-2   -1.702087709330866E2    -6.275974063198594E-2   -1.698765352043108E2    -4.658902659212804E1    -1.031922980399698E2
 1.077000000000000E9    -4.449184618128043E1    -1.088521879531128E2    -2.864981017606065E-2   -1.707325285159177E2    -6.348666749408694E-2   -1.704045353721118E2    -4.570044557198151E1    -1.087726555951001E2
 1.078000000000000E9    -4.420228026191509E1    -1.172160284559039E2    -3.099287527617660E-2   -1.711460271337130E2    -5.578555231778293E-2   -1.708593962238647E2    -4.696862020110246E1    -1.030353865967851E2
 1.079000000000000E9    -4.414443715968939E1    -1.112984645347906E2    -3.112992375896040E-2   -1.716750523682417E2    -6.208248306126124E-2   -1.713166854504033E2    -4.616229406257052E1    -9.758315811198611E1
 1.080000000000000E9    -4.397442778429227E1    -1.188900031448976E2    -3.178071792457320E-2   -1.721753169670226E2    -6.529725013411115E-2   -1.718434735146950E2    -4.551705574848977E1    -1.004449288386574E2
 1.081000000000000E9    -4.430577321498599E1    -1.154960919881795E2    -2.700973060585021E-2   -1.726529358585657E2    -6.202725017456696E-2   -1.723252684747398E2    -4.569444007918052E1    -9.896177604703237E1
 1.082000000000000E9    -4.486061990271882E1    -1.287002958768357E2    -3.598080969406800E-2   -1.731579692585050E2    -5.733359149411639E-2   -1.728423619573603E2    -4.573754962190986E1    -1.020945867566259E2
 1.083000000000000E9    -4.391951438305775E1    -1.206066400066714E2    -3.089158535482737E-2   -1.736586356062047E2    -6.095225561322944E-2   -1.733099678690568E2    -4.538127283068904E1    -1.019226999609960E2
 1.084000000000000E9    -4.260380688826716E1    -1.288507618054152E2    -2.900566096959044E-2   -1.741462163153599E2    -5.732809734333080E-2   -1.738095661766760E2    -4.497426244771495E1    -1.009849960101316E2
 1.085000000000000E9    -4.475750209918201E1    -1.205352746407734E2    -2.976518039114413E-2   -1.746210843369915E2    -6.474765394290065E-2   -1.743005085843370E2    -4.570758546478358E1    -9.115361706345379E1
 1.086000000000000E9    -4.528226576537368E1    -1.321808521522153E2    -2.908470780026866E-2   -1.751377154499441E2    -6.080308218423269E-2   -1.748427199128969E2    -4.533184661673154E1    -9.736436359351268E1
 1.087000000000000E9    -4.513050499294889E1    -1.227607767636689E2    -3.151029617582879E-2   -1.756369576396411E2    -6.678752113072477E-2   -1.752414064392642E2    -4.593383365137851E1    -1.001036331186249E2
 1.088000000000000E9    -4.370512450036707E1    -1.263357398682255E2    -3.264637764933129E-2   -1.761932965553679E2    -5.261363412372429E-2   -1.757718178427929E2    -4.574343311857739E1    -9.688016735998230E1
 1.089000000000000E9    -4.461911020237786E1    -1.298970902905678E2    -3.247742339103733E-2   -1.766318558596675E2    -5.974026224784545E-2   -1.762709363600740E2    -4.474059258793644E1    -9.168040316428409E1
 1.090000000000000E9    -4.441521379820719E1    -1.271310476422499E2    -3.621690761300032E-2   -1.771319116934212E2    -5.878069523277179E-2   -1.767424593527906E2    -4.580360964164225E1    -1.013518872733381E2
 1.091000000000000E9    -4.532246416086124E1    -1.220140807076669E2    -3.082394897541509E-2   -1.776062420355464E2    -5.939066078822612E-2   -1.772747579012780E2    -4.715220309727221E1    -1.069395914466670E2
