#  HZ   S   DB   R     50.00 
! Rohde & Schwarz Vector Network Analyzer 
! Rohde-Schwarz,ZNB8-4Port,1311601044102961,2.82
! Created: UTC 1/17/2019, 2:16:49 PM
! freq[Hz]                db:S11                  ang:S11                 db:S12                  ang:S12                 db:S13                  ang:S13                 db:S14                  ang:S14
!                         db:S21                  ang:S21                 db:S22                  ang:S22                 db:S23                  ang:S23                 db:S24                  ang:S24
!                         db:S31                  ang:S31                 db:S32                  ang:S32                 db:S33                  ang:S33                 db:S34                  ang:S34
!                         db:S41                  ang:S41                 db:S42                  ang:S42                 db:S43                  ang:S43                 db:S44                  ang:S44
! 
 1.000000000000000E9    -2.947489673992772E1    -4.199071587093107E1    -3.314621971486842      -1.620886936158300E2    -2.861057581789948       1.085052149233748E2    -2.840472863344602E1     1.712786341203830E2
                        -3.296707171784576      -1.622064456259340E2    -3.163620159971062E1    -4.664486635369088E1    -2.772756484623564E1     1.727670139625172E2    -2.833440318590642       1.077491769678645E2
                        -2.859039612031483       1.085258854943824E2    -2.766596565768449E1     1.729670002624265E2    -2.833379767837597E1    -4.289263247670813E1    -3.394319739186027      -1.615147121914465E2
                        -2.847988816933689E1     1.703648865402070E2    -2.839656592067585       1.080843794077092E2    -3.395017726774147      -1.618561045399966E2    -2.779434508476044E1    -5.143245707609222E1

 1.001000000000000E9    -2.940179778114669E1    -4.292680131238443E1    -3.311344232923669      -1.623215807840436E2    -2.865018804855219       1.082749005956948E2    -2.850044888797195E1     1.704478009125809E2
                        -3.298800474992425      -1.624876320303297E2    -3.153090311284099E1    -4.671183450909673E1    -2.761867425594876E1     1.728100417176127E2    -2.835974714609054       1.075843927668233E2
                        -2.865931970456739       1.083163702341021E2    -2.760361717098832E1     1.731814193338083E2    -2.818997600610189E1    -4.333855309841621E1    -3.396177387890583      -1.616636916564856E2
                        -2.847884976301203E1     1.700386318354315E2    -2.837935979132795       1.076738881691775E2    -3.391398110214843      -1.621137583018212E2    -2.777829960528283E1    -5.264502397573801E1

 1.002000000000000E9    -2.923039550546005E1    -4.277903612984715E1    -3.320930555913879      -1.626153519382884E2    -2.865627193956003       1.080601372071434E2    -2.852143666867807E1     1.694380170061225E2
                        -3.295025258913378      -1.628312421118513E2    -3.123871966207626E1    -4.655252546996180E1    -2.756318234638258E1     1.715284395973728E2    -2.844099058898193       1.073427224298938E2
                        -2.862227349810028       1.080425626591545E2    -2.760150594696643E1     1.718136568815386E2    -2.837283921991871E1    -4.368571808375320E1    -3.394227405076681      -1.619213753112763E2
                        -2.859456365511419E1     1.698068546753586E2    -2.844146613933631       1.073025300211461E2    -3.390198834741414      -1.623652401661455E2    -2.774213484973200E1    -5.214552469946386E1

 1.003000000000000E9    -2.936193317440219E1    -4.358551527790796E1    -3.310151541384380      -1.629229449592331E2    -2.866797183423893       1.077870413111798E2    -2.853724306299853E1     1.708136570878915E2
                        -3.294894575805471      -1.631249256585231E2    -3.122752917311923E1    -4.641029777124672E1    -2.762516033544186E1     1.721946266297099E2    -2.839419148317490       1.070997923427242E2
                        -2.863387380004014       1.078046064940165E2    -2.752607075233208E1     1.727057933370890E2    -2.835071566161855E1    -4.517105645828183E1    -3.389473683444312      -1.621347187997021E2
                        -2.844318207710834E1     1.698445603766867E2    -2.839550727615378       1.070067807637985E2    -3.391214692978383      -1.626681750123076E2    -2.778655198611519E1    -5.317696715309378E1

 1.004000000000000E9    -2.946202186134069E1    -4.354234918704678E1    -3.308224881111127      -1.631801531328814E2    -2.871146530355358       1.074843235807753E2    -2.855512537743234E1     1.695842952383320E2
                        -3.296757671096828      -1.633623865295273E2    -3.095677628897207E1    -4.604781994729982E1    -2.755335905666266E1     1.718675498795480E2    -2.839595492703509       1.068724892357199E2
                        -2.863349968916197       1.075792685283345E2    -2.757805041284632E1     1.721633471062471E2    -2.855611983100998E1    -4.543028858232857E1    -3.391865202987353      -1.623481129684590E2
                        -2.850028780554000E1     1.692180186569457E2    -2.844791683427130       1.067351227279830E2    -3.392422814003396      -1.628783962450160E2    -2.760229440197558E1    -5.338474787787814E1

 1.005000000000000E9    -2.934781492607219E1    -4.488289483909048E1    -3.318848135011101      -1.634255961255083E2    -2.866852206706892       1.073496470235747E2    -2.844691872130780E1     1.700505636582503E2
                        -3.295939578210906      -1.636362648465541E2    -3.112475932903502E1    -4.660893264330898E1    -2.766469030410741E1     1.711443010615964E2    -2.839186280902211       1.066091682658982E2
                        -2.865321511607590       1.073345454910720E2    -2.767095307440371E1     1.716182483565215E2    -2.843713497645868E1    -4.585854777157139E1    -3.394392970989030      -1.626030289193092E2
                        -2.854432948143639E1     1.692315153422696E2    -2.854235841098272       1.064186852102418E2    -3.382723976738488      -1.631287624478002E2    -2.771626582469361E1    -5.453333912850045E1

 1.006000000000000E9    -2.938770879317584E1    -4.530405163785950E1    -3.312466431974073      -1.636426855100684E2    -2.863547572884642       1.070776742171331E2    -2.854766082237656E1     1.696527762559991E2
                        -3.297923394648414      -1.638833582826977E2    -3.103857816774470E1    -4.797691509921764E1    -2.742990655909118E1     1.711292099762102E2    -2.841996673539331       1.063701912043485E2
                        -2.863438507973105       1.070666296933336E2    -2.749457776090145E1     1.717816626063818E2    -2.844791936721481E1    -4.510882479082714E1    -3.384104732724166      -1.628669750425607E2
                        -2.853404877277746E1     1.700711341540931E2    -2.850991443736088       1.061537692111098E2    -3.381832721384848      -1.633504276326845E2    -2.760861069975395E1    -5.395371791967423E1

 1.007000000000000E9    -2.924043467631597E1    -4.539922179142263E1    -3.309398332370145      -1.638824944308425E2    -2.871750234269443       1.068566418750713E2    -2.853293478870906E1     1.692090450841110E2
                        -3.298081351642082      -1.641219814027857E2    -3.072759769238481E1    -4.820662328821434E1    -2.750303299191428E1     1.720194308806316E2    -2.843892203741982       1.061543353882316E2
                        -2.869501103976977       1.068576321435289E2    -2.760135786825751E1     1.719092393421700E2    -2.857781163313700E1    -4.625889736522760E1    -3.392565539991312      -1.630978860029182E2
                        -2.855733311273072E1     1.686257171236832E2    -2.854159582678840       1.059144399740030E2    -3.380524890693480      -1.635941928451376E2    -2.774182444542199E1    -5.479479742985483E1

 1.008000000000000E9    -2.922645752569725E1    -4.712681839836867E1    -3.310007545199989      -1.641564821522535E2    -2.870527526772559       1.065891243259650E2    -2.864630427816429E1     1.695568633177306E2
                        -3.288887699074956      -1.643925577447487E2    -3.090323108080497E1    -4.773961924421804E1    -2.755930048730165E1     1.710573563300375E2    -2.847669958168709       1.058850490496194E2
                        -2.865195095472882       1.066144369867416E2    -2.754243271248473E1     1.718037598427764E2    -2.859850982880852E1    -4.674083356593587E1    -3.390470450677666      -1.633431843274165E2
                        -2.855865119906343E1     1.687546717786971E2    -2.849576406070132       1.056518948697180E2    -3.383907144896895      -1.638696632369397E2    -2.773770149368668E1    -5.496661776631718E1

 1.009000000000000E9    -2.948988522803045E1    -4.728700701988902E1    -3.312771692562902      -1.644072576579137E2    -2.864880018084053       1.063585967399680E2    -2.870672481518675E1     1.685658770549912E2
                        -3.294836229330191      -1.645860153526281E2    -3.084839782134620E1    -4.851782079638723E1    -2.762882813088688E1     1.712226786411524E2    -2.841589581541331       1.056612356881931E2
                        -2.865581473809214       1.063555938505800E2    -2.762257292534692E1     1.714294678498408E2    -2.846927539625435E1    -4.720830139800325E1    -3.384849268757908      -1.635675913692389E2
                        -2.866749752217484E1     1.688326775111071E2    -2.858987900551166       1.054213919330147E2    -3.377254437862742      -1.640997379456573E2    -2.758055009744716E1    -5.509057733414218E1

 1.010000000000000E9    -2.927182599850633E1    -4.741770105406138E1    -3.313937026350011      -1.646189200816608E2    -2.869687949495931       1.060900036800181E2    -2.865090467784991E1     1.684294248236400E2
                        -3.289788580897752      -1.648376946450947E2    -3.093850202802856E1    -4.914291150406826E1    -2.757246753246811E1     1.699919145320851E2    -2.844931802838712       1.054429701779785E2
                        -2.871049300035440       1.061681490904402E2    -2.768541703653249E1     1.702493971375236E2    -2.855525546355946E1    -4.594008461467292E1    -3.385643213511087      -1.637842849737322E2
                        -2.858721106480260E1     1.676462555299126E2    -2.856624763185416       1.051891988253051E2    -3.382357996991726      -1.643048057108589E2    -2.778812832911761E1    -5.579914205512432E1

 1.011000000000000E9    -2.920282175065712E1    -4.759266018090978E1    -3.306420367075629      -1.648641766668701E2    -2.868603271060284       1.058902455608689E2    -2.880661624862831E1     1.687476428317310E2
                        -3.293747527858939      -1.650949604049697E2    -3.068404329544512E1    -4.947178625959312E1    -2.758391503464271E1     1.706524676702688E2    -2.849962995315046       1.052051959271733E2
                        -2.874179303965436       1.058903359500708E2    -2.750950175533103E1     1.717417787751436E2    -2.877383225180487E1    -4.767220767245401E1    -3.377978176371737      -1.640149881661176E2
                        -2.868278100242566E1     1.692408555559693E2    -2.857212861995192       1.049237445991353E2    -3.381700569698090      -1.645851735695842E2    -2.779470884945886E1    -5.557126734674176E1

 1.012000000000000E9    -2.932800574807580E1    -4.766267797917528E1    -3.308135032058435      -1.651110219141839E2    -2.871938654475452       1.056322056895027E2    -2.871038509220442E1     1.674451706109475E2
                        -3.291243805892056      -1.653320219669213E2    -3.077370489253019E1    -5.068513706279680E1    -2.753053397416878E1     1.702106394599992E2    -2.853428850590954       1.049434411253252E2
                        -2.874816456371605       1.056674400936499E2    -2.758382595191341E1     1.701276922942861E2    -2.870343131341024E1    -4.762200357321457E1    -3.382571348598218      -1.642597872271474E2
                        -2.859749816338540E1     1.675554332013569E2    -2.850139534685323       1.046871568032552E2    -3.379494745026559      -1.648276198081234E2    -2.761636120986780E1    -5.637225607653090E1

 1.013000000000000E9    -2.922019010938741E1    -4.886242451510683E1    -3.303008189590400      -1.653250409981192E2    -2.870956657427588       1.054459498477192E2    -2.868895105021924E1     1.685014473669104E2
                        -3.291305991624020      -1.655641916455074E2    -3.070259940069736E1    -4.877674423561054E1    -2.748802229053199E1     1.703769629857619E2    -2.844188564861765       1.047302375137271E2
                        -2.872748564536903       1.054217906806923E2    -2.758240244197410E1     1.704136128670272E2    -2.876418897231470E1    -4.864694611463913E1    -3.384780348004694      -1.644955251607958E2
                        -2.864378054127949E1     1.682980597267299E2    -2.862367466038116       1.044451736421106E2    -3.379372886603989      -1.650163213026023E2    -2.769530266826962E1    -5.647998147623891E1

 1.014000000000000E9    -2.925270349619017E1    -4.885193985222244E1    -3.306091624924006      -1.655747220375586E2    -2.872374555577342       1.051899701095777E2    -2.860145333695652E1     1.678026737353176E2
                        -3.290112326078260      -1.657923761692630E2    -3.059187934471652E1    -5.121413947233140E1    -2.750044775161073E1     1.702134276911871E2    -2.854376339397486       1.044876563477006E2
                        -2.875026098548317       1.051747089054626E2    -2.767886716272052E1     1.702941534235384E2    -2.882661144115486E1    -4.760517143901598E1    -3.387568814358754      -1.647383392935269E2
                        -2.869505731023242E1     1.669689813092726E2    -2.862286186015713       1.041703123567803E2    -3.379046273932540      -1.653025061342066E2    -2.761818147214884E1    -5.658616218355171E1

 1.015000000000000E9    -2.916869716583770E1    -4.906805764013363E1    -3.307754723780568      -1.657506016277224E2    -2.875724107098015       1.049581268908286E2    -2.880447465932651E1     1.669721258742079E2
                        -3.289898042705346      -1.660610728862004E2    -3.069439586717827E1    -5.123444593179602E1    -2.757450642550830E1     1.694731418607497E2    -2.849005225899028       1.042459042770213E2
                        -2.871592225868111       1.049451718065117E2    -2.761369424245297E1     1.703457683153941E2    -2.870726411303984E1    -4.891812781612777E1    -3.382778875495565      -1.650018431549211E2
                        -2.875567396611423E1     1.671920883213285E2    -2.861673812908543       1.039913486500705E2    -3.375054873069465      -1.655343990549856E2    -2.770835993372774E1    -5.711628038498944E1

 1.016000000000000E9    -2.921817499957205E1    -4.954699163021033E1    -3.303228231616577      -1.660091407195584E2    -2.877305927819496       1.047066500114565E2    -2.882303338940110E1     1.687986362252538E2
                        -3.291638285077940      -1.662455500503110E2    -3.072390784994961E1    -5.168069363478527E1    -2.766637830974564E1     1.694984896727609E2    -2.850866285232932       1.040449346770348E2
                        -2.873681040021716       1.047461146604723E2    -2.765857532861655E1     1.692236387890487E2    -2.878735630283015E1    -4.866569876227041E1    -3.379604999972206      -1.651984531869234E2
                        -2.881870136198941E1     1.676725421234479E2    -2.862808151018377       1.037478474842052E2    -3.375020890502358      -1.657744039294588E2    -2.766770462700976E1    -5.787882468611409E1

 1.017000000000000E9    -2.905785781496793E1    -4.972093229370555E1    -3.303538021654517      -1.662690397008895E2    -2.881493369238033       1.044565350637272E2    -2.868449588823845E1     1.681889328439964E2
                        -3.286910225930503      -1.665314365238448E2    -3.061129168819031E1    -5.048441421386646E1    -2.770822837002636E1     1.697534107208862E2    -2.854853804696331       1.037637569855144E2
                        -2.876060926178097       1.045081331827522E2    -2.764155221750519E1     1.701866044603623E2    -2.882928755097806E1    -4.942903545815656E1    -3.380644793806224      -1.654249834439933E2
                        -2.863010137242652E1     1.681089743869770E2    -2.862303367908248       1.034857886968429E2    -3.377018974457468      -1.659655932532221E2    -2.774332970040248E1    -5.859497701902190E1

 1.018000000000000E9    -2.919519884923241E1    -5.075775701455081E1    -3.302989349212927      -1.665303019758154E2    -2.886709974024310       1.042208114941535E2    -2.897310149343699E1     1.661324662150680E2
                        -3.289642946427290      -1.667660493393887E2    -3.059411894528270E1    -5.097001665504573E1    -2.755100926658376E1     1.689345163847763E2    -2.854517350832098       1.035383105991160E2
                        -2.872047556906398       1.042538818032588E2    -2.756571418902126E1     1.685066331448120E2    -2.880299265477706E1    -4.961687823751930E1    -3.382747124338510      -1.656585137015777E2
                        -2.878965373032429E1     1.658110178452254E2    -2.863057711283142       1.032448188092411E2    -3.375773017584655      -1.662317227847956E2    -2.753358986471305E1    -5.698071801768180E1

 1.019000000000000E9    -2.926387412408826E1    -5.165888363638416E1    -3.302281930567387      -1.667475181966775E2    -2.881525038694654       1.039845205621273E2    -2.868645104271696E1     1.660431214308239E2
                        -3.284239141677590      -1.669587515590444E2    -3.034421565574757E1    -5.088129305475873E1    -2.764088410799311E1     1.692763158051362E2    -2.858265053616288       1.032993255217664E2
                        -2.876471113076087       1.040476938171090E2    -2.773789376296172E1     1.691781880354056E2    -2.895796896354860E1    -5.005298758608751E1    -3.379903279944876      -1.658975006852627E2
                        -2.878683337328015E1     1.654944659483811E2    -2.865957306041906       1.030125413918850E2    -3.376237041376089      -1.665056826062911E2    -2.756093088808398E1    -5.790088750004308E1

 1.020000000000000E9    -2.916207726067295E1    -5.114788971173927E1    -3.304146817555403      -1.670088980721047E2    -2.878710774881417       1.038026252686032E2    -2.879881260495179E1     1.669794630800733E2
                        -3.285757602992234      -1.672103214321276E2    -3.052310619614782E1    -5.093333460689762E1    -2.752413624217443E1     1.689903550325974E2    -2.854404833437692       1.030721146681754E2
                        -2.881086926852807       1.037834003362977E2    -2.757654166934750E1     1.692478634125529E2    -2.893429162067254E1    -5.052432283890930E1    -3.374866255259646      -1.661229947680499E2
                        -2.878610082903634E1     1.663210356780748E2    -2.863187367993569       1.027782052975569E2    -3.366986776739327      -1.666942158165668E2    -2.761944504005843E1    -5.772321768658063E1

 1.021000000000000E9    -2.897671168950689E1    -5.259318739913299E1    -3.303983779653973      -1.672175839145951E2    -2.880216246928402       1.035350927982662E2    -2.894669879899971E1     1.669072215034981E2
                        -3.279160401048209      -1.674304668399066E2    -3.072019076588420E1    -5.117566456921474E1    -2.757161258092124E1     1.682235672468523E2    -2.859842519601414       1.028404069809081E2
                        -2.879180349213252       1.035556119303901E2    -2.767496501504261E1     1.683002903074937E2    -2.894040148397389E1    -5.126957783375300E1    -3.378728614496449      -1.663961808386295E2
                        -2.888896897816658E1     1.667622826318331E2    -2.868270975885976       1.024928835603113E2    -3.368014689093930      -1.669413555721408E2    -2.759639384241940E1    -5.829761486982383E1

 1.022000000000000E9    -2.918128294997111E1    -5.299257496522501E1    -3.294810553353604      -1.674682057319402E2    -2.879690539766231       1.033029561098418E2    -2.895107480358148E1     1.665287297399259E2
