#  HZ   S   DB   R     50.00 
! Rohde & Schwarz Vector Network Analyzer 
! Rohde-Schwarz,ZNB8-4Port,1311601044102961,2.82
! Created: UTC 1/17/2019, 2:46:15 PM
! freq[Hz]                db:S11                  ang:S11                 db:S21                  ang:S21                 db:S12                  ang:S12                 db:S22                  ang:S22
 1.000000000000000E9    -4.416555559383212E1    -1.670273665666313E2    -5.005907728588488E-2    1.374526040902456E2    -7.000280014319305E-2    1.375860034694332E2    -4.548824103581869E1    -1.455839813445776E2
 1.001000000000000E9    -4.409040977431425E1    -1.664401356417436E2    -5.274650250860881E-2    1.368190275515308E2    -7.157485337406123E-2    1.369836398694872E2    -4.519378029692933E1    -1.285620907668731E2
 1.002000000000000E9    -4.386084083186308E1    -1.660586470493804E2    -6.077453154802558E-2    1.361167875029133E2    -7.775132197184989E-2    1.363996641895081E2    -4.620265195729463E1    -1.294585161544509E2
 1.003000000000000E9    -4.326784476743433E1    -1.664552881549977E2    -5.701151857382556E-2    1.355152145971007E2    -6.636147175953967E-2    1.357249883780176E2    -4.381462006545566E1    -1.334706687821858E2
 1.004000000000000E9    -4.459857467111402E1    -1.689221191539501E2    -6.222471759432631E-2    1.349030128971727E2    -6.933626210816368E-2    1.351373414247894E2    -4.328216191114653E1    -1.234172884822897E2
 1.005000000000000E9    -4.372665516675984E1    -1.605194107628400E2    -6.176721082872605E-2    1.342764222780861E2    -7.566511487865565E-2    1.345551760267441E2    -4.384917864127588E1    -1.136497902389038E2
 1.006000000000000E9    -4.367456555359414E1    -1.620255560641853E2    -6.113693154140019E-2    1.336703340623909E2    -7.371946930770418E-2    1.339887160102563E2    -4.410585890407859E1    -1.253669059700363E2
 1.007000000000000E9    -4.372674644115773E1    -1.648396199266306E2    -6.060132390694518E-2    1.330801462280132E2    -7.321310444275606E-2    1.333712317117119E2    -4.313762713586219E1    -1.247305756208126E2
 1.008000000000000E9    -4.423533979447889E1    -1.674886086641644E2    -6.127797326593082E-2    1.324687972933789E2    -7.191102707543393E-2    1.327845010600757E2    -4.342605339428453E1    -1.240432088140498E2
 1.009000000000000E9    -4.469579165571592E1    -1.609708703966049E2    -5.675071888384290E-2    1.319234891186250E2    -7.570206065486437E-2    1.322261048407005E2    -4.331181113439287E1    -1.169681446690099E2
 1.010000000000000E9    -4.489589167766161E1    -1.638813102930179E2    -6.363849379045752E-2    1.313137840966870E2    -7.700217816206649E-2    1.316260769723170E2    -4.554669167370841E1    -1.178178724862913E2
 1.011000000000000E9    -4.330530003630091E1    -1.598036275698765E2    -6.094586678512376E-2    1.307306735177277E2    -7.206862202846205E-2    1.310470865643526E2    -4.253292308264371E1    -1.317987471481041E2
 1.012000000000000E9    -4.496857518317241E1    -1.551733349706382E2    -5.977069085652730E-2    1.301531621070368E2    -7.743261629629195E-2    1.304408144418485E2    -4.396007312901065E1    -1.276894446717989E2
 1.013000000000000E9    -4.356570714933307E1    -1.649907095716848E2    -6.322921440501084E-2    1.295607931957543E2    -7.207366047981539E-2    1.298674285689738E2    -4.394813066669857E1    -1.221020374562993E2
 1.014000000000000E9    -4.516246977958279E1    -1.621783086641527E2    -6.329086700181731E-2    1.289501444128512E2    -6.913062650140688E-2    1.293011439963011E2    -4.470098074064077E1    -1.228530611194538E2
 1.015000000000000E9    -4.514542880843298E1    -1.601924194225975E2    -5.802250939212606E-2    1.283764269323867E2    -7.570589840796062E-2    1.287012757797330E2    -4.441771647238820E1    -1.249373368201209E2
 1.016000000000000E9    -4.491607262917000E1    -1.533085775415518E2    -6.217052895588439E-2    1.278351031688897E2    -7.320959285318254E-2    1.281134926767088E2    -4.513770119300511E1    -1.211078013185007E2
 1.017000000000000E9    -4.356483448473686E1    -1.605942902331055E2    -5.813706427264574E-2    1.272130879919646E2    -7.517555486503068E-2    1.275322453862612E2    -4.414060814920841E1    -1.258383929782924E2
 1.018000000000000E9    -4.812837106456782E1    -1.526087512864739E2    -5.966099009804121E-2    1.266131889368615E2    -7.663396717500741E-2    1.269329876309107E2    -4.651510714397956E1    -1.136397947276828E2
 1.019000000000000E9    -4.797788622304382E1    -1.666705340209453E2    -5.801802857270410E-2    1.260265484848788E2    -7.709974667482394E-2    1.263484926435604E2    -4.533464455172413E1    -1.179455495117017E2
 1.020000000000000E9    -4.700134273834989E1    -1.546950853086723E2    -5.906086305562022E-2    1.254566814904329E2    -7.553958458791729E-2    1.257614669476182E2    -4.658874601282423E1    -1.188582269174090E2
 1.021000000000000E9    -4.723938098210723E1    -1.548900835754595E2    -6.002060497063837E-2    1.248590515226995E2    -7.913529199102753E-2    1.251655405034022E2    -4.682260024321990E1    -1.061893080394281E2
 1.022000000000000E9    -4.796804377360789E1    -1.517708937963785E2    -6.039914965870416E-2    1.243004681446874E2    -7.412180064514393E-2    1.245705810594980E2    -4.601475165717406E1    -1.071061950947999E2
 1.023000000000000E9    -4.747693205587411E1    -1.515324657805108E2    -6.440574810230669E-2    1.236926008256843E2    -8.354550819619958E-2    1.240166060305862E2    -4.720274444499446E1    -1.022680938797395E2
 1.024000000000000E9    -4.916872887004463E1    -1.550414297986524E2    -5.845320990089456E-2    1.231257649158874E2    -7.663188478806901E-2    1.234212414158622E2    -4.679479359849408E1    -1.190914486400822E2
 1.025000000000000E9    -4.872434737941757E1    -1.696029909399439E2    -6.053272738483793E-2    1.225559127532054E2    -7.631410399856134E-2    1.228361393231793E2    -4.697134450279467E1    -9.908136319234146E1
 1.026000000000000E9    -4.823483874828070E1    -1.435533455633867E2    -6.053816954201056E-2    1.219524909771238E2    -8.083380836145611E-2    1.222662274029885E2    -4.946481262465254E1    -1.116565261497958E2
 1.027000000000000E9    -5.365909826334763E1    -1.506231471460413E2    -5.648405364577939E-2    1.213125914015089E2    -7.677927368862797E-2    1.216978813947807E2    -4.909949389937665E1    -1.096472675598871E2
 1.028000000000000E9    -5.040823904208872E1    -1.547926143251361E2    -5.902968483208225E-2    1.207631259515498E2    -7.274565637125847E-2    1.210877014844334E2    -4.952461396788446E1    -1.062065877844588E2
 1.029000000000000E9    -5.021204709770596E1    -1.547198811643874E2    -5.983941695473013E-2    1.201780947230124E2    -8.073696821449708E-2    1.204736324080787E2    -4.898370124205211E1    -9.821001883263564E1
 1.030000000000000E9    -5.048129581677559E1    -1.672525273546157E2    -5.531447194953968E-2    1.195739273802212E2    -7.829175306425257E-2    1.198901834886893E2    -4.982103033485186E1    -1.042057967559381E2
 1.031000000000000E9    -5.105382255896393E1    -1.647453600840087E2    -6.195945614791795E-2    1.190304271632714E2    -7.739901597514227E-2    1.192574116326869E2    -4.932979298287548E1    -9.633368576931120E1
 1.032000000000000E9    -5.190388283522781E1    -1.591344861262718E2    -5.533469444811091E-2    1.184042072114352E2    -8.843678790460621E-2    1.187135184415012E2    -5.125750761212083E1    -8.782373056033856E1
 1.033000000000000E9    -5.204348972322973E1    -1.740697217717546E2    -6.244044323257709E-2    1.178566486005015E2    -7.794442752614819E-2    1.181710130711632E2    -4.965256727006535E1    -9.517791027577786E1
 1.034000000000000E9    -5.252213408291266E1    -1.567291112089289E2    -5.876950162215838E-2    1.172696923153765E2    -8.116940540483061E-2    1.175926236184903E2    -4.984816759916208E1    -1.033517885715544E2
 1.035000000000000E9    -5.009330486196114E1     1.773136374389081E2    -5.609043818283140E-2    1.166941350236386E2    -7.845203647283539E-2    1.169483796159458E2    -5.236325124422744E1    -8.130401786951038E1
 1.036000000000000E9    -5.166892859796428E1    -1.451171852771062E2    -5.879224428043346E-2    1.160415721201851E2    -7.613858562915961E-2    1.164068407590498E2    -5.063883429588608E1    -9.448576587727618E1
 1.037000000000000E9    -5.033179172618638E1     1.777441574516554E2    -5.715715909483014E-2    1.154799473949081E2    -7.750776228923623E-2    1.158182932698441E2    -4.903343460594171E1    -1.073680364173399E2
 1.038000000000000E9    -4.954599753009305E1    -1.546715814673495E2    -5.781511999937494E-2    1.148948272167157E2    -8.406633599934349E-2    1.152409229905178E2    -5.298794008901307E1    -1.121943043756405E2
 1.039000000000000E9    -4.775496855597177E1    -1.736715259048376E2    -6.074841427994492E-2    1.143274946739102E2    -7.962445070600324E-2    1.146227011158750E2    -4.963706653529272E1    -1.083389353185583E2
 1.040000000000000E9    -4.893309204686105E1    -1.615922954927719E2    -5.470684151629882E-2    1.137343911262307E2    -7.837903222723219E-2    1.140317307414646E2    -4.933124457297772E1    -1.168101865923044E2
 1.041000000000000E9    -5.082609782936670E1    -1.785230757059020E2    -5.982266367137140E-2    1.131543393305607E2    -8.347384587454794E-2    1.134687703277182E2    -4.841389178339029E1    -1.016147909403707E2
 1.042000000000000E9    -4.712108454116174E1    -1.703463027905207E2    -6.126295271834852E-2    1.125842413381975E2    -8.602430195587006E-2    1.128532223012260E2    -5.036691886782721E1    -1.091577101322913E2
 1.043000000000000E9    -5.010775790164776E1    -1.794021976850282E2    -5.814107194259821E-2    1.119879460869225E2    -8.338331154032780E-2    1.123058400917457E2    -5.047054602908894E1    -1.127727902034213E2
 1.044000000000000E9    -4.772913911995325E1     1.788906763865170E2    -5.808028412745632E-2    1.113465864035275E2    -8.245571718326043E-2    1.116938884775001E2    -5.172130811695440E1    -1.354620803401822E2
 1.045000000000000E9    -4.715078907929406E1     1.728179080174944E2    -5.001463229510613E-2    1.107935746512471E2    -8.239606776744377E-2    1.111114408626639E2    -4.895608056240864E1    -1.366178594997340E2
 1.046000000000000E9    -4.597031741407443E1     1.733023226802590E2    -5.694034747749533E-2    1.102161109187448E2    -8.172814438369384E-2    1.105173375294685E2    -4.876685357764689E1    -1.296436719712951E2
 1.047000000000000E9    -4.798443911319771E1     1.789652151646837E2    -6.363114509505620E-2    1.096587102447879E2    -7.760931885163812E-2    1.099446456389227E2    -4.942397203766979E1    -1.449519233187874E2
 1.048000000000000E9    -4.593229223429177E1     1.722206868646307E2    -6.018713380949386E-2    1.090479067944191E2    -8.128142905467621E-2    1.093525168411918E2    -4.949066889533963E1    -1.225284715895329E2
 1.049000000000000E9    -4.667563012412536E1     1.688783033349571E2    -5.430491873391295E-2    1.084564176180599E2    -8.155538639709542E-2    1.087559200655165E2    -4.955739830104672E1    -1.378698900690919E2
 1.050000000000000E9    -4.590724924392977E1     1.734698907212481E2    -6.105955855445189E-2    1.078477297429389E2    -7.951054225311796E-2    1.082160107369451E2    -4.750917676809805E1    -1.455930217412567E2
 1.051000000000000E9    -4.510856893307452E1     1.785941061358226E2    -5.597195099537527E-2    1.072962330620381E2    -7.943952034083771E-2    1.075784562394937E2    -4.544490987873124E1    -1.474433733354714E2
 1.052000000000000E9    -4.556273070721065E1     1.739615991990233E2    -5.906628656682623E-2    1.067150107056098E2    -8.329874628126564E-2    1.069987617105249E2    -4.719401395371330E1    -1.415650272048981E2
 1.053000000000000E9    -4.548038753645645E1     1.676182270302918E2    -5.430518713830618E-2    1.061421929986369E2    -8.530050823339909E-2    1.064030539775533E2    -4.475710478724231E1    -1.423325996853097E2
 1.054000000000000E9    -4.300138778557763E1     1.750836743666023E2    -5.816265479476908E-2    1.055291474928803E2    -8.034449458579296E-2    1.058784981431449E2    -4.389945990882234E1    -1.567501102912154E2
 1.055000000000000E9    -4.371335594167996E1     1.738986232420415E2    -5.709958078273279E-2    1.049428578089677E2    -7.975731456921523E-2    1.052712496312094E2    -4.386864080413254E1    -1.566709173877141E2
 1.056000000000000E9    -4.252241755708948E1     1.796871315748045E2    -5.894306619666175E-2    1.043932424007709E2    -7.670402894836731E-2    1.047083104178586E2    -4.361993374979073E1    -1.488284435885290E2
 1.057000000000000E9    -4.350139261209313E1     1.766434891874596E2    -5.665174401140444E-2    1.037585739794338E2    -8.809247753334978E-2    1.040998788911795E2    -4.226179328468888E1    -1.516025525883317E2
 1.058000000000000E9    -4.247615921142437E1     1.739588474374763E2    -5.644945299457770E-2    1.032264162270633E2    -8.483465710187646E-2    1.035295893328371E2    -4.136166104498483E1    -1.597205455495611E2
 1.059000000000000E9    -4.179174545404999E1     1.779134315931645E2    -5.399716630652886E-2    1.026285576292816E2    -8.711273172333789E-2    1.029332632010270E2    -4.215753214809516E1    -1.570252345848014E2
 1.060000000000000E9    -4.296702783031045E1     1.730986467564055E2    -5.531470145141021E-2    1.020643080911294E2    -8.148395157491618E-2    1.023298797638708E2    -4.213140874732625E1    -1.552713586249998E2
 1.061000000000000E9    -4.148069443597048E1     1.750075697714559E2    -5.679231536240657E-2    1.014746547464581E2    -7.993162938185056E-2    1.017727081060772E2    -4.208393466297397E1    -1.576799372614191E2
 1.062000000000000E9    -4.070893241982340E1     1.728350413918005E2    -5.492252103437892E-2    1.009037475682935E2    -8.328895422583654E-2    1.011617821933028E2    -4.087867193385611E1    -1.582239766722571E2
 1.063000000000000E9    -4.173520591868837E1     1.789708035606700E2    -5.079180006485561E-2    1.002881642384283E2    -8.650003136187109E-2    1.005873649541065E2    -4.162986282353232E1    -1.640473010322314E2
 1.064000000000000E9    -4.171928013085464E1     1.741239152382845E2    -5.923390284089000E-2    9.968406807817753E1    -7.534473760959201E-2    1.000487112759881E2    -4.208974439820022E1    -1.649791066145591E2
 1.065000000000000E9    -4.105845977055402E1     1.725559877610950E2    -5.351500992565871E-2    9.909690497671522E1    -8.346826107213429E-2    9.943841301938728E1    -4.091264678433655E1    -1.605060524766752E2
 1.066000000000000E9    -4.059209466795750E1     1.743198294074136E2    -5.122636396601964E-2    9.851878018669190E1    -8.437265001322337E-2    9.882232797653549E1    -4.053589075801814E1    -1.605785439835330E2
 1.067000000000000E9    -4.052528653282294E1     1.736122545530724E2    -5.311422623165533E-2    9.796411378631167E1    -8.102873593433708E-2    9.827745944993362E1    -4.006450223709422E1    -1.599085229071552E2
 1.068000000000000E9    -4.052108165239518E1     1.715211158281889E2    -5.305806379445392E-2    9.736898974714779E1    -7.714269230870537E-2    9.771548117016903E1    -4.029942318668506E1    -1.638839273982998E2
 1.069000000000000E9    -4.042135228694399E1     1.721700897864419E2    -6.110844413072203E-2    9.678441855500698E1    -8.245846951230428E-2    9.707144494009145E1    -4.066918613520522E1    -1.646624101587163E2
 1.070000000000000E9    -4.093863343870340E1     1.764360040893263E2    -5.227571578561059E-2    9.619044453224998E1    -8.292408005472603E-2    9.653941775367601E1    -4.032219529012949E1    -1.651557700942483E2
 1.071000000000000E9    -4.091844343265427E1     1.793284505702336E2    -5.128370239768544E-2    9.562425631027499E1    -8.403551097233544E-2    9.595434942708397E1    -3.953046236768736E1    -1.627997249570200E2
 1.072000000000000E9    -4.067707302863849E1     1.729748271531286E2    -5.172805344963302E-2    9.501612314006259E1    -8.635195373035640E-2    9.533825193190133E1    -3.990351573951983E1    -1.640308873184821E2
 1.073000000000000E9    -4.125466797434360E1     1.714944326616991E2    -5.413580234877002E-2    9.441469791795883E1    -8.318869298301687E-2    9.476181777593671E1    -4.025286251449072E1    -1.639867040642416E2
 1.074000000000000E9    -4.058180322868910E1     1.742556250564582E2    -5.994563750834184E-2    9.385170853026651E1    -8.706599846358090E-2    9.418202338678472E1    -3.906643056661932E1    -1.595757447334299E2
 1.075000000000000E9    -4.072526211688884E1     1.767285736727410E2    -5.450038217189778E-2    9.328207714284176E1    -8.082804140335853E-2    9.361140020937286E1    -3.980805762210461E1    -1.654800800835113E2
 1.076000000000000E9    -4.120451282969034E1     1.708975876532061E2    -5.453727962341537E-2    9.270821970981339E1    -8.468379723949286E-2    9.299758198254529E1    -4.082247682346594E1    -1.615713472343079E2
 1.077000000000000E9    -4.021733178512089E1     1.702284218177574E2    -5.302765784415252E-2    9.208069958447167E1    -8.766730332502495E-2    9.241529281553129E1    -4.104954641847861E1    -1.668718874452909E2
 1.078000000000000E9    -4.058505004985653E1     1.719125952693707E2    -5.574793648910670E-2    9.154659397248673E1    -7.704668438174046E-2    9.185887235440862E1    -4.017071128112193E1    -1.633940661209014E2
 1.079000000000000E9    -3.967978357135482E1     1.682490360349021E2    -5.360690439146247E-2    9.094215851624119E1    -8.618033638290676E-2    9.127463741808516E1    -4.008902798878181E1    -1.629787670212312E2
 1.080000000000000E9    -4.118853735687635E1     1.706718728609768E2    -5.154224085342953E-2    9.033593675210172E1    -8.542981850790057E-2    9.069609946033235E1    -4.040959147020213E1    -1.622530601522253E2
 1.081000000000000E9    -4.059556309290891E1     1.687328507374826E2    -4.815336645906182E-2    8.979927849761292E1    -8.342323767663187E-2    9.014152030150679E1    -4.008324766424812E1    -1.660947020353471E2
 1.082000000000000E9    -4.066611905107980E1    -1.793551893963242E2    -5.465322545209379E-2    8.919627259309687E1    -7.957982991674452E-2    8.950299628825066E1    -4.023885875635668E1    -1.611157278997802E2
 1.083000000000000E9    -4.113235226260451E1     1.711870002912684E2    -5.516398697737159E-2    8.861926014701446E1    -8.145365283202447E-2    8.895971017172174E1    -4.044377017987095E1    -1.632712439517543E2
 1.084000000000000E9    -4.247322796641305E1     1.739659267645444E2    -5.560351581732895E-2    8.803235172633320E1    -8.086660109124261E-2    8.836305962581506E1    -4.038987927157854E1    -1.617570314754663E2
 1.085000000000000E9    -4.080274778893912E1     1.716186610371888E2    -5.238614406933954E-2    8.740730778170791E1    -8.392857435298004E-2    8.777992587748747E1    -3.996967442510693E1    -1.681282223416282E2
 1.086000000000000E9    -4.158999715508021E1     1.774778271014770E2    -5.785886444487382E-2    8.686145735843101E1    -8.358346232610213E-2    8.720557981856442E1    -4.036226187236736E1    -1.615244993756773E2
 1.087000000000000E9    -4.038303027756457E1     1.723270119937878E2    -5.580665825419082E-2    8.626364443749590E1    -8.600804374833306E-2    8.667562804106738E1    -4.030497545363143E1    -1.588571258501520E2
 1.088000000000000E9    -4.131515850536405E1     1.691142070923289E2    -5.243439832270997E-2    8.562976092421249E1    -7.713464887312242E-2    8.603687117092416E1    -4.067254198050350E1    -1.630515086399520E2
 1.089000000000000E9    -4.147342162279551E1     1.696804634429136E2    -5.037591789850661E-2    8.506212461509054E1    -8.103166512863316E-2    8.544468727722315E1    -4.035219239325667E1    -1.663703931773391E2
 1.090000000000000E9    -4.123495205160101E1     1.711723773484818E2    -5.729507811109266E-2    8.450033677814771E1    -7.539019962343220E-2    8.486206758677398E1    -4.132719394349203E1    -1.628342932371463E2
 1.091000000000000E9    -4.082171314031619E1     1.685328816231523E2    -5.363475748390799E-2    8.392300571773919E1    -8.548853562256259E-2    8.427535046588737E1    -4.065448649521624E1    -1.596387461027787E2
