#  HZ   S   DB   R     50.00 
! Rohde & Schwarz Vector Network Analyzer 
! Rohde-Schwarz,ZNB8-4Port,1311601044102961,2.82
! Created: UTC 1/17/2019, 2:35:01 PM
! freq[Hz]                db:S11                  ang:S11                 db:S21                  ang:S21                 db:S12                  ang:S12                 db:S22                  ang:S22
 1.000000000000000E9    -3.915380742906084E1     1.498816537464442E2    -8.357016644261281E-2    5.711058311973832E1    -1.008850421956905E-1    5.721789644865174E1    -3.726520977145378E1     1.641290451720207E2
 1.001000000000000E9    -3.947645929069822E1     1.519099397525759E2    -8.791317773001643E-2    5.638390089919165E1    -1.034760275053883E-1    5.653070417722472E1    -3.719043887296969E1     1.664764336962602E2
 1.002000000000000E9    -3.978496633878582E1     1.491798654532550E2    -8.795004142748678E-2    5.559640363393032E1    -1.059655830251395E-1    5.585621463057985E1    -3.846663036475875E1     1.649729780818034E2
 1.003000000000000E9    -3.977639851818032E1     1.501005294560740E2    -8.684838621362545E-2    5.492236939857455E1    -9.960018925900206E-2    5.512254361292153E1    -3.825166309323930E1     1.628741324201887E2
 1.004000000000000E9    -3.964704661750201E1     1.552530182682244E2    -9.102334975486007E-2    5.422361315501528E1    -9.733738774588399E-2    5.446836259838690E1    -3.827098765521467E1     1.595466377829537E2
 1.005000000000000E9    -3.928609095938516E1     1.540335459505913E2    -9.260042283296950E-2    5.350987234789218E1    -1.076817323464993E-1    5.379648716202621E1    -3.782611069268236E1     1.643499652295586E2
 1.006000000000000E9    -3.991313406736127E1     1.501934795180801E2    -9.119922521333755E-2    5.283215554369123E1    -1.022057178132483E-1    5.309260256968658E1    -3.863302200233299E1     1.647643739486844E2
 1.007000000000000E9    -3.995594323004615E1     1.532576420476967E2    -9.342961238395099E-2    5.216658732266320E1    -1.008718631333416E-1    5.244607757230701E1    -3.910195195189780E1     1.629190266078671E2
 1.008000000000000E9    -4.080330548314952E1     1.563066852649262E2    -8.842860979986511E-2    5.146982065185689E1    -1.045239421866107E-1    5.176886448424228E1    -3.894643308004405E1     1.597988326437509E2
 1.009000000000000E9    -3.978072008907739E1     1.563307993109616E2    -9.081625984572191E-2    5.083987394546370E1    -1.058245117370327E-1    5.111671731430013E1    -3.851406740300001E1     1.624905686599662E2
 1.010000000000000E9    -4.033466038958078E1     1.549224293749532E2    -9.090391229081841E-2    5.014096433963942E1    -1.051574685580877E-1    5.045919824547901E1    -3.881929596796078E1     1.652428801779336E2
 1.011000000000000E9    -3.987029990890732E1     1.472290544279486E2    -9.261549949259457E-2    4.947883757812544E1    -1.035653578241288E-1    4.978527130895652E1    -3.973071279069200E1     1.574622195361417E2
 1.012000000000000E9    -3.982888856113403E1     1.521518417805855E2    -9.344880268658788E-2    4.881557086190876E1    -1.079714337391491E-1    4.912342521065584E1    -3.928696896843428E1     1.616159297913291E2
 1.013000000000000E9    -4.033141195284053E1     1.465384868607730E2    -9.221409640148100E-2    4.815820320348307E1    -1.071709739418881E-1    4.845784603446442E1    -3.959365946263517E1     1.580784904681457E2
 1.014000000000000E9    -4.035086524651029E1     1.546022477058988E2    -9.301148678863523E-2    4.747673008447627E1    -1.030521850049258E-1    4.778349905350263E1    -3.987891086588957E1     1.613261160781088E2
 1.015000000000000E9    -4.040439754597740E1     1.519760556802501E2    -8.972102990207326E-2    4.680761267206019E1    -1.077370531858996E-1    4.714967928419633E1    -3.994193439201468E1     1.609735097171395E2
 1.016000000000000E9    -3.984168095677190E1     1.479624644168251E2    -9.300783131292136E-2    4.616562183386477E1    -1.064563991337372E-1    4.648812415138092E1    -3.940265584449667E1     1.598901656871374E2
 1.017000000000000E9    -4.086730248832465E1     1.393797272956280E2    -9.136050378398432E-2    4.545587494561956E1    -1.119592975120647E-1    4.580287660960989E1    -3.986907750791023E1     1.514782862058561E2
 1.018000000000000E9    -3.988331834974267E1     1.541323456866302E2    -9.530857755744139E-2    4.481220245054441E1    -1.045991266956916E-1    4.512058815234213E1    -3.959333756439240E1     1.612620952417973E2
 1.019000000000000E9    -3.996184923981218E1     1.517182623955755E2    -9.117597476464541E-2    4.417197225256868E1    -1.080389348049886E-1    4.446426617902107E1    -4.069843346733136E1     1.530462761962571E2
 1.020000000000000E9    -3.973633805067867E1     1.474573962252320E2    -9.040000391025620E-2    4.348920744974523E1    -1.040286779898979E-1    4.375637068271084E1    -4.017080647540395E1     1.542125019258736E2
 1.021000000000000E9    -4.036607297227967E1     1.482976693317946E2    -9.129301542377585E-2    4.285196247488578E1    -1.088380764561058E-1    4.312264843060046E1    -3.948728314656692E1     1.551164598543331E2
 1.022000000000000E9    -3.923016636086456E1     1.455527886601345E2    -8.940536812758129E-2    4.216551139363514E1    -1.049986129822555E-1    4.245660041050765E1    -3.960645662363591E1     1.516857625629100E2
 1.023000000000000E9    -3.978856965089164E1     1.429060285792487E2    -9.509415966671553E-2    4.151298616135755E1    -1.138229894832845E-1    4.180092009800045E1    -3.953582635424152E1     1.516746738683049E2
 1.024000000000000E9    -3.971036611539341E1     1.411580211002711E2    -9.353524231797729E-2    4.085030367854493E1    -1.064147055464326E-1    4.113798561550541E1    -3.971791458247476E1     1.496983797162180E2
 1.025000000000000E9    -4.018479145787897E1     1.410642854071353E2    -9.128390863436159E-2    4.017679606608728E1    -1.101476964323153E-1    4.047038987242431E1    -3.925639745202312E1     1.487288033920634E2
 1.026000000000000E9    -3.907346605643124E1     1.358542523862086E2    -9.084262037995836E-2    3.949143194113152E1    -1.084418405492666E-1    3.982813607289697E1    -3.959072781586873E1     1.458898138150936E2
 1.027000000000000E9    -3.903759324596079E1     1.403308918748437E2    -9.332002155815419E-2    3.879939635556006E1    -1.076268766694147E-1    3.914514771119614E1    -4.016497354875382E1     1.463611039423021E2
 1.028000000000000E9    -3.883045361903299E1     1.372483398863877E2    -9.139431657310328E-2    3.815284705700363E1    -1.078991560613411E-1    3.849536882764083E1    -3.898393791062121E1     1.432718152971164E2
 1.029000000000000E9    -3.876679879738427E1     1.346498489918863E2    -8.810670550704809E-2    3.749545255327534E1    -1.139852875615923E-1    3.776852435913390E1    -3.893081490015403E1     1.412520055990981E2
 1.030000000000000E9    -3.864212740703322E1     1.327479896853015E2    -9.204484203542181E-2    3.682628772567216E1    -1.120101287258832E-1    3.710948221488834E1    -3.911569637778039E1     1.373465172224128E2
 1.031000000000000E9    -3.858039288750373E1     1.340046996444301E2    -9.215108609852614E-2    3.618302232326950E1    -1.080959494450298E-1    3.643604135181244E1    -3.809400591227457E1     1.352510452434047E2
 1.032000000000000E9    -3.843439041292722E1     1.295819314444663E2    -8.951757068230230E-2    3.546272144555290E1    -1.136384185150309E-1    3.581309374766748E1    -3.860398790548559E1     1.406775051629134E2
 1.033000000000000E9    -3.818554344350324E1     1.330656309656017E2    -9.729705738971151E-2    3.483568534539375E1    -1.134644950462312E-1    3.515821685048918E1    -3.819460348155626E1     1.360783087903008E2
 1.034000000000000E9    -3.743430314068065E1     1.306685128061326E2    -8.941256823177078E-2    3.418559132166822E1    -1.115610518977420E-1    3.448608709445435E1    -3.843997798757378E1     1.353762675151357E2
 1.035000000000000E9    -3.823853734776507E1     1.249105930036261E2    -8.894934898849662E-2    3.351433532448954E1    -1.132726919984646E-1    3.380217508382222E1    -3.780258982770177E1     1.354631587752806E2
 1.036000000000000E9    -3.694447334463784E1     1.254364027765895E2    -9.602858997922779E-2    3.278991981858964E1    -1.125533464596092E-1    3.314832350519340E1    -3.732988327802480E1     1.361456800448565E2
 1.037000000000000E9    -3.720748019056836E1     1.240511605646764E2    -9.059218499344726E-2    3.214286878222026E1    -1.100808877673523E-1    3.247466572128086E1    -3.731199123313770E1     1.297974769117111E2
 1.038000000000000E9    -3.652928551091149E1     1.206640456766702E2    -9.358928950339909E-2    3.151563461203856E1    -1.174745793997800E-1    3.184224855670484E1    -3.727219573283443E1     1.298856819372962E2
 1.039000000000000E9    -3.658473804115241E1     1.207325152545722E2    -9.545293155175522E-2    3.083255104897344E1    -1.109052903892241E-1    3.117142926247374E1    -3.641388848609503E1     1.272552262315572E2
 1.040000000000000E9    -3.602582655880755E1     1.216330713306400E2    -9.176452138133741E-2    3.015729761815114E1    -1.102013929905951E-1    3.046293261970764E1    -3.651569392490350E1     1.266872707762885E2
 1.041000000000000E9    -3.618219917511210E1     1.253658440518931E2    -9.313990569427053E-2    2.949996955462725E1    -1.180648236520918E-1    2.981252513698383E1    -3.588338625764362E1     1.250912637800343E2
 1.042000000000000E9    -3.644448400094532E1     1.183412179514942E2    -9.601904464381834E-2    2.883689435000384E1    -1.109219577109623E-1    2.912840762303307E1    -3.603985103845952E1     1.278554857005710E2
 1.043000000000000E9    -3.599579814015106E1     1.230468524126222E2    -9.451810244304319E-2    2.818505974424803E1    -1.171375172171700E-1    2.851437247840853E1    -3.604471815366366E1     1.259907113957577E2
 1.044000000000000E9    -3.591626108662209E1     1.180315822481770E2    -8.772415807236271E-2    2.747019309599217E1    -1.171488289551687E-1    2.784257234778666E1    -3.612724330216309E1     1.232032880216535E2
 1.045000000000000E9    -3.592440925053145E1     1.187103019321094E2    -8.804377866997454E-2    2.683177544496842E1    -1.144992774703014E-1    2.715513070081851E1    -3.585844605140052E1     1.207918911285017E2
 1.046000000000000E9    -3.601460714398022E1     1.181684752173185E2    -9.253123092324359E-2    2.617147274399436E1    -1.174503464844202E-1    2.651985248207074E1    -3.529045221868049E1     1.208070464647709E2
 1.047000000000000E9    -3.550495917490270E1     1.191438118045131E2    -1.007684412743232E-1    2.554675781818154E1    -1.113584832454626E-1    2.580656355980282E1    -3.567506845984984E1     1.216707315561929E2
 1.048000000000000E9    -3.583762689266612E1     1.176380597279083E2    -9.451917303611356E-2    2.487270751229417E1    -1.150097746918820E-1    2.515010277088374E1    -3.483885422011638E1     1.227394184378513E2
 1.049000000000000E9    -3.568005454449092E1     1.191060071231912E2    -8.854523254584062E-2    2.418988542935723E1    -1.140550594744418E-1    2.449145698061003E1    -3.497466701142060E1     1.202993216981079E2
 1.050000000000000E9    -3.529898224123873E1     1.152225793417897E2    -9.062730895867559E-2    2.352435545831509E1    -1.120251248843758E-1    2.383169854460886E1    -3.500558391619439E1     1.200108427384760E2
 1.051000000000000E9    -3.485148776162669E1     1.166248395050929E2    -8.805398728321541E-2    2.286803506865062E1    -1.118271807185408E-1    2.315030887237620E1    -3.488503765101626E1     1.156702368133238E2
 1.052000000000000E9    -3.523935456747437E1     1.151995969798105E2    -9.112704500643663E-2    2.220592987651583E1    -1.166345478443014E-1    2.247431707247070E1    -3.451587058024559E1     1.189916354162766E2
 1.053000000000000E9    -3.522766124113440E1     1.184251709386919E2    -8.903211992241425E-2    2.153841797019269E1    -1.161445553798892E-1    2.180660297300228E1    -3.423727908201866E1     1.171522805447384E2
 1.054000000000000E9    -3.490332371928469E1     1.123411196900019E2    -9.528386546656598E-2    2.086238085520211E1    -1.145391920701412E-1    2.118032045426710E1    -3.474024551780781E1     1.150411341426899E2
 1.055000000000000E9    -3.492326364525049E1     1.142993097414287E2    -9.133465068196954E-2    2.018514089636854E1    -1.149588827128454E-1    2.051658650368353E1    -3.445579078260059E1     1.145660209214226E2
 1.056000000000000E9    -3.477425344942584E1     1.114914215084035E2    -9.376426033128112E-2    1.953999090202719E1    -1.108995299438620E-1    1.986567737581280E1    -3.403961048721882E1     1.145892623156245E2
 1.057000000000000E9    -3.465735342594241E1     1.154073685554408E2    -8.948692878807148E-2    1.886424056973632E1    -1.124426627170682E-1    1.918013013169171E1    -3.421620688554682E1     1.114899547785841E2
 1.058000000000000E9    -3.478665487177104E1     1.131205749502184E2    -9.135191565389619E-2    1.823642728049260E1    -1.176656685766899E-1    1.852398021746394E1    -3.448891819886632E1     1.115698003477302E2
 1.059000000000000E9    -3.462993675377441E1     1.126966757983912E2    -8.301270186534933E-2    1.755379688912821E1    -1.183006015628572E-1    1.785181634390131E1    -3.432980847213786E1     1.142848865425724E2
 1.060000000000000E9    -3.463156323088642E1     1.145072642525523E2    -8.936988950269988E-2    1.689480297908094E1    -1.183944427957604E-1    1.717496401600127E1    -3.430305822105237E1     1.127032512347241E2
 1.061000000000000E9    -3.516830197893658E1     1.111509189441964E2    -9.091321079688415E-2    1.624822510188980E1    -1.148602402896379E-1    1.652076943928580E1    -3.406029545001977E1     1.124666735923609E2
 1.062000000000000E9    -3.492797345965757E1     1.105430372828440E2    -8.661038631961245E-2    1.558933871820030E1    -1.182256473427754E-1    1.585299529254150E1    -3.424983322674432E1     1.094076747201630E2
 1.063000000000000E9    -3.415384043122106E1     1.105725466630558E2    -8.417433737533396E-2    1.489270003459351E1    -1.163418063414742E-1    1.520065536894510E1    -3.486893121758736E1     1.105382200954872E2
 1.064000000000000E9    -3.468208692936238E1     1.090542419674239E2    -9.285498473216942E-2    1.422996363862468E1    -1.161387144537237E-1    1.454134854812407E1    -3.466976328292691E1     1.109832033501035E2
 1.065000000000000E9    -3.499016491617085E1     1.094585160893514E2    -8.789012849212399E-2    1.354829606754175E1    -1.122100710754041E-1    1.387863189073916E1    -3.450403709921267E1     1.104296864797623E2
 1.066000000000000E9    -3.501215203298454E1     1.107378105734984E2    -8.775142443522299E-2    1.291489026854912E1    -1.153148268739143E-1    1.323633053917648E1    -3.421729798250879E1     1.085820133923035E2
 1.067000000000000E9    -3.512072475490601E1     1.084915557284864E2    -8.868216363894957E-2    1.223732058254260E1    -1.110624555981182E-1    1.254798921773496E1    -3.434163907761378E1     1.069091923942651E2
 1.068000000000000E9    -3.512756056741403E1     1.095249495427480E2    -8.937209455387310E-2    1.155595243523236E1    -1.149201046243689E-1    1.190382331148555E1    -3.453962658534253E1     1.087150963645927E2
 1.069000000000000E9    -3.533769380696213E1     1.088919006484681E2    -9.321124436925291E-2    1.090405100462043E1    -1.144060442256068E-1    1.120078169313155E1    -3.493624353296060E1     1.096886798647278E2
 1.070000000000000E9    -3.467020002167988E1     1.085021262283596E2    -8.819620077745682E-2    1.025406685474654E1    -1.147623899292709E-1    1.058484835711963E1    -3.497875705736391E1     1.077740359721908E2
 1.071000000000000E9    -3.445178805821551E1     1.081072729850279E2    -8.493985396946405E-2    9.572848204013175      -1.156815407505734E-1    9.905211312871238      -3.486737084460627E1     1.057554105836027E2
 1.072000000000000E9    -3.514993444127469E1     1.068078858555025E2    -8.619807716830581E-2    8.942972677520693      -1.144597662405301E-1    9.220333215442359      -3.486778167861565E1     1.068053857192783E2
 1.073000000000000E9    -3.509326515594754E1     1.095778424046077E2    -8.746473772726238E-2    8.254747205076489      -1.145613848683459E-1    8.551595762664151      -3.512368405011085E1     1.037059774488806E2
 1.074000000000000E9    -3.493246987088244E1     1.069080662724691E2    -9.245394552276263E-2    7.592589291136290      -1.149985052420641E-1    7.915267702618506      -3.460325643409595E1     1.019660052993278E2
 1.075000000000000E9    -3.467901028935486E1     1.056296271963707E2    -8.694433214494934E-2    6.930280516217386      -1.131987202902462E-1    7.236021822333085      -3.517296876914973E1     1.053435811511678E2
 1.076000000000000E9    -3.557328368701598E1     1.066517921531783E2    -8.742427683847806E-2    6.245991114170501      -1.179088354762020E-1    6.594529280208695      -3.514882906761310E1     1.045470578733571E2
 1.077000000000000E9    -3.563687791789688E1     1.025345879417858E2    -8.537490306018762E-2    5.590916216043446      -1.191120432531838E-1    5.916663330081034      -3.512833530844433E1     1.056950570490519E2
 1.078000000000000E9    -3.527051346383603E1     1.037064562224510E2    -8.963250094877612E-2    4.931453953550585      -1.102258696925568E-1    5.238953303272040      -3.509178632243842E1     1.027158738435431E2
 1.079000000000000E9    -3.574292521332210E1     1.016493982413607E2    -8.726479776250304E-2    4.260148087007170      -1.186860654041548E-1    4.610573050484398      -3.512594453528840E1     1.006762436893439E2
 1.080000000000000E9    -3.532331409371683E1     1.036920161842434E2    -8.810968505197200E-2    3.571779056421406      -1.204277693549683E-1    3.922986187680364      -3.522614355486451E1     1.017405895578181E2
 1.081000000000000E9    -3.534622572081649E1     9.988784123892580E1    -8.284522288512305E-2    2.950203880587567      -1.122707623732367E-1    3.277255435691854      -3.523225709389077E1     1.002810422142082E2
 1.082000000000000E9    -3.471229186721860E1     1.011679456571792E2    -9.171712713553785E-2    2.258830491457061      -1.096885981281048E-1    2.607434975194592      -3.516250377135108E1     9.918182379432012E1
 1.083000000000000E9    -3.522499457868696E1     1.006381690450509E2    -9.190123805383109E-2    1.626780040492782      -1.166862638654585E-1    1.952413496945701      -3.523430952505429E1     9.845507009550826E1
 1.084000000000000E9    -3.502892852268358E1     1.040669178278690E2    -8.804225951081539E-2    9.685297307236828E-1   -1.135413263761989E-1    1.276312883948990      -3.527129514838179E1     9.831525735752750E1
 1.085000000000000E9    -3.502525899828031E1     9.850888182476368E1    -8.602284723570629E-2    2.806042287585387E-1   -1.188917654675588E-1    6.330810555969949E-1   -3.521235251095841E1     9.388445490488776E1
 1.086000000000000E9    -3.452093024475620E1     9.777055882797869E1    -8.864458673275953E-2   -3.804946814411901E-1   -1.165038826795887E-1   -7.688384597622688E-2   -3.523431128040400E1     9.647440284921933E1
 1.087000000000000E9    -3.472111624738390E1     9.573135366645994E1    -8.613333663163622E-2   -1.062283763771739      -1.179187843654864E-1   -6.791975570133391E-1   -3.483194003507617E1     9.472271935627400E1
 1.088000000000000E9    -3.493500746612236E1     9.863890007445266E1    -9.339448195735531E-2   -1.735854923114675      -1.136851550973442E-1   -1.363067125946351      -3.511786282939076E1     9.176914713732951E1
 1.089000000000000E9    -3.466822686918792E1     9.698171440675525E1    -8.992880943668682E-2   -2.379018159059044      -1.154602279486625E-1   -2.010440416126774      -3.536857691922447E1     9.216964309072185E1
 1.090000000000000E9    -3.468464211399157E1     9.525334659236785E1    -9.460703769680813E-2   -3.013656251196134      -1.101287843137913E-1   -2.685458107096039      -3.501761904630848E1     9.269038835400970E1
 1.091000000000000E9    -3.465503349188941E1     9.234454040125705E1    -8.938392762390314E-2   -3.681968024712171      -1.152610401262938E-1   -3.346077678206851      -3.444738103797584E1     9.243208751470861E1
