#  HZ   S   DB   R     50.00 
! Rohde & Schwarz Vector Network Analyzer 
! Rohde-Schwarz,ZNB8-4Port,1311601044102961,2.82
! Created: UTC 1/17/2019, 2:47:17 PM
! freq[Hz]                db:S11                  ang:S11                 db:S21                  ang:S21                 db:S12                  ang:S12                 db:S22                  ang:S22
 1.000000000000000E9    -4.755512441532911E1    -1.310311328769661E2    -7.126040419878932E-2    1.575415292757903E2    -8.480578102266329E-2    1.576641169635976E2    -4.798953087990039E1    -1.149216287399146E2
 1.001000000000000E9    -4.704571524852327E1    -1.299908498489466E2    -7.507314909695112E-2    1.569196767940204E2    -8.761979012325236E-2    1.571022221439504E2    -4.700313940903492E1    -9.837597711800642E1
 1.002000000000000E9    -4.634112641707240E1    -1.273507432092892E2    -7.124090000588504E-2    1.562476822242648E2    -9.409529758221183E-2    1.565130543034432E2    -4.702691872775618E1    -1.018732378594834E2
 1.003000000000000E9    -4.531320056024587E1    -1.319519576454595E2    -7.221218181184028E-2    1.556745373849864E2    -8.599864781942203E-2    1.559191381893238E2    -4.447033300412620E1    -1.024419863430642E2
 1.004000000000000E9    -4.618746493205475E1    -1.334945635453252E2    -7.514647524443628E-2    1.550990470959465E2    -8.534461629696946E-2    1.553225252810726E2    -4.336087880179068E1    -8.997782123246860E1
 1.005000000000000E9    -4.508826276436781E1    -1.264239208685681E2    -7.226976864247296E-2    1.544827411733040E2    -9.289245038190926E-2    1.547470445843516E2    -4.467462952331342E1    -8.699782920995266E1
 1.006000000000000E9    -4.482883440519870E1    -1.277188274977642E2    -7.377502824491744E-2    1.539131920231860E2    -9.008679925890628E-2    1.542079462717791E2    -4.404381632779334E1    -1.001343419132840E2
 1.007000000000000E9    -4.510904915147413E1    -1.274077232021261E2    -7.397379812456090E-2    1.533533686719633E2    -8.874639958552444E-2    1.536208317441571E2    -4.294162883455739E1    -9.490734764466323E1
 1.008000000000000E9    -4.421292746589053E1    -1.325909420401605E2    -7.320704555865107E-2    1.527565965622793E2    -8.906777075556739E-2    1.530780830209653E2    -4.285680552929149E1    -9.587134369832855E1
 1.009000000000000E9    -4.536963366080354E1    -1.246184974318259E2    -7.355605890311591E-2    1.522348210245182E2    -9.074535638420921E-2    1.525105606980644E2    -4.309942986451435E1    -9.106714806407484E1
 1.010000000000000E9    -4.498347187366093E1    -1.277173793206129E2    -7.706431374206493E-2    1.516383322549156E2    -9.203430171967494E-2    1.519642886977019E2    -4.427057840460631E1    -9.570739139454807E1
 1.011000000000000E9    -4.324711830108825E1    -1.208228173916177E2    -7.652762703297626E-2    1.511007826336475E2    -8.402886509497337E-2    1.514074575715579E2    -4.169344908885796E1    -1.029611272124472E2
 1.012000000000000E9    -4.485200578970019E1    -1.230317087272814E2    -7.458618528525014E-2    1.505184281590781E2    -8.893680797017686E-2    1.508180432818946E2    -4.288526609344758E1    -1.033415617394827E2
 1.013000000000000E9    -4.328344629016427E1    -1.267294455392208E2    -7.645205304171569E-2    1.499784281169848E2    -8.533066810478314E-2    1.502755990007445E2    -4.316095018064927E1    -9.954158732901063E1
 1.014000000000000E9    -4.464648282916777E1    -1.244068002834301E2    -7.675490898479867E-2    1.493875721674406E2    -8.752503043809431E-2    1.497087619788240E2    -4.316529862811554E1    -1.026893969681465E2
 1.015000000000000E9    -4.420093461396885E1    -1.239476120132983E2    -7.082332928063650E-2    1.488164969221066E2    -8.833466562824710E-2    1.491708590220212E2    -4.303759357035552E1    -1.039832013379633E2
 1.016000000000000E9    -4.419421866412456E1    -1.145785606512819E2    -7.152782413043340E-2    1.482849227221246E2    -8.428093549542744E-2    1.485963579671725E2    -4.385068977822738E1    -1.028085317054401E2
 1.017000000000000E9    -4.242534404700754E1    -1.248161019356896E2    -7.130568749677159E-2    1.476910896167717E2    -8.770938484319506E-2    1.480123724304989E2    -4.280625602472784E1    -1.010257141078556E2
 1.018000000000000E9    -4.620282298701142E1    -1.199036407013406E2    -7.003400141864585E-2    1.471341318892820E2    -8.796352876783221E-2    1.474462942591792E2    -4.466449546425296E1    -1.017921898306080E2
 1.019000000000000E9    -4.736422237077193E1    -1.338906796519423E2    -7.253623603854040E-2    1.465705735731644E2    -8.678424066923340E-2    1.468873325285088E2    -4.303611451320487E1    -1.009319457768066E2
 1.020000000000000E9    -4.532015966621442E1    -1.216303481202869E2    -7.178273983834956E-2    1.460105449054467E2    -8.472089899355811E-2    1.463227068225123E2    -4.402379727867113E1    -1.006921497667197E2
 1.021000000000000E9    -4.540507525530246E1    -1.219080364231182E2    -6.940410285504313E-2    1.454579034245336E2    -8.824344752044128E-2    1.457694492029605E2    -4.484716098002626E1    -9.515486276386396E1
 1.022000000000000E9    -4.605382694187539E1    -1.191040409227710E2    -6.890473026102412E-2    1.448698216151495E2    -8.092738581924421E-2    1.451991716790662E2    -4.438426214379519E1    -9.356076221680618E1
 1.023000000000000E9    -4.562969437064423E1    -1.171053157624593E2    -7.604420916422848E-2    1.443296566477321E2    -8.684629489352502E-2    1.446049559746151E2    -4.517525910421238E1    -9.030741001141357E1
 1.024000000000000E9    -4.724586360841536E1    -1.221107715410136E2    -7.022167729001042E-2    1.437773542642200E2    -8.517359972853247E-2    1.440541204607047E2    -4.494296494189591E1    -1.043320131357083E2
 1.025000000000000E9    -4.656443323083848E1    -1.303482880303503E2    -6.881245957327511E-2    1.432184665347238E2    -8.101062967058598E-2    1.434805113612413E2    -4.611018612125471E1    -8.993532289659932E1
 1.026000000000000E9    -4.646427828484433E1    -1.075510334669280E2    -6.546949120609305E-2    1.426328221644378E2    -8.411474848626838E-2    1.429567252956367E2    -4.640239961617630E1    -1.014451230470651E2
 1.027000000000000E9    -5.066372213427320E1    -1.159250395255874E2    -6.727140148385465E-2    1.420246765810510E2    -8.942420119148944E-2    1.423944394557234E2    -4.598530907018915E1    -1.011709339368025E2
 1.028000000000000E9    -4.907146287255117E1    -1.162157415367602E2    -6.878991765276550E-2    1.415005615991859E2    -8.525671173436410E-2    1.417754382788908E2    -4.769704626913958E1    -9.426293273494029E1
 1.029000000000000E9    -4.874798025977792E1    -1.179667237766220E2    -6.731503559974619E-2    1.409220324501413E2    -9.045702688755841E-2    1.412367121114565E2    -4.755381166125720E1    -8.741876954744394E1
 1.030000000000000E9    -4.965979054671472E1    -1.249564481219953E2    -6.129001596376775E-2    1.403557041402988E2    -8.253946600258455E-2    1.406350050054511E2    -4.762647025246801E1    -9.298268268243911E1
 1.031000000000000E9    -4.949983686991251E1    -1.286163705649366E2    -6.677713987418296E-2    1.398123253886507E2    -8.400215310275475E-2    1.400654510745160E2    -4.861901919220139E1    -7.706224751929761E1
 1.032000000000000E9    -5.003693421845852E1    -1.156559904272946E2    -6.264343786576299E-2    1.392120107396851E2    -8.733702533978396E-2    1.395094602862817E2    -5.059654966940413E1    -8.346602040767269E1
 1.033000000000000E9    -5.187135855364987E1    -1.362357958779673E2    -6.812810508316140E-2    1.386788247735739E2    -8.148954750121591E-2    1.389881261579353E2    -4.927660195572422E1    -8.526804650342154E1
 1.034000000000000E9    -5.295591922208610E1    -1.181277814730412E2    -6.686459247898353E-2    1.380982395291841E2    -8.432968661887320E-2    1.384178095637920E2    -4.784020145501921E1    -8.910038790083466E1
 1.035000000000000E9    -5.035843922075662E1    -1.401166051809803E2    -6.065373822014523E-2    1.375604532158311E2    -8.504167669968941E-2    1.378461457525320E2    -5.160876374054475E1    -7.574350572146270E1
 1.036000000000000E9    -5.190637483745044E1    -1.095498289120204E2    -6.216394331452593E-2    1.369219753186383E2    -8.225652145510107E-2    1.372791330152041E2    -5.194878990279396E1    -8.592581556229801E1
 1.037000000000000E9    -5.228223467870943E1    -1.414243175175775E2    -5.971831973326004E-2    1.363811125881551E2    -8.368469836762149E-2    1.367108306500213E2    -4.884642017298972E1    -9.202549784761489E1
 1.038000000000000E9    -5.073325579089506E1    -1.115671350917670E2    -6.052624101720513E-2    1.358262509955260E2    -8.384258267754363E-2    1.361610417787391E2    -5.259896982650318E1    -9.900029459481674E1
 1.039000000000000E9    -4.964216557169598E1    -1.362796033387869E2    -6.228339047847611E-2    1.352435994246283E2    -7.591283299423664E-2    1.355715454044266E2    -5.102609595589087E1    -8.446811721911732E1
 1.040000000000000E9    -5.125794443539472E1    -1.183789744487649E2    -6.042040325051268E-2    1.346833309098001E2    -8.521586787194374E-2    1.349712432003966E2    -5.068951714597851E1    -9.411122912812601E1
 1.041000000000000E9    -5.504269613566941E1    -1.444108300714561E2    -6.036686190395751E-2    1.341048916213654E2    -8.332792929396179E-2    1.344754903390567E2    -5.011877264258210E1    -7.743752037051681E1
 1.042000000000000E9    -4.810097044686729E1    -1.363490117106483E2    -6.259557765888697E-2    1.335836667076616E2    -8.181268922036980E-2    1.338606511449255E2    -5.292647430816036E1    -8.388715984292779E1
 1.043000000000000E9    -5.290890481610930E1    -1.605143542558344E2    -5.878647858796172E-2    1.329903283857342E2    -8.419485459972859E-2    1.333627087345075E2    -5.356012174171910E1    -8.890970912902246E1
 1.044000000000000E9    -4.981171080912681E1    -1.451534848368311E2    -5.706682935708727E-2    1.324074965429240E2    -8.168776017033097E-2    1.327336624798258E2    -5.386297891755391E1    -1.176241567465971E2
 1.045000000000000E9    -4.979936629870201E1    -1.603603275738686E2    -5.446195990552331E-2    1.318548782814580E2    -8.210179510629843E-2    1.321595136798916E2    -5.131483117795109E1    -1.040481908724471E2
 1.046000000000000E9    -4.818613967199691E1    -1.647445567299957E2    -5.703560811966353E-2    1.313048051289833E2    -8.190392839157533E-2    1.315933743764682E2    -5.219389617356686E1    -9.824318411394768E1
 1.047000000000000E9    -5.120849936125257E1    -1.587722729005130E2    -6.444646488627508E-2    1.307632794755066E2    -8.120094842360455E-2    1.310356002340102E2    -5.312399128910717E1    -1.248361759778618E2
 1.048000000000000E9    -4.839602637579028E1    -1.692610287007378E2    -6.147223233314531E-2    1.301656870337731E2    -8.159229233699206E-2    1.304743873743369E2    -5.469510832511325E1    -9.763258839771501E1
 1.049000000000000E9    -4.889419542258375E1    -1.680132894994025E2    -5.459379260294964E-2    1.295951225200666E2    -8.360466656372287E-2    1.299047570310501E2    -5.387994067351745E1    -1.097756911534676E2
 1.050000000000000E9    -4.827414225412231E1    -1.654169303711186E2    -5.519450387393654E-2    1.290232619609542E2    -8.070362382170218E-2    1.293401938380324E2    -5.157013316980410E1    -1.185989748041918E2
 1.051000000000000E9    -4.882352898879883E1    -1.650574106914167E2    -5.602457406303531E-2    1.284853884004347E2    -7.997500571913127E-2    1.287485555714965E2    -4.855864263793138E1    -1.246522660367908E2
 1.052000000000000E9    -4.788043024388539E1    -1.690489155912789E2    -5.996453997374319E-2    1.279200432771664E2    -7.978263839417155E-2    1.282086894591424E2    -5.025287929553096E1    -1.240222461661219E2
 1.053000000000000E9    -4.725117502363087E1    -1.770479643515222E2    -5.500899032566616E-2    1.273660195369630E2    -8.307902024658254E-2    1.276302731328980E2    -4.903231586364474E1    -1.131833133460478E2
 1.054000000000000E9    -4.605157450309648E1    -1.630193703765099E2    -5.618898268248031E-2    1.267749880865459E2    -8.096710732885651E-2    1.271112535558042E2    -4.739176602433166E1    -1.362269267769735E2
 1.055000000000000E9    -4.682752405382371E1    -1.689608917479036E2    -5.295052915244998E-2    1.262034749714026E2    -8.479984980595542E-2    1.265334673100787E2    -4.726917922407865E1    -1.390419537585030E2
 1.056000000000000E9    -4.539484848594454E1    -1.592105501854025E2    -6.213218396928711E-2    1.256550859087748E2    -7.684975678896147E-2    1.259885112691960E2    -4.774617461363259E1    -1.263822474886556E2
 1.057000000000000E9    -4.615121698284051E1    -1.684172487303756E2    -5.633292544878973E-2    1.250756329645007E2    -8.400403551034162E-2    1.253816374529975E2    -4.539488357215578E1    -1.279109409263038E2
 1.058000000000000E9    -4.493497534033750E1    -1.699469798467404E2    -5.383811370674958E-2    1.245346670270995E2    -8.687664858831301E-2    1.248284052886308E2    -4.385046283193517E1    -1.391106929067105E2
 1.059000000000000E9    -4.465667272070458E1    -1.638871648906020E2    -5.243059857947685E-2    1.239537364358496E2    -8.138305301454268E-2    1.242573814134959E2    -4.573071413310998E1    -1.397899727190058E2
 1.060000000000000E9    -4.491874970895894E1    -1.720302538898314E2    -5.570690591226873E-2    1.234147954958195E2    -8.182225928862418E-2    1.236832269098210E2    -4.522055144546489E1    -1.338165894401926E2
 1.061000000000000E9    -4.319614410119424E1    -1.669123883755192E2    -5.454428435347810E-2    1.228566810780582E2    -8.055068922152267E-2    1.231196918024509E2    -4.571756044608492E1    -1.393783715231457E2
 1.062000000000000E9    -4.252101652576506E1    -1.667390284046676E2    -5.526122134138344E-2    1.222759566040232E2    -8.646712701900636E-2    1.225424407179456E2    -4.375894914568194E1    -1.356012943880569E2
 1.063000000000000E9    -4.442530369301495E1    -1.618431740671119E2    -5.028144871669062E-2    1.216693937465893E2    -8.040361459367144E-2    1.219997896706337E2    -4.334171275523587E1    -1.493200544600707E2
 1.064000000000000E9    -4.390827940599168E1    -1.673321729596367E2    -5.769641981314728E-2    1.210983854616889E2    -8.075441761469060E-2    1.214626531765261E2    -4.427909602175045E1    -1.490966057238406E2
 1.065000000000000E9    -4.273954274371910E1    -1.719940780604218E2    -5.483214172105363E-2    1.205603815286902E2    -8.136289964629589E-2    1.208844500628333E2    -4.315531022304242E1    -1.413588509576671E2
 1.066000000000000E9    -4.210959373706941E1    -1.688862351874572E2    -5.053192502162314E-2    1.200045782335135E2    -8.404586731945350E-2    1.203202710708397E2    -4.309453402418551E1    -1.391863741525078E2
 1.067000000000000E9    -4.200021226017310E1    -1.682390690250668E2    -5.087598260073648E-2    1.194547197383469E2    -7.826689270930939E-2    1.197681302526262E2    -4.264061166513879E1    -1.393634876457479E2
 1.068000000000000E9    -4.185650737108112E1    -1.712567759546374E2    -5.386573804025566E-2    1.188404321762003E2    -7.761919423651198E-2    1.191963000325620E2    -4.245448975625963E1    -1.453681671097719E2
 1.069000000000000E9    -4.178925999433197E1    -1.711656979269498E2    -5.443730303747718E-2    1.183020222344468E2    -7.782081091356222E-2    1.186047286590595E2    -4.238632757194573E1    -1.507930573976920E2
 1.070000000000000E9    -4.301277802611332E1    -1.671530323277751E2    -5.451877777551775E-2    1.177310431586760E2    -7.987330464661463E-2    1.180717078462300E2    -4.207568095916553E1    -1.507392822203854E2
 1.071000000000000E9    -4.291628865496323E1    -1.642961815678857E2    -4.933443864736723E-2    1.171551763882438E2    -8.251491089328865E-2    1.175161682812207E2    -4.135538733025960E1    -1.445749915947330E2
 1.072000000000000E9    -4.187222601867950E1    -1.721500104481582E2    -5.421385940586262E-2    1.166209531180319E2    -8.288095785474207E-2    1.169367694254568E2    -4.178276302972251E1    -1.478915433036600E2
 1.073000000000000E9    -4.296927142586679E1    -1.740638628322734E2    -5.366479380200683E-2    1.160324346852370E2    -7.929741899474407E-2    1.163711650777383E2    -4.160953338332587E1    -1.446964542423008E2
 1.074000000000000E9    -4.222685384100846E1    -1.675486309894538E2    -5.676124488267821E-2    1.154713824111023E2    -7.946120069433529E-2    1.157863893267577E2    -4.124674943042106E1    -1.394048629629986E2
 1.075000000000000E9    -4.308292498788652E1    -1.666317054429588E2    -5.075111483685848E-2    1.149203157888983E2    -7.787383155989371E-2    1.152478309627952E2    -4.149263000830572E1    -1.471932474624011E2
 1.076000000000000E9    -4.235635316839459E1    -1.755234635644573E2    -5.289991180703946E-2    1.143530944005939E2    -8.826962224253099E-2    1.146912390572903E2    -4.257800234696112E1    -1.461647428409943E2
 1.077000000000000E9    -4.118585685570138E1    -1.722947966660517E2    -4.814087153363043E-2    1.137540113243174E2    -8.300991790907444E-2    1.141048022167582E2    -4.274431070994380E1    -1.544908634676220E2
 1.078000000000000E9    -4.180636010108934E1    -1.727102905274768E2    -5.412382219463451E-2    1.132413813834208E2    -7.704476069082412E-2    1.135522986023192E2    -4.204888876955333E1    -1.453231586697399E2
 1.079000000000000E9    -4.092858973343375E1    -1.743468601960706E2    -4.984955483400749E-2    1.126693799908234E2    -8.211212339693873E-2    1.129921849986835E2    -4.159761842447544E1    -1.446022330583005E2
 1.080000000000000E9    -4.247898205384347E1    -1.726205502825958E2    -5.035884043437078E-2    1.120876988318493E2    -8.203597649966039E-2    1.124087851235995E2    -4.240267839147602E1    -1.460836200470319E2
 1.081000000000000E9    -4.173749182691257E1    -1.731050824016085E2    -5.093647439555315E-2    1.115362506323982E2    -8.259369062472546E-2    1.118954723234287E2    -4.180192714002827E1    -1.490557198320265E2
 1.082000000000000E9    -4.273326431176955E1    -1.641209114087673E2    -5.409736410402811E-2    1.109480169723704E2    -7.388873433171270E-2    1.112732692915485E2    -4.185725543862634E1    -1.429882462339869E2
 1.083000000000000E9    -4.249186882568873E1    -1.736540899797421E2    -5.233800954457631E-2    1.104029456930842E2    -7.834855569580387E-2    1.107327445085051E2    -4.212872123241667E1    -1.462029831840778E2
 1.084000000000000E9    -4.412866833960116E1    -1.779110296829716E2    -5.210204219718257E-2    1.098365483722886E2    -7.847715907483327E-2    1.102003532273832E2    -4.219653997751151E1    -1.436813382571082E2
 1.085000000000000E9    -4.230181112892562E1    -1.731024907015028E2    -4.961893070229567E-2    1.092604952667550E2    -8.247147892034254E-2    1.096025983794147E2    -4.150392696014308E1    -1.451777526145937E2
 1.086000000000000E9    -4.436622136156308E1    -1.656465590922183E2    -4.915665914358440E-2    1.087242086831934E2    -8.372255617539329E-2    1.090482217979805E2    -4.217761440823894E1    -1.431290002367912E2
 1.087000000000000E9    -4.226045579860355E1    -1.690346308886267E2    -4.419636672901537E-2    1.081105124361889E2    -8.490842091145577E-2    1.085278068695387E2    -4.224630086157636E1    -1.376820189416816E2
 1.088000000000000E9    -4.311471237853073E1    -1.775209084060175E2    -5.159354703681982E-2    1.075414638522995E2    -8.002618063363709E-2    1.079401823461986E2    -4.212316033967802E1    -1.400638823780642E2
 1.089000000000000E9    -4.367700214226041E1    -1.745991976954700E2    -5.216202466103782E-2    1.070022762712903E2    -7.993037053441923E-2    1.073637609201382E2    -4.199994579002333E1    -1.444905003153135E2
 1.090000000000000E9    -4.318696560586807E1    -1.752856950914965E2    -5.692782356354650E-2    1.064841629029962E2    -7.830835096868705E-2    1.068027678623434E2    -4.340046801578004E1    -1.404858812369856E2
 1.091000000000000E9    -4.266008453453700E1    -1.744585092274881E2    -4.925861333465514E-2    1.058741468621140E2    -8.013537795931228E-2    1.062434391717434E2    -4.325707012467535E1    -1.347377460940775E2
