#  HZ   S   DB   R     50.00 
! Rohde & Schwarz Vector Network Analyzer 
! Rohde-Schwarz,ZNB8-4Port,1311601044102961,2.82
! Created: UTC 1/17/2019, 2:37:44 PM
! freq[Hz]                db:S11                  ang:S11                 db:S21                  ang:S21                 db:S12                  ang:S12                 db:S22                  ang:S22
 1.000000000000000E9    -4.219147962238356E1     1.713607861311816E2    -6.991359969450574E-2    9.723373175682407E1    -8.641288292917874E-2    9.739614053285936E1    -4.084995651467786E1    -1.610614925199974E2
 1.001000000000000E9    -4.245037994291668E1     1.744971060699623E2    -7.021237560596173E-2    9.657578680873560E1    -9.032413563700226E-2    9.672426138334981E1    -4.027017656494608E1    -1.527422296214219E2
 1.002000000000000E9    -4.238707415693014E1     1.693507076215049E2    -7.199258004143384E-2    9.583853542871258E1    -9.224687902802035E-2    9.608985571103156E1    -4.185869050908484E1    -1.531575984212632E2
 1.003000000000000E9    -4.226641490939549E1     1.710114283962838E2    -7.031295417493795E-2    9.519321256442346E1    -8.536381908798940E-2    9.541405562694526E1    -4.095198961236081E1    -1.579280304018211E2
 1.004000000000000E9    -4.304990797633113E1     1.762875053809682E2    -7.489896419578936E-2    9.454953739581282E1    -8.698228287140208E-2    9.476908229995688E1    -4.029943391766521E1    -1.560056542497901E2
 1.005000000000000E9    -4.199044981322671E1     1.796260503903031E2    -7.392453812480934E-2    9.387330962957772E1    -8.746083700761850E-2    9.416066054905616E1    -4.041549406179797E1    -1.478093270642065E2
 1.006000000000000E9    -4.261291931971425E1     1.737160393581916E2    -7.512065229420059E-2    9.322464114540672E1    -8.671945019270365E-2    9.349709525019516E1    -4.096375877816029E1    -1.476559589715283E2
 1.007000000000000E9    -4.273133514533133E1     1.756999472511530E2    -7.517588095302510E-2    9.258523483198869E1    -8.830486950507638E-2    9.287806445773585E1    -4.117150986236932E1    -1.534350581855745E2
 1.008000000000000E9    -4.396533186125079E1     1.737678898438228E2    -7.532559219548572E-2    9.196053154491872E1    -8.831472468775817E-2    9.226602185284776E1    -4.128595565676981E1    -1.548920591911511E2
 1.009000000000000E9    -4.305687733740534E1    -1.790312451281280E2    -7.537029800927664E-2    9.133943400468316E1    -8.669061581915932E-2    9.161347037251103E1    -4.069632422824748E1    -1.492767116147594E2
 1.010000000000000E9    -4.420971490096177E1    -1.782884741284143E2    -7.890097315673451E-2    9.069808365503707E1    -8.894023553759528E-2    9.100376420362871E1    -4.154968220887804E1    -1.484054703993118E2
 1.011000000000000E9    -4.212889873934398E1     1.741176353536603E2    -7.922892694489520E-2    9.008487193150994E1    -8.687868024654685E-2    9.038098333376527E1    -4.140158206362138E1    -1.593702625541941E2
 1.012000000000000E9    -4.330797906055160E1    -1.770192874626180E2    -7.749924829395648E-2    8.944714699754918E1    -8.899558570574112E-2    8.972727931182851E1    -4.143550658057978E1    -1.501951424575740E2
 1.013000000000000E9    -4.321798193889834E1     1.725391028497045E2    -7.707020322250391E-2    8.879902921145268E1    -8.425409293502992E-2    8.913036343413099E1    -4.199808917230077E1    -1.527417650324882E2
 1.014000000000000E9    -4.414746006064884E1    -1.781530513556649E2    -7.757071631073556E-2    8.819406597136025E1    -9.039440288352407E-2    8.847979893489476E1    -4.245959386343755E1    -1.473742049837093E2
 1.015000000000000E9    -4.385560581548810E1    -1.784485280287957E2    -7.381823409436526E-2    8.755905676413752E1    -8.749075653167596E-2    8.790070546324418E1    -4.232502221855536E1    -1.487686098054642E2
 1.016000000000000E9    -4.309915955127429E1    -1.774703483403964E2    -7.908483218991738E-2    8.696729926802512E1    -9.046661280770676E-2    8.726962446945525E1    -4.207221050124097E1    -1.472233351057840E2
 1.017000000000000E9    -4.331630606081414E1     1.706429692744869E2    -7.766172951616562E-2    8.631170701269400E1    -9.383470135031891E-2    8.664491808075373E1    -4.261969422700358E1    -1.559702318666969E2
 1.018000000000000E9    -4.451295253585739E1    -1.679246289006664E2    -7.415926185455704E-2    8.569917006102524E1    -9.188709527767339E-2    8.598450108116536E1    -4.296748254475700E1    -1.398287089159740E2
 1.019000000000000E9    -4.571512498215927E1    -1.689070573882776E2    -7.816037461720153E-2    8.508579344298477E1    -8.948311980548721E-2    8.535520318198394E1    -4.350983079754650E1    -1.502780391235634E2
 1.020000000000000E9    -4.423922437809921E1    -1.751871749236462E2    -7.518699391800195E-2    8.446434890356919E1    -9.072957814392291E-2    8.473557910880500E1    -4.330003685635126E1    -1.493645483253614E2
 1.021000000000000E9    -4.509237939536008E1    -1.750930438257519E2    -7.803776746259009E-2    8.381517589001334E1    -8.956168596857742E-2    8.412376630652207E1    -4.297980952000210E1    -1.441678272596510E2
 1.022000000000000E9    -4.376655396676689E1    -1.732002773711148E2    -7.754050527851843E-2    8.317358829993901E1    -9.090786929526726E-2    8.347341786553048E1    -4.245327001938809E1    -1.459202137974264E2
 1.023000000000000E9    -4.430809029006884E1    -1.769479700642155E2    -8.217321699696442E-2    8.258708132481108E1    -9.640130058885238E-2    8.285105803024975E1    -4.301302911711286E1    -1.438119321776791E2
 1.024000000000000E9    -4.494739866050097E1     1.785832898260442E2    -7.555013260899354E-2    8.196073030269974E1    -8.936909512899195E-2    8.223414870841695E1    -4.355305633903542E1    -1.511739839361154E2
 1.025000000000000E9    -4.542991235323096E1     1.769485025570823E2    -7.156677423654589E-2    8.131240541341653E1    -9.347502226260787E-2    8.160647884747617E1    -4.298570337265625E1    -1.484560292685434E2
 1.026000000000000E9    -4.381340238289343E1     1.767884338879206E2    -7.519413212319148E-2    8.070592924686784E1    -9.133135494428783E-2    8.098603165274450E1    -4.423429912131202E1    -1.520691658547452E2
 1.027000000000000E9    -4.521706524089264E1    -1.742198061222148E2    -7.605714811286567E-2    8.002870949410411E1    -9.166188958303352E-2    8.037473887443019E1    -4.465352606746373E1    -1.518799831181785E2
 1.028000000000000E9    -4.420269984134559E1     1.788458626954323E2    -7.549459929844672E-2    7.943196255725020E1    -9.279758204079669E-2    7.975578538258772E1    -4.395711267959997E1    -1.524126251150790E2
 1.029000000000000E9    -4.424725048768197E1     1.750572729960425E2    -7.374464097337609E-2    7.880949818987132E1    -9.704070937307613E-2    7.910357387331310E1    -4.381162185437947E1    -1.577767233793354E2
 1.030000000000000E9    -4.425115367019146E1     1.718894743280147E2    -7.428095366771698E-2    7.817190532025194E1    -9.348066482668249E-2    7.846964219948079E1    -4.437748630854682E1    -1.589132996657674E2
 1.031000000000000E9    -4.437142650107926E1     1.741269617561912E2    -7.457397789770326E-2    7.757103170936456E1    -9.230955464744742E-2    7.783190137035193E1    -4.301591580283667E1    -1.580929891856810E2
 1.032000000000000E9    -4.420340140947577E1     1.698764098175667E2    -7.327998863615140E-2    7.691539334105134E1    -9.755777455504258E-2    7.721563459393948E1    -4.425634877302186E1    -1.516980938319608E2
 1.033000000000000E9    -4.444874825620460E1     1.709541328332635E2    -8.032276419662332E-2    7.632533062259222E1    -9.600460209396383E-2    7.660856608557570E1    -4.366713172496795E1    -1.604977208989689E2
 1.034000000000000E9    -4.342380390194282E1     1.726848536382333E2    -7.713581245744559E-2    7.568733421016951E1    -9.478511612604663E-2    7.599434865153857E1    -4.377089738634239E1    -1.620453208601990E2
 1.035000000000000E9    -4.355623961715921E1     1.604542953127383E2    -7.410993826343298E-2    7.511130781583002E1    -9.100906334896988E-2    7.534619663440823E1    -4.390139163278398E1    -1.591813603186919E2
 1.036000000000000E9    -4.223061692698582E1     1.705522984180731E2    -7.693810766492759E-2    7.438588233890782E1    -9.564735980734589E-2    7.475500019679494E1    -4.226601774115922E1    -1.624012938782321E2
 1.037000000000000E9    -4.223764003581428E1     1.613644168365074E2    -7.704620126001713E-2    7.379640191844476E1    -9.382342629480769E-2    7.411864345334963E1    -4.215342822696506E1    -1.697502246170066E2
 1.038000000000000E9    -4.147401870757679E1     1.627427315328338E2    -7.629517956927508E-2    7.316139216952536E1    -9.754452848602299E-2    7.349615948081527E1    -4.322227868310904E1    -1.732658857691446E2
 1.039000000000000E9    -4.093487408429587E1     1.557346467435868E2    -7.758146535711220E-2    7.253482772776034E1    -9.737141721951001E-2    7.285275953561079E1    -4.142816679465835E1    -1.744459140259026E2
 1.040000000000000E9    -4.062597931753045E1     1.626273290526398E2    -7.326796261047647E-2    7.192197575541694E1    -9.363701371930649E-2    7.219354566206100E1    -4.107793546971053E1    -1.769296821352058E2
 1.041000000000000E9    -4.167682578688458E1     1.648341985172147E2    -7.466783113782846E-2    7.128792886905016E1    -9.660275305598939E-2    7.161139402987902E1    -4.091448534265592E1    -1.772433832900011E2
 1.042000000000000E9    -4.045066365715009E1     1.555956017638857E2    -8.090432085692029E-2    7.066602966769754E1    -1.034057704134254E-1    7.096992103048009E1    -4.116848531870150E1    -1.763215721795467E2
 1.043000000000000E9    -4.124444095229538E1     1.613145935556896E2    -7.500994856293182E-2    7.005250536182510E1    -1.000531154557266E-1    7.039710363613797E1    -4.141313781558893E1    -1.770023755858627E2
 1.044000000000000E9    -4.048439572247648E1     1.541859179241125E2    -7.343946502053596E-2    6.940542925639018E1    -9.779031955850526E-2    6.971505742718701E1    -4.133134072104919E1     1.730084271803732E2
 1.045000000000000E9    -4.057406606306071E1     1.538136383625666E2    -6.882765593841903E-2    6.876963694241080E1    -9.652959120701640E-2    6.908809013837137E1    -4.053408223996939E1     1.699643238290825E2
 1.046000000000000E9    -3.999127658263855E1     1.519272964145802E2    -7.418487817174364E-2    6.816684679392844E1    -9.737999978546744E-2    6.847143199771509E1    -3.990428675992779E1     1.727632289109107E2
 1.047000000000000E9    -4.000204532063869E1     1.562579578637185E2    -7.874243208548286E-2    6.756139151410814E1    -9.302143697098561E-2    6.784232297172862E1    -4.017055905344844E1     1.714632618370414E2
 1.048000000000000E9    -4.011461458579474E1     1.514575992999355E2    -7.719847048942836E-2    6.690463510795435E1    -9.774738736948425E-2    6.722798559808317E1    -3.954003723267717E1     1.749708159645595E2
 1.049000000000000E9    -4.020911798248940E1     1.541782280539368E2    -7.206490946324387E-2    6.628920069037612E1    -1.008459427302404E-1    6.657736838556953E1    -3.949283486138189E1     1.716631490161771E2
 1.050000000000000E9    -3.926448408310750E1     1.513989111122768E2    -7.296385156153466E-2    6.567451813280492E1    -9.412871882980574E-2    6.599596133679245E1    -3.890419168252242E1     1.689532940507847E2
 1.051000000000000E9    -3.833404692750623E1     1.519751223745756E2    -7.450369442655097E-2    6.505731227351367E1    -9.517819976428701E-2    6.533608076732556E1    -3.828223722479691E1     1.640413334566090E2
 1.052000000000000E9    -3.932248149793638E1     1.503483526659529E2    -7.345553854171763E-2    6.443881846768720E1    -9.842963144666037E-2    6.469916004668532E1    -3.834446877332698E1     1.675838353501569E2
 1.053000000000000E9    -3.916968738464186E1     1.520377528840968E2    -7.627973497618462E-2    6.382131064847003E1    -1.001244470990090E-1    6.409081302723871E1    -3.756228261794490E1     1.686924980197788E2
 1.054000000000000E9    -3.815139839138414E1     1.466974590332932E2    -7.333681044379131E-2    6.317971539372497E1    -9.946409852358562E-2    6.350711573842968E1    -3.790530520132111E1     1.613542137196245E2
 1.055000000000000E9    -3.821123362535157E1     1.479799715066055E2    -7.409414143567537E-2    6.256387616365220E1    -9.870967350329274E-2    6.285363226030878E1    -3.761562871759446E1     1.615651494501016E2
 1.056000000000000E9    -3.763949643018164E1     1.495604423917195E2    -8.075386613335431E-2    6.191096340204697E1    -9.613575340899724E-2    6.224968984321760E1    -3.691448318011754E1     1.641983239137055E2
 1.057000000000000E9    -3.757169222488787E1     1.516924523365032E2    -7.784373855789481E-2    6.130926856414013E1    -9.949335334493820E-2    6.162110887086038E1    -3.662788681966321E1     1.610834251754865E2
 1.058000000000000E9    -3.753102856730080E1     1.473309382542634E2    -7.102959637630980E-2    6.070532359286548E1    -9.958781561328736E-2    6.097915710236073E1    -3.701351235808376E1     1.582509288732568E2
 1.059000000000000E9    -3.714999767680703E1     1.496658832227792E2    -6.677402044412352E-2    6.007530094366211E1    -1.039959987798569E-1    6.035826808109063E1    -3.672540118361874E1     1.613230908594294E2
 1.060000000000000E9    -3.786797797539036E1     1.496153542277789E2    -7.557870015754584E-2    5.945086280915150E1    -9.806726379887076E-2    5.971770788371987E1    -3.661715040105828E1     1.610390309783633E2
 1.061000000000000E9    -3.745473206163969E1     1.457815690282152E2    -7.429581685701044E-2    5.882802088299283E1    -9.534818595190195E-2    5.911060027886531E1    -3.638060311241348E1     1.603685629325178E2
 1.062000000000000E9    -3.715652580221691E1     1.452717904739561E2    -7.263078647878593E-2    5.818844615744941E1    -9.997899619917366E-2    5.846649490321969E1    -3.631520692847079E1     1.574312687774745E2
 1.063000000000000E9    -3.677400507389793E1     1.481041826831671E2    -6.684725591492455E-2    5.757890574953430E1    -9.778194304903995E-2    5.786279837529175E1    -3.685036791239718E1     1.547245719549696E2
 1.064000000000000E9    -3.739398639834234E1     1.464668972610296E2    -7.755314878601877E-2    5.692571870032859E1    -9.950282126593475E-2    5.723425084629159E1    -3.700581438936242E1     1.580359322286451E2
 1.065000000000000E9    -3.719696884669394E1     1.446242827081744E2    -7.035323866338095E-2    5.628804753804199E1    -1.002095614354222E-1    5.664529009434023E1    -3.650768634759271E1     1.577241087649326E2
 1.066000000000000E9    -3.696919643984900E1     1.459724290584697E2    -6.668129804498409E-2    5.569231804279078E1    -9.899230334786735E-2    5.598546676741595E1    -3.613568237391374E1     1.581732953921846E2
 1.067000000000000E9    -3.708382179545272E1     1.445446504721025E2    -7.399356019032384E-2    5.506624139774394E1    -9.456405053125391E-2    5.535537184728933E1    -3.604271377068781E1     1.556091995508238E2
 1.068000000000000E9    -3.727301983456029E1     1.436734609776201E2    -7.459189575643299E-2    5.443443201863186E1    -9.802017576168653E-2    5.475678163713749E1    -3.628578221012398E1     1.566318888454956E2
 1.069000000000000E9    -3.723072041854402E1     1.451488622528823E2    -7.654337621659643E-2    5.380802046150976E1    -9.971778310969530E-2    5.406944577781501E1    -3.661426655864334E1     1.550076746898828E2
 1.070000000000000E9    -3.676546219336859E1     1.469197443063080E2    -7.376185805505586E-2    5.318674673893492E1    -9.342826765027436E-2    5.350747609494256E1    -3.682800526013733E1     1.553521116317885E2
 1.071000000000000E9    -3.683606897321881E1     1.467032349298422E2    -6.699208050288605E-2    5.257693166895314E1    -9.960332896480620E-2    5.288443587212588E1    -3.625072794808160E1     1.534948542716992E2
 1.072000000000000E9    -3.730905982846016E1     1.422467230481988E2    -7.322925059428985E-2    5.194087503860594E1    -9.920220261071713E-2    5.225245964072062E1    -3.649456108062683E1     1.545538820275223E2
 1.073000000000000E9    -3.739630271619320E1     1.452924670590474E2    -6.845027069770726E-2    5.131910775783073E1    -9.989508108480652E-2    5.161907397938065E1    -3.665957508362623E1     1.536272878979479E2
 1.074000000000000E9    -3.707295633048262E1     1.445919367846525E2    -7.349932774954993E-2    5.070649454847016E1    -1.002366387981497E-1    5.101892758125675E1    -3.589052057772955E1     1.532937320719725E2
 1.075000000000000E9    -3.711297011367810E1     1.451081658459884E2    -7.352503447284278E-2    5.006947608982040E1    -9.860188162062214E-2    5.040396648422708E1    -3.652477956536448E1     1.534593568732363E2
 1.076000000000000E9    -3.784881043367300E1     1.435713851735683E2    -7.398725711106713E-2    4.945040079154113E1    -9.962172402410402E-2    4.978895699174052E1    -3.701044528379272E1     1.545413417228816E2
 1.077000000000000E9    -3.724293649216009E1     1.387947848902625E2    -6.975467569749405E-2    4.878985491344242E1    -1.058984269421959E-1    4.914865891630074E1    -3.699983906234174E1     1.538217880104293E2
 1.078000000000000E9    -3.753415327890308E1     1.407945231982739E2    -7.748775464736800E-2    4.822518823449867E1    -9.496422345526848E-2    4.847435418365114E1    -3.667656060429547E1     1.541452945172421E2
 1.079000000000000E9    -3.715667756520736E1     1.379897621178394E2    -7.130353312481119E-2    4.757721138911881E1    -9.905419351140660E-2    4.790753338255360E1    -3.660998658604154E1     1.516123848982703E2
 1.080000000000000E9    -3.737279660288395E1     1.415660790746235E2    -7.167664211391749E-2    4.694442932329986E1    -1.021131958827038E-1    4.727140555681827E1    -3.709886996088984E1     1.528230987354471E2
 1.081000000000000E9    -3.729268555185239E1     1.379769700428101E2    -6.426683250279523E-2    4.634521301872548E1    -1.012226967563830E-1    4.665396437243035E1    -3.708177137326811E1     1.503530525106989E2
 1.082000000000000E9    -3.673921015446992E1     1.449923024900095E2    -7.662199927997701E-2    4.573595635365531E1    -9.461252555322294E-2    4.600808510181960E1    -3.683665721325765E1     1.516775210196816E2
 1.083000000000000E9    -3.739122023472777E1     1.395896693762078E2    -7.344796641782543E-2    4.507949622598685E1    -1.018175220605084E-1    4.542480125269812E1    -3.695100448886029E1     1.506405620516258E2
 1.084000000000000E9    -3.789490889081439E1     1.451521524902246E2    -7.271252785413185E-2    4.446587764891260E1    -9.416921226358356E-2    4.479082018098754E1    -3.688759373593990E1     1.512539847192838E2
 1.085000000000000E9    -3.700997475659503E1     1.375320891411037E2    -7.365777415965166E-2    4.381606235803013E1    -1.006044364122367E-1    4.415627886718526E1    -3.667504733765378E1     1.469561650278027E2
 1.086000000000000E9    -3.676248508404004E1     1.413399002179535E2    -7.123778100434332E-2    4.322176330586182E1    -1.015665274258869E-1    4.351033649540197E1    -3.685397695688976E1     1.500098186825571E2
 1.087000000000000E9    -3.667675315485507E1     1.370761675231350E2    -7.037646216107830E-2    4.258105978907621E1    -1.076511916308071E-1    4.292661021407518E1    -3.679759146413829E1     1.468123989540486E2
 1.088000000000000E9    -3.743982024086382E1     1.379014730672182E2    -6.915490151405128E-2    4.191298543941439E1    -9.742170167812454E-2    4.230613410753326E1    -3.704492324156192E1     1.469008529724565E2
 1.089000000000000E9    -3.708884145436841E1     1.376759740823705E2    -7.212891121489796E-2    4.132478307640172E1    -1.033566785476654E-1    4.167911706722252E1    -3.714782283490593E1     1.448249834414320E2
 1.090000000000000E9    -3.692709923645194E1     1.372682318782073E2    -7.717077457327201E-2    4.070199041209663E1    -9.572946770091746E-2    4.106270585373980E1    -3.722964720793566E1     1.455942376230391E2
 1.091000000000000E9    -3.686043829868292E1     1.329853304226726E2    -7.322060594900968E-2    4.008204164043901E1    -9.726013530394587E-2    4.043674104488123E1    -3.662086339974973E1     1.477672253323657E2
