#  HZ   S   DB   R     50.00 
! Rohde & Schwarz Vector Network Analyzer 
! Rohde-Schwarz,ZNB8-4Port,1311601044102961,2.82
! Created: UTC 1/17/2019, 2:36:49 PM
! freq[Hz]                db:S11                  ang:S11                 db:S21                  ang:S21                 db:S12                  ang:S12                 db:S22                  ang:S22
 1.000000000000000E9    -4.090804538571837E1     1.639198827409193E2    -7.343970730449254E-2    7.717972014848495E1    -8.778201729918279E-2    7.728462096981860E1    -3.888079700100035E1    -1.765717528521425E2
 1.001000000000000E9    -4.105331391222127E1     1.636568350535358E2    -7.330688693881400E-2    7.648716573433997E1    -9.715052236797800E-2    7.664271924582184E1    -3.864865312825235E1    -1.736149717390234E2
 1.002000000000000E9    -4.135864258084142E1     1.621840418931859E2    -7.961130011038627E-2    7.572006163446413E1    -9.370767986622108E-2    7.597084639622820E1    -4.000805293991068E1    -1.729391529198564E2
 1.003000000000000E9    -4.114444155868084E1     1.619624193393498E2    -7.494970095305611E-2    7.504336176680454E1    -8.891041941999217E-2    7.524558865640807E1    -3.932134164836867E1    -1.761277924665333E2
 1.004000000000000E9    -4.128663689028697E1     1.682467908337877E2    -8.296361574445477E-2    7.438931074292964E1    -9.014495277398373E-2    7.463525758680963E1    -3.926711183996150E1    -1.746057110247687E2
 1.005000000000000E9    -4.087542295778518E1     1.686672806103684E2    -8.126575581644802E-2    7.368125012219916E1    -9.345028661148268E-2    7.396714402587081E1    -3.860407293618179E1    -1.707793122185386E2
 1.006000000000000E9    -4.118733547050019E1     1.643569991747993E2    -7.903484337821298E-2    7.303724558317484E1    -9.660642062095964E-2    7.330634695726799E1    -3.965275998046455E1    -1.697155375743361E2
 1.007000000000000E9    -4.125445366879138E1     1.674103436794241E2    -8.221493472113003E-2    7.239832295653871E1    -9.162817106198291E-2    7.266495031204177E1    -4.002199981056023E1    -1.751068200656241E2
 1.008000000000000E9    -4.253962782726090E1     1.691536276799605E2    -8.029263102546325E-2    7.170555530131819E1    -9.681760179632055E-2    7.200166317909269E1    -3.974699183095935E1    -1.773732996792593E2
 1.009000000000000E9    -4.118023482517968E1     1.706599482876932E2    -7.854545240160793E-2    7.106453217214053E1    -9.622614036636443E-2    7.135977090284403E1    -3.964574328628098E1    -1.709444655772066E2
 1.010000000000000E9    -4.208639721972639E1     1.721373355458499E2    -8.321687112301848E-2    7.043975016444252E1    -1.001256375379380E-1    7.072449103424573E1    -3.982736737271618E1    -1.691849477558718E2
 1.011000000000000E9    -4.120645403795592E1     1.603734035839746E2    -8.450342283819809E-2    6.979559608277261E1    -9.473762199675820E-2    7.009410236493271E1    -4.057643122803451E1    -1.793331462671606E2
 1.012000000000000E9    -4.141235513157598E1     1.697303623300479E2    -8.531036002955626E-2    6.912947198419626E1    -9.548809025234036E-2    6.941952898417350E1    -4.032189334927899E1    -1.704188016430885E2
 1.013000000000000E9    -4.197140871367073E1     1.626327838909814E2    -8.785503069916367E-2    6.847371752062752E1    -9.320476645012886E-2    6.878246892935292E1    -4.079479012821022E1    -1.762941228807117E2
 1.014000000000000E9    -4.212839767557621E1     1.707777559302668E2    -8.159461191198424E-2    6.781574446090974E1    -9.254395579606009E-2    6.814788813838709E1    -4.096265724988079E1    -1.716352707657363E2
 1.015000000000000E9    -4.202479166001290E1     1.688496542534582E2    -7.810825920282211E-2    6.718531906700224E1    -9.468076044700552E-2    6.749969974249653E1    -4.148909537507583E1    -1.730963497595661E2
 1.016000000000000E9    -4.112429074927904E1     1.682681653979830E2    -7.966816336124281E-2    6.657624942186584E1    -9.353056309417474E-2    6.687625750356520E1    -4.054648699295450E1    -1.728153183124773E2
 1.017000000000000E9    -4.217372117784776E1     1.561637747525717E2    -8.210270985843549E-2    6.587998867044480E1    -9.724193182264744E-2    6.622348192369660E1    -4.075714358141467E1     1.770449961485307E2
 1.018000000000000E9    -4.195276101066710E1     1.742045350742738E2    -8.205132956903427E-2    6.528500669982739E1    -9.664833460612531E-2    6.556453937667277E1    -4.116395010870834E1    -1.685703071671559E2
 1.019000000000000E9    -4.254587741933827E1     1.738535203832913E2    -8.620517157917723E-2    6.461366086606944E1    -9.728464579615211E-2    6.492182315040411E1    -4.199011338557926E1    -1.770605304707716E2
 1.020000000000000E9    -4.192609806909456E1     1.687622883100782E2    -8.242671284583050E-2    6.397147422138277E1    -9.915768464174883E-2    6.425564820235711E1    -4.149250734143634E1    -1.758087298175423E2
 1.021000000000000E9    -4.267961947559377E1     1.685539335272504E2    -8.356717295685287E-2    6.332252957661800E1    -1.011971892794752E-1    6.364016343749888E1    -4.101692719217613E1    -1.721627120491090E2
 1.022000000000000E9    -4.144983616791976E1     1.679754950497973E2    -8.135707756294243E-2    6.267803877064070E1    -9.647451160573548E-2    6.297702456806311E1    -4.083038402538787E1    -1.769205358794600E2
 1.023000000000000E9    -4.191650107331236E1     1.659463156010590E2    -8.298423469140326E-2    6.206488375767500E1    -1.035906019906968E-1    6.230107416415928E1    -4.095564329763125E1    -1.753066184162258E2
 1.024000000000000E9    -4.194368283977148E1     1.618553622014283E2    -8.146428950976571E-2    6.138410339876325E1    -9.209590870678738E-2    6.169295663470467E1    -4.142304701419495E1     1.783076221539982E2
 1.025000000000000E9    -4.281079171830166E1     1.613661893145388E2    -8.442433523416006E-2    6.079037080547907E1    -9.915829407633808E-2    6.103799130030256E1    -4.102111372264547E1    -1.774172115755734E2
 1.026000000000000E9    -4.124719327551726E1     1.579877290618448E2    -7.938399072260016E-2    6.009252800648410E1    -9.673506668692736E-2    6.040007345747954E1    -4.189078302606797E1     1.781566704985260E2
 1.027000000000000E9    -4.178491702054672E1     1.641963347487050E2    -8.097174890353953E-2    5.939888274486665E1    -9.911982996519209E-2    5.975571469599145E1    -4.228847444666507E1     1.773906545544336E2
 1.028000000000000E9    -4.132121026561475E1     1.592491099664873E2    -8.058261860882514E-2    5.882144013539719E1    -9.809248272115197E-2    5.914432082988949E1    -4.156407022853677E1     1.740534398029994E2
 1.029000000000000E9    -4.126799442566527E1     1.561678029599583E2    -8.122889560046477E-2    5.814537908429267E1    -1.049877961505948E-1    5.843623177692373E1    -4.119243439668608E1     1.710732557732887E2
 1.030000000000000E9    -4.107964894453274E1     1.520924190673698E2    -7.963983349743124E-2    5.750768942168184E1    -9.646614793227844E-2    5.780019937859046E1    -4.174064711826389E1     1.691012670153025E2
 1.031000000000000E9    -4.092470186174936E1     1.545635722606399E2    -8.267059945806660E-2    5.686009342563636E1    -9.739023134658513E-2    5.714924034570338E1    -4.031894394680202E1     1.677004076916684E2
 1.032000000000000E9    -4.092374241825169E1     1.505911261780325E2    -7.701271825836697E-2    5.620129804432540E1    -1.067919697520751E-1    5.650922665220596E1    -4.078708951341856E1     1.693996828153925E2
 1.033000000000000E9    -4.068398206489425E1     1.520766290640507E2    -8.604585080599643E-2    5.559768947824679E1    -9.865003587262930E-2    5.589146789053948E1    -4.078742159539262E1     1.659235123840915E2
 1.034000000000000E9    -3.991427476442308E1     1.526699203671456E2    -8.399685058634733E-2    5.495498440017808E1    -1.002869507408486E-1    5.523593246368279E1    -4.086169526536437E1     1.660801228191566E2
 1.035000000000000E9    -4.074715358919394E1     1.439742915146639E2    -7.982115071887458E-2    5.430367109868949E1    -9.866772754594103E-2    5.457047338008843E1    -4.061589824537852E1     1.652120255267347E2
 1.036000000000000E9    -3.939303419789724E1     1.486543367315870E2    -8.311429233095107E-2    5.359672529586838E1    -1.003438176576463E-1    5.392189941355839E1    -3.934069602153871E1     1.636573049192394E2
 1.037000000000000E9    -3.925497838147757E1     1.443455123510373E2    -7.974849388009533E-2    5.298114409289936E1    -1.027507770353461E-1    5.329525121750903E1    -3.955349618732584E1     1.565805300413330E2
 1.038000000000000E9    -3.857405504950598E1     1.421437555248000E2    -8.197050720128368E-2    5.235100250032876E1    -1.049561285690002E-1    5.265352751108078E1    -3.971873119087559E1     1.591924414919309E2
 1.039000000000000E9    -3.873626751191072E1     1.387071885107840E2    -8.366420946995094E-2    5.168874938280131E1    -9.958688890738073E-2    5.200178831246762E1    -3.871481045852267E1     1.543174176501407E2
 1.040000000000000E9    -3.783426647773160E1     1.433068584705684E2    -7.992936941840573E-2    5.106482249256617E1    -1.038673072817866E-1    5.133591743037267E1    -3.855137166145118E1     1.545679244501264E2
 1.041000000000000E9    -3.863468910113288E1     1.464190620131286E2    -7.963503068769770E-2    5.039926865977040E1    -1.022996989094083E-1    5.074489360130242E1    -3.792626694774187E1     1.529260015825219E2
 1.042000000000000E9    -3.828548044197294E1     1.378137998638732E2    -8.374449536590731E-2    4.976529851537094E1    -1.043375287258820E-1    5.004021153970027E1    -3.814925409135989E1     1.538573311641456E2
 1.043000000000000E9    -3.806067792162121E1     1.425063020153721E2    -7.911924165533858E-2    4.912795281844075E1    -1.049450026441701E-1    4.945133563036531E1    -3.815851421845542E1     1.527643946585447E2
 1.044000000000000E9    -3.775660128097825E1     1.374047414977759E2    -8.089344322469905E-2    4.843155274021048E1    -1.025932149356093E-1    4.878069539549705E1    -3.809837881374659E1     1.478772086210921E2
 1.045000000000000E9    -3.785366398455737E1     1.377971021820853E2    -7.891579647989072E-2    4.782251422107022E1    -1.035920734945441E-1    4.810729141025932E1    -3.776452601853676E1     1.465590622554891E2
 1.046000000000000E9    -3.771448747775769E1     1.365928118395552E2    -8.435814220961097E-2    4.717586212275483E1    -1.037710432368552E-1    4.750497697981403E1    -3.714714400501578E1     1.466382605205985E2
 1.047000000000000E9    -3.728599559832372E1     1.384141342684175E2    -8.969135034249952E-2    4.654393087381744E1    -9.744158879131257E-2    4.683128051607574E1    -3.749912901266612E1     1.476970755086679E2
 1.048000000000000E9    -3.754527035385239E1     1.356518907586094E2    -8.874351622437399E-2    4.590187163715863E1    -9.972970273726427E-2    4.619725267400583E1    -3.651912707354448E1     1.492358617164367E2
 1.049000000000000E9    -3.748912193480615E1     1.374647633838987E2    -8.039086324516014E-2    4.523007332320346E1    -1.032447003838232E-1    4.552170290232892E1    -3.682936055234853E1     1.464109662562399E2
 1.050000000000000E9    -3.703336014740818E1     1.347840731985083E2    -8.053633022539490E-2    4.457380947933019E1    -9.947467669185980E-2    4.491056596368245E1    -3.643646046842850E1     1.445231142880344E2
 1.051000000000000E9    -3.630578325447231E1     1.359503138238325E2    -7.872560840738749E-2    4.397212159309249E1    -1.036722979474558E-1    4.422338476059911E1    -3.605237291938268E1     1.406437331043414E2
 1.052000000000000E9    -3.683610346977130E1     1.333800057062111E2    -8.295051947082649E-2    4.333716859870829E1    -1.019829712110984E-1    4.360687624120317E1    -3.605261541117288E1     1.432817447427149E2
 1.053000000000000E9    -3.697978627874496E1     1.365767270075198E2    -8.202637469039083E-2    4.269401542149951E1    -1.057455745736949E-1    4.295173665394317E1    -3.557085709647141E1     1.422026654279007E2
 1.054000000000000E9    -3.618487781602386E1     1.308869702859525E2    -8.233464859210918E-2    4.200303048114702E1    -1.033384028422495E-1    4.236948456478627E1    -3.592520060083188E1     1.376015395171105E2
 1.055000000000000E9    -3.623767535753314E1     1.323154708205914E2    -8.101812789316336E-2    4.138439273024483E1    -1.036801812944055E-1    4.169764782951081E1    -3.570740369806777E1     1.375739978884909E2
 1.056000000000000E9    -3.603865981511270E1     1.314714340626134E2    -8.492935450546282E-2    4.073060861625771E1    -9.654429453255299E-2    4.105416156708676E1    -3.491597252138283E1     1.399273249066957E2
 1.057000000000000E9    -3.573111663144268E1     1.334321570177589E2    -8.184490169982060E-2    4.009337405530408E1    -1.041859701549815E-1    4.039139438794648E1    -3.481190117935208E1     1.350830204112593E2
 1.058000000000000E9    -3.581443108798497E1     1.314271414141049E2    -8.198201629862116E-2    3.946442558027270E1    -1.080310588614710E-1    3.976419983639906E1    -3.540922871530459E1     1.349001070013908E2
 1.059000000000000E9    -3.559673680679974E1     1.310663188474084E2    -7.516630033571753E-2    3.882234448337811E1    -1.089578870151110E-1    3.911955899856450E1    -3.518781590637117E1     1.377417683589619E2
 1.060000000000000E9    -3.608967260639540E1     1.333033101672603E2    -8.044750902993267E-2    3.817698391318465E1    -1.035835412677666E-1    3.845616751499589E1    -3.512325784488167E1     1.368045361272859E2
 1.061000000000000E9    -3.591922421563390E1     1.293307542103353E2    -8.177020508461219E-2    3.755546001067003E1    -1.019628027274843E-1    3.783285914630428E1    -3.489949038903275E1     1.367601857935870E2
 1.062000000000000E9    -3.572150415073470E1     1.289033380014042E2    -7.650661528561982E-2    3.688961903283754E1    -1.089189360056928E-1    3.717551175437055E1    -3.498549231926685E1     1.339110522949017E2
 1.063000000000000E9    -3.522195433252988E1     1.304201498549828E2    -7.308751796767600E-2    3.622926020071873E1    -1.054604794375133E-1    3.652011030309294E1    -3.545871167552784E1     1.332356699830807E2
 1.064000000000000E9    -3.586263077698067E1     1.278901950169185E2    -8.523693949044091E-2    3.559069443641207E1    -1.032472982731332E-1    3.590606142154841E1    -3.548977307696777E1     1.339933570070746E2
 1.065000000000000E9    -3.584533845157448E1     1.277341663500019E2    -7.543589605070329E-2    3.492730502409876E1    -1.068615202876418E-1    3.525474355319796E1    -3.528133042452427E1     1.336578465965502E2
 1.066000000000000E9    -3.578885808049664E1     1.299254250643678E2    -7.731879146066220E-2    3.430866837905770E1    -1.045020985140546E-1    3.460649581322777E1    -3.492454602140967E1     1.332657898179322E2
 1.067000000000000E9    -3.577839210812679E1     1.274601001386430E2    -7.941808244646612E-2    3.366710830191776E1    -1.004320725013039E-1    3.394941154658214E1    -3.482429794499841E1     1.309438623388518E2
 1.068000000000000E9    -3.600405171964030E1     1.276199903490026E2    -7.895145834885142E-2    3.298975505152436E1    -1.022604602774986E-1    3.332095956402704E1    -3.502578754902498E1     1.317102547339374E2
 1.069000000000000E9    -3.613741535439650E1     1.276796049689749E2    -7.999289918322403E-2    3.236536981862032E1    -1.041240034010950E-1    3.266023520146551E1    -3.537536019586480E1     1.331769160811995E2
 1.070000000000000E9    -3.546433093707923E1     1.290434897289185E2    -7.889675340208274E-2    3.172680607070214E1    -1.038354335600140E-1    3.205765746538403E1    -3.565133845237160E1     1.322711483274613E2
 1.071000000000000E9    -3.526510134281039E1     1.286437831617290E2    -7.560782306291350E-2    3.107347599319022E1    -1.034763488344184E-1    3.139471556853631E1    -3.512947281458620E1     1.297514384105954E2
 1.072000000000000E9    -3.596275230310583E1     1.253559656822695E2    -8.179732616119806E-2    3.044653772824008E1    -1.068104380550395E-1    3.073382955961463E1    -3.537558932227058E1     1.310864685274106E2
 1.073000000000000E9    -3.603859895334949E1     1.282945153256142E2    -8.111796231360076E-2    2.976623901994877E1    -1.038464558000517E-1    3.009784781351456E1    -3.561975002812999E1     1.287657415059749E2
 1.074000000000000E9    -3.571641709225260E1     1.262810617496958E2    -8.199222661136528E-2    2.912951641313789E1    -1.066819409949590E-1    2.944579122954422E1    -3.494681866393653E1     1.274442290923228E2
 1.075000000000000E9    -3.554671742698860E1     1.266349858386990E2    -7.501920809261058E-2    2.850801877478214E1    -1.014924914898449E-1    2.881876280542680E1    -3.555318343985354E1     1.301181656888784E2
 1.076000000000000E9    -3.637360508848444E1     1.266888528765658E2    -8.078957292168550E-2    2.786388130343104E1    -1.046144141339673E-1    2.815847243549300E1    -3.589834794813337E1     1.302971345150083E2
 1.077000000000000E9    -3.628304243905427E1     1.213925120779262E2    -7.567451794458129E-2    2.719672602932107E1    -1.098456412726590E-1    2.750858545389423E1    -3.590489539000419E1     1.302353593287984E2
 1.078000000000000E9    -3.623522135135509E1     1.239239007460134E2    -7.841274715272256E-2    2.658092810661465E1    -9.729983760086597E-2    2.687018797634438E1    -3.543646963277474E1     1.281029868564854E2
 1.079000000000000E9    -3.623995529493831E1     1.211002618422333E2    -7.817459260107963E-2    2.590988565955868E1    -1.071322912499513E-1    2.623787524712916E1    -3.557014554899510E1     1.259051248754730E2
 1.080000000000000E9    -3.615966043314563E1     1.233359068315485E2    -7.762894945668372E-2    2.525285565576427E1    -1.091216070515209E-1    2.560076942710250E1    -3.582886284788258E1     1.278139931752739E2
 1.081000000000000E9    -3.613903702559865E1     1.204910454189169E2    -7.493692790979478E-2    2.463966196136796E1    -1.060021712919659E-1    2.496560633631045E1    -3.583902060943144E1     1.260330418379429E2
 1.082000000000000E9    -3.552171143945830E1     1.232013231922463E2    -7.900223492395755E-2    2.396383503884733E1    -1.009412035642613E-1    2.431744219910996E1    -3.575713327904726E1     1.268960496209922E2
 1.083000000000000E9    -3.615694753023377E1     1.209913386172610E2    -7.859097053283165E-2    2.336359056078076E1    -1.041052101723099E-1    2.367693174344814E1    -3.583074843714724E1     1.253397844525233E2
 1.084000000000000E9    -3.629674614638219E1     1.259141255559111E2    -7.997849908552067E-2    2.272474183905060E1    -1.046041001345184E-1    2.302460129598273E1    -3.606157762764777E1     1.244850140757607E2
 1.085000000000000E9    -3.569279372915964E1     1.186228508107049E2    -7.732197584027990E-2    2.205782325056523E1    -1.076676528772061E-1    2.236353032190813E1    -3.555721162772399E1     1.208234454285749E2
 1.086000000000000E9    -3.532579706225774E1     1.202024534250720E2    -8.093114462798257E-2    2.141341813999010E1    -1.060178752494299E-1    2.172231703280733E1    -3.573299224319029E1     1.230647436442181E2
 1.087000000000000E9    -3.540553656851797E1     1.169595769510301E2    -7.553055121809728E-2    2.073614157253186E1    -1.104522772137934E-1    2.116395325223846E1    -3.554897253976484E1     1.221046410247944E2
 1.088000000000000E9    -3.584729550499841E1     1.196353977611211E2    -7.826451846203315E-2    2.006927735892396E1    -1.049268913644351E-1    2.045517277607868E1    -3.587638944577439E1     1.198192556563929E2
 1.089000000000000E9    -3.555018246801223E1     1.175592018334803E2    -7.997689161913685E-2    1.946245791146602E1    -1.078449924206768E-1    1.982040641947280E1    -3.590852824422572E1     1.183434148398068E2
 1.090000000000000E9    -3.556747136363212E1     1.163229994318424E2    -8.311254013514619E-2    1.882917243821034E1    -1.028542128217742E-1    1.917979596220657E1    -3.569529128504924E1     1.178315628703320E2
 1.091000000000000E9    -3.558524302306745E1     1.125084479355264E2    -7.129509385923949E-2    1.818649727489871E1    -1.035475176417929E-1    1.851706490695687E1    -3.522657128888594E1     1.193887252820124E2
