#  HZ   S   DB   R     50.00 
! Rohde & Schwarz Vector Network Analyzer 
! Rohde-Schwarz,ZNB8-4Port,1311601044102961,2.82
! Created: UTC 1/17/2019, 2:53:58 PM
! freq[Hz]                db:S11                  ang:S11                 db:S21                  ang:S21                 db:S12                  ang:S12                 db:S22                  ang:S22
 1.000000000000000E9    -4.615128424447107E1    -8.004052021874122E1    -3.641957985599276E-2   -1.423061832469428E2    -5.168761476719125E-2   -1.421949158394152E2    -4.946798598155944E1    -9.746905272848537E1
 1.001000000000000E9    -4.536342347312737E1    -8.149839484257693E1    -4.007837477408685E-2   -1.428633029405209E2    -5.719569297127237E-2   -1.427089942408856E2    -4.860199558875366E1    -9.894602329154638E1
 1.002000000000000E9    -4.472962377860352E1    -7.533100196565358E1    -3.866647220966800E-2   -1.435054655641697E2    -5.908821062600889E-2   -1.432120641604689E2    -4.591968894731751E1    -8.536778674539701E1
 1.003000000000000E9    -4.428196807296913E1    -7.914336231412887E1    -3.901960118469995E-2   -1.439925457903185E2    -5.142765949981257E-2   -1.438059643925112E2    -4.649756195102268E1    -7.441637181728947E1
 1.004000000000000E9    -4.393874093089609E1    -8.962762229379116E1    -4.256431239479702E-2   -1.445515160703793E2    -5.018908778644777E-2   -1.442800001542052E2    -4.652309595128044E1    -7.048161245110232E1
 1.005000000000000E9    -4.401622205015416E1    -8.672086819204542E1    -4.206061469065699E-2   -1.450835212477871E2    -5.478730991302566E-2   -1.447951551641837E2    -4.695698782646665E1    -8.566696477626346E1
 1.006000000000000E9    -4.385283623497116E1    -8.131616064580467E1    -4.154816291021193E-2   -1.455960850552039E2    -5.691223756222965E-2   -1.453108619686319E2    -4.464184707653583E1    -8.169010191647539E1
 1.007000000000000E9    -4.339012111419471E1    -8.545123935777394E1    -4.319091289262890E-2   -1.461322173037328E2    -5.518680659883261E-2   -1.458666021795502E2    -4.432289130412539E1    -6.918198626716537E1
 1.008000000000000E9    -4.185848644911975E1    -8.461655796872056E1    -4.195745419534649E-2   -1.466401224706360E2    -5.733576203163948E-2   -1.463265913419463E2    -4.474139565313460E1    -6.761846768526277E1
 1.009000000000000E9    -4.329819997829510E1    -8.816577378915535E1    -4.243002746070393E-2   -1.471240048413667E2    -5.831323161039675E-2   -1.468293376799774E2    -4.482844924578770E1    -7.827768184368951E1
 1.010000000000000E9    -4.257235099904538E1    -8.762074059769364E1    -4.200762057923329E-2   -1.476316719371545E2    -5.871517590589523E-2   -1.473294424164513E2    -4.397890754273568E1    -7.851068402232620E1
 1.011000000000000E9    -4.286187448140168E1    -8.161041301229516E1    -4.453512544312011E-2   -1.481295325219562E2    -5.365522241311124E-2   -1.478589484959709E2    -4.316377924844090E1    -6.740693109808949E1
 1.012000000000000E9    -4.268933563480965E1    -8.950728236549350E1    -4.256460480141151E-2   -1.486555259198107E2    -5.793028837059841E-2   -1.483516352756571E2    -4.310826102208936E1    -7.979686396598753E1
 1.013000000000000E9    -4.223931689437957E1    -8.114800294124215E1    -4.429121766893724E-2   -1.491285947557225E2    -5.315185342336183E-2   -1.488251447992894E2    -4.337595928412958E1    -7.181894376815784E1
 1.014000000000000E9    -4.209128492271791E1    -8.769658700046836E1    -4.382048624044579E-2   -1.496726914813463E2    -5.433613486028438E-2   -1.493643164559385E2    -4.226754091543222E1    -7.398250219221926E1
 1.015000000000000E9    -4.218547390588511E1    -8.614770492563775E1    -3.743487662827370E-2   -1.501844970394167E2    -5.693655451027142E-2   -1.498408752231985E2    -4.245973454082940E1    -7.686955537744126E1
 1.016000000000000E9    -4.301318404674866E1    -8.449825843188773E1    -4.396968830638968E-2   -1.506512506334918E2    -5.446599623274911E-2   -1.503548118720052E2    -4.344398406889343E1    -7.905752747923019E1
 1.017000000000000E9    -4.194481996531064E1    -7.313761125068069E1    -4.471489009399501E-2   -1.512083194597826E2    -6.094681969190149E-2   -1.508578741917161E2    -4.301733545434952E1    -6.722602858075909E1
 1.018000000000000E9    -4.231574273607028E1    -9.360384527052818E1    -4.780957979471465E-2   -1.517076066146186E2    -5.882450555126164E-2   -1.514083270127109E2    -4.260421742342178E1    -7.850171084635005E1
 1.019000000000000E9    -4.189427341988014E1    -9.483485629038414E1    -4.486137680757994E-2   -1.521905984146707E2    -5.549957106082205E-2   -1.519097238040808E2    -4.175039699206259E1    -6.531060022947318E1
 1.020000000000000E9    -4.278439022782997E1    -8.863139429769115E1    -3.996108185377510E-2   -1.526825696634317E2    -5.871204499757477E-2   -1.523891573919890E2    -4.226596282141009E1    -7.086494925158642E1
 1.021000000000000E9    -4.213722655777643E1    -8.510248434505344E1    -4.082307520035754E-2   -1.532137661260982E2    -6.145695830053191E-2   -1.529024917597407E2    -4.289734678100235E1    -7.487855946712165E1
 1.022000000000000E9    -4.325650814742651E1    -9.431046542298277E1    -4.276404893048976E-2   -1.537069617066115E2    -5.735546024413028E-2   -1.534147261554141E2    -4.299993950831048E1    -7.398308120183584E1
 1.023000000000000E9    -4.305478376191115E1    -8.622296683879230E1    -4.680682598196326E-2   -1.541797932839969E2    -6.901623676737503E-2   -1.539230241942539E2    -4.345806349611411E1    -7.404187680521729E1
 1.024000000000000E9    -4.278061287862759E1    -8.716549647966930E1    -4.373265385122023E-2   -1.547129917881764E2    -5.542503255872137E-2   -1.544180247907405E2    -4.272159230649331E1    -7.264210566196030E1
 1.025000000000000E9    -4.249962683270851E1    -8.621285394319347E1    -3.966646433895899E-2   -1.552261630688492E2    -5.760788815611034E-2   -1.549155991472169E2    -4.378711138060614E1    -7.368602765393071E1
 1.026000000000000E9    -4.456224140309516E1    -8.280376590440453E1    -4.006404648257741E-2   -1.557399865110541E2    -6.062586651716317E-2   -1.554214357696211E2    -4.326337346691912E1    -7.258745241127821E1
 1.027000000000000E9    -4.439932049161004E1    -9.397333211268060E1    -4.028380041054687E-2   -1.562766315556407E2    -5.980370503888464E-2   -1.558800167395093E2    -4.281664900120740E1    -7.370886786149806E1
 1.028000000000000E9    -4.436002475200404E1    -9.088822489695350E1    -4.078185175282682E-2   -1.567634509776061E2    -6.066826656822597E-2   -1.564579170878509E2    -4.423229495513292E1    -7.475742475169371E1
 1.029000000000000E9    -4.451148241482160E1    -8.668423904547369E1    -4.157097150667460E-2   -1.572465080061182E2    -6.530209323795400E-2   -1.569515321394484E2    -4.461703796135758E1    -7.181622788409604E1
 1.030000000000000E9    -4.500727402398485E1    -8.924305545027734E1    -3.835936359045059E-2   -1.577526474103602E2    -6.126946782605871E-2   -1.574576199654582E2    -4.405568046105487E1    -6.732659662870336E1
 1.031000000000000E9    -4.462336642722253E1    -9.198074098429434E1    -4.264337788112708E-2   -1.582457830422285E2    -5.931141164303196E-2   -1.579838546119169E2    -4.632537863180944E1    -6.793078447598501E1
 1.032000000000000E9    -4.589270358961103E1    -8.401350274240143E1    -3.383238391174916E-2   -1.587825801773084E2    -6.653871608026782E-2   -1.584854571472228E2    -4.555120222008458E1    -7.531417885734331E1
 1.033000000000000E9    -4.543894841771714E1    -9.562017067260919E1    -4.725889386836772E-2   -1.592593328890845E2    -6.266637785064938E-2   -1.589559753272144E2    -4.581082769304690E1    -7.154574973080274E1
 1.034000000000000E9    -4.733044502359696E1    -1.037552343097522E2    -3.851371184691956E-2   -1.597676195949181E2    -6.430378146379262E-2   -1.594515293689791E2    -4.520490857261798E1    -7.076726159779172E1
 1.035000000000000E9    -4.560701138803105E1    -8.302169405481212E1    -4.164216636717097E-2   -1.602539034114563E2    -6.549044701333791E-2   -1.599897959829168E2    -4.686000795343883E1    -7.721129484400524E1
 1.036000000000000E9    -4.901705181532864E1    -9.384779228366875E1    -4.619781952508604E-2   -1.608260661747508E2    -5.917126993809026E-2   -1.604878811255569E2    -4.825886637152549E1    -8.429380296234366E1
 1.037000000000000E9    -4.826843075333020E1    -9.185409761393890E1    -4.437607475318083E-2   -1.612991348401307E2    -6.452691974893086E-2   -1.609864138813411E2    -4.752730409758487E1    -6.709519835485628E1
 1.038000000000000E9    -5.153139214968658E1    -8.056654280674235E1    -4.291425648232694E-2   -1.617935592917112E2    -6.604205727133451E-2   -1.614851133970755E2    -4.797773615984197E1    -7.587799708517399E1
 1.039000000000000E9    -5.052716198883992E1    -8.286960749916860E1    -4.303250858402261E-2   -1.622974024996478E2    -6.014822456543057E-2   -1.620010582101579E2    -5.127256410186716E1    -6.429339670051033E1
 1.040000000000000E9    -5.471468989036517E1    -9.732374276953422E1    -3.948659114891490E-2   -1.628046892782225E2    -6.368106940213354E-2   -1.625343417230588E2    -5.059911337877124E1    -7.378966402123582E1
 1.041000000000000E9    -4.912028391484568E1    -1.187499746082849E2    -3.725198798865980E-2   -1.633223878626579E2    -6.410162141856927E-2   -1.629924706656431E2    -5.419006297266738E1    -5.594934696346351E1
 1.042000000000000E9    -5.068167140287727E1    -9.186676641315090E1    -4.153327886294327E-2   -1.638229034976427E2    -6.764658152022719E-2   -1.635292110065585E2    -5.413952862151757E1    -8.257294163916582E1
 1.043000000000000E9    -5.019402416441790E1    -1.267301318148004E2    -4.156828406467556E-2   -1.643161111534679E2    -6.790889807827748E-2   -1.639716878170324E2    -5.233050335366458E1    -7.709513273254214E1
 1.044000000000000E9    -5.083431616903741E1    -9.357509315322373E1    -3.507041104694359E-2   -1.648795419448889E2    -6.570325263072364E-2   -1.645320671198593E2    -5.221517155857743E1    -7.107473512766404E1
 1.045000000000000E9    -5.083210468076517E1    -1.103736203809198E2    -3.750215343348286E-2   -1.653388608143577E2    -6.550356263378634E-2   -1.650258767091298E2    -5.302435451570111E1    -6.119861148376511E1
 1.046000000000000E9    -4.954418097653935E1    -1.091420396373675E2    -3.858802027088882E-2   -1.658373677191351E2    -6.666810684482702E-2   -1.655554905664397E2    -5.937761816435329E1    -5.548170840124289E1
 1.047000000000000E9    -5.231415011915623E1    -1.254458823301532E2    -4.282234242381827E-2   -1.663242594550403E2    -5.909834773010879E-2   -1.660595697742752E2    -5.513345615224897E1    -8.826250974879099E1
 1.048000000000000E9    -4.967933415395225E1    -1.129764187143102E2    -4.147886118290466E-2   -1.668474025207250E2    -6.754013814588820E-2   -1.665583200441668E2    -6.146848408222590E1    -1.341741627787833E2
 1.049000000000000E9    -4.983176004417048E1    -1.231082566332600E2    -3.674578828780366E-2   -1.673551689986145E2    -6.516609346028848E-2   -1.670600722110428E2    -6.143896551524578E1    -7.189701209248520E1
 1.050000000000000E9    -5.247376621152971E1    -1.221194803696182E2    -3.891562315501895E-2   -1.678617785768019E2    -6.089472272986139E-2   -1.675544505913745E2    -6.044777278088424E1    -8.501076183712713E1
 1.051000000000000E9    -5.292395074529058E1    -1.452478936485454E2    -3.777385337505644E-2   -1.683618321647856E2    -6.121883445199600E-2   -1.680995432702770E2    -5.871963120466656E1    -4.278371180446471E1
 1.052000000000000E9    -5.161845918957028E1    -1.266905587936350E2    -3.914225031781857E-2   -1.688527748743083E2    -6.620247898104574E-2   -1.685700322639110E2    -6.534240251382347E1    -1.640796165244387E2
 1.053000000000000E9    -4.854184661832407E1    -1.374385365461103E2    -3.504642266926232E-2   -1.693535178053115E2    -6.396287236284259E-2   -1.690751634445665E2    -6.940712653695131E1     9.317181878255077E1
 1.054000000000000E9    -5.398733270889262E1    -1.186034232109351E2    -3.879618059498900E-2   -1.698723009166245E2    -6.418252686466740E-2   -1.695485981263811E2    -6.044628551573290E1    -6.489578401314402E1
 1.055000000000000E9    -5.322489273216636E1    -1.394995632412232E2    -3.720458115816298E-2   -1.703472693466459E2    -6.262961172071055E-2   -1.700551655663909E2    -6.026156274031199E1    -7.574200673717820E1
 1.056000000000000E9    -5.287944158046477E1    -1.234496514881640E2    -4.194730936090698E-2   -1.708812425448230E2    -5.940220687505406E-2   -1.705457830161945E2    -6.850165346360416E1     1.281492237256773E2
 1.057000000000000E9    -5.008629206253353E1    -1.558129057500087E2    -3.983996047374652E-2   -1.713831112516260E2    -6.503567531995017E-2   -1.711108837528102E2    -6.328230427039723E1    -5.913282407259660
 1.058000000000000E9    -5.057465330927400E1    -1.429578974245287E2    -3.652132184409422E-2   -1.718801574596950E2    -6.942796377862910E-2   -1.715866749943768E2    -5.793740320231538E1    -6.096398086012740E1
 1.059000000000000E9    -5.046267220487422E1    -1.439972530204115E2    -3.104715443376628E-2   -1.723772624585746E2    -6.836389639022503E-2   -1.720784711187208E2    -6.554866844393489E1    -1.236999280993632E2
 1.060000000000000E9    -4.848447862142460E1    -1.441074550033938E2    -3.800894334585052E-2   -1.728873173607185E2    -6.655822643819659E-2   -1.726242973550286E2    -6.926116824940527E1    -7.155178489945824E1
 1.061000000000000E9    -4.938893524566041E1    -1.248438377121766E2    -3.732737393099855E-2   -1.733757302321552E2    -6.339472988801782E-2   -1.730915562004158E2    -6.005284728255656E1    -1.568761998673640E2
 1.062000000000000E9    -4.832837541428923E1    -1.294329791422006E2    -3.626396687505618E-2   -1.738764698487282E2    -6.865935733495826E-2   -1.736191952161376E2    -6.067078781405207E1    -6.814676808292340E1
 1.063000000000000E9    -5.118382098565700E1    -1.548689269891258E2    -2.893908048487726E-2   -1.744176911892141E2    -6.591001954091554E-2   -1.741166437930552E2    -5.251984688829425E1    -9.545044048668422E1
 1.064000000000000E9    -4.925503923586219E1    -1.382774993926435E2    -3.838286676008965E-2   -1.749090214353071E2    -6.010494584555910E-2   -1.745863513870304E2    -5.268446178099388E1    -1.014600522121152E2
 1.065000000000000E9    -4.831240652097593E1    -1.338516155185820E2    -3.485516802386117E-2   -1.754271189123598E2    -6.383294704068444E-2   -1.750994543274744E2    -5.489881582037314E1    -1.033809961969965E2
 1.066000000000000E9    -4.673212216440640E1    -1.358014811310931E2    -3.292465883004823E-2   -1.759174979528443E2    -6.698857822035811E-2   -1.756085267896020E2    -5.710317358143648E1    -1.018370664614875E2
 1.067000000000000E9    -4.723753876154616E1    -1.286366000623213E2    -3.993596049950848E-2   -1.764289283844149E2    -6.114098568982686E-2   -1.761391568368937E2    -5.800962324058978E1    -8.016508953856707E1
 1.068000000000000E9    -4.634725659310955E1    -1.297395616945019E2    -3.873400985317536E-2   -1.769194646734448E2    -6.364904505894529E-2   -1.766123669120733E2    -5.337751323517225E1    -1.034500204815392E2
 1.069000000000000E9    -4.581755884155164E1    -1.303492316235774E2    -3.956534019821208E-2   -1.774405250861506E2    -6.563230704072845E-2   -1.771528475081775E2    -5.042365970051347E1    -1.090077236047837E2
 1.070000000000000E9    -4.728176195825011E1    -1.420802256482301E2    -3.681890912612526E-2   -1.779313663774792E2    -6.596509851336310E-2   -1.776020796699921E2    -4.888916797226106E1    -1.048479639508893E2
 1.071000000000000E9    -4.717029646573952E1    -1.496506060733456E2    -2.854666149432282E-2   -1.784353509725250E2    -6.476198623607501E-2   -1.781284624797023E2    -5.083037178745377E1    -9.317605261041885E1
 1.072000000000000E9    -4.550306037767985E1    -1.321798728312581E2    -3.649563498451901E-2   -1.789436454059078E2    -6.304306263580503E-2   -1.786476564111381E2    -4.921136368166606E1    -1.061190247857126E2
 1.073000000000000E9    -4.520742684024305E1    -1.415865144887430E2    -3.103728764800632E-2   -1.795010284736398E2    -6.644080282330520E-2   -1.791400840826424E2    -4.833416835566975E1    -9.718689774399445E1
 1.074000000000000E9    -4.571204491356924E1    -1.382428580504866E2    -3.808623184422293E-2   -1.799543078529384E2    -6.417442053265704E-2   -1.796524111811497E2    -5.106760716007041E1    -8.579914857966621E1
 1.075000000000000E9    -4.630448994154649E1    -1.415980251157057E2    -3.330748679339628E-2    1.795288095597359E2    -6.661069965352291E-2    1.798656888853612E2    -4.759348114619455E1    -1.035854732977652E2
 1.076000000000000E9    -4.377395064407204E1    -1.340660263847290E2    -3.412264396515226E-2    1.790353419862350E2    -6.717749165403081E-2    1.793364714714829E2    -4.796230014993782E1    -1.099781712734901E2
 1.077000000000000E9    -4.518461241506284E1    -1.265682967818762E2    -3.425348776634404E-2    1.784879844009437E2    -6.665179458384413E-2    1.788401617671319E2    -4.785294466499906E1    -1.158492099815290E2
 1.078000000000000E9    -4.463231135797965E1    -1.350993907172475E2    -3.627850325560716E-2    1.780615686795956E2    -5.729548445823866E-2    1.783384138279227E2    -4.775459625984377E1    -1.031654697970162E2
 1.079000000000000E9    -4.422065214352638E1    -1.250511230857766E2    -3.444265283522465E-2    1.775419902853663E2    -6.409440090279785E-2    1.778442276353124E2    -4.761302232529319E1    -9.772144608902016E1
 1.080000000000000E9    -4.456534802107345E1    -1.362645434219681E2    -3.337495384316459E-2    1.770251095877985E2    -7.052213068956176E-2    1.773488996715281E2    -4.721627840939636E1    -1.085258985340264E2
 1.081000000000000E9    -4.484881972922953E1    -1.283642184988970E2    -2.807272608263177E-2    1.765287699109483E2    -6.584024404289775E-2    1.768610355536767E2    -4.685673252872849E1    -1.037507617832536E2
 1.082000000000000E9    -4.587055176913815E1    -1.433911405894338E2    -3.637605044699396E-2    1.760175486745900E2    -6.128157256791175E-2    1.763334550017740E2    -4.656170798162793E1    -1.016899243154978E2
 1.083000000000000E9    -4.461042884023733E1    -1.319966873393193E2    -3.749731983375942E-2    1.755424781053921E2    -6.214074037159198E-2    1.758544749978528E2    -4.630627309104591E1    -1.043153520731223E2
 1.084000000000000E9    -4.370836111977418E1    -1.443149087470001E2    -3.637693996911765E-2    1.750232655068238E2    -6.477673864538498E-2    1.753163036304276E2    -4.632227217714895E1    -9.865688029053112E1
 1.085000000000000E9    -4.528834002251483E1    -1.365746563617891E2    -3.635487646177801E-2    1.745034939053921E2    -7.184518153958970E-2    1.748284879517588E2    -4.650451264945407E1    -9.071519144132186E1
 1.086000000000000E9    -4.648470435559890E1    -1.479376436292768E2    -3.451723774457099E-2    1.740074721998813E2    -6.507790459553872E-2    1.743315031773683E2    -4.663217549868704E1    -1.027985242262409E2
 1.087000000000000E9    -4.642174921796733E1    -1.359388635775402E2    -3.787749285307922E-2    1.734762667971398E2    -7.002206288194196E-2    1.738694405522414E2    -4.797155185562629E1    -9.605762222420034E1
 1.088000000000000E9    -4.469038829855425E1    -1.430875509804384E2    -3.790221689240747E-2    1.729493016745839E2    -5.991967080375555E-2    1.733363910599345E2    -4.728337983096243E1    -9.454914421899898E1
 1.089000000000000E9    -4.550742888975789E1    -1.459264678974880E2    -3.626951704024879E-2    1.724714949757005E2    -6.721566658704688E-2    1.728348259853388E2    -4.607178948644484E1    -9.448571419898660E1
 1.090000000000000E9    -4.543795408297817E1    -1.439385035125036E2    -4.124537305064450E-2    1.719968952748765E2    -6.471312368317989E-2    1.723070321440457E2    -4.714860470934066E1    -1.044005575110499E2
 1.091000000000000E9    -4.643704799289976E1    -1.383557272505167E2    -2.958299941442907E-2    1.714466969839868E2    -6.618517983950614E-2    1.718233886725364E2    -4.928604321761257E1    -1.052224540115808E2
