#  HZ   S   DB   R     50.00 
! Rohde & Schwarz Vector Network Analyzer 
! Rohde-Schwarz,ZNB8-4Port,1311601044102961,2.82
! Created: UTC 1/17/2019, 2:09:20 PM
! freq[Hz]                db:S11                  ang:S11                 db:S12                  ang:S12                 db:S13                  ang:S13                 db:S14                  ang:S14
!                         db:S21                  ang:S21                 db:S22                  ang:S22                 db:S23                  ang:S23                 db:S24                  ang:S24
!                         db:S31                  ang:S31                 db:S32                  ang:S32                 db:S33                  ang:S33                 db:S34                  ang:S34
!                         db:S41                  ang:S41                 db:S42                  ang:S42                 db:S43                  ang:S43                 db:S44                  ang:S44
! 
 1.000000000000000E9    -2.701858285249870E1    -5.267583340582608E1    -3.250108566636966      -1.594309679503710E2    -2.925966365309145       1.092448313290145E2    -2.668850639673587E1     1.751752709223431E2
                        -3.234313076519183      -1.595354418228724E2    -2.693105494995225E1    -4.667627382955541E1    -2.684543930810442E1     1.757678478501597E2    -2.915063916495426       1.093198063985231E2
                        -2.917959090283066       1.092339085045471E2    -2.686070565252168E1     1.758824978118716E2    -2.846170804827960E1    -4.703902867963328E1    -3.278627022041713      -1.620104110075649E2
                        -2.687017617842486E1     1.747348720396790E2    -2.916409209010063       1.096745993130191E2    -3.282835057507737      -1.622248187851485E2    -2.805362181484747E1    -4.252454079536565E1

 1.001000000000000E9    -2.695597115895993E1    -5.308915169412222E1    -3.254104597288849      -1.597327813954600E2    -2.925407264422061       1.090007208542258E2    -2.682522742840001E1     1.745461377823949E2
                        -3.237024419768532      -1.598154565113511E2    -2.688959541777250E1    -4.656812379150777E1    -2.678482537180353E1     1.752397716696921E2    -2.918309749619277       1.090985225330453E2
                        -2.917231227098616       1.090169578090125E2    -2.683017840283365E1     1.753972967635421E2    -2.828469204198655E1    -4.801079950773808E1    -3.282583539620884      -1.621920494158511E2
                        -2.683330674726340E1     1.742459390380994E2    -2.912737254455081       1.092634295142141E2    -3.275762285682357      -1.625128142162224E2    -2.806748015691746E1    -4.395405040176848E1

 1.002000000000000E9    -2.689501221141866E1    -5.303502726231724E1    -3.259602801306007      -1.600037816182154E2    -2.922746454986307       1.087381433896620E2    -2.680507789689751E1     1.735662042186960E2
                        -3.239323169867496      -1.601571125179308E2    -2.668520875460644E1    -4.700685290300175E1    -2.676800776943303E1     1.744887928057477E2    -2.922026595931264       1.088605269727911E2
                        -2.924166807164456       1.087537654181190E2    -2.677360550407632E1     1.745221953512172E2    -2.845376557114491E1    -4.857467997898289E1    -3.279551250557495      -1.624438325600046E2
                        -2.688484900204556E1     1.739800885340870E2    -2.921696325306149       1.088971778883115E2    -3.277754488098364      -1.627781663304690E2    -2.802175457941160E1    -4.323851303508221E1

 1.003000000000000E9    -2.694344364726673E1    -5.403982856949066E1    -3.245374189228181      -1.603506146464243E2    -2.921798928460036       1.085036664257456E2    -2.677120868302611E1     1.746918271358918E2
                        -3.234985501072547      -1.604118766535152E2    -2.667968268863181E1    -4.709532137661507E1    -2.680877079944852E1     1.748405998918994E2    -2.917892203365029       1.085976326167866E2
                        -2.923663861645848       1.084962374297627E2    -2.674153168924841E1     1.754294536058868E2    -2.841325430827746E1    -4.982449439890299E1    -3.275687418496828      -1.626748632521661E2
                        -2.678456227777879E1     1.741719284472157E2    -2.918441134833762       1.085756224709182E2    -3.277354185533932      -1.630376692153950E2    -2.800587818025980E1    -4.429036753553612E1

 1.004000000000000E9    -2.705672631275137E1    -5.445836978403951E1    -3.249768269047781      -1.605560025387436E2    -2.926290720771855       1.082143811297950E2    -2.689744812242908E1     1.735352872551961E2
                        -3.243173567614046      -1.606598761444795E2    -2.651444887424381E1    -4.625233792424537E1    -2.678049293089580E1     1.747403680118895E2    -2.926684764304144       1.084023101801753E2
                        -2.924668282343768       1.082722279073732E2    -2.678703633283151E1     1.751494716708383E2    -2.859113860518150E1    -5.025942864117155E1    -3.283203107780856      -1.629011342735673E2
                        -2.674647386986876E1     1.731458504711433E2    -2.928453050792405       1.082959119970450E2    -3.275409111005253      -1.632805173883004E2    -2.789130115046721E1    -4.452585433936891E1

 1.005000000000000E9    -2.698120195508070E1    -5.505244562573394E1    -3.254645684640804      -1.607866044246803E2    -2.930385289986986       1.080108766858746E2    -2.681779039746870E1     1.737961418898624E2
                        -3.236184986253367      -1.609497323631158E2    -2.667209165904060E1    -4.723583703301371E1    -2.679225729042153E1     1.743181645631722E2    -2.923568936792646       1.081584740833952E2
                        -2.921453093277260       1.079856966878502E2    -2.685073699159640E1     1.741411298843744E2    -2.844936745171538E1    -5.028817098503913E1    -3.281559220256004      -1.631237616219592E2
                        -2.686832345093231E1     1.732820572807497E2    -2.930181903203005       1.079834402489016E2    -3.273041101521081      -1.635592060679675E2    -2.797301634644497E1    -4.537029999591496E1

 1.006000000000000E9    -2.694781346071824E1    -5.555711172359102E1    -3.247556769165452      -1.610268997528877E2    -2.923544602847872       1.077864542645373E2    -2.683846706383782E1     1.738790453228135E2
                        -3.237016277790046      -1.612275890975566E2    -2.662009171272486E1    -4.801412484754737E1    -2.667396022803823E1     1.746191478986632E2    -2.925648251883557       1.079136563617993E2
                        -2.924089227135801       1.077561766935409E2    -2.672206830181212E1     1.743001141562430E2    -2.861637832707219E1    -5.019600575254929E1    -3.274136859157240      -1.634105975832121E2
                        -2.682978721991452E1     1.740912169951721E2    -2.929537846895297       1.077577956399982E2    -3.268338684540075      -1.637816699685927E2    -2.785724838010097E1    -4.513836093597163E1

 1.007000000000000E9    -2.689312150778828E1    -5.580363970485121E1    -3.250540399957664      -1.612478452105144E2    -2.927565847034949       1.075506531191051E2    -2.686190842948570E1     1.733761008766358E2
                        -3.238918978804435      -1.614317224421111E2    -2.639130974060625E1    -4.805595765727976E1    -2.675635730830024E1     1.748096146659474E2    -2.928577771411581       1.076724287010216E2
                        -2.928538729339903       1.075530315452837E2    -2.678482411142890E1     1.749649289058848E2    -2.865517877327033E1    -5.101656144790850E1    -3.282654297575904      -1.636258247842514E2
                        -2.682384769471326E1     1.722434640705729E2    -2.933288086019403       1.075125010158206E2    -3.271089606518603      -1.640072783817989E2    -2.802246627771538E1    -4.537254545241634E1

 1.008000000000000E9    -2.681825318251669E1    -5.711639802527390E1    -3.250136609895288      -1.614910678658172E2    -2.929522968447404       1.073156881049749E2    -2.685624657541064E1     1.736050211026598E2
                        -3.232917391423251      -1.617036692350610E2    -2.656475514013966E1    -4.814353818550327E1    -2.673220307632943E1     1.741203811859847E2    -2.928213940673720       1.074075061448635E2
                        -2.927922370883371       1.072981098862349E2    -2.671214060009643E1     1.747274085545475E2    -2.868133883708103E1    -5.112047076992715E1    -3.275493348623611      -1.638755940245529E2
                        -2.680510821429163E1     1.726886553354679E2    -2.933346649699635       1.072636109225608E2    -3.274220221445770      -1.642529182378673E2    -2.798328267237415E1    -4.559552346055350E1

 1.009000000000000E9    -2.699591248212275E1    -5.713218465143893E1    -3.249655073994502      -1.617467843740936E2    -2.930228526673498       1.070677652238710E2    -2.689955565024398E1     1.729866821540619E2
                        -3.229636553798771      -1.618483395748807E2    -2.655943130422671E1    -4.811244007447201E1    -2.684220262756931E1     1.741611298111300E2    -2.919612279928804       1.072258608432105E2
                        -2.923469250042335       1.070907122147080E2    -2.678753046888713E1     1.741921062512004E2    -2.858763747538676E1    -5.283599234046485E1    -3.273610514301854      -1.640939145762611E2
                        -2.690401393664706E1     1.725997298030176E2    -2.937933075230462       1.070112342606181E2    -3.268723535652564      -1.645023582510807E2    -2.791115153789367E1    -4.611009586885561E1

 1.010000000000000E9    -2.686121466600661E1    -5.717773552797826E1    -3.252367892343075      -1.619782905520027E2    -2.929830573367587       1.068293633173698E2    -2.685039834913008E1     1.726088636957355E2
                        -3.233986496449882      -1.621195447895844E2    -2.652792074691991E1    -4.896014418726122E1    -2.674865074923530E1     1.730995669021046E2    -2.929422257838469       1.069956616894752E2
                        -2.929595646477399       1.068765799470508E2    -2.681933504038297E1     1.733764566874001E2    -2.869799678291054E1    -5.071155108231935E1    -3.276219589287712      -1.642766935242362E2
                        -2.688008883696740E1     1.722396743001624E2    -2.937476514118746       1.068031540661065E2    -3.269579543411715      -1.647008265414822E2    -2.806364704544163E1    -4.676076148041968E1

 1.011000000000000E9    -2.683654198773240E1    -5.740426340957167E1    -3.240951755369590      -1.621805790018327E2    -2.930707309972007       1.065966333286420E2    -2.697369767513678E1     1.726739458542488E2
                        -3.232774667183581      -1.623575334141362E2    -2.636362068245243E1    -4.926628896345332E1    -2.677226844314612E1     1.733811539359486E2    -2.930106394274366       1.067428187971703E2
                        -2.926356488375235       1.066220803494817E2    -2.668724028659249E1     1.745132239097850E2    -2.878209797446217E1    -5.316934639699453E1    -3.270061431080750      -1.645566297094355E2
                        -2.689515519071941E1     1.730344299204205E2    -2.939104262694305       1.065439097586636E2    -3.268669135039935      -1.650009260182106E2    -2.805045194905229E1    -4.650891251050862E1

 1.012000000000000E9    -2.690298466049430E1    -5.728002855743259E1    -3.243418232112420      -1.624718417975424E2    -2.936622457917237       1.063402362766963E2    -2.688833873551333E1     1.720047459347284E2
                        -3.232269785769249      -1.625809621663699E2    -2.644669643583380E1    -4.966663117346467E1    -2.673755125558831E1     1.730265738684718E2    -2.936485119713306       1.064902467457906E2
                        -2.935823099340817       1.063884815594841E2    -2.675650748459406E1     1.731902931648968E2    -2.868737967656134E1    -5.259573801868117E1    -3.271577141300583      -1.648164894008797E2
                        -2.688361835384986E1     1.719090966210489E2    -2.932528314481621       1.063022490054012E2    -3.270915461590324      -1.652231998867612E2    -2.788853320716885E1    -4.738705605168387E1

 1.013000000000000E9    -2.680413397352180E1    -5.812376312351535E1    -3.240656572108845      -1.626615109667772E2    -2.935159732655376       1.061523897235269E2    -2.693884615989675E1     1.726925946665252E2
                        -3.234873845152456      -1.628613834516165E2    -2.640784338336571E1    -4.916162613144722E1    -2.673044263401395E1     1.733566026761974E2    -2.926995758609897       1.062720298415100E2
                        -2.934582388589156       1.061289596226293E2    -2.675397209952495E1     1.732895651416843E2    -2.884819852879838E1    -5.341998068078812E1    -3.272828160839095      -1.650246560730366E2
                        -2.688364179995327E1     1.726199349609493E2    -2.942487138597500       1.060961836804666E2    -3.269010183941884      -1.654041287632467E2    -2.801100419611455E1    -4.751350881265181E1

 1.014000000000000E9    -2.682087048706201E1    -5.849868845500900E1    -3.244719233913163      -1.628882756759292E2    -2.931129921802116       1.059004762248155E2    -2.685765937074125E1     1.716760127794252E2
                        -3.231628171994464      -1.630818984326027E2    -2.634248782778803E1    -5.013135630268143E1    -2.668664015920847E1     1.731252611799887E2    -2.932438826802950       1.060498885733211E2
                        -2.933543055275237       1.059008577876412E2    -2.674769189924768E1     1.731256685321939E2    -2.885228371923578E1    -5.301316202830841E1    -3.267977434098128      -1.653076601436695E2
                        -2.689815579793701E1     1.714432654913734E2    -2.943602465493620       1.058128739819061E2    -3.268092941773156      -1.657089515087063E2    -2.786898952792388E1    -4.803390509866093E1

 1.015000000000000E9    -2.678939983468498E1    -5.879474429612341E1    -3.242481562827833      -1.630709040574221E2    -2.935224827209006       1.056770131732336E2    -2.693069312744050E1     1.709032701650567E2
                        -3.227562966372979      -1.632862904623000E2    -2.639172325022030E1    -5.064192200843252E1    -2.681971811503312E1     1.725013222409101E2    -2.928324818244073       1.057824272041212E2
                        -2.936259680040892       1.056745783044607E2    -2.674644839855642E1     1.731785165470927E2    -2.874702496436970E1    -5.423666223851095E1    -3.268605686279396      -1.655230040119869E2
                        -2.691357417169123E1     1.711225730418617E2    -2.942724635754477       1.056241757266631E2    -3.265227051743427      -1.659355032959215E2    -2.795373067929044E1    -4.818132392742227E1

 1.016000000000000E9    -2.684226378060583E1    -5.881299621328858E1    -3.243543247432346      -1.633506052493123E2    -2.936178178653036       1.054041170215497E2    -2.697924556582215E1     1.724638751289578E2
                        -3.227942691509147      -1.634819950638206E2    -2.641624657616001E1    -5.082342833394286E1    -2.680050741253699E1     1.722932324924249E2    -2.934506359527748       1.055963094895877E2
                        -2.934501266699336       1.054544853011249E2    -2.686436018605252E1     1.723629942331637E2    -2.884046902862016E1    -5.390674980496445E1    -3.266524303714999      -1.657444207548749E2
                        -2.701165642784715E1     1.717947826409904E2    -2.944756657648000       1.053534681784336E2    -3.263355990768134      -1.661695234057040E2    -2.790498361163707E1    -4.886175854305562E1

 1.017000000000000E9    -2.669481881280488E1    -5.874640090590970E1    -3.250319884766304      -1.635567456700255E2    -2.942648959429135       1.052021483454070E2    -2.685420792509669E1     1.722538998906494E2
                        -3.231520629499933      -1.637802230624754E2    -2.633850229315839E1    -5.020507772766733E1    -2.680724504568836E1     1.725635459360829E2    -2.934847740474481       1.053296029052257E2
                        -2.933589083141033       1.052373370930496E2    -2.679913298455114E1     1.731872781229114E2    -2.887174097908360E1    -5.441273014168035E1    -3.267847453666961      -1.659627560326053E2
                        -2.685635592046246E1     1.720786067143898E2    -2.945651118008630       1.051188708636371E2    -3.261694091917573      -1.663934940749384E2    -2.801976427194657E1    -4.946006726358342E1

 1.018000000000000E9    -2.680173534456979E1    -5.964788131373213E1    -3.238830141514897      -1.638017668314890E2    -2.943756270271032       1.049762393720944E2    -2.705342919240374E1     1.703476293110087E2
                        -3.226594443400515      -1.639767511685155E2    -2.636421089123756E1    -5.063147552282870E1    -2.676174679836462E1     1.715691518499577E2    -2.935880475130837       1.050922169226382E2
                        -2.933590793502500       1.050147396245102E2    -2.671620310926160E1     1.713565021801336E2    -2.888374647871388E1    -5.512846170180423E1    -3.269901082448174      -1.662140122288934E2
                        -2.704298188390474E1     1.700371772580907E2    -2.942522107991135       1.048777031277352E2    -3.264503880311147      -1.666224900881534E2    -2.778197726899386E1    -4.802419240418889E1

 1.019000000000000E9    -2.691572207673067E1    -6.064997648364090E1    -3.240833848959527      -1.640343465487422E2    -2.942552089936656       1.047332469202037E2    -2.686953753681141E1     1.699918838724792E2
                        -3.231885100305936      -1.642441061340178E2    -2.616314606612924E1    -5.045309488705700E1    -2.680125765173394E1     1.724050188958050E2    -2.935910667392461       1.048613114646368E2
                        -2.937394629377774       1.047028968250139E2    -2.683576173683485E1     1.724509267885814E2    -2.897873845549546E1    -5.592195421461886E1    -3.266647154682463      -1.664174781987984E2
                        -2.690118165782284E1     1.696751673853300E2    -2.949985133798103       1.046748021690596E2    -3.263030894179441      -1.669186926306071E2    -2.781694925344580E1    -4.877107723518032E1

 1.020000000000000E9    -2.684119963004257E1    -6.036355789214954E1    -3.237831682769032      -1.642939459983737E2    -2.935810733733196       1.045223231081586E2    -2.698909077466356E1     1.710556479547200E2
                        -3.220531107955029      -1.644733276586055E2    -2.635747224153839E1    -5.053222083608505E1    -2.672288489865615E1     1.719265222582785E2    -2.940249465455321       1.046336088210192E2
                        -2.936181949559131       1.044700123730648E2    -2.671358348188280E1     1.717295241012099E2    -2.894459505192278E1    -5.606981231772311E1    -3.261571636873765      -1.667040398108292E2
                        -2.689750460935096E1     1.698141018259316E2    -2.943611925161535       1.044102176651346E2    -3.254913574397642      -1.671030818903821E2    -2.783780647339021E1    -4.898037313193267E1

 1.021000000000000E9    -2.669325154552133E1    -6.101043784304842E1    -3.241446063122897      -1.644891800583901E2    -2.938048381999350       1.042575373127160E2    -2.694970844185291E1     1.704992753161129E2
                        -3.221307334174018      -1.646574726258934E2    -2.636579450505262E1    -5.089444028499489E1    -2.674541909538782E1     1.707198671591801E2    -2.937928819100125       1.044118418607716E2
                        -2.940533487138700       1.042858199232480E2    -2.681338192666350E1     1.711009019463037E2    -2.892398668384951E1    -5.639975361802493E1    -3.265012474741543      -1.669533953228691E2
                        -2.701828711146818E1     1.703112423839982E2    -2.945289070864681       1.041555251046963E2    -3.257479765629600      -1.673583328633813E2    -2.784515819402988E1    -4.934837266475829E1

 1.022000000000000E9    -2.679660428357479E1    -6.161848228687644E1    -3.235873478643545      -1.647333853423477E2    -2.940424439338961       1.040071983265329E2    -2.708382720977740E1     1.701697096565823E2
