#  HZ   S   DB   R     50.00 
! Rohde & Schwarz Vector Network Analyzer 
! Rohde-Schwarz,ZNB8-4Port,1311601044102961,2.82
! Created: UTC 1/17/2019, 2:36:05 PM
! freq[Hz]                db:S11                  ang:S11                 db:S21                  ang:S21                 db:S12                  ang:S12                 db:S22                  ang:S22
 1.000000000000000E9    -3.981721389011153E1     1.592401875778432E2    -7.835353818883029E-2    6.707491996181294E1    -8.854704947732704E-2    6.720775954378375E1    -3.813568025719879E1     1.746073965940460E2
 1.001000000000000E9    -4.024228268567420E1     1.612530479171782E2    -8.065244977502462E-2    6.637927538113257E1    -9.499592530710671E-2    6.652699032395810E1    -3.779984751739195E1     1.796375625292386E2
 1.002000000000000E9    -4.047433439215535E1     1.584246794972255E2    -8.275444815427333E-2    6.558644315568382E1    -9.694068471935782E-2    6.586276828509045E1    -3.914665191723743E1     1.793911779905257E2
 1.003000000000000E9    -4.041900797117985E1     1.579984928785834E2    -7.982095109212850E-2    6.491203952396005E1    -9.191297132463971E-2    6.511696122229239E1    -3.902636347611337E1     1.754249665985803E2
 1.004000000000000E9    -4.024307426196864E1     1.653324338961487E2    -8.607278471455697E-2    6.423158808137451E1    -9.464939783109952E-2    6.449387053582581E1    -3.881338139413980E1     1.749442384181126E2
 1.005000000000000E9    -3.997626739551539E1     1.629284909491975E2    -8.706328883802436E-2    6.353202257825539E1    -1.001808285126882E-1    6.384389876680962E1    -3.828949695672988E1     1.789375560069363E2
 1.006000000000000E9    -4.026013304160685E1     1.587445330191213E2    -8.355419806863407E-2    6.288344876453338E1    -9.563072097499947E-2    6.316307562697921E1    -3.926830261051347E1     1.785742382699508E2
 1.007000000000000E9    -4.064038314276445E1     1.627148223126757E2    -8.384492466942679E-2    6.217839244222052E1    -9.326219945544050E-2    6.248744234600619E1    -3.959013250426108E1     1.739697443628668E2
 1.008000000000000E9    -4.166296117555159E1     1.638623282087006E2    -8.386138312423272E-2    6.152301994956000E1    -9.960325688210135E-2    6.183110496224916E1    -3.942703928078930E1     1.717933128862425E2
 1.009000000000000E9    -4.029038781906009E1     1.658020047885732E2    -8.212387978714689E-2    6.091726380161702E1    -1.019142083582997E-1    6.117879338427208E1    -3.888406441210528E1     1.780135259360240E2
 1.010000000000000E9    -4.102864544189848E1     1.654504821607420E2    -8.627834848923333E-2    6.023572158103802E1    -1.002863414747854E-1    6.051185295311469E1    -3.937652601578469E1    -1.793897729839325E2
 1.011000000000000E9    -4.050264742567183E1     1.560502336594730E2    -8.848308673532992E-2    5.957630088663828E1    -9.450167851038849E-2    5.988585350010698E1    -3.980386397872643E1     1.701346089918207E2
 1.012000000000000E9    -4.038154480205786E1     1.625388175132786E2    -8.491916934058480E-2    5.892580562383766E1    -1.038277759665363E-1    5.921544553135708E1    -3.983314367142332E1     1.782319248895907E2
 1.013000000000000E9    -4.139563188227604E1     1.562612372965717E2    -8.845767654680795E-2    5.825374746149076E1    -9.742741327228284E-2    5.857483346537389E1    -4.017813604337290E1     1.722176180670188E2
 1.014000000000000E9    -4.108251094166070E1     1.641381700514113E2    -8.692137473499602E-2    5.760226324245391E1    -9.730626813744883E-2    5.790685874141336E1    -4.038428340193028E1     1.786731162814249E2
 1.015000000000000E9    -4.103708653381989E1     1.605578976549430E2    -8.351187475715692E-2    5.692869838882697E1    -9.790237914339134E-2    5.727437899546077E1    -4.050218436348247E1     1.754957499589782E2
 1.016000000000000E9    -4.022910384955515E1     1.595936283665253E2    -8.617102862226497E-2    5.630682536851701E1    -9.710059672092988E-2    5.661217748567947E1    -3.991982234280559E1     1.758254580966451E2
 1.017000000000000E9    -4.136659385709186E1     1.496084433189036E2    -8.871226091512408E-2    5.560631322144928E1    -9.754110050160214E-2    5.594247975149288E1    -4.012979075701786E1     1.676882064341448E2
 1.018000000000000E9    -4.046366049357960E1     1.665494689043491E2    -8.395224434222638E-2    5.498103557210917E1    -9.796302177574198E-2    5.526554829138841E1    -4.053421208837229E1     1.794611012341256E2
 1.019000000000000E9    -4.097064465432584E1     1.638950989235604E2    -9.194297798243697E-2    5.431744083846660E1    -9.961051366244109E-2    5.461101025462893E1    -4.149239533276827E1     1.698815686853577E2
 1.020000000000000E9    -4.082455969317282E1     1.592169318023475E2    -8.565351378961909E-2    5.368275765408018E1    -1.034093265604527E-1    5.393959025366308E1    -4.099942574875100E1     1.709972923881035E2
 1.021000000000000E9    -4.111632592970729E1     1.610358522204532E2    -8.105550274745231E-2    5.303158849516498E1    -1.037378431587367E-1    5.330704896846599E1    -4.017897900385781E1     1.715454778873978E2
 1.022000000000000E9    -4.007196308497374E1     1.588555419069293E2    -8.760117452471317E-2    5.233769033546763E1    -9.898560414004637E-2    5.266675809242623E1    -4.038175817359065E1     1.705465941042911E2
 1.023000000000000E9    -4.072289651064636E1     1.548837076516978E2    -9.027219535940251E-2    5.172682095375885E1    -1.077782483596470E-1    5.199454239805647E1    -4.019625142251616E1     1.701556433469544E2
 1.024000000000000E9    -4.070160130029051E1     1.541785168512174E2    -8.449600933946309E-2    5.106023516308302E1    -9.776444419036809E-2    5.134536721921339E1    -4.075543565430614E1     1.661357481694987E2
 1.025000000000000E9    -4.141513174164898E1     1.527196085064427E2    -8.503720849560384E-2    5.040833224272041E1    -1.068187928950211E-1    5.067281959151264E1    -4.029795636556255E1     1.653966700828139E2
 1.026000000000000E9    -3.997503964361016E1     1.485052301901028E2    -8.023625237513445E-2    4.975670620431178E1    -1.022321501629178E-1    5.003444293346212E1    -4.057204025270803E1     1.633550069618733E2
 1.027000000000000E9    -4.014540847142330E1     1.532621587687152E2    -8.483033258427597E-2    4.903177942263774E1    -1.039123533054255E-1    4.940997703848962E1    -4.113434091767336E1     1.636665251193564E2
 1.028000000000000E9    -3.981345574177716E1     1.496146118759409E2    -8.488042185265066E-2    4.840299080757998E1    -1.040098794717096E-1    4.874013857553389E1    -4.022542984763359E1     1.611954651779707E2
 1.029000000000000E9    -4.000906931500015E1     1.469168139922178E2    -8.754923120613405E-2    4.776209788961578E1    -1.036990999917019E-1    4.805323932352404E1    -4.001122753546105E1     1.569221156764432E2
 1.030000000000000E9    -3.974787331949529E1     1.448286352379937E2    -8.391529199140867E-2    4.711382388638548E1    -1.013670028133742E-1    4.738444806590496E1    -4.017611315940192E1     1.542283986717363E2
 1.031000000000000E9    -3.970031251892611E1     1.461054073018748E2    -8.813851575246726E-2    4.646915279774401E1    -9.985739501005828E-2    4.674601000899394E1    -3.938130580380285E1     1.525778440341442E2
 1.032000000000000E9    -3.948547430140285E1     1.418869074870223E2    -7.937831178592084E-2    4.576655860339233E1    -1.094637416736869E-1    4.608485522722166E1    -3.966061995899373E1     1.569706672653313E2
 1.033000000000000E9    -3.938701663938850E1     1.435884381790487E2    -8.938329911754292E-2    4.515835162670632E1    -1.033021796867343E-1    4.543129370300393E1    -3.931546370211278E1     1.534630191324353E2
 1.034000000000000E9    -3.830349796803753E1     1.443245443387071E2    -8.308447130783782E-2    4.446974282121328E1    -1.035314948489363E-1    4.481547021277570E1    -3.954373548218121E1     1.538849928370231E2
 1.035000000000000E9    -3.924095622303759E1     1.364326248399424E2    -8.137469786881932E-2    4.386361066909452E1    -1.038687780197802E-1    4.413927924127368E1    -3.920141065672619E1     1.516471551581097E2
 1.036000000000000E9    -3.794778398279944E1     1.393271353014693E2    -8.464465464015990E-2    4.313371150641591E1    -1.025823299620230E-1    4.347854569569818E1    -3.844977382702056E1     1.533998784503878E2
 1.037000000000000E9    -3.792380020502480E1     1.352758373906432E2    -8.920665910359502E-2    4.249989012235223E1    -1.020772277241908E-1    4.281205422534456E1    -3.832315530230352E1     1.443499568220819E2
 1.038000000000000E9    -3.738961270740175E1     1.326156391748903E2    -8.363942599668284E-2    4.187610220537780E1    -1.107748543121193E-1    4.216235814730609E1    -3.823207788806234E1     1.456498054152885E2
 1.039000000000000E9    -3.733805442513776E1     1.305936400901592E2    -8.667142744740031E-2    4.119709854928785E1    -1.038867127907632E-1    4.152598452943172E1    -3.751151184684429E1     1.423339216731455E2
 1.040000000000000E9    -3.668788435905695E1     1.328651831754294E2    -8.416534294115610E-2    4.052622210776553E1    -1.068810744186461E-1    4.083670671739684E1    -3.745027115805760E1     1.431327183321581E2
 1.041000000000000E9    -3.723035315673734E1     1.375390802392022E2    -8.104268645763073E-2    3.988270323041834E1    -1.108134618543980E-1    4.020410420243434E1    -3.693586080118988E1     1.405338914505723E2
 1.042000000000000E9    -3.723970701096489E1     1.285267497507034E2    -8.944955374170466E-2    3.923793904896364E1    -1.088756117444469E-1    3.954892101301642E1    -3.706559166129811E1     1.414779994927078E2
 1.043000000000000E9    -3.668835071317125E1     1.339268497623317E2    -8.656261195844220E-2    3.859199655300360E1    -1.107363043431330E-1    3.891394001532198E1    -3.700196425692407E1     1.412356104925467E2
 1.044000000000000E9    -3.679286751581853E1     1.291145310462992E2    -8.181640826393334E-2    3.792339968468597E1    -1.083652050808446E-1    3.820547775593569E1    -3.700660447543299E1     1.370417450502545E2
 1.045000000000000E9    -3.684015221614289E1     1.289159628497181E2    -7.861607347914182E-2    3.726865568391857E1    -1.061215366596883E-1    3.758042698290409E1    -3.678890096603998E1     1.352913297140531E2
 1.046000000000000E9    -3.676938150428554E1     1.281757473476280E2    -8.804186615041862E-2    3.661022018206551E1    -1.072701982880853E-1    3.691972763370789E1    -3.615616055445538E1     1.350952120526366E2
 1.047000000000000E9    -3.624517165698832E1     1.301467791359271E2    -8.975394075451929E-2    3.594004771129262E1    -1.045722930739658E-1    3.626783174591362E1    -3.644296290550688E1     1.350422764927769E2
 1.048000000000000E9    -3.655207745064507E1     1.280947014922576E2    -9.204105139544956E-2    3.531874658438385E1    -1.085244572956255E-1    3.558476853340631E1    -3.564530563959631E1     1.366831210404617E2
 1.049000000000000E9    -3.645276445562605E1     1.284237514575355E2    -8.641986975512186E-2    3.465785038697338E1    -1.076956238233144E-1    3.496582325982062E1    -3.587291757776793E1     1.337166622716721E2
 1.050000000000000E9    -3.592666415028035E1     1.255234386271755E2    -8.334944069229926E-2    3.399354275824132E1    -1.073150644096667E-1    3.432026165672294E1    -3.568443701646925E1     1.324518441682104E2
 1.051000000000000E9    -3.554428500245164E1     1.267773312160166E2    -8.622025137873049E-2    3.334008413897887E1    -1.028175317431637E-1    3.363164722050725E1    -3.542385643776824E1     1.293332839558842E2
 1.052000000000000E9    -3.591544602270434E1     1.258958583676100E2    -8.642653070855644E-2    3.270616710815946E1    -1.074888228632013E-1    3.295886145217606E1    -3.518721878223118E1     1.320828616795700E2
 1.053000000000000E9    -3.604145437798071E1     1.285365637894212E2    -8.217664767531914E-2    3.206174324259871E1    -1.101767469293318E-1    3.228692899373936E1    -3.485267404125419E1     1.302172083571692E2
 1.054000000000000E9    -3.551827157167472E1     1.220171511581790E2    -8.696361923119110E-2    3.135344967437818E1    -1.058117717482863E-1    3.173005545874344E1    -3.519119567083489E1     1.286312677615060E2
 1.055000000000000E9    -3.545133974585308E1     1.236105882966248E2    -8.592367416989080E-2    3.074415500615671E1    -1.051216299033316E-1    3.103986136901774E1    -3.509884317832206E1     1.269117526455574E2
 1.056000000000000E9    -3.511163194510635E1     1.214640052407355E2    -9.028732602542205E-2    3.007787954689522E1    -1.084145203014570E-1    3.039805999166534E1    -3.440270521395895E1     1.290235458980243E2
 1.057000000000000E9    -3.513604313940299E1     1.251454468171111E2    -8.546355335261846E-2    2.941910894724475E1    -1.081938480628405E-1    2.974097972276527E1    -3.459630525658018E1     1.242904472690535E2
 1.058000000000000E9    -3.504549319438381E1     1.230764087660544E2    -8.210608818891683E-2    2.879939531176431E1    -1.113074208838955E-1    2.907869525409988E1    -3.484662332536243E1     1.242046936972622E2
 1.059000000000000E9    -3.504855198536369E1     1.225712716395106E2    -7.914148958895007E-2    2.812807997698183E1    -1.127464846039757E-1    2.841123155962890E1    -3.467649108712257E1     1.266133091451430E2
 1.060000000000000E9    -3.520441161438087E1     1.247954694958414E2    -8.410221285175804E-2    2.747044611772347E1    -1.058318560097045E-1    2.774102679148978E1    -3.464813259825086E1     1.246665824014091E2
 1.061000000000000E9    -3.555417123292609E1     1.198856600991994E2    -8.433739702634904E-2    2.685731559565442E1    -1.068039192264558E-1    2.713901994414796E1    -3.444199794599486E1     1.256023095462630E2
 1.062000000000000E9    -3.524489519233978E1     1.207941391146213E2    -8.126464766931568E-2    2.616914804978513E1    -1.052011139940985E-1    2.643097613011669E1    -3.452761647816605E1     1.233194967281367E2
 1.063000000000000E9    -3.468836782718871E1     1.206362672472237E2    -7.754729087243896E-2    2.548978852345398E1    -1.063191475083253E-1    2.579794775776204E1    -3.520159003811050E1     1.228087871132380E2
 1.064000000000000E9    -3.515050636139188E1     1.199900643871939E2    -8.739582522213385E-2    2.483369532497059E1    -1.065747171489477E-1    2.517667247174024E1    -3.508405450849609E1     1.245464318803883E2
 1.065000000000000E9    -3.521361389616152E1     1.192784814707183E2    -8.081575504504490E-2    2.418478972732138E1    -1.115951621754805E-1    2.449803154737495E1    -3.475239979543100E1     1.226478888541503E2
 1.066000000000000E9    -3.518470628730307E1     1.217758402038355E2    -8.255192231292705E-2    2.355100318615632E1    -1.115499079349420E-1    2.384548102369937E1    -3.447108993274031E1     1.211360836212383E2
 1.067000000000000E9    -3.526524783273502E1     1.186095165167447E2    -8.587260639305464E-2    2.288545683595412E1    -1.038330150811174E-1    2.316485805005129E1    -3.445654623164505E1     1.199721679629080E2
 1.068000000000000E9    -3.546017046918992E1     1.193190349870703E2    -7.995330641476750E-2    2.220958355845970E1    -1.066241231969326E-1    2.257009585989439E1    -3.469521641059051E1     1.212614354708176E2
 1.069000000000000E9    -3.561665335793406E1     1.194273280236535E2    -8.424690551967089E-2    2.157474947009988E1    -1.073373990333507E-1    2.187788193776632E1    -3.512120154341802E1     1.222660254976292E2
 1.070000000000000E9    -3.498123891895632E1     1.190751482377264E2    -8.449101717263405E-2    2.092581793992233E1    -1.067453277954157E-1    2.126292430626044E1    -3.514400087860465E1     1.211473594475301E2
 1.071000000000000E9    -3.486153117729781E1     1.189040573630112E2    -7.897748674095120E-2    2.028230213357383E1    -1.093293171486447E-1    2.057740644925894E1    -3.494956349477815E1     1.170299032725349E2
 1.072000000000000E9    -3.557179574304292E1     1.167248193533563E2    -8.234821836738188E-2    1.962030791181236E1    -1.136318344748288E-1    1.992055864198358E1    -3.501081602514426E1     1.196450852596039E2
 1.073000000000000E9    -3.540650341062813E1     1.194711595632500E2    -8.379485064488076E-2    1.892271061504198E1    -1.116221444501540E-1    1.926736692349835E1    -3.518649900780779E1     1.178109437240686E2
 1.074000000000000E9    -3.519395032675031E1     1.173408884340881E2    -8.421399991911133E-2    1.829431988960469E1    -1.098219115830078E-1    1.861254189546964E1    -3.465492422367972E1     1.152557474352357E2
 1.075000000000000E9    -3.502620405275036E1     1.170580570766373E2    -8.243628487873020E-2    1.763850444727856E1    -1.058014657935420E-1    1.795556863609546E1    -3.520454691110224E1     1.175514475060287E2
 1.076000000000000E9    -3.582484553727301E1     1.181042457213657E2    -8.136702645208839E-2    1.698208983641758E1    -1.120421711094639E-1    1.729556203434764E1    -3.514935276078288E1     1.182462485525875E2
 1.077000000000000E9    -3.592350232575055E1     1.131916579856181E2    -8.450361696052081E-2    1.631605944368821E1    -1.139991128968138E-1    1.666270909943472E1    -3.543815730588523E1     1.186265647658934E2
 1.078000000000000E9    -3.557564913499925E1     1.136387846932273E2    -8.138942511620452E-2    1.571027285468474E1    -1.016241039975155E-1    1.597303367560209E1    -3.519863852384241E1     1.161073836248831E2
 1.079000000000000E9    -3.576424387162335E1     1.122849203954474E2    -8.286415988495338E-2    1.504730843482806E1    -1.086283296165749E-1    1.537574595688901E1    -3.534603574123943E1     1.140409457922630E2
 1.080000000000000E9    -3.550998813768651E1     1.143622276984930E2    -7.875975064496832E-2    1.435674097103672E1    -1.108635239790003E-1    1.469477036225293E1    -3.547455275924052E1     1.155932593592617E2
 1.081000000000000E9    -3.561622242439012E1     1.107703270168740E2    -7.702255916085846E-2    1.373358555199037E1    -1.084619617680421E-1    1.404502348423372E1    -3.558642895323230E1     1.133013931022588E2
 1.082000000000000E9    -3.493391485069763E1     1.122361347617839E2    -8.489168514095050E-2    1.307217475616867E1    -1.056195341623444E-1    1.337555242205488E1    -3.548097005229782E1     1.136204434335230E2
 1.083000000000000E9    -3.543430051527599E1     1.117694826120921E2    -8.526359197174455E-2    1.241825838187564E1    -1.091837633678594E-1    1.275083341235173E1    -3.538491215853250E1     1.126248497565850E2
 1.084000000000000E9    -3.539662354026780E1     1.164968951452108E2    -8.011664022089347E-2    1.175939512287473E1    -1.101464804719901E-1    1.208440551655488E1    -3.551923584019001E1     1.122539793204769E2
 1.085000000000000E9    -3.533785760102015E1     1.090709515083056E2    -8.261306626469894E-2    1.110241544147287E1    -1.144720937712393E-1    1.145331832131261E1    -3.532367236420139E1     1.078266952247935E2
 1.086000000000000E9    -3.491195803939224E1     1.097197970304733E2    -8.526740658919166E-2    1.045403726900786E1    -1.122140499758476E-1    1.077078272444202E1    -3.550056643647033E1     1.111634928131145E2
 1.087000000000000E9    -3.491517408043629E1     1.068250609349997E2    -8.126286793221742E-2    9.773506252325186      -1.136971582523408E-1    1.016104752921534E1    -3.509484328345013E1     1.089895027772399E2
 1.088000000000000E9    -3.529356858419809E1     1.098235193585094E2    -8.037936102176423E-2    9.109811959152601      -1.079638044484329E-1    9.497798859196085      -3.534817095105376E1     1.068533717340336E2
 1.089000000000000E9    -3.495076947924342E1     1.073632847142345E2    -8.328619715905716E-2    8.467664540565597      -1.081466308556738E-1    8.845018889958423      -3.547424761017651E1     1.052109770468752E2
 1.090000000000000E9    -3.507174298700875E1     1.070241191589521E2    -8.995473395729280E-2    7.843109580484463      -1.056802545667579E-1    8.178278726319544      -3.528745419776789E1     1.068651168809269E2
 1.091000000000000E9    -3.491137447760767E1     1.037332725145462E2    -7.767845709001571E-2    7.179240024205445      -1.076974232991004E-1    7.535138997683943      -3.470243255286764E1     1.069108656179110E2
