#  HZ   S   DB   R     50.00 
! Rohde & Schwarz Vector Network Analyzer 
! Rohde-Schwarz,ZNB8-4Port,1311601044102961,2.82
! Created: UTC 1/17/2019, 2:46:56 PM
! freq[Hz]                db:S11                  ang:S11                 db:S21                  ang:S21                 db:S12                  ang:S12                 db:S22                  ang:S22
 1.000000000000000E9    -4.495011293739277E1    -1.566165448580455E2    -5.805832224193856E-2    1.475559133900659E2    -7.418235773228357E-2    1.476839449180681E2    -4.510392180871164E1    -1.366146462021846E2
 1.001000000000000E9    -4.484120840619531E1    -1.541570770381662E2    -5.622019867515934E-2    1.469347921617475E2    -7.748224379661246E-2    1.470989716954580E2    -4.519257023445569E1    -1.253065373946407E2
 1.002000000000000E9    -4.490260377753411E1    -1.545699181707407E2    -5.816914318449294E-2    1.462231565508965E2    -7.996691596727090E-2    1.464831539996147E2    -4.615708817113016E1    -1.265064544076876E2
 1.003000000000000E9    -4.372030149535242E1    -1.557298075862961E2    -5.470080086566491E-2    1.456334621814043E2    -7.304409274697327E-2    1.458479104098153E2    -4.358831415506824E1    -1.230498895982654E2
 1.004000000000000E9    -4.511849292695334E1    -1.609944014592005E2    -6.408391244475779E-2    1.450533410926792E2    -7.339912208422517E-2    1.452829706715374E2    -4.376348450133514E1    -1.115456445640782E2
 1.005000000000000E9    -4.408659026693055E1    -1.495496582312251E2    -6.113534312929565E-2    1.444103675237766E2    -7.776182261030105E-2    1.447160368486973E2    -4.441010763611637E1    -1.086698473706407E2
 1.006000000000000E9    -4.389341093635059E1    -1.498573267223379E2    -6.090528649701478E-2    1.438181999166567E2    -7.481740660300422E-2    1.441381005168787E2    -4.409275945298870E1    -1.176116065623484E2
 1.007000000000000E9    -4.438639882713496E1    -1.510600892115457E2    -6.394943321976923E-2    1.432476200542807E2    -7.484829999294106E-2    1.435342681975974E2    -4.305304883599990E1    -1.159557986999120E2
 1.008000000000000E9    -4.384283630403250E1    -1.583076034470273E2    -6.473653608740479E-2    1.426596543055232E2    -7.647651813556573E-2    1.429853456288851E2    -4.357139914906360E1    -1.167729282423783E2
 1.009000000000000E9    -4.517050299902883E1    -1.496745318754614E2    -6.061652412151648E-2    1.420848307687942E2    -7.398677183280307E-2    1.424012275177030E2    -4.287012829053478E1    -1.121414442440161E2
 1.010000000000000E9    -4.540225124517271E1    -1.529950634396938E2    -6.432623770951632E-2    1.415178629947827E2    -7.958050683490028E-2    1.418130173628920E2    -4.492075663818959E1    -1.119026943870038E2
 1.011000000000000E9    -4.337825953780612E1    -1.442874473100456E2    -6.226696878608964E-2    1.409438200488974E2    -7.587642617844921E-2    1.412372369399321E2    -4.208766478098585E1    -1.227393472282240E2
 1.012000000000000E9    -4.490689732784222E1    -1.453082724275456E2    -6.384418673524156E-2    1.403649132910378E2    -7.889888920690755E-2    1.406661074077142E2    -4.371254711852817E1    -1.198470693621669E2
 1.013000000000000E9    -4.331836717457971E1    -1.517367308116444E2    -6.394294653484990E-2    1.397848813567792E2    -7.853917004011250E-2    1.401047030536572E2    -4.371737948888593E1    -1.168276472868002E2
 1.014000000000000E9    -4.506507157366887E1    -1.512897603999621E2    -6.236222708136611E-2    1.391944471507005E2    -7.214339930303340E-2    1.395360489614709E2    -4.418817718807452E1    -1.160117787234405E2
 1.015000000000000E9    -4.516846367418267E1    -1.468757297412509E2    -5.966439024421109E-2    1.385881954467908E2    -7.644201740524556E-2    1.389668427523852E2    -4.391406508180989E1    -1.186461790000421E2
 1.016000000000000E9    -4.506849601045176E1    -1.380760471630214E2    -6.445576881424885E-2    1.380761736907531E2    -7.551347026512000E-2    1.383656287704523E2    -4.517016096196603E1    -1.173705300079593E2
 1.017000000000000E9    -4.340553899207551E1    -1.491858893981601E2    -6.236615917424486E-2    1.374597789573304E2    -7.781370844384142E-2    1.378117737374296E2    -4.392186895571047E1    -1.178327793910864E2
 1.018000000000000E9    -4.772340525218246E1    -1.429031229085794E2    -6.131113538258803E-2    1.368799662633759E2    -8.141735404413916E-2    1.371967363662407E2    -4.618432548293146E1    -1.096200272428872E2
 1.019000000000000E9    -4.804309211226269E1    -1.561603048141622E2    -6.408974244198326E-2    1.363341816318842E2    -7.770371462960592E-2    1.366249135549481E2    -4.458267447666472E1    -1.124931382730137E2
 1.020000000000000E9    -4.712263303262044E1    -1.461883960938445E2    -6.464922416151234E-2    1.357375763645436E2    -7.730327219218219E-2    1.360637159832044E2    -4.541336632152819E1    -1.162875704507460E2
 1.021000000000000E9    -4.695995830054226E1    -1.455546756454798E2    -6.159703831548589E-2    1.351843224169084E2    -8.055682641474901E-2    1.354675508340229E2    -4.679168122078391E1    -9.963502071074777E1
 1.022000000000000E9    -4.779821000364176E1    -1.428546239155680E2    -6.261758198493177E-2    1.345961651564558E2    -7.376568484722690E-2    1.349267958896208E2    -4.582618275714299E1    -1.024800789351959E2
 1.023000000000000E9    -4.778091079584761E1    -1.368938496699917E2    -6.522402172732274E-2    1.340369504092228E2    -8.374730296591468E-2    1.343061418694064E2    -4.666826023907401E1    -9.758157002761328E1
 1.024000000000000E9    -4.905993256626452E1    -1.450704653874956E2    -6.171323884650407E-2    1.334602038633870E2    -7.830586850239589E-2    1.337547835021616E2    -4.681506472187238E1    -1.123106826577838E2
 1.025000000000000E9    -4.793258179974640E1    -1.558569125075564E2    -5.801832994101110E-2    1.328893844653521E2    -7.822503671499435E-2    1.331762992264702E2    -4.715053093509364E1    -9.207941182343990E1
 1.026000000000000E9    -4.842157102881653E1    -1.307326432921194E2    -6.013070443087993E-2    1.323097846489210E2    -7.525978865195721E-2    1.326029940553434E2    -4.873417884465886E1    -1.133677582100702E2
 1.027000000000000E9    -5.453533011589553E1    -1.394027242809144E2    -5.939211605073028E-2    1.316903754274616E2    -7.816492166379993E-2    1.320616107141264E2    -4.941703673503839E1    -1.105739281574018E2
 1.028000000000000E9    -5.108144210966367E1    -1.412374954214216E2    -5.796759983852571E-2    1.311302379418381E2    -7.886093963931666E-2    1.314342201543838E2    -4.985283176322484E1    -9.304958249885939E1
 1.029000000000000E9    -5.141417877374231E1    -1.445448643997599E2    -5.913611218946349E-2    1.305625840928796E2    -8.226034502036417E-2    1.308521660122082E2    -4.950957987828651E1    -9.642144494412072E1
 1.030000000000000E9    -5.286056515865347E1    -1.486796330134161E2    -5.915562250669835E-2    1.299898559532574E2    -7.330271894659238E-2    1.302598233794689E2    -4.998577021196827E1    -9.676926067988143E1
 1.031000000000000E9    -5.238011756919795E1    -1.566787958750935E2    -5.891047650578246E-2    1.294206311007261E2    -7.727880866811697E-2    1.297030262202174E2    -4.911843352530842E1    -8.628984052698195E1
 1.032000000000000E9    -5.334755698903074E1    -1.450668531895725E2    -5.864287366204493E-2    1.288134721135480E2    -8.641987165101434E-2    1.290970918716238E2    -5.196320083519372E1    -8.338101898738461E1
 1.033000000000000E9    -5.310633580263637E1    -1.664040839082478E2    -6.393214980696473E-2    1.282585948806317E2    -8.094963375863790E-2    1.285563414924925E2    -5.059772604205701E1    -8.930452677289412E1
 1.034000000000000E9    -5.539923337007174E1    -1.435648106746474E2    -6.072392107453165E-2    1.277043031003986E2    -7.810390306150326E-2    1.280000386918993E2    -4.938694209230363E1    -9.327936424706222E1
 1.035000000000000E9    -5.184933630843116E1    -1.737287675943545E2    -5.842657696735969E-2    1.271348359176636E2    -7.916244196537270E-2    1.274036280628672E2    -5.298295736191730E1    -6.642120884605774E1
 1.036000000000000E9    -5.399939176671050E1    -1.277682003103479E2    -5.775192870797510E-2    1.264985249784245E2    -7.932208175964718E-2    1.268390755710224E2    -5.190444548520781E1    -8.459380121388217E1
 1.037000000000000E9    -5.336007917677125E1    -1.631092296375431E2    -5.561103593805548E-2    1.259453373415230E2    -7.592062995921488E-2    1.262896983835260E2    -4.987144419504227E1    -9.235003081564715E1
 1.038000000000000E9    -5.210634748620063E1    -1.405486652418631E2    -5.897637342988449E-2    1.253637131945223E2    -8.636144859830053E-2    1.256753817024025E2    -5.390255677939086E1    -1.040799937724287E2
 1.039000000000000E9    -5.070580040423221E1    -1.628812764043050E2    -6.055324947572997E-2    1.247950235756652E2    -7.747876070277518E-2    1.251273373594457E2    -5.148350615675841E1    -8.894273634097604E1
 1.040000000000000E9    -5.192378165003405E1    -1.443185930036398E2    -5.582631806044763E-2    1.242239754597046E2    -8.012259466485078E-2    1.245073086359952E2    -5.078173620110508E1    -1.068239688760414E2
 1.041000000000000E9    -5.388278489757725E1    -1.690576630607511E2    -5.547156789883442E-2    1.236440926482100E2    -7.960215686142547E-2    1.239841880801070E2    -4.964945988470515E1    -7.819954009047983E1
 1.042000000000000E9    -4.885447511240371E1    -1.564019748821740E2    -6.153087959911459E-2    1.230654984748382E2    -8.303229111194319E-2    1.233726192324535E2    -5.334323028517923E1    -9.617125060684109E1
 1.043000000000000E9    -5.284504415848534E1     1.782069065700330E2    -5.812536119820735E-2    1.225119191340712E2    -8.538853059436920E-2    1.228323390551625E2    -5.279495936306401E1    -9.691609749757555E1
 1.044000000000000E9    -5.022288034269295E1    -1.648238097247047E2    -5.388732972781001E-2    1.219038483946950E2    -8.639951012355844E-2    1.222066809433863E2    -5.404739003477057E1    -1.289537789926934E2
 1.045000000000000E9    -4.938537352437184E1     1.777889598821759E2    -5.247664445354860E-2    1.213545605422360E2    -8.288627635135576E-2    1.216457467701985E2    -5.131161651257733E1    -1.196962991943911E2
 1.046000000000000E9    -4.825950854379656E1     1.760100013405427E2    -5.369076982501314E-2    1.207494573318299E2    -8.269993533021651E-2    1.210759087654331E2    -4.995471066156252E1    -1.159549269483080E2
 1.047000000000000E9    -5.019945363836784E1     1.788775779983530E2    -6.437072073588802E-2    1.202055726201665E2    -7.425064417782035E-2    1.205019795846895E2    -5.160355173531004E1    -1.269989939174145E2
 1.048000000000000E9    -4.773532201289470E1     1.766517355073654E2    -5.872448779898459E-2    1.196090173070239E2    -8.188500237855638E-2    1.199221887289066E2    -5.268282099493304E1    -1.096223285780915E2
 1.049000000000000E9    -4.877824260464018E1     1.696558282247346E2    -5.548057653804003E-2    1.190562983867396E2    -8.320870039720146E-2    1.193386998745049E2    -5.210968094351935E1    -1.170630005063964E2
 1.050000000000000E9    -4.763051068794695E1    -1.783413411565751E2    -5.682202227192425E-2    1.184778991544653E2    -8.193549345558528E-2    1.188002665158646E2    -5.015447326346979E1    -1.306894045557577E2
 1.051000000000000E9    -4.734835821433148E1    -1.768140746076790E2    -5.783238942509525E-2    1.179021127389865E2    -7.435332157832038E-2    1.181693252713309E2    -4.703737788945648E1    -1.354473527202224E2
 1.052000000000000E9    -4.703082152946298E1     1.766004785329711E2    -5.554024932906999E-2    1.173429986219599E2    -8.015896877783862E-2    1.175979738388740E2    -4.899210444154217E1    -1.327094053771172E2
 1.053000000000000E9    -4.678722680670841E1     1.686435281191508E2    -5.426607502159635E-2    1.167644113500538E2    -8.683861035612597E-2    1.170347176491716E2    -4.696559103424625E1    -1.274904011325747E2
 1.054000000000000E9    -4.504143376657364E1    -1.769193811954037E2    -5.276769586612322E-2    1.161892486228680E2    -8.346747588024334E-2    1.165090642873961E2    -4.623468633908479E1    -1.467528105332863E2
 1.055000000000000E9    -4.565929567336073E1     1.771030541572348E2    -5.655121183834579E-2    1.156015128994293E2    -7.883610941781966E-2    1.159229475943079E2    -4.607232096984255E1    -1.477266127845823E2
 1.056000000000000E9    -4.484372524803786E1    -1.719956338675013E2    -6.056148622366070E-2    1.150461775089021E2    -7.849241079875374E-2    1.153591595842988E2    -4.524538111914992E1    -1.379991368505744E2
 1.057000000000000E9    -4.522580806066799E1    -1.756646028478830E2    -5.927488868848974E-2    1.144441862488057E2    -8.260366952702414E-2    1.147514965019253E2    -4.382894482654006E1    -1.405207044216510E2
 1.058000000000000E9    -4.441804314776596E1    -1.771625250785926E2    -5.559999360599286E-2    1.139283775459819E2    -8.452847256900058E-2    1.141728823838305E2    -4.309556595544663E1    -1.491597371057087E2
 1.059000000000000E9    -4.381305613161999E1    -1.755863009559986E2    -4.940017326106324E-2    1.133175805734854E2    -8.804781566731881E-2    1.135922328911330E2    -4.422514861814938E1    -1.480287759700090E2
 1.060000000000000E9    -4.453889026842732E1    -1.797871900140394E2    -5.540820521087703E-2    1.127426667626445E2    -8.305879634070533E-2    1.130234679666144E2    -4.383868367228679E1    -1.435402734805717E2
 1.061000000000000E9    -4.293056941167578E1    -1.778089757135654E2    -5.627043988086000E-2    1.121828728840002E2    -8.258551467893213E-2    1.124493566906865E2    -4.397743016984977E1    -1.485322438533069E2
 1.062000000000000E9    -4.203709330478267E1    -1.797877247027604E2    -5.335098417361532E-2    1.115852648513492E2    -7.929478123986160E-2    1.118849385444485E2    -4.227204268041358E1    -1.481923276750156E2
 1.063000000000000E9    -4.352545253530568E1    -1.743475847569525E2    -4.876887956725320E-2    1.109852958253121E2    -8.759696917345149E-2    1.112936791191939E2    -4.255385479780212E1    -1.554630660062419E2
 1.064000000000000E9    -4.304507377615301E1    -1.778611749536180E2    -5.666013629685605E-2    1.104425241851553E2    -8.049196940203865E-2    1.107413638892370E2    -4.289443900337987E1    -1.564512466002150E2
 1.065000000000000E9    -4.214007924504999E1     1.780686218933181E2    -5.465932757635207E-2    1.098467882944217E2    -8.136660189264065E-2    1.101710080270505E2    -4.232675836136740E1    -1.496855256068099E2
 1.066000000000000E9    -4.174546615095521E1    -1.788570050749040E2    -5.128854863601571E-2    1.092862024225090E2    -8.314716621619402E-2    1.095897200191099E2    -4.202565206243440E1    -1.496018674339962E2
 1.067000000000000E9    -4.155749783533413E1    -1.768714804501147E2    -5.498210995583769E-2    1.087289140152916E2    -7.480000032990426E-2    1.090225933021235E2    -4.149026114127436E1    -1.516486805215809E2
 1.068000000000000E9    -4.204658934591904E1    -1.798158657245898E2    -5.646867673634003E-2    1.080924302705826E2    -7.867586989350972E-2    1.084668227462857E2    -4.123025802894443E1    -1.551503784765136E2
 1.069000000000000E9    -4.156855216354809E1     1.786122338395714E2    -5.594311587356270E-2    1.075374825901198E2    -7.967797325918265E-2    1.078421482703882E2    -4.169738891696585E1    -1.577788496947139E2
 1.070000000000000E9    -4.215072065273592E1    -1.774461220665762E2    -5.480473787912615E-2    1.069834794460013E2    -7.953553688680845E-2    1.073089442365606E2    -4.105625956356096E1    -1.571090126530501E2
 1.071000000000000E9    -4.208466770278830E1    -1.744389812125011E2    -5.049582537139005E-2    1.064397653730748E2    -8.400134036344539E-2    1.067222669567271E2    -4.043607835411260E1    -1.550624001660863E2
 1.072000000000000E9    -4.155225762363854E1     1.793641297952109E2    -5.232384347816973E-2    1.058598196088819E2    -8.112814687065881E-2    1.061439905876922E2    -4.100351546278077E1    -1.564685127501957E2
 1.073000000000000E9    -4.240831662760282E1     1.772612552858922E2    -5.250921162748681E-2    1.052521649897905E2    -8.262472639310776E-2    1.055733266340900E2    -4.097417767430479E1    -1.538381049039567E2
 1.074000000000000E9    -4.163801266542759E1    -1.795289167298031E2    -5.472839441335768E-2    1.047094850338971E2    -8.141992637226989E-2    1.050079785064378E2    -4.009692382936485E1    -1.499578620090535E2
 1.075000000000000E9    -4.221555226373530E1    -1.749394629246762E2    -5.245267070524231E-2    1.041050713340977E2    -7.865193693510929E-2    1.044308522002583E2    -4.085146009195950E1    -1.571181961673466E2
 1.076000000000000E9    -4.196722620933719E1     1.759607378907020E2    -5.289332394189372E-2    1.035436197107013E2    -8.495220174781624E-2    1.038430694392155E2    -4.167525974024255E1    -1.564887816523791E2
 1.077000000000000E9    -4.098728154827343E1     1.769347897036562E2    -5.126428585938814E-2    1.029327109700821E2    -8.729891671271342E-2    1.032970605384924E2    -4.162489120482781E1    -1.588491314773266E2
 1.078000000000000E9    -4.163384887308128E1     1.770352692577476E2    -5.494528587348002E-2    1.024208300418928E2    -8.065993461387425E-2    1.026912847141418E2    -4.110611476431527E1    -1.534319326092841E2
 1.079000000000000E9    -4.059216480055227E1     1.761867758359585E2    -5.083758672276406E-2    1.018118725817695E2    -7.996964876767776E-2    1.021990658109519E2    -4.066456050167037E1    -1.520700625382386E2
 1.080000000000000E9    -4.192259645014051E1     1.778038115453377E2    -5.261417881389463E-2    1.012338771297254E2    -8.516881460234717E-2    1.015663829196279E2    -4.162597579787612E1    -1.523337968048158E2
 1.081000000000000E9    -4.170814139428025E1     1.775071689958560E2    -4.892121567050888E-2    1.006935881502460E2    -8.274488520966024E-2    1.010400386280864E2    -4.101962112339652E1    -1.575578353086680E2
 1.082000000000000E9    -4.202871014278563E1    -1.715244274365120E2    -5.251150879845781E-2    1.000859763770908E2    -7.477468035605149E-2    1.004184280114845E2    -4.122652373775321E1    -1.506626087213323E2
 1.083000000000000E9    -4.246561716184723E1     1.785754195036025E2    -5.311261095089510E-2    9.953888304997125E1    -8.117604782677827E-2    9.986765525433836E1    -4.106071233773047E1    -1.535459633487461E2
 1.084000000000000E9    -4.383950366362436E1     1.781841391650817E2    -5.174335617092282E-2    9.895662287587770E1    -7.702572808851448E-2    9.926465618496637E1    -4.117779373964034E1    -1.518281371034602E2
 1.085000000000000E9    -4.197597438776945E1     1.794526144329387E2    -5.157797974702853E-2    9.838818478545309E1    -8.463176816669710E-2    9.871478557960693E1    -4.074604226427023E1    -1.555565692096993E2
 1.086000000000000E9    -4.300674842817656E1    -1.740254907034234E2    -5.323734783031775E-2    9.781497429245339E1    -8.192287490506389E-2    9.812916615038532E1    -4.102997944725334E1    -1.512328617350455E2
 1.087000000000000E9    -4.142382382398679E1    -1.789360745952187E2    -5.396794552494344E-2    9.720576118062247E1    -8.420817008187051E-2    9.759500860491887E1    -4.115821117118566E1    -1.468627805970661E2
 1.088000000000000E9    -4.294826143114542E1     1.737908783453580E2    -5.116311710537013E-2    9.662012925299158E1    -8.203619844996166E-2    9.700326564863893E1    -4.158795073434632E1    -1.516662688927836E2
 1.089000000000000E9    -4.309644138909079E1     1.764112953454198E2    -4.929958330787820E-2    9.604892827356407E1    -8.253184313006050E-2    9.643012170996786E1    -4.114923380470132E1    -1.543914884169282E2
 1.090000000000000E9    -4.255385968652771E1     1.783440831133497E2    -5.707640557023399E-2    9.550426177247917E1    -7.925331431625265E-2    9.584625593088160E1    -4.240102526065464E1    -1.522004619560159E2
 1.091000000000000E9    -4.216737739228115E1     1.773396088879717E2    -4.918036404672379E-2    9.490243068338155E1    -7.990549226688828E-2    9.527175472516031E1    -4.180698038686473E1    -1.476651519749707E2
