#  HZ   S   DB   R     50.00 
! Rohde & Schwarz Vector Network Analyzer 
! Rohde-Schwarz,ZNB8-4Port,1311601044102961,2.82
! Created: UTC 1/17/2019, 2:39:08 PM
! freq[Hz]                db:S11                  ang:S11                 db:S21                  ang:S21                 db:S12                  ang:S12                 db:S22                  ang:S22
 1.000000000000000E9    -4.349947294058801E1    -1.791251138155681E2    -6.724654631163962E-2    1.173918207456665E2    -8.207126346148505E-2    1.175021436890573E2    -4.331939953086383E1    -1.498602757502150E2
 1.001000000000000E9    -4.354461746979051E1    -1.789010823369164E2    -6.659153809267064E-2    1.167260247733124E2    -8.259730527571252E-2    1.168736767620783E2    -4.249797952296690E1    -1.374467954345708E2
 1.002000000000000E9    -4.363928188434450E1     1.785183007506991E2    -6.953256917613424E-2    1.159881902477749E2    -8.593973032065981E-2    1.162595002697754E2    -4.432217713529586E1    -1.378293505830018E2
 1.003000000000000E9    -4.327606496785626E1     1.798588241820437E2    -6.676160233262135E-2    1.153764743508410E2    -8.127498795773279E-2    1.155509370534706E2    -4.251474891164484E1    -1.438597378330855E2
 1.004000000000000E9    -4.469412029623993E1    -1.776796700531085E2    -7.049881083220502E-2    1.147445958203825E2    -8.152698646536678E-2    1.149666779940972E2    -4.208748930582654E1    -1.353804338878968E2
 1.005000000000000E9    -4.348592997572624E1    -1.711601023979809E2    -7.279166052829497E-2    1.140844215097706E2    -8.698333069578418E-2    1.143577821609401E2    -4.222738077523517E1    -1.275785529362928E2
 1.006000000000000E9    -4.365597177908933E1    -1.772522959066675E2    -7.369663140714218E-2    1.134699559203065E2    -8.117515560526049E-2    1.137487344538404E2    -4.306569599562576E1    -1.357935174844184E2
 1.007000000000000E9    -4.417607662276490E1    -1.764467642978131E2    -7.374797292733060E-2    1.128499510567454E2    -8.245429519134401E-2    1.131369594032945E2    -4.224874942546790E1    -1.370417707389143E2
 1.008000000000000E9    -4.481562452365502E1     1.767524152391824E2    -6.770629542343905E-2    1.122196028764705E2    -8.485245828064537E-2    1.125521630484504E2    -4.258046414145574E1    -1.366366170123408E2
 1.009000000000000E9    -4.433603816644582E1    -1.700972190531816E2    -7.004702829375187E-2    1.116536083365671E2    -8.729741202037097E-2    1.119476042085354E2    -4.192390866724038E1    -1.313821264126713E2
 1.010000000000000E9    -4.494677453589109E1    -1.720538022087459E2    -7.171667769267780E-2    1.110420693208973E2    -8.629606271184626E-2    1.113480018406508E2    -4.343761510348645E1    -1.292788688459787E2
 1.011000000000000E9    -4.286397322916864E1    -1.728261460474721E2    -7.644547214428152E-2    1.104313231534830E2    -8.410577646511755E-2    1.107239215031596E2    -4.226177523772444E1    -1.434171321651854E2
 1.012000000000000E9    -4.465726753088372E1    -1.665781655028566E2    -7.071396705295442E-2    1.098449412357802E2    -9.002140048033083E-2    1.101170725708338E2    -4.336951770869901E1    -1.332953918268317E2
 1.013000000000000E9    -4.415518096365074E1    -1.785010862064807E2    -7.476423901836302E-2    1.092082888116762E2    -8.249051195643281E-2    1.095306236809244E2    -4.321328190556807E1    -1.314007291883431E2
 1.014000000000000E9    -4.583246960522920E1    -1.701622302249246E2    -7.458244698289611E-2    1.086005592409974E2    -8.085945590362600E-2    1.089070977884788E2    -4.399479451039807E1    -1.296891762940591E2
 1.015000000000000E9    -4.533933048291247E1    -1.707131236364240E2    -7.281945327275495E-2    1.079636927268644E2    -8.159071989242316E-2    1.083235153422700E2    -4.359547780135220E1    -1.348384312719558E2
 1.016000000000000E9    -4.451003671383045E1    -1.658880945538581E2    -7.475225292744700E-2    1.073893485848452E2    -8.370246361338543E-2    1.077215939518572E2    -4.358659381541347E1    -1.275968244377713E2
 1.017000000000000E9    -4.383188995761510E1    -1.788916427473345E2    -7.195383781390638E-2    1.067646589421180E2    -8.886581989322683E-2    1.070968849728652E2    -4.375939277955266E1    -1.380311969370776E2
 1.018000000000000E9    -4.719394847767675E1    -1.568406773565547E2    -7.372996830002342E-2    1.061940146118775E2    -8.596079777970594E-2    1.064931098519603E2    -4.498148061561317E1    -1.176163350261327E2
 1.019000000000000E9    -4.845939513477725E1    -1.643803615083336E2    -7.021013238098947E-2    1.055798709590849E2    -8.861796435539729E-2    1.058760975762794E2    -4.418480204761990E1    -1.288695632871728E2
 1.020000000000000E9    -4.691759714241286E1    -1.664865849698689E2    -7.093719755133535E-2    1.049805097030549E2    -8.639965261844226E-2    1.052403772582383E2    -4.521871182085226E1    -1.258200959846173E2
 1.021000000000000E9    -4.722442717211015E1    -1.622534240152381E2    -7.138160025784619E-2    1.043727585998790E2    -9.053297762451019E-2    1.046812205614046E2    -4.455287038182077E1    -1.187951746654847E2
 1.022000000000000E9    -4.665408440803552E1    -1.586791678248920E2    -7.073408353172489E-2    1.037618486042033E2    -8.569717853288486E-2    1.040717098064844E2    -4.403989621241826E1    -1.225019041434407E2
 1.023000000000000E9    -4.732577871374927E1    -1.612356762704501E2    -7.004062306286302E-2    1.031567574888306E2    -9.287781965245685E-2    1.034395653171377E2    -4.504862964684201E1    -1.180765976434598E2
 1.024000000000000E9    -4.782746712305755E1    -1.670655338095097E2    -6.862674747992846E-2    1.025709063948666E2    -8.586401586164792E-2    1.028408404212592E2    -4.535963657016281E1    -1.314562875447263E2
 1.025000000000000E9    -4.822713909380474E1    -1.770563579494448E2    -7.226692152735031E-2    1.019800642944914E2    -8.871380081212632E-2    1.022436711166595E2    -4.533170380396715E1    -1.223491018511700E2
 1.026000000000000E9    -4.662083591478101E1    -1.590761762554752E2    -7.079093681362728E-2    1.013637680145307E2    -9.027398748440232E-2    1.016421005938652E2    -4.653309435112041E1    -1.236537819025516E2
 1.027000000000000E9    -5.021102479633687E1    -1.574621765854212E2    -7.557965006741564E-2    1.006906372961860E2    -9.070345825007502E-2    1.010633548654984E2    -4.715020002068017E1    -1.245012163277930E2
 1.028000000000000E9    -4.822404491045187E1    -1.612167188887816E2    -7.207935774500449E-2    1.001383742478971E2    -8.928857972218247E-2    1.004316135026345E2    -4.688549381987685E1    -1.199593320600662E2
 1.029000000000000E9    -4.830339835019949E1    -1.688956056669958E2    -7.553998166160314E-2    9.950231766372390E1    -9.370035952352308E-2    9.980753278217428E1    -4.633964388357968E1    -1.235419203498121E2
 1.030000000000000E9    -4.859374881817722E1    -1.750922790083368E2    -7.020447671526586E-2    9.892581676834179E1    -8.835919040695042E-2    9.917160164843607E1    -4.699473908950496E1    -1.262617890595811E2
 1.031000000000000E9    -4.838065239382625E1    -1.680645097798055E2    -7.235008066129788E-2    9.831192875151363E1    -8.783566132136647E-2    9.860081004877323E1    -4.613480226940239E1    -1.219674668745144E2
 1.032000000000000E9    -4.867767275422850E1    -1.727453230419708E2    -6.366854616435869E-2    9.767056038081475E1    -9.892192229130209E-2    9.797699278103761E1    -4.714349054560957E1    -1.154943895345941E2
 1.033000000000000E9    -4.910074047906277E1    -1.745801604788672E2    -7.641576028683501E-2    9.714894616546302E1    -9.108594723839207E-2    9.742788760237619E1    -4.681403475761209E1    -1.235065944796926E2
 1.034000000000000E9    -4.847698489736746E1    -1.696747151210593E2    -7.405024833270156E-2    9.650426273132146E1    -8.828287724237895E-2    9.680207345005873E1    -4.622193203881621E1    -1.251340954440251E2
 1.035000000000000E9    -4.776155554924551E1     1.710382555067892E2    -6.806068350118057E-2    9.590224540099977E1    -9.294392618221868E-2    9.616763941832325E1    -4.779770292170473E1    -1.192172078523855E2
 1.036000000000000E9    -4.689671752435388E1    -1.650064363891672E2    -7.050020315057293E-2    9.525268032649522E1    -8.656426528976781E-2    9.556894303030121E1    -4.623856659681024E1    -1.281196022987371E2
 1.037000000000000E9    -4.705192407569608E1     1.748109346559826E2    -6.814674482013017E-2    9.466260476631597E1    -8.691033588780120E-2    9.496427574679075E1    -4.559629979317784E1    -1.422716773070419E2
 1.038000000000000E9    -4.507398262639431E1     1.797667373225549E2    -7.304133814564365E-2    9.406157675861374E1    -9.444511984353525E-2    9.441355436292790E1    -4.729624751877963E1    -1.408041735515394E2
 1.039000000000000E9    -4.456385136932873E1     1.737302329656266E2    -7.300530431339732E-2    9.346150765545205E1    -9.276171540338045E-2    9.375113424570297E1    -4.536259459559204E1    -1.430836424633073E2
 1.040000000000000E9    -4.443335666593588E1    -1.774584355881786E2    -6.813633796525610E-2    9.284486445141289E1    -9.293829954996259E-2    9.313768419341994E1    -4.448288071848356E1    -1.475501612986119E2
 1.041000000000000E9    -4.600075740910052E1     1.774833727597430E2    -6.846620510620148E-2    9.224743409935120E1    -9.225497294513359E-2    9.258169724784159E1    -4.485761946125877E1    -1.407420045699778E2
 1.042000000000000E9    -4.384545389223271E1     1.702722576274703E2    -7.440091654273698E-2    9.164103947496376E1    -9.476641575694969E-2    9.193485629417882E1    -4.491506400606616E1    -1.454553502918373E2
 1.043000000000000E9    -4.502005008533006E1     1.744951903670332E2    -7.153867079008848E-2    9.105261019543137E1    -9.419623925066181E-2    9.136333160221346E1    -4.502506281832044E1    -1.470822352139651E2
 1.044000000000000E9    -4.383321993570132E1     1.729758911736440E2    -6.966701190612962E-2    9.040000532749919E1    -9.738607494084298E-2    9.075252211796519E1    -4.551737689635349E1    -1.591006617513462E2
 1.045000000000000E9    -4.366372830891380E1     1.650642789677113E2    -6.635311254636406E-2    8.980659920438554E1    -9.407906553706705E-2    9.012635619441508E1    -4.427957599670773E1    -1.629230704641404E2
 1.046000000000000E9    -4.350647928391282E1     1.607639787082486E2    -6.868524475282631E-2    8.919047359349872E1    -9.619272635863421E-2    8.950898574977306E1    -4.367498095060200E1    -1.581898993576223E2
 1.047000000000000E9    -4.393105346865457E1     1.698372235131939E2    -7.324944940834555E-2    8.863758690221886E1    -8.535005160440218E-2    8.893197742208841E1    -4.429017975454671E1    -1.623490115597855E2
 1.048000000000000E9    -4.294368850741624E1     1.637623572017407E2    -7.484271784033303E-2    8.802980127595978E1    -9.562497371840215E-2    8.831359645859510E1    -4.349564769275582E1    -1.537337385204932E2
 1.049000000000000E9    -4.343950417138488E1     1.642943043934540E2    -6.575175428780630E-2    8.740327451291557E1    -9.426816720489285E-2    8.768874081997093E1    -4.351858099971321E1    -1.619693538896034E2
 1.050000000000000E9    -4.231603106811843E1     1.639279547781406E2    -7.054495909891309E-2    8.677350935243923E1    -9.124429483839465E-2    8.712125129453190E1    -4.260037490653658E1    -1.671887677871166E2
 1.051000000000000E9    -4.146569499969591E1     1.684676968289656E2    -6.749030353874511E-2    8.622425443383706E1    -9.297669613666240E-2    8.648246275426003E1    -4.123529876612140E1    -1.717195621841865E2
 1.052000000000000E9    -4.215723659677192E1     1.617656538691857E2    -7.139617467351081E-2    8.560544898834311E1    -9.600804670245081E-2    8.588144181632526E1    -4.163560506637678E1    -1.663501996546266E2
 1.053000000000000E9    -4.231833404214379E1     1.632238896734827E2    -7.027554235429172E-2    8.501512507688369E1    -9.742969483968325E-2    8.525418223232268E1    -4.039891716233022E1    -1.660794920967011E2
 1.054000000000000E9    -4.035371960948571E1     1.611591537828560E2    -6.768579285829449E-2    8.438667567897332E1    -9.249752157154061E-2    8.472902454313039E1    -4.043240915834342E1    -1.758507828378258E2
 1.055000000000000E9    -4.080505784574147E1     1.623617328406678E2    -6.724580446481041E-2    8.379751983955003E1    -9.452152315398077E-2    8.409823966881334E1    -4.019884735970611E1    -1.766266204748040E2
 1.056000000000000E9    -3.975394452815744E1     1.648783698089625E2    -7.497419878657222E-2    8.319338290259817E1    -9.171828925198468E-2    8.352539628961256E1    -3.953167175910752E1    -1.723029183358042E2
 1.057000000000000E9    -4.024885698587865E1     1.670981165437785E2    -7.019624829174151E-2    8.255980012401901E1    -9.550425849848593E-2    8.290399149306639E1    -3.881836446317148E1    -1.756320969942363E2
 1.058000000000000E9    -3.979347144109336E1     1.623407895879616E2    -6.798154178630346E-2    8.199761156501964E1    -1.009701288792483E-1    8.226211156105380E1    -3.875107685091311E1     1.795907659441719E2
 1.059000000000000E9    -3.951799997643902E1     1.646350259255244E2    -6.717682734943348E-2    8.138436039412080E1    -9.762823439800364E-2    8.167841722635879E1    -3.912012960106770E1    -1.753390092783640E2
 1.060000000000000E9    -4.033176432556004E1     1.637295273627602E2    -7.273417890145190E-2    8.078380050314142E1    -9.667840491943316E-2    8.102321624615379E1    -3.919595236923608E1    -1.741268883643424E2
 1.061000000000000E9    -3.936471743737850E1     1.606814433185652E2    -6.941499182092975E-2    8.018533549601793E1    -9.576875045850591E-2    8.046242110894191E1    -3.905325795867455E1    -1.773918220151132E2
 1.062000000000000E9    -3.904562035372781E1     1.584523394137586E2    -6.869641734968407E-2    7.958371772083500E1    -9.588089567010932E-2    7.984538214133956E1    -3.831370858413942E1    -1.788185373475974E2
 1.063000000000000E9    -3.905077634475629E1     1.638379098767530E2    -6.530778846353330E-2    7.894414680077691E1    -9.769386758077583E-2    7.927020915700405E1    -3.897488004892202E1     1.772503239824784E2
 1.064000000000000E9    -3.936482459256621E1     1.611281055980803E2    -7.161395895524772E-2    7.832878720719039E1    -9.281476865925570E-2    7.867934919928962E1    -3.921541304852238E1     1.780057203830376E2
 1.065000000000000E9    -3.897708767455021E1     1.592966350133374E2    -6.559950806904465E-2    7.772144051076928E1    -9.085816485591047E-2    7.805602752738706E1    -3.839805961426843E1    -1.793366393297597E2
 1.066000000000000E9    -3.857275913975436E1     1.618050231640249E2    -6.555607585718248E-2    7.713803065243145E1    -9.507536944797018E-2    7.742662699613354E1    -3.800687598694953E1     1.794749120956120E2
 1.067000000000000E9    -3.852830803909438E1     1.602062888265781E2    -6.752943174050170E-2    7.656047958077876E1    -8.867145502715759E-2    7.684036314880515E1    -3.778887198784736E1     1.782686689633213E2
 1.068000000000000E9    -3.904623403477114E1     1.583722963286196E2    -6.646828962102223E-2    7.591940336342560E1    -9.068351518980404E-2    7.621143309863111E1    -3.808173885365774E1     1.764106566810241E2
 1.069000000000000E9    -3.902330860465195E1     1.582811952825811E2    -7.313008449753204E-2    7.533609701872699E1    -9.122834627347576E-2    7.561974847993371E1    -3.835861421328180E1     1.759388932642059E2
 1.070000000000000E9    -3.867012097844458E1     1.631970251668938E2    -6.738020725480891E-2    7.472567146713566E1    -9.218074128096324E-2    7.504259481312084E1    -3.851832487755098E1     1.762439506439891E2
 1.071000000000000E9    -3.849899306491916E1     1.646558241092151E2    -6.460694485468815E-2    7.412043197042873E1    -9.667802381441407E-2    7.441814238760185E1    -3.769034066541987E1     1.754301913120102E2
 1.072000000000000E9    -3.876703325424241E1     1.580027650288291E2    -6.621163268741398E-2    7.350296713603548E1    -9.567749697603858E-2    7.381701114607549E1    -3.805182008881395E1     1.745587123566129E2
 1.073000000000000E9    -3.913652174332861E1     1.612739481509129E2    -6.614629962343593E-2    7.287550681491166E1    -9.600664205868492E-2    7.319862242580491E1    -3.805041777255337E1     1.758226011164223E2
 1.074000000000000E9    -3.873799037763445E1     1.598993336170687E2    -7.162066475591015E-2    7.229570442051117E1    -9.821769012428930E-2    7.261967839110450E1    -3.710939967607708E1     1.772098813399136E2
 1.075000000000000E9    -3.887341428299526E1     1.633326904975528E2    -6.438186912093545E-2    7.167511416743552E1    -9.271089720300384E-2    7.200807825013868E1    -3.826297803233985E1     1.743111428505899E2
 1.076000000000000E9    -3.966341746680326E1     1.569858749897111E2    -6.854700696073789E-2    7.112129807105984E1    -9.747200322393888E-2    7.139901652050953E1    -3.858505710486094E1     1.790604579122210E2
 1.077000000000000E9    -3.861941532916205E1     1.547195942504394E2    -6.844426990678650E-2    7.046458105607528E1    -1.010199376695056E-1    7.081037599135478E1    -3.869828798951679E1     1.744711429943589E2
 1.078000000000000E9    -3.888650653993786E1     1.564405992066590E2    -6.881539079287177E-2    6.992886574847270E1    -9.126637356049674E-2    7.020678433053880E1    -3.807386739176111E1     1.761735522434388E2
 1.079000000000000E9    -3.845929451658022E1     1.540116896974879E2    -6.416925565588459E-2    6.928687016936330E1    -9.307655725985589E-2    6.962498547032381E1    -3.796967192980821E1     1.766043193886944E2
 1.080000000000000E9    -3.922745841171003E1     1.573257436013494E2    -6.653449210206554E-2    6.866454315697261E1    -1.011706419282408E-1    6.900732375622528E1    -3.856250740177921E1     1.756032695451249E2
 1.081000000000000E9    -3.896887250693399E1     1.540182205933205E2    -6.411767782617066E-2    6.809528676305932E1    -9.569339671703656E-2    6.840990590552893E1    -3.847479907582642E1     1.730429802310779E2
 1.082000000000000E9    -3.855123105564299E1     1.625585759791454E2    -6.910061526157053E-2    6.745961805072312E1    -8.945444914028045E-2    6.779839181993312E1    -3.816083096956390E1     1.760719445012244E2
 1.083000000000000E9    -3.913565706023691E1     1.563359356717312E2    -6.978548333739751E-2    6.688946419295671E1    -9.117762716127933E-2    6.720148444735060E1    -3.835253652352751E1     1.738807215953757E2
 1.084000000000000E9    -4.006207339239073E1     1.622294523594098E2    -6.217585786921420E-2    6.629015527642021E1    -9.616192731899437E-2    6.659609272757189E1    -3.853016555249236E1     1.764193946313218E2
 1.085000000000000E9    -3.881050247715142E1     1.552831369400454E2    -6.680235856472259E-2    6.569211767720898E1    -9.829070579960547E-2    6.598477116378041E1    -3.818942297390014E1     1.706744815330708E2
 1.086000000000000E9    -3.910529321775729E1     1.596468664530060E2    -6.648747367251343E-2    6.503345279257182E1    -9.633175232434336E-2    6.537696469495261E1    -3.824179235999971E1     1.742354512622342E2
 1.087000000000000E9    -3.820959549536175E1     1.561394735162596E2    -6.168478734034201E-2    6.442705486519348E1    -1.002800140228096E-1    6.480691256183226E1    -3.813489257730299E1     1.748778780428100E2
 1.088000000000000E9    -3.944393474340067E1     1.539675519121382E2    -6.609537468482558E-2    6.380203273493495E1    -9.353608982990053E-2    6.417967017246407E1    -3.840279021739956E1     1.717918390764282E2
 1.089000000000000E9    -3.903605095472013E1     1.545844171458155E2    -6.414984034598809E-2    6.322854707201182E1    -9.599718277024842E-2    6.359425168890152E1    -3.842322347811650E1     1.693201914906563E2
 1.090000000000000E9    -3.907838118153136E1     1.554102124590216E2    -7.225190189731656E-2    6.262716460162955E1    -9.489372673727513E-2    6.295943492052816E1    -3.915055982567325E1     1.739828026174823E2
 1.091000000000000E9    -3.853737592798278E1     1.513768870034751E2    -6.499316886218191E-2    6.203426531326328E1    -9.542557154916842E-2    6.236359525181972E1    -3.818688765140243E1     1.747209936191100E2
