#  HZ   S   DB   R     50.00 
! Rohde & Schwarz Vector Network Analyzer 
! Rohde-Schwarz,ZNB8-4Port,1311601044102961,2.82
! Created: UTC 1/17/2019, 2:48:52 PM
! freq[Hz]                db:S11                  ang:S11                 db:S21                  ang:S21                 db:S12                  ang:S12                 db:S22                  ang:S22
 1.000000000000000E9    -4.704249559566976E1    -1.336170097528922E2    -4.468798837671619E-2   -1.724605413829938E2    -5.939164072137942E-2   -1.723241034526403E2    -5.163843841979983E1    -1.376430759507084E2
 1.001000000000000E9    -4.604832550208981E1    -1.351226548698853E2    -4.591861906143372E-2   -1.730465617140307E2    -6.243686867270878E-2   -1.728904811896313E2    -5.205397174865908E1    -1.332162043591504E2
 1.002000000000000E9    -4.580141053731325E1    -1.281352597249368E2    -4.552998905742556E-2   -1.736761155624937E2    -6.397003532262685E-2   -1.734305690464575E2    -4.907585536063337E1    -1.210298851660262E2
 1.003000000000000E9    -4.497152465976640E1    -1.281268889690966E2    -4.460069649231295E-2   -1.742353966490255E2    -6.228395370276850E-2   -1.740429060860354E2    -4.882311625308719E1    -1.039563258128560E2
 1.004000000000000E9    -4.513332074052347E1    -1.410448580233322E2    -5.333307504875985E-2   -1.748189558816731E2    -6.277368532657870E-2   -1.745439694811528E2    -4.814213158527081E1    -8.488285389494712E1
 1.005000000000000E9    -4.558344213604323E1    -1.338827223452993E2    -5.450885482580724E-2   -1.753960941814519E2    -6.751544665392928E-2   -1.750951540571523E2    -5.164105491629807E1    -1.010137221040654E2
 1.006000000000000E9    -4.498596344421297E1    -1.278726062094301E2    -4.958044348537251E-2   -1.759444675691110E2    -6.816809464497278E-2   -1.756598593662020E2    -4.717939512387478E1    -1.057398780209237E2
 1.007000000000000E9    -4.493966781947292E1    -1.305853032126442E2    -5.038128378459912E-2   -1.764939845838797E2    -6.267733254332808E-2   -1.761974844755888E2    -4.648970807710154E1    -8.773370995492478E1
 1.008000000000000E9    -4.347146261665189E1    -1.305156249682923E2    -5.584564327993948E-2   -1.770397372995680E2    -6.877495922266386E-2   -1.767250563423694E2    -4.774640979257064E1    -8.471540787037273E1
 1.009000000000000E9    -4.515948209945609E1    -1.377195898451301E2    -4.883399353801006E-2   -1.775583064779482E2    -6.320665822987724E-2   -1.772805320898552E2    -4.811305245170509E1    -9.373932417833886E1
 1.010000000000000E9    -4.437654391152960E1    -1.333552974034876E2    -5.251073543421239E-2   -1.781208472813002E2    -6.673886110371310E-2   -1.778235999092175E2    -4.893155254605334E1    -1.013366757410308E2
 1.011000000000000E9    -4.454539414661667E1    -1.206132366451329E2    -5.473568288494497E-2   -1.786435771239654E2    -6.752711877295335E-2   -1.783182816962798E2    -4.497186629959958E1    -9.109558966525277E1
 1.012000000000000E9    -4.521145505041608E1    -1.283224872958473E2    -4.979654925079829E-2   -1.791805540734855E2    -6.616777566408684E-2   -1.788790948368490E2    -4.616297891011502E1    -1.001504189935764E2
 1.013000000000000E9    -4.421222233072235E1    -1.231614959171496E2    -5.571469760087330E-2   -1.797225043489439E2    -6.238026987830432E-2   -1.794134090971397E2    -4.636722110109130E1    -8.803497094400474E1
 1.014000000000000E9    -4.475306292314936E1    -1.337611709265460E2    -5.278587040047442E-2    1.797318116517441E2    -6.282118288486954E-2   -1.799396675302866E2    -4.572679885479690E1    -9.442425898356788E1
 1.015000000000000E9    -4.446601823823564E1    -1.282825862739313E2    -4.834576372880244E-2    1.792023424461921E2    -6.098998939378293E-2    1.795567781425361E2    -4.556807032777758E1    -9.913358090247441E1
 1.016000000000000E9    -4.609122105152472E1    -1.241245382520800E2    -5.163129688809858E-2    1.786973166387544E2    -7.066102047810588E-2    1.790081028930061E2    -4.650159622402228E1    -9.983798679128161E1
 1.017000000000000E9    -4.425143874035440E1    -1.175623172548633E2    -5.064650762497910E-2    1.781244479369907E2    -6.994206605541552E-2    1.784684965390804E2    -4.620832775352193E1    -8.836683711758758E1
 1.018000000000000E9    -4.640565656973406E1    -1.387597306617349E2    -5.076508566135315E-2    1.775945764700833E2    -6.581178109615725E-2    1.778959221563476E2    -4.806114366413876E1    -1.004194095911298E2
 1.019000000000000E9    -4.532593753123190E1    -1.431736781652568E2    -5.140663423680452E-2    1.770944288245647E2    -7.118278010380777E-2    1.773728682849367E2    -4.559666062118225E1    -8.508797402286953E1
 1.020000000000000E9    -4.662986032469043E1    -1.321579385679800E2    -5.217607393904285E-2    1.765463016419254E2    -6.666465798440069E-2    1.768433127338792E2    -4.697431720872594E1    -9.442495382550827E1
 1.021000000000000E9    -4.609657844886581E1    -1.287976545104188E2    -4.953691506525990E-2    1.759973810320079E2    -6.845246731299061E-2    1.763101422386444E2    -4.901293414498356E1    -9.132180715931203E1
 1.022000000000000E9    -4.834295398687892E1    -1.370169821378870E2    -5.436108131431364E-2    1.754539083577766E2    -6.325175631068014E-2    1.757790388685720E2    -4.819851790813299E1    -8.499886796203163E1
 1.023000000000000E9    -4.783683944250115E1    -1.276293939104966E2    -5.256463885977349E-2    1.749426100468615E2    -6.993132947911704E-2    1.752151789737210E2    -4.938036279782259E1    -7.904521885619988E1
 1.024000000000000E9    -4.882547854432745E1    -1.373093384746881E2    -5.103268751517519E-2    1.744101366082109E2    -6.677577209884872E-2    1.746996471051693E2    -4.810622031729967E1    -9.155113161404859E1
 1.025000000000000E9    -4.669020835163936E1    -1.354521471161565E2    -5.018863135395574E-2    1.738880315907343E2    -6.801369830382645E-2    1.741503519785128E2    -5.063392243170759E1    -7.863025140463802E1
 1.026000000000000E9    -5.062491848051295E1    -1.216943878874267E2    -4.974567281585184E-2    1.733235740456157E2    -6.713538620711891E-2    1.736287210529019E2    -5.071117170946972E1    -9.322451058010034E1
 1.027000000000000E9    -5.099988014713521E1    -1.522217201940971E2    -5.260329877078949E-2    1.727519500181649E2    -7.076350844268413E-2    1.731542680239422E2    -4.934204698718429E1    -9.093021184421154E1
 1.028000000000000E9    -5.070707780157765E1    -1.382483126939877E2    -4.985004656250274E-2    1.722364712263121E2    -7.070001308638768E-2    1.725616433211469E2    -5.250488748582269E1    -7.285531679912258E1
 1.029000000000000E9    -5.152032298278678E1    -1.416096062909707E2    -5.011978201231316E-2    1.717135130869477E2    -7.280555243761772E-2    1.719945716639749E2    -5.415347300725311E1    -6.416163270110098E1
 1.030000000000000E9    -5.253987039004406E1    -1.458544914181989E2    -5.098641110423625E-2    1.711590214173371E2    -6.944659438983543E-2    1.714687475016768E2    -5.262565892871279E1    -6.401434449922233E1
 1.031000000000000E9    -5.196471021212895E1    -1.510770316955311E2    -4.975829513162320E-2    1.706511170397828E2    -7.092064969642090E-2    1.709304942383150E2    -5.538964433678646E1    -3.970002501856717E1
 1.032000000000000E9    -5.458541417395787E1    -1.518149152889489E2    -4.613670998246874E-2    1.700982535510879E2    -7.761465743618977E-2    1.703968853719291E2    -5.808684907343471E1    -6.910501181038025E1
 1.033000000000000E9    -5.270085711692006E1    -1.707275763526130E2    -5.663305308180822E-2    1.695909027714838E2    -7.077899364313525E-2    1.698763381297758E2    -5.697338288177042E1    -4.837141876965033E1
 1.034000000000000E9    -5.548336159098619E1     1.677313708225798E2    -4.840236697891623E-2    1.690665275274382E2    -7.209575349100759E-2    1.693444290406688E2    -5.477199694878155E1    -5.657443471320314E1
 1.035000000000000E9    -5.354614279132863E1    -1.595440870770705E2    -4.802495919580093E-2    1.685173423837246E2    -7.307042343957676E-2    1.687961678672926E2    -6.090266793155229E1    -2.090790003283024E1
 1.036000000000000E9    -6.168206727574200E1     1.511581520308924E2    -5.217339540877442E-2    1.679277832411747E2    -7.082504311890932E-2    1.682681659536733E2    -6.580565796477418E1    -2.326449054152506E1
 1.037000000000000E9    -5.624347134239719E1     1.639824023015968E2    -4.865324806735927E-2    1.674119309109066E2    -7.411902040852321E-2    1.677227849200329E2    -5.640640095891274E1    -3.345634857332311E1
 1.038000000000000E9    -6.769596891045578E1     9.805801860743325E1    -5.230328145924583E-2    1.669099147584299E2    -7.525344829451869E-2    1.671883994125447E2    -6.501730138675454E1    -9.742888836837356
 1.039000000000000E9    -5.849658164743183E1     1.712184447448082E2    -5.095941158592053E-2    1.663422863512654E2    -7.473409972420225E-2    1.666748618295157E2    -5.476512225024132E1     2.351865636640786E1
 1.040000000000000E9    -5.809923650527623E1     1.037785583217397E2    -5.149695328689682E-2    1.658156961729253E2    -7.413923167764586E-2    1.661154956359234E2    -5.669951563773844E1     2.269113728139561E1
 1.041000000000000E9    -5.285774182595148E1     1.416620084146051E2    -4.901440971557804E-2    1.652623157213547E2    -7.338019836137889E-2    1.656180324811740E2    -5.164715952354318E1     2.254440223786629E1
 1.042000000000000E9    -5.755606601522801E1    -1.717207456822211E2    -5.397985080472684E-2    1.647246868769529E2    -7.343876124570352E-2    1.650492999183628E2    -5.481499672321840E1     4.742347500479488E1
 1.043000000000000E9    -5.158100719272282E1     1.378589225069326E2    -4.625538491899526E-2    1.642042368182013E2    -7.520519867833136E-2    1.645270014102171E2    -5.564403077698154E1     4.096918562824988E1
 1.044000000000000E9    -5.631817321787763E1     1.616137968740120E2    -5.068812005437177E-2    1.636330597713613E2    -7.195892525486840E-2    1.639907754268175E2    -5.598093368161894E1     3.517826702794111E1
 1.045000000000000E9    -5.262229664415139E1     1.560654575189195E2    -4.365267417891525E-2    1.630982458439424E2    -7.369310238082492E-2    1.634410486525961E2    -5.549147358737586E1     2.128423236938878E1
 1.046000000000000E9    -5.158464886486193E1     1.658911320382246E2    -5.070489001342279E-2    1.625985128136212E2    -7.284947995055018E-2    1.629142544147074E2    -5.295881250835634E1     4.013129574126841E1
 1.047000000000000E9    -5.163501755501503E1     1.323162552840841E2    -5.948743051093228E-2    1.620951624812146E2    -6.767903875456155E-2    1.623752555335063E2    -5.877183391425795E1     5.555835458082294E1
 1.048000000000000E9    -5.198593434002616E1     1.626551414760836E2    -5.590881426442819E-2    1.615272995537316E2    -7.456240628938333E-2    1.618297979855527E2    -5.139677569962369E1     5.929574991474088E1
 1.049000000000000E9    -5.108037946947704E1     1.520392062574133E2    -4.615445120481609E-2    1.609823396677601E2    -7.485691150007418E-2    1.612922292884244E2    -5.337172651030954E1     5.148836694178264E1
 1.050000000000000E9    -5.268236259492154E1     1.440393434444046E2    -4.786328720782361E-2    1.604463744844530E2    -7.323244345341846E-2    1.607827279673417E2    -5.590001124897380E1     4.256299108287313E1
 1.051000000000000E9    -5.105771378892036E1     1.378467920875366E2    -4.687006747323914E-2    1.599263272873631E2    -7.703906322004900E-2    1.601864811321553E2    -5.582455125606811E1     2.558776744719033E1
 1.052000000000000E9    -5.122240245924098E1     1.489361987997352E2    -4.909834860748785E-2    1.594348844374874E2    -7.479786208237133E-2    1.596699230691422E2    -5.501113885349437E1     5.414939467952455E1
 1.053000000000000E9    -4.852464482107809E1     1.552567479310112E2    -4.912003934606225E-2    1.588621017447128E2    -7.590652636215442E-2    1.591358605490037E2    -5.301037092490898E1     3.746983380844683E1
 1.054000000000000E9    -5.315747931028741E1     1.618055623329315E2    -5.093898425239889E-2    1.583251380971733E2    -7.584392923275700E-2    1.586526867144096E2    -6.432137482963647E1     2.809033331119640E1
 1.055000000000000E9    -5.044894953320981E1     1.482887177611307E2    -4.997963684482559E-2    1.577811612522391E2    -7.629401224020299E-2    1.580909618510768E2    -6.803381671483983E1     2.573576834199264E1
 1.056000000000000E9    -5.400122364595048E1     1.633648547474230E2    -5.240426091706615E-2    1.572444164118521E2    -7.023463524759759E-2    1.575720881240986E2    -5.571258940581109E1     4.772814839210926E1
 1.057000000000000E9    -5.004284878239729E1     1.522496932071176E2    -5.037746307459688E-2    1.566959298118512E2    -7.238926380369107E-2    1.570046641578625E2    -5.531461479809858E1    -1.004032813685967E1
 1.058000000000000E9    -4.970114320186692E1     1.587176818250664E2    -4.970237160141181E-2    1.562049249060979E2    -8.054996398091185E-2    1.564859850752027E2    -5.723882715675259E1    -6.411459184501413E1
 1.059000000000000E9    -5.109907714183058E1     1.625809411731229E2    -4.443278781977229E-2    1.556455950491377E2    -7.790820627845896E-2    1.559536720710349E2    -6.746376368148967E1     2.125374429185987E1
 1.060000000000000E9    -4.850377322036429E1     1.585175367345636E2    -5.332144158520351E-2    1.551003587849126E2    -7.600440721132169E-2    1.554141373649617E2    -6.215506525084584E1    -1.594388694420627E1
 1.061000000000000E9    -4.935277725530101E1    -1.765246073426160E2    -4.764093900478234E-2    1.546358270344315E2    -7.189567743967068E-2    1.548859182866199E2    -9.194967761348207E1     3.621802365627961E1
 1.062000000000000E9    -4.829779231919471E1    -1.768237520384867E2    -4.663857439850112E-2    1.540453719895417E2    -7.578980689252682E-2    1.543473127056935E2    -5.674561287055120E1    -6.305060463797336E1
 1.063000000000000E9    -5.074083979347353E1     1.595272998534730E2    -4.348890564654154E-2    1.534760798111678E2    -7.635524400912196E-2    1.538064135862980E2    -5.511925036891101E1    -1.242245750212170E2
 1.064000000000000E9    -4.991019673440383E1     1.709556016932257E2    -5.342584310171132E-2    1.529430028744505E2    -7.643026247903664E-2    1.533027326626168E2    -5.771442302482775E1    -1.275365201377389E2
 1.065000000000000E9    -4.792593678237597E1     1.793178476563663E2    -4.587312270924269E-2    1.524510365238928E2    -7.780726172071917E-2    1.527639628498495E2    -5.605443503864783E1    -9.654707702780942E1
 1.066000000000000E9    -4.702804061930791E1    -1.778698698175470E2    -4.350285787761258E-2    1.518944542500703E2    -7.548324390265244E-2    1.522094945304204E2    -5.674277180214237E1    -7.885719183612329E1
 1.067000000000000E9    -4.747391912115749E1    -1.717375252463086E2    -5.097934990138379E-2    1.514027096243173E2    -7.419465447532926E-2    1.516711770747545E2    -5.513496340191014E1    -8.091828959159096E1
 1.068000000000000E9    -4.700159469506248E1    -1.772050739052296E2    -4.756166201764908E-2    1.508231387939704E2    -7.462071086875384E-2    1.511761623214836E2    -5.368565511971148E1    -1.027071109910455E2
 1.069000000000000E9    -4.634349256939612E1    -1.741677934036642E2    -5.399128966901080E-2    1.502988227637932E2    -7.512733001039228E-2    1.505977205903102E2    -5.097449745140761E1    -1.295021886808702E2
 1.070000000000000E9    -4.789605856693019E1     1.746512968216519E2    -4.605817366361556E-2    1.497605097641596E2    -7.809865658123694E-2    1.501007840095273E2    -5.054102359761178E1    -1.241990877272454E2
 1.071000000000000E9    -4.924490379346789E1     1.776395951274729E2    -4.392143627856605E-2    1.492549449018888E2    -7.728242745952266E-2    1.495383752993286E2    -5.075460073636499E1    -1.038880081434749E2
 1.072000000000000E9    -4.655595998161105E1    -1.734163839095171E2    -4.847516712790115E-2    1.486875235749941E2    -7.483032090606066E-2    1.490225438742820E2    -5.072372621863744E1    -1.216962655718708E2
 1.073000000000000E9    -4.673602642509501E1     1.789741098452500E2    -5.037652570413775E-2    1.481482595284626E2    -8.070363780571679E-2    1.484598345275554E2    -4.929584146766116E1    -1.086317284123381E2
 1.074000000000000E9    -4.746427831674498E1     1.789860919112194E2    -5.174929877458055E-2    1.476194193538338E2    -7.740437633772497E-2    1.479438294991602E2    -4.897584033347550E1    -9.292499428532923E1
 1.075000000000000E9    -4.879009323776057E1     1.783625744356595E2    -4.591348078455103E-2    1.470867912259251E2    -7.316143924575634E-2    1.474137678006117E2    -4.867730033745232E1    -1.146211148687820E2
 1.076000000000000E9    -4.592130243199235E1    -1.784862299382047E2    -4.814424109537325E-2    1.465241847224024E2    -8.282133452109436E-2    1.468633830354825E2    -5.064663996775859E1    -1.126556869187094E2
 1.077000000000000E9    -4.604084639479582E1    -1.634105158944908E2    -4.822258229484937E-2    1.459876786172370E2    -7.999101289265202E-2    1.463413287970889E2    -5.117138578730044E1    -1.278881919140046E2
 1.078000000000000E9    -4.648733753646503E1    -1.715885735711347E2    -4.671002498102342E-2    1.455102294327876E2    -7.583538413883796E-2    1.458208287573365E2    -4.968280496250835E1    -1.083655239557833E2
 1.079000000000000E9    -4.514054285345431E1    -1.642626821219717E2    -4.665489800746259E-2    1.449348284619020E2    -8.347570860588527E-2    1.453087374220681E2    -4.822994906365629E1    -1.055158668628782E2
 1.080000000000000E9    -4.740869743348002E1    -1.773531459884891E2    -4.626386263738520E-2    1.443999536820322E2    -8.069025647922418E-2    1.447444589878180E2    -4.953481053745690E1    -1.109201690563108E2
 1.081000000000000E9    -4.663418450002897E1    -1.663712421615454E2    -4.628276603274493E-2    1.438968595965953E2    -7.781207578351128E-2    1.442346382546515E2    -4.912486382717120E1    -1.109728723320565E2
 1.082000000000000E9    -4.943224510854505E1    -1.764664848393823E2    -4.812276336136283E-2    1.433671841603010E2    -7.856157171503493E-2    1.436645822219524E2    -4.906004845675722E1    -9.994871112151681E1
 1.083000000000000E9    -4.739865321164712E1    -1.746620792366361E2    -5.113551253841948E-2    1.428274467862945E2    -7.323665756662957E-2    1.431736007982424E2    -4.923513236210569E1    -1.069477111843665E2
 1.084000000000000E9    -4.687823087644865E1     1.707351728619458E2    -4.853979301949377E-2    1.423119657884748E2    -7.212172314772353E-2    1.426162584382417E2    -4.866978585931581E1    -1.050199098360851E2
 1.085000000000000E9    -4.782838947171184E1    -1.751640659995545E2    -4.786268784625847E-2    1.417465293422987E2    -8.008571460163741E-2    1.420961864104742E2    -4.726592221282882E1    -9.990211829210578E1
 1.086000000000000E9    -5.216143899731119E1     1.692378197707656E2    -4.962734806389119E-2    1.412068274505336E2    -7.870925596983128E-2    1.415355230156036E2    -4.875892899132601E1    -9.715675796854710E1
 1.087000000000000E9    -4.959639304880322E1    -1.712315899950581E2    -4.585497626992474E-2    1.406632643763960E2    -8.151652842276752E-2    1.410532312028818E2    -4.861498374004258E1    -9.125211888573563E1
 1.088000000000000E9    -4.752579755707264E1     1.734777213473093E2    -5.267197729458200E-2    1.400857539125086E2    -8.095468774203901E-2    1.404948976631033E2    -4.793441737827625E1    -8.632541040712748E1
 1.089000000000000E9    -4.917495960128909E1     1.659607503931670E2    -4.902854747142350E-2    1.395852339721990E2    -7.720150389518179E-2    1.399571126230520E2    -4.756278031236815E1    -9.667810886284121E1
 1.090000000000000E9    -4.912171358185298E1     1.743683025110720E2    -5.588189105595830E-2    1.390763160458736E2    -7.750991511141817E-2    1.394529262348099E2    -5.094087555784284E1    -8.328651886509523E1
 1.091000000000000E9    -4.957586863429025E1    -1.780949332235145E2    -4.978034586740628E-2    1.385462711872076E2    -7.612340672366630E-2    1.388749058097752E2    -5.075450638262817E1    -7.518101786405970E1
