#  HZ   S   DB   R     50.00 
! Rohde & Schwarz Vector Network Analyzer 
! Rohde-Schwarz,ZNB8-4Port,1311601044102961,2.82
! Created: UTC 1/17/2019, 2:47:54 PM
! freq[Hz]                db:S11                  ang:S11                 db:S21                  ang:S21                 db:S12                  ang:S12                 db:S22                  ang:S22
 1.000000000000000E9    -5.074645285348851E1    -1.693330110921507E2    -6.155122258250217E-2    1.673971572816731E2    -7.766506152216456E-2    1.675227633751250E2    -6.017698912777022E1    -1.644183346536831E2
 1.001000000000000E9    -5.014903594910234E1    -1.671171714172693E2    -6.247525978946607E-2    1.667738023129267E2    -7.757580848353968E-2    1.669389084981718E2    -6.320959681083697E1    -9.931824605011232E1
 1.002000000000000E9    -5.093516283732208E1    -1.635783704769826E2    -5.985312890507362E-2    1.661049438887414E2    -8.008331421844214E-2    1.663565576253144E2    -5.742806138893297E1    -1.141664022194656E2
 1.003000000000000E9    -4.900106703136621E1    -1.563964038187270E2    -6.081626099601746E-2    1.655073446254615E2    -7.690910929958011E-2    1.657171814448254E2    -5.203679079399690E1    -8.956956888504189E1
 1.004000000000000E9    -4.987319327680923E1    -1.687520126233141E2    -6.969959894408735E-2    1.649531132322426E2    -7.679978395432546E-2    1.651818206771505E2    -5.053707487152512E1    -7.034507907854587E1
 1.005000000000000E9    -5.029068687829515E1    -1.529130147165847E2    -6.716626336013735E-2    1.643597879404943E2    -8.080287404786703E-2    1.646289747702745E2    -5.254434376702346E1    -5.623559519506818E1
 1.006000000000000E9    -4.971608790335581E1    -1.460955213702154E2    -6.758458961865989E-2    1.637603551992715E2    -8.540636452624631E-2    1.640588627730356E2    -5.156687969619228E1    -8.439338656856619E1
 1.007000000000000E9    -5.007355022457976E1    -1.523988787513146E2    -6.801923661418347E-2    1.632121622380225E2    -8.187160504088420E-2    1.635230716945709E2    -4.805467621585723E1    -7.830813992859171E1
 1.008000000000000E9    -4.808153426011587E1    -1.560478173866383E2    -6.744654521267496E-2    1.626178685009671E2    -8.604450948022889E-2    1.629367377549079E2    -4.973042656297621E1    -7.175780221096659E1
 1.009000000000000E9    -5.155413515574416E1    -1.547686853218309E2    -7.027634739391876E-2    1.620803461698123E2    -8.182093172011641E-2    1.623920887179934E2    -4.906320113964394E1    -6.392412516385805E1
 1.010000000000000E9    -5.183100993201630E1    -1.556833594606696E2    -7.037331971119018E-2    1.615130195197679E2    -9.107357934256405E-2    1.618089457319827E2    -5.168329914519683E1    -6.189706027637143E1
 1.011000000000000E9    -4.973472577432014E1    -1.268858194604935E2    -7.198803966246303E-2    1.609626653825872E2    -8.603967793075075E-2    1.612754040899773E2    -4.698018905488392E1    -8.724497209224333E1
 1.012000000000000E9    -5.279260418186407E1    -1.384155088373762E2    -7.198902942174966E-2    1.603824784988140E2    -9.144999384037647E-2    1.607105648631820E2    -4.913258977430157E1    -8.082853435153996E1
 1.013000000000000E9    -5.066755495476333E1    -1.378744475207890E2    -6.982718402053485E-2    1.598500467794319E2    -8.353262699916202E-2    1.601736392192454E2    -4.874042348374329E1    -6.884128555367720E1
 1.014000000000000E9    -5.208026021605618E1    -1.448498285609566E2    -7.735903761830408E-2    1.592770699992155E2    -8.499141620571193E-2    1.596295846849006E2    -4.856077416166555E1    -7.074470095069525E1
 1.015000000000000E9    -5.306369445644933E1    -1.287487704165888E2    -7.369577561077266E-2    1.587263546239606E2    -8.787705746497529E-2    1.590838482642590E2    -4.859228652420520E1    -7.084253311740346E1
 1.016000000000000E9    -5.317612369591114E1    -1.099479205371557E2    -7.407301420940993E-2    1.581805801496401E2    -8.800022866341264E-2    1.584992357445091E2    -4.992528779550476E1    -6.300476236617169E1
 1.017000000000000E9    -4.915704472555848E1    -1.133441202154454E2    -7.653417609159538E-2    1.576053254228177E2    -9.099832439505001E-2    1.579500849367213E2    -4.769076326292257E1    -6.066255802184742E1
 1.018000000000000E9    -6.307285976150286E1    -1.222160661314043E2    -7.895235852025144E-2    1.570547288809735E2    -9.448262908422726E-2    1.573468441543337E2    -5.013259588106392E1    -4.788372154125881E1
 1.019000000000000E9    -5.953286920588117E1    -1.600670362564245E2    -7.812872254572947E-2    1.565127762350564E2    -9.294502331187865E-2    1.568097500050905E2    -4.666322625827134E1    -5.546223952748274E1
 1.020000000000000E9    -5.581793930450596E1    -8.698503145799361E1    -7.692381000178446E-2    1.559837998344179E2    -9.591523717897095E-2    1.562571592344590E2    -4.792321906243872E1    -5.254384067876688E1
 1.021000000000000E9    -5.522110453293116E1    -8.995996027609969E1    -7.803339056906448E-2    1.554210925345455E2    -9.901509928601152E-2    1.557277365800850E2    -4.777211160799904E1    -3.463931112716865E1
 1.022000000000000E9    -5.935315732446183E1    -5.111115553406278E1    -7.690677435975864E-2    1.548471550056006E2    -9.424842282695678E-2    1.551600861541864E2    -4.623607786305716E1    -4.038763701196454E1
 1.023000000000000E9    -5.473989325993257E1    -6.314744295684233E1    -8.141011377794243E-2    1.543083984908607E2    -1.030323656881537E-1    1.546008231415157E2    -4.674633940301667E1    -2.999180126275255E1
 1.024000000000000E9    -5.658933968114604E1    -4.389824136101226E1    -8.331226956731661E-2    1.537752364350338E2    -9.481443975330149E-2    1.540580352524925E2    -4.687698682713689E1    -4.522981010553421E1
 1.025000000000000E9    -5.948649783218596E1    -7.064405268772916E1    -8.288918266355358E-2    1.531926004221911E2    -1.024546551963666E-1    1.534954041266564E2    -4.548539509548388E1    -3.268449520450618E1
 1.026000000000000E9    -5.098615422963060E1    -3.394448735012542E1    -8.297170156000031E-2    1.526539893137777E2    -1.040497545534964E-1    1.529471967643112E2    -4.699928632120055E1    -3.279601272669066E1
 1.027000000000000E9    -5.307834378575871E1     1.904766136566043      -8.483921842367367E-2    1.520244854592667E2    -1.027054696763917E-1    1.524330283077779E2    -4.672605359344477E1    -3.555496516301629E1
 1.028000000000000E9    -5.280164367836051E1    -2.979426456226144E1    -8.559580879158811E-2    1.515397620487231E2    -1.013799267635764E-1    1.518522500743924E2    -4.601731616372702E1    -2.601468494087347E1
 1.029000000000000E9    -5.172033666661140E1    -2.385734180917551E1    -8.567752338526924E-2    1.509772569386279E2    -1.083361241514768E-1    1.512984369195431E2    -4.541673873886847E1    -2.647308522368537E1
 1.030000000000000E9    -5.272086964964819E1    -2.545544715807126E1    -8.817850239634337E-2    1.504508939908355E2    -1.068140216800596E-1    1.507149380076568E2    -4.539029458047267E1    -3.092752491337311E1
 1.031000000000000E9    -5.263702743955682E1    -2.206558250579820E1    -9.001395195896142E-2    1.499028833351516E2    -1.054035602974638E-1    1.501524125897206E2    -4.430029035251810E1    -2.265240509923689E1
 1.032000000000000E9    -5.040987134730470E1    -1.947344083195249E1    -8.413604810260214E-2    1.492990941173650E2    -1.146179184874056E-1    1.496285309419509E2    -4.534301940586155E1    -1.968968351412208E1
 1.033000000000000E9    -5.275456236277869E1    -1.463463723023918E1    -9.645203014752952E-2    1.488008225830071E2    -1.074455663805663E-1    1.491144203272880E2    -4.438467372853509E1    -2.149801758824159E1
 1.034000000000000E9    -5.005138178568176E1    -1.202435230275507E1    -9.428302851362196E-2    1.482540788086844E2    -1.106556194517235E-1    1.485695919324169E2    -4.472826178570451E1    -3.566539895137358E1
 1.035000000000000E9    -5.199095533454898E1    -2.904815582225608E1    -8.670719088617400E-2    1.477157527206631E2    -1.102141651320428E-1    1.479986035605084E2    -4.492294129582067E1    -2.008999832931409E1
 1.036000000000000E9    -4.748557062229820E1    -2.105546041102285E1    -9.474150199895309E-2    1.471230807981916E2    -1.083138867427547E-1    1.474683683890230E2    -4.490312433192432E1    -2.131754132972807E1
 1.037000000000000E9    -5.099254689775260E1    -2.266752725010913E1    -9.295020040353855E-2    1.465964789457543E2    -1.125098206836077E-1    1.469212899677488E2    -4.428380373203819E1    -3.195886226459401E1
 1.038000000000000E9    -4.771589334248758E1    -3.079116275989946E1    -9.300922704904908E-2    1.460711316496883E2    -1.156653153555396E-1    1.463953176450069E2    -4.572965714421780E1    -3.177653144825397E1
 1.039000000000000E9    -4.978009518008545E1    -4.450067418307921E1    -9.358459699000066E-2    1.454947027053449E2    -1.111933357445803E-1    1.458269298341155E2    -4.411025626610260E1    -2.798663211343990E1
 1.040000000000000E9    -4.823438039183189E1    -2.914003573857490E1    -9.136369433096539E-2    1.449552037893966E2    -1.151269109702424E-1    1.452495254842551E2    -4.442373537336012E1    -3.761153787979406E1
 1.041000000000000E9    -5.087851754433924E1    -2.210562707838821E1    -9.291580930417202E-2    1.444230033688397E2    -1.139021114883720E-1    1.447533522671239E2    -4.296690223654824E1    -3.102658230922134E1
 1.042000000000000E9    -4.896546106130813E1    -5.975670338015967E1    -9.513885991134280E-2    1.438817327647513E2    -1.170970082983643E-1    1.441633302275916E2    -4.508229271551912E1    -3.291928712753774E1
 1.043000000000000E9    -5.239291313492232E1    -2.612906705134133E1    -9.144737053568644E-2    1.433480585890436E2    -1.185819413226817E-1    1.436675609172316E2    -4.493926743800727E1    -3.794143787218079E1
 1.044000000000000E9    -5.013324586929879E1    -5.994656550920608E1    -8.854230577554048E-2    1.427524524681265E2    -1.153637065436766E-1    1.430707099441268E2    -4.599564503631164E1    -4.055108211864675E1
 1.045000000000000E9    -5.236170892467470E1    -6.758787299250784E1    -8.713492744800239E-2    1.422428877715334E2    -1.101511131761526E-1    1.425235335074891E2    -4.532842016588468E1    -4.558484563748755E1
 1.046000000000000E9    -5.276489843814665E1    -8.563213133252285E1    -9.227432840191313E-2    1.416884214475379E2    -1.138378867870421E-1    1.419931511018312E2    -4.520977676242413E1    -4.609863423800434E1
 1.047000000000000E9    -5.260208467954283E1    -6.298113553413241E1    -9.177093018128291E-2    1.411371488313187E2    -1.067680170841506E-1    1.414366714266650E2    -4.689395188555818E1    -4.739047739371073E1
 1.048000000000000E9    -5.240369550418824E1    -9.530811272578492E1    -9.287475496434661E-2    1.406170266482689E2    -1.113154053410955E-1    1.409064128749743E2    -4.598188399787943E1    -3.615903681277274E1
 1.049000000000000E9    -5.336804094907350E1    -9.383638678308446E1    -8.150973493283886E-2    1.400576243330087E2    -1.150562328820126E-1    1.403504172921131E2    -4.642765544202514E1    -4.658494743838373E1
 1.050000000000000E9    -5.141642144534175E1    -9.508165814853786E1    -8.666980397708633E-2    1.395013737332274E2    -1.077343109502891E-1    1.398126933145655E2    -4.647711615518421E1    -5.887211585196178E1
 1.051000000000000E9    -5.113179670196220E1    -9.357600500306155E1    -8.445014342833357E-2    1.389456829153385E2    -1.085539988255051E-1    1.392288041118645E2    -4.565585694034608E1    -7.337872577097404E1
 1.052000000000000E9    -5.089597509018791E1    -1.107445140460148E2    -8.352790468918334E-2    1.384167224188239E2    -1.109278692876878E-1    1.386677996969818E2    -4.695351672256769E1    -6.155092835156786E1
 1.053000000000000E9    -5.141334288302237E1    -1.293263358067594E2    -7.816871801817563E-2    1.378484715115203E2    -1.119502866643123E-1    1.381624704354392E2    -4.501103362018982E1    -6.485245329174694E1
 1.054000000000000E9    -4.822297177255158E1    -1.211671872129616E2    -8.321873253194347E-2    1.372948718123466E2    -1.059242154227686E-1    1.376259177069892E2    -4.595485916267070E1    -8.402332604676477E1
 1.055000000000000E9    -4.996215984346652E1    -1.252530854987185E2    -7.644769935151145E-2    1.367553470362569E2    -1.069371505883661E-1    1.370714124474281E2    -4.603354969839826E1    -8.781270859044599E1
 1.056000000000000E9    -4.658247049180007E1    -1.199850068064082E2    -8.313109082796824E-2    1.362118376922751E2    -1.005704122630281E-1    1.365282571303803E2    -4.595243034572032E1    -7.774564107770239E1
 1.057000000000000E9    -4.862035695927520E1    -1.286847339133401E2    -8.171927953291440E-2    1.356505806728504E2    -1.058523958208523E-1    1.359537859488993E2    -4.385826831208617E1    -8.814897751354017E1
 1.058000000000000E9    -4.709046281018318E1    -1.313614493705190E2    -7.516649912574408E-2    1.351226201883533E2    -1.103861929468913E-1    1.354144589453391E2    -4.368690195564484E1    -1.013576989198250E2
 1.059000000000000E9    -4.573551491236838E1    -1.340167355848352E2    -7.140573151150956E-2    1.345482040018713E2    -1.050102024546605E-1    1.348480647115910E2    -4.486379718165827E1    -9.878807184244124E1
 1.060000000000000E9    -4.708671021291905E1    -1.410745352334018E2    -7.568520389239128E-2    1.339878141453261E2    -1.076821795627585E-1    1.342947269549584E2    -4.442883190951550E1    -9.475288391428221E1
 1.061000000000000E9    -4.410665787080404E1    -1.389106150665682E2    -7.574073571366066E-2    1.334676188919293E2    -1.027136126958287E-1    1.337617183418256E2    -4.476515502442291E1    -1.033779120962619E2
 1.062000000000000E9    -4.395297500361012E1    -1.433278181144976E2    -7.348017925840945E-2    1.328975778876113E2    -9.857027892851736E-2    1.331851548195653E2    -4.330914943136840E1    -1.039120983803276E2
 1.063000000000000E9    -4.603591763505840E1    -1.394183817139545E2    -6.440009238313804E-2    1.323282648129676E2    -1.000176890108695E-1    1.326622350281355E2    -4.318504919623901E1    -1.174688164599201E2
 1.064000000000000E9    -4.518681442586889E1    -1.433345285674515E2    -7.162928660511750E-2    1.317754808959178E2    -9.848093757693666E-2    1.321096749502529E2    -4.406075730430587E1    -1.186446974379402E2
 1.065000000000000E9    -4.364011158901790E1    -1.459419752595378E2    -6.872294488075219E-2    1.312269149781445E2    -9.842151249982911E-2    1.315446577962423E2    -4.305635779133536E1    -1.124465031093102E2
 1.066000000000000E9    -4.300301485418722E1    -1.484534348141308E2    -6.917872877451073E-2    1.306675813192868E2    -1.009981754469805E-1    1.309901601812318E2    -4.285299507731661E1    -1.135612826865984E2
 1.067000000000000E9    -4.249264518003987E1    -1.475040341297749E2    -6.850078111919863E-2    1.301347106780037E2    -9.094715631949393E-2    1.304294567667566E2    -4.272109916267837E1    -1.121134418039277E2
 1.068000000000000E9    -4.280733687906412E1    -1.504911196065976E2    -7.007122978484560E-2    1.295394178847481E2    -9.430571820980652E-2    1.298783792861701E2    -4.257662812062836E1    -1.190639304190327E2
 1.069000000000000E9    -4.201400799232644E1    -1.534258828451482E2    -7.189070942938748E-2    1.290255005004868E2    -9.518209815144535E-2    1.293454872976548E2    -4.240937951527436E1    -1.265132849851457E2
 1.070000000000000E9    -4.349376082582679E1    -1.501186441363155E2    -6.696346852529984E-2    1.284453698223888E2    -8.963173894012380E-2    1.288112815099338E2    -4.197621245148276E1    -1.258248928692771E2
 1.071000000000000E9    -4.364644656022112E1    -1.486923283070957E2    -6.170779220123536E-2    1.279283269757448E2    -9.590968135464667E-2    1.282159276538044E2    -4.132275288647363E1    -1.219937199889560E2
 1.072000000000000E9    -4.241631776723562E1    -1.538912832758187E2    -6.569797325755909E-2    1.273594787359490E2    -9.416666565368111E-2    1.276689014464918E2    -4.177952199075330E1    -1.281411556886352E2
 1.073000000000000E9    -4.315895131066157E1    -1.578583586729871E2    -6.474066087416501E-2    1.267760867334744E2    -9.565534006639806E-2    1.270923304209517E2    -4.145838130008094E1    -1.234299590810856E2
 1.074000000000000E9    -4.269368467875906E1    -1.540766510753780E2    -6.617860417955931E-2    1.262354357685247E2    -8.957207771627224E-2    1.265568840840621E2    -4.089360170434293E1    -1.179764296552053E2
 1.075000000000000E9    -4.353010321303842E1    -1.518268981751019E2    -5.968757855150563E-2    1.256616911836177E2    -9.012480314971107E-2    1.260291601590758E2    -4.095343112313539E1    -1.281950276754038E2
 1.076000000000000E9    -4.258093885212802E1    -1.604603843094303E2    -6.433903309296811E-2    1.251209263053389E2    -9.220299192922875E-2    1.254561335442700E2    -4.237495290688995E1    -1.279523699353089E2
 1.077000000000000E9    -4.162915665234369E1    -1.565196217365767E2    -5.868080577898784E-2    1.245538851136463E2    -9.395715650135206E-2    1.248852514922764E2    -4.249670169909435E1    -1.335403800446418E2
 1.078000000000000E9    -4.196909417713336E1    -1.598187833369736E2    -6.000193027669561E-2    1.240792486622905E2    -8.621497381857968E-2    1.243390165567103E2    -4.164220340285596E1    -1.252937793945670E2
 1.079000000000000E9    -4.104627054085669E1    -1.587089951378398E2    -6.163913165175994E-2    1.234664983452244E2    -8.833129886768416E-2    1.238006075744845E2    -4.141417770295500E1    -1.248056383003175E2
 1.080000000000000E9    -4.300236373304237E1    -1.606319316677877E2    -5.601499707308887E-2    1.229173222730595E2    -9.144612839656219E-2    1.232461735934692E2    -4.184062823774469E1    -1.266864289804632E2
 1.081000000000000E9    -4.205280190291005E1    -1.583616426151232E2    -5.730420008295678E-2    1.223799553782385E2    -9.113690899011366E-2    1.227109212321360E2    -4.156596632767480E1    -1.298531028466714E2
 1.082000000000000E9    -4.285704545357922E1    -1.527219581389388E2    -6.086091455593923E-2    1.218106023541402E2    -8.872240583047268E-2    1.221163519394641E2    -4.131706422207382E1    -1.247900092823154E2
 1.083000000000000E9    -4.273432992416228E1    -1.590880974316145E2    -5.921975911270858E-2    1.212557690551028E2    -8.755862779037921E-2    1.215974698309283E2    -4.171613948910454E1    -1.266418734644967E2
 1.084000000000000E9    -4.406433404668803E1    -1.655106246487045E2    -5.795075792557399E-2    1.206698256105349E2    -8.667031023964042E-2    1.210285393201248E2    -4.176482547120354E1    -1.266597437401019E2
 1.085000000000000E9    -4.258881496219250E1    -1.611076074495013E2    -5.706960410467463E-2    1.201286008908054E2    -9.129335952335629E-2    1.204720907960489E2    -4.129126957216275E1    -1.283485457278663E2
 1.086000000000000E9    -4.503520708141433E1    -1.548519079210311E2    -5.509977343307464E-2    1.195965161513186E2    -8.951119345828659E-2    1.199163504726286E2    -4.157509193645475E1    -1.248234278780554E2
 1.087000000000000E9    -4.270899127592556E1    -1.569762889404382E2    -5.416914958071521E-2    1.190052226875200E2    -8.875856668940690E-2    1.193971506557003E2    -4.214895761712345E1    -1.209349004342130E2
 1.088000000000000E9    -4.331152926680905E1    -1.688049691653173E2    -5.800014725418592E-2    1.184245928210422E2    -8.315040341932184E-2    1.188251573822403E2    -4.196656611935542E1    -1.244854349035454E2
 1.089000000000000E9    -4.401547841026313E1    -1.673586151512594E2    -5.590511623641676E-2    1.178971200570934E2    -8.670844677446858E-2    1.182460793560020E2    -4.157402209157706E1    -1.274174388646125E2
 1.090000000000000E9    -4.384580678437884E1    -1.640523434171203E2    -6.098933686470151E-2    1.173597587801779E2    -8.069733588076419E-2    1.177197525792305E2    -4.288830878399715E1    -1.244299923900036E2
 1.091000000000000E9    -4.284861309732223E1    -1.640810212365754E2    -5.395689537250013E-2    1.168002719828180E2    -8.659063462636021E-2    1.171486137622140E2    -4.284683433015994E1    -1.171863344764005E2
