#  HZ   S   DB   R     50.00 
! Rohde & Schwarz Vector Network Analyzer 
! Rohde-Schwarz,ZNB8-4Port,1311601044102961,2.82
! Created: UTC 1/17/2019, 2:48:23 PM
! freq[Hz]                db:S11                  ang:S11                 db:S21                  ang:S21                 db:S12                  ang:S12                 db:S22                  ang:S22
 1.000000000000000E9    -4.925569127769671E1    -1.619451950007938E2    -5.118424583400708E-2    1.774381230923306E2    -6.959497076687612E-2    1.775475225994380E2    -5.339121447219113E1    -1.535522103415471E2
 1.001000000000000E9    -4.816214789054123E1    -1.536922205991120E2    -5.417582024361483E-2    1.768419705234516E2    -6.983761888590676E-2    1.769848374807337E2    -5.445492334960164E1    -1.374084897237259E2
 1.002000000000000E9    -4.922489504221500E1    -1.438959152521382E2    -5.525158670485300E-2    1.761650634959109E2    -7.452777966260109E-2    1.764367043130443E2    -5.401548787941316E1    -1.234355317141006E2
 1.003000000000000E9    -4.740959474415291E1    -1.450822575641660E2    -5.476041046484130E-2    1.756079982185077E2    -6.663001638961029E-2    1.758188011625772E2    -5.092423815539406E1    -1.051043041977948E2
 1.004000000000000E9    -4.761809378055492E1    -1.574484137937346E2    -6.583957531642566E-2    1.750337826128548E2    -6.705145102429809E-2    1.752950622964736E2    -5.087584442698737E1    -7.818778213775812E1
 1.005000000000000E9    -4.751263655694994E1    -1.490766012376199E2    -5.914133764574681E-2    1.744844008660560E2    -7.665129995665659E-2    1.747304996473837E2    -5.496132263771446E1    -8.184222579409850E1
 1.006000000000000E9    -4.816218829061799E1    -1.443206327196123E2    -5.868801708493361E-2    1.738855242476306E2    -7.423383072566833E-2    1.741706628286171E2    -5.068338614242015E1    -1.057345111283296E2
 1.007000000000000E9    -4.762557798119176E1    -1.470173388612914E2    -5.873605914213050E-2    1.733162376333083E2    -6.849098981227016E-2    1.736533469882038E2    -4.773917205718833E1    -8.704258040643957E1
 1.008000000000000E9    -4.572504340443981E1    -1.459318510949315E2    -5.508197511322545E-2    1.727578104672610E2    -7.599542533450904E-2    1.730747126894089E2    -4.900889191131661E1    -9.095677663745541E1
 1.009000000000000E9    -4.834354129991239E1    -1.515862475785169E2    -5.780781084829834E-2    1.722365364025161E2    -7.471188063020248E-2    1.725518854590988E2    -4.947238919993561E1    -8.794491887515835E1
 1.010000000000000E9    -4.811775455542929E1    -1.510125857083583E2    -6.086268211392808E-2    1.716723635242855E2    -7.651127024540268E-2    1.719715444919472E2    -5.157961082793711E1    -8.697457802408601E1
 1.011000000000000E9    -4.748332343121676E1    -1.361105522288567E2    -6.238654704071077E-2    1.711506960791790E2    -6.993005101302141E-2    1.714750810318522E2    -4.587746433189467E1    -9.390430347241048E1
 1.012000000000000E9    -4.881045896365252E1    -1.429008517277790E2    -6.057514096665921E-2    1.705960124810181E2    -7.807652470130379E-2    1.709279481828342E2    -4.814251751965521E1    -1.018820148214598E2
 1.013000000000000E9    -4.701363779633739E1    -1.345083013897474E2    -6.120205669907618E-2    1.700358665789137E2    -7.149593319789557E-2    1.703492355515464E2    -4.890905361308079E1    -8.697483549267160E1
 1.014000000000000E9    -4.804678736919073E1    -1.485320636333690E2    -6.575598359303893E-2    1.694994584665950E2    -7.336888139926916E-2    1.698029624971190E2    -4.795148536347046E1    -8.953297480809154E1
 1.015000000000000E9    -4.860757360307316E1    -1.433436617715086E2    -5.750447576104503E-2    1.689441565053039E2    -7.599470211539901E-2    1.693048012574166E2    -4.759782096724989E1    -9.607625013892367E1
 1.016000000000000E9    -5.062421081415253E1    -1.350930757533254E2    -6.434630639608847E-2    1.684261561286114E2    -7.281758879546117E-2    1.687533231813252E2    -4.958503763324306E1    -1.004883734677836E2
 1.017000000000000E9    -4.708260914245946E1    -1.249932852774893E2    -6.051670963754385E-2    1.678442847633901E2    -7.686496218467459E-2    1.681775544859728E2    -4.797523748312403E1    -8.519783993025988E1
 1.018000000000000E9    -5.201187804377027E1    -1.576377640468784E2    -6.325703929096702E-2    1.673078980504607E2    -7.447291491698287E-2    1.676138720757627E2    -5.101156514889551E1    -8.988084282099543E1
 1.019000000000000E9    -5.053756170159496E1    -1.715996513757266E2    -6.014316965276995E-2    1.667779311064367E2    -7.541829683796754E-2    1.670635800568965E2    -4.790162093893187E1    -7.910434808258495E1
 1.020000000000000E9    -5.232582186208147E1    -1.476763461645928E2    -6.172944557554260E-2    1.662179693983946E2    -7.657175111810879E-2    1.665421679108943E2    -5.038554448800065E1    -8.749699037135598E1
 1.021000000000000E9    -5.195809035851766E1    -1.389961149705234E2    -5.887862882365613E-2    1.656774717116733E2    -8.056272714193029E-2    1.659697334320362E2    -5.188491492021473E1    -6.785145381420492E1
 1.022000000000000E9    -5.502651269187699E1    -1.562971961739845E2    -6.014348745404594E-2    1.651219156191166E2    -7.303103263901098E-2    1.654605538813542E2    -5.061253323003204E1    -6.561828918144072E1
 1.023000000000000E9    -5.435595043900727E1    -1.350824865496441E2    -6.602668159365563E-2    1.646085556261537E2    -8.349240746342562E-2    1.648750844658601E2    -5.250313223418609E1    -5.218325384479194E1
 1.024000000000000E9    -5.796122199599811E1    -1.431631220680300E2    -6.196875563358878E-2    1.640618855745236E2    -7.638324801920006E-2    1.643439445667368E2    -5.123781040551202E1    -7.464705229513027E1
 1.025000000000000E9    -5.291459116996870E1    -1.547811999328731E2    -6.253124138185948E-2    1.634913525107700E2    -7.971920763151968E-2    1.637837638401256E2    -5.190964009292738E1    -4.275825484831008E1
 1.026000000000000E9    -6.164164993922271E1    -9.037862221964731E1    -6.009352326175389E-2    1.629446881538401E2    -8.218890420602629E-2    1.632613125177246E2    -5.314486744649325E1    -5.958444755285431E1
 1.027000000000000E9    -5.877662399860924E1     1.163519281688094E2    -6.009378583866661E-2    1.623449123451782E2    -7.907745801641911E-2    1.627142678112154E2    -5.279560919707191E1    -5.971826096981237E1
 1.028000000000000E9    -6.203255539774096E1     1.526384666245755E2    -5.681190959797469E-2    1.618471039249654E2    -8.007339362414331E-2    1.621694465083293E2    -5.376294905555571E1    -2.412564124905343E1
 1.029000000000000E9    -6.434694152287699E1     1.143506860756888E2    -6.359191769652513E-2    1.612764860481482E2    -8.199599230431243E-2    1.616031261195225E2    -5.213432019463076E1    -2.903379729584358E1
 1.030000000000000E9    -6.120595680335458E1     1.230333646857816E2    -6.038038059837543E-2    1.607433294059133E2    -8.194281113518048E-2    1.610411165774274E2    -5.143342683085436E1    -2.820128573354581E1
 1.031000000000000E9    -6.168955647887776E1     1.387056043194046E2    -6.266829529916104E-2    1.602130541774845E2    -8.072346188813072E-2    1.605059891650892E2    -5.043756608253599E1    -8.867428101690216
 1.032000000000000E9    -6.323466637373082E1     7.094408025708454E1    -5.655496136324065E-2    1.596336080125370E2    -8.785997796283857E-2    1.599446293902710E2    -5.386846897866513E1    -7.894646041392214E-1
 1.033000000000000E9    -5.647190655726124E1     1.066147469486973E2    -7.135430845661209E-2    1.591356714567203E2    -8.311584035216121E-2    1.594293425737667E2    -5.286389715917924E1    -1.911282649488889
 1.034000000000000E9    -5.340493676697231E1     7.630341489557495E1    -6.240655322385363E-2    1.585768381136300E2    -8.296906695791548E-2    1.588818815362309E2    -5.140690411153328E1    -1.382015952670362E1
 1.035000000000000E9    -5.750457409592848E1     1.086887435121962E2    -6.026289730480615E-2    1.580625007805763E2    -8.556577756265248E-2    1.582801900572327E2    -5.084870252432603E1     2.142172430863446E1
 1.036000000000000E9    -5.290275017557601E1     5.360736372660433E1    -6.411332773774228E-2    1.574408240718886E2    -8.014855219572217E-2    1.578003837703620E2    -5.136749081478613E1     1.858127767241905E1
 1.037000000000000E9    -5.324459904441572E1     7.763168589991439E1    -6.064913391859048E-2    1.569265638601001E2    -8.341915438453687E-2    1.572222592487250E2    -5.036828416679072E1    -1.169228272882104
 1.038000000000000E9    -5.223240742658005E1     4.747640495080845E1    -6.098602999316602E-2    1.563685288818246E2    -8.727748969855051E-2    1.566901953950325E2    -5.250139461616588E1     1.610634388606767E1
 1.039000000000000E9    -5.548137706452526E1     6.740152769335919E1    -6.290424501250036E-2    1.558181795432798E2    -8.031515131469631E-2    1.561398993920185E2    -4.845728941774020E1     1.284774169509624E1
 1.040000000000000E9    -5.156414249211947E1     5.313656413288133E1    -6.150364966466988E-2    1.552848121958927E2    -8.309930537455502E-2    1.555693140452803E2    -5.085859030364993E1     1.174061323153605E1
 1.041000000000000E9    -5.026872107581611E1     7.943287463359785E1    -6.288605565795689E-2    1.547060901290556E2    -8.698970606080365E-2    1.550891512377411E2    -4.738994925560132E1     1.916945887404593E1
 1.042000000000000E9    -5.653216554737799E1     5.716700932766859E1    -6.883152956017215E-2    1.541944654955505E2    -8.575096630799797E-2    1.545046263941464E2    -4.868641356772614E1     2.278322328435321E1
 1.043000000000000E9    -4.909867973661039E1     8.198137724495886E1    -6.235641234328516E-2    1.536496952741958E2    -9.139100620834700E-2    1.539774065291805E2    -4.948325905993763E1     2.168162104306320E1
 1.044000000000000E9    -5.354003139470191E1     6.252621583088163E1    -5.825758673297745E-2    1.530897053719997E2    -9.033915744860460E-2    1.534059807731867E2    -5.010936533725398E1     2.345339285892829E1
 1.045000000000000E9    -5.296663367793620E1     8.111846291414393E1    -5.829633407331523E-2    1.525479038667209E2    -8.588550083677869E-2    1.528479841894224E2    -5.097294507195723E1     1.261732605006021E1
 1.046000000000000E9    -5.323166993443881E1     9.819538538730198E1    -6.521747836362554E-2    1.520049776817829E2    -8.876123936264324E-2    1.522995802005700E2    -4.843216699787118E1     1.985128518695435E1
 1.047000000000000E9    -5.019419531682563E1     7.554782282387784E1    -6.871082738549640E-2    1.514743094351370E2    -8.357714513544090E-2    1.517452990053600E2    -5.086855881311101E1     2.685895596612215E1
 1.048000000000000E9    -5.113768602241326E1     9.097355467845411E1    -6.798199466926810E-2    1.509150168659446E2    -8.952234001889202E-2    1.512293517605548E2    -4.754032470012487E1     3.184103728620124E1
 1.049000000000000E9    -5.137157163899243E1     9.033029351811163E1    -6.440969417952197E-2    1.503621059484019E2    -9.090628558138394E-2    1.506644975135507E2    -4.856488054258648E1     2.853881224638500E1
 1.050000000000000E9    -5.267945823036011E1     8.715235140635200E1    -6.606199511823360E-2    1.498121281359358E2    -8.860790672070559E-2    1.501428853033019E2    -4.964910277312491E1     1.766688290273394E1
 1.051000000000000E9    -5.182787549505584E1     7.913761758687978E1    -6.254965046713826E-2    1.492703693134542E2    -9.242675076400772E-2    1.495558054611852E2    -5.060090939160129E1     4.685976087754807
 1.052000000000000E9    -5.208448597409551E1     8.809426807400828E1    -6.871450490206964E-2    1.487418066544605E2    -9.098748594989949E-2    1.490464812692453E2    -4.960311199928506E1     1.938669337788490E1
 1.053000000000000E9    -5.081021548835443E1     1.014769239136376E2    -6.322846034770230E-2    1.482069141256193E2    -9.326242151196543E-2    1.484957477367786E2    -4.802713970418854E1     9.587196727892252
 1.054000000000000E9    -5.586267461995728E1     8.291990826217915E1    -6.498006110078688E-2    1.476332603076983E2    -9.151624590579383E-2    1.479879564940034E2    -5.326530732921242E1    -4.459810743254368
 1.055000000000000E9    -5.191572700539570E1     8.827660246738977E1    -6.763146440363423E-2    1.470929492208427E2    -8.966814370198564E-2    1.474187305395764E2    -5.219678089382087E1    -6.276898496221050
 1.056000000000000E9    -5.790433035762622E1     7.772615979545887E1    -7.122666875881180E-2    1.465538715951548E2    -8.792679755344286E-2    1.468708247127855E2    -4.953270679661522E1     6.481370573743757
 1.057000000000000E9    -5.233869592170510E1     9.142927393071263E1    -6.393185867740051E-2    1.459937870087634E2    -9.471664629430582E-2    1.463024145881499E2    -4.967465151013694E1    -1.929867848299296E1
 1.058000000000000E9    -5.449480322692018E1     1.061507200744497E2    -6.727062911066836E-2    1.454984825216650E2    -9.460398729443849E-2    1.457630911124425E2    -5.127862621742361E1    -4.733287737800978E1
 1.059000000000000E9    -5.870680206065088E1     1.024214819593452E2    -6.237041628774953E-2    1.449284328195639E2    -9.776102700882794E-2    1.452291631260029E2    -5.311235669562916E1    -2.689962558498145E1
 1.060000000000000E9    -5.262959038099591E1     1.071993130576337E2    -6.805997574448147E-2    1.443870560972237E2    -9.463500920589445E-2    1.446584354286995E2    -5.085497243827020E1    -2.683935549677239E1
 1.061000000000000E9    -5.895817638014468E1     1.683376935255571E2    -7.089784659098872E-2    1.438419660045067E2    -9.882287498628853E-2    1.441146485471224E2    -5.289539265610623E1    -1.875560592094695E1
 1.062000000000000E9    -5.560338260612969E1     1.588165570312916E2    -6.464864772396461E-2    1.433012225777759E2    -9.938759661743450E-2    1.435727640270667E2    -5.044406372992761E1    -4.624041172545798E1
 1.063000000000000E9    -5.737011364302875E1     9.616702500355272E1    -6.402296257661101E-2    1.427343939471325E2    -9.498512724419485E-2    1.430259467651258E2    -5.255101356171093E1    -6.775534374750536E1
 1.064000000000000E9    -6.067461858149936E1     1.094716485708899E2    -6.803413005049057E-2    1.422033236059988E2    -9.770303766432167E-2    1.425163879286623E2    -5.337908828308161E1    -5.999014599061770E1
 1.065000000000000E9    -5.690614795464845E1     1.680253860237414E2    -7.119630039845598E-2    1.416227734787169E2    -9.607183505347650E-2    1.419769674525350E2    -5.009801183146918E1    -5.326261540555206E1
 1.066000000000000E9    -5.362066749877147E1     1.701226531660579E2    -6.608035971016985E-2    1.411266699508292E2    -9.595148956384153E-2    1.414166350579246E2    -4.926062838771783E1    -5.337775306830349E1
 1.067000000000000E9    -5.578062061488384E1    -1.648304742640576E2    -7.073003328712745E-2    1.405705729450642E2    -9.386031418633035E-2    1.408313050340419E2    -4.903833862850154E1    -6.059681735780391E1
 1.068000000000000E9    -5.395716523286831E1     1.730396073406711E2    -7.361092010062205E-2    1.400111185524162E2    -9.712285318298089E-2    1.403523318478711E2    -4.979977729464072E1    -7.029154963272947E1
 1.069000000000000E9    -5.361015882657942E1    -1.766937328495131E2    -7.544186909155790E-2    1.394925325621539E2    -1.007369872950593E-1    1.397834761979804E2    -4.961999067942136E1    -8.477400335687187E1
 1.070000000000000E9    -5.881369214657831E1     1.658581933920229E2    -7.255231658550965E-2    1.389115701826031E2    -9.459405382205204E-2    1.392695574712451E2    -4.834504527701665E1    -8.291674530832428E1
 1.071000000000000E9    -6.771105884280183E1    -1.797943015136166E2    -6.604304272074246E-2    1.383839449720018E2    -1.018387755380931E-1    1.387172473137385E2    -4.663440790221372E1    -8.173411491294644E1
 1.072000000000000E9    -5.514178914528451E1    -1.551589966625072E2    -7.193718910223740E-2    1.378442828406890E2    -1.067199390812954E-1    1.381660283310231E2    -4.804808109454476E1    -8.346246014916352E1
 1.073000000000000E9    -5.643470034609251E1    -1.796314762722965E2    -7.439161989362705E-2    1.372843888629518E2    -1.052610513673930E-1    1.376261084372927E2    -4.679153115919669E1    -8.244201146767945E1
 1.074000000000000E9    -5.671757565179877E1    -1.539730452668907E2    -7.509463166442591E-2    1.367720132905024E2    -1.031181254879206E-1    1.370832837683200E2    -4.500084445586307E1    -7.379497334982708E1
 1.075000000000000E9    -6.226045771375041E1    -1.367748560216318E2    -7.839068895167439E-2    1.361992323741445E2    -1.005964419769330E-1    1.365062186712285E2    -4.568124780342647E1    -8.515213226628184E1
 1.076000000000000E9    -5.351795136762349E1    -1.750745330836607E2    -7.709118935133723E-2    1.356857073553240E2    -1.053961968099109E-1    1.359651947177594E2    -4.701839166310050E1    -7.730247796543270E1
 1.077000000000000E9    -5.149420763602898E1    -1.393100841831057E2    -7.529132248109753E-2    1.350808263978820E2    -1.067266517631626E-1    1.354438305747629E2    -4.795088575097094E1    -8.626360911483241E1
 1.078000000000000E9    -5.525204469712023E1    -1.509754248328836E2    -7.455942726618434E-2    1.346211051444351E2    -1.037185585583922E-1    1.349025521007476E2    -4.521377847363304E1    -7.976329647645930E1
 1.079000000000000E9    -4.979110714233109E1    -1.403454848529740E2    -7.483472434009919E-2    1.340355352206692E2    -1.064943831158628E-1    1.343932968077692E2    -4.483393740983469E1    -8.079907786127211E1
 1.080000000000000E9    -5.650138337711010E1    -1.345177540863715E2    -7.622867949168219E-2    1.334954826061950E2    -1.084651611474243E-1    1.338199718996758E2    -4.557001712826587E1    -7.878549770827011E1
 1.081000000000000E9    -5.422723970936001E1    -1.299168868342324E2    -7.302356714308604E-2    1.329951750797237E2    -1.094043138068615E-1    1.332990221575312E2    -4.554968856706792E1    -8.530379399454466E1
 1.082000000000000E9    -5.442875147256754E1    -8.652419242203797E1    -8.537809618728957E-2    1.324233386641170E2    -1.070706918610157E-1    1.327421624927713E2    -4.403020290090520E1    -8.075588844085127E1
 1.083000000000000E9    -5.489184881915815E1    -1.231753753701456E2    -8.307903690364490E-2    1.318925355551440E2    -1.069796026013696E-1    1.322027710937769E2    -4.449805489766277E1    -8.239920313599049E1
 1.084000000000000E9    -6.073635903024243E1    -1.448783188242449E2    -8.115755545103431E-2    1.313531767346607E2    -1.064174160613886E-1    1.316655173625624E2    -4.400715683560935E1    -8.025894123026824E1
 1.085000000000000E9    -5.459152315301844E1    -1.201569585106340E2    -7.981396679977147E-2    1.307612660816857E2    -1.135438317421193E-1    1.311549950155804E2    -4.331223484697156E1    -8.357373005450867E1
 1.086000000000000E9    -5.562760320177081E1    -7.213599814178194E1    -8.120418656606480E-2    1.302481069476033E2    -1.099178009387597E-1    1.305902374597651E2    -4.332464118647611E1    -8.076823279592493E1
 1.087000000000000E9    -5.096783754871674E1    -1.014397109318344E2    -8.077573767683240E-2    1.296973412320120E2    -1.151262629995586E-1    1.300646636659214E2    -4.299037141438578E1    -7.678326809599514E1
 1.088000000000000E9    -5.562318755211288E1    -1.204181088332299E2    -8.670710304414042E-2    1.291370650381405E2    -1.131245951581268E-1    1.295125823557881E2    -4.266479389634085E1    -7.655189669223800E1
 1.089000000000000E9    -5.794399373875952E1    -9.720029084236302E1    -8.396014020345359E-2    1.286060858861818E2    -1.167010036131921E-1    1.289955809284986E2    -4.247423703114693E1    -8.063517395737588E1
 1.090000000000000E9    -5.408307922933958E1    -1.009295314247738E2    -8.920211020201410E-2    1.280772382367056E2    -1.084526849331728E-1    1.284205834255184E2    -4.357661857182363E1    -7.295040176932847E1
 1.091000000000000E9    -5.112834370247843E1    -1.028900848803925E2    -8.447082001507579E-2    1.275514138516726E2    -1.178697997672787E-1    1.278893117444504E2    -4.300784031557554E1    -7.005591532978353E1
