#  HZ   S   DB   R     50.00 
! Rohde & Schwarz Vector Network Analyzer 
! Rohde-Schwarz,ZNB8-4Port,1311601044102961,2.82
! Created: UTC 1/17/2019, 3:44:46 PM
! freq[Hz]                db:S11                  ang:S11                 db:S12                  ang:S12                 db:S13                  ang:S13                 db:S14                  ang:S14
!                         db:S21                  ang:S21                 db:S22                  ang:S22                 db:S23                  ang:S23                 db:S24                  ang:S24
!                         db:S31                  ang:S31                 db:S32                  ang:S32                 db:S33                  ang:S33                 db:S34                  ang:S34
!                         db:S41                  ang:S41                 db:S42                  ang:S42                 db:S43                  ang:S43                 db:S44                  ang:S44
! 
 1.400000000000000E9    -4.023481099713880E1    -1.666599244029850E2    -4.377201743779088E-1    2.054311266979916E1    -7.443080280966737E1     7.727285704594453E1    -8.093017148032600E1     7.856309118396565E1
                        -4.105093112373897E-1    2.032068234599119E1    -3.533396479857724E1     1.061938713838723E1    -8.169813000338669E1    -1.003531623942262E2    -9.791855804093457E1     1.181945638065451E2
                        -7.250886280018881E1    -4.004704530834031E1    -7.113043844140820E1    -1.320324174108280E2    -1.782504275028717E-1    8.580224444295398      -7.867117618508739E1     1.317229466096607E2
                        -7.519464833137624E1    -1.143128521864989E2    -7.172238658100991E1     1.608920189063838E1    -7.414077822988817E1    -1.606275277984713E2    -1.143873261788238E-1    9.696818002902502

 1.400200000000000E9    -4.185409747015292E1    -1.600285938280138E2    -4.164057951792770E-1    2.002094027462174E1    -7.898187408570998E1     5.252446108516362E1    -7.223313263832411E1    -1.597860377979645E2
                        -4.056781173374136E-1    1.995802749288961E1    -3.540299104349679E1     1.024839877611601E1    -7.942868814596781E1    -1.766832240889144E2    -7.684566832451920E1     1.579860165729510E2
                        -7.155157937952686E1     6.225533216529755E1    -7.509473142153962E1     1.109748137554239E1    -1.830507430291671E-1    8.683764391043789      -7.895809722469431E1    -7.239240188862189E1
                        -7.423819789394081E1    -6.984575509335697E1    -8.172110179881778E1    -5.524736278077440E1    -7.570365839477782E1     1.440146922381944E2    -1.187116500022968E-1    9.575703860245767

 1.400400000000000E9    -4.066575318463067E1    -1.686423390375025E2    -4.281513029507688E-1    1.965907795630458E1    -9.077411715931953E1    -8.919216001923827E1    -7.994949075365298E1    -1.693703662535208E2
                        -4.099475174026077E-1    1.946535358969394E1    -3.654024847951870E1     1.175575233607482E1    -8.021546256755345E1     1.316590595418548E2    -7.388810958702744E1     8.523575869241561E-1
                        -8.176642342330275E1     2.790029711998261      -7.650570301807041E1    -1.706029390467416E2    -1.806617820926451E-1    8.799037848470549      -8.818669811106892E1    -1.320337266618758E1
                        -7.640028244167503E1    -7.749089995966108E1    -7.214574062800148E1     8.600391357866766E1    -8.619670713554974E1     1.617826900088475E2    -1.169534712164869E-1    9.507128085193333

 1.400600000000000E9    -4.067054177198138E1    -1.602375541082494E2    -4.280942042734776E-1    1.939047343308112E1    -7.695981443507299E1    -4.786124802234862E1    -7.574193873094158E1    -5.789824024739408E1
                        -3.962354999999401E-1    1.899812365898718E1    -3.537804737994147E1     1.203251939665850E1    -7.718138098242558E1    -8.650593504900805      -8.874812618662460E1    -9.626966199345006E1
                        -8.204378864943018E1    -2.974532773804518E1    -7.566618997491970E1     1.265474086160196E2    -1.777890770601726E-1    8.720414731707031      -7.771673144763665E1    -1.786017082884217E2
                        -7.449458144146053E1     1.545150777069597E2    -1.001531309331067E2     1.452687396988762E2    -8.188191077242608E1     6.860039730652541E1    -9.654614471502133E-2    9.634901921565614

 1.400800000000000E9    -4.160010151831736E1    -1.650824300136849E2    -4.181162247489725E-1    1.897003708814343E1    -7.864023279960389E1    -5.260708382329097E1    -7.574610812088599E1     1.061557268269364E2
                        -4.293163687401908E-1    1.873187105172386E1    -3.560491937460796E1     1.108686322119744E1    -7.510934330950376E1     4.949827990930351E1    -8.010454032832899E1     1.614690310404220E2
                        -8.011673088616095E1    -7.942884142591321      -7.862803561674079E1     1.375188934823915E2    -1.782531080323968E-1    8.695173763296953      -8.136529785124932E1     3.651679535149946E1
                        -7.963613733243730E1    -4.954021223808660E1    -7.816265331997316E1     1.713116506998991E2    -6.977005450431777E1    -7.006201865581126E1    -1.236156114501025E-1    9.613560266178773

 1.401000000000000E9    -4.258382763163755E1    -1.694301762518007E2    -4.171314638682903E-1    1.842514406407826E1    -7.921743158715547E1    -5.532732433809484E1    -7.772144556352714E1    -4.846357322618569E1
                        -3.862357755538116E-1    1.829162518416847E1    -3.616070000229482E1     8.097008635280080      -7.576799343666998E1    -1.125031786236906E2    -7.761378563878986E1     4.773322488620744E1
                        -8.950594437062824E1    -1.460604190917416E2    -7.418242914644692E1     1.020255545161495E2    -1.971285237017084E-1    8.716449962769577      -7.820000393781996E1    -1.282929400105592E2
                        -8.076791145107976E1     8.914314927615314      -7.525581584037352E1    -5.408104012022149E1    -8.206771829043005E1     2.205767718930655E1    -1.153427443791431E-1    9.639436163950320

 1.401200000000000E9    -4.120322210058415E1    -1.676548865141779E2    -4.252559381875715E-1    1.813363899821595E1    -7.541909535042214E1     1.707999163535250E2    -7.051553951381480E1    -1.457823712528673E2
                        -4.207336962139858E-1    1.789253461700093E1    -3.595347746745173E1     9.164334412333441      -7.392095066075228E1    -1.559724511618276E2    -8.438422334509723E1    -1.174410752817379E2
                        -7.644631018315397E1     8.910170995108099E1    -8.957606914741811E1    -2.363565191340711E1    -1.699585521632005E-1    8.734706685839552      -7.663885347071737E1     6.619729963638214E1
                        -7.626260764482470E1    -6.341609186723230E1    -7.648182158086203E1     1.176569619179977E2    -7.488303581512612E1    -5.691024655887309E1    -1.183501431488010E-1    9.667162114312992

 1.401400000000000E9    -4.090745332089806E1    -1.692016490470768E2    -4.118020068106196E-1    1.773048727852002E1    -7.953963401974400E1    -1.375525607260455E2    -8.405690179713619E1     5.230649375047374E1
                        -4.096883736079161E-1    1.743021086237860E1    -3.551308662630892E1     5.653981576612840      -7.793512528518653E1     1.422599797989550E2    -7.514262672175066E1    -1.357738760600274E2
                        -9.092462889558647E1    -7.468389198946532E1    -7.498114124346172E1    -3.015847374098567E1    -1.687533054627947E-1    8.740842303187538      -8.335365186382902E1    -3.140278127792762E1
                        -7.924049670998905E1    -1.079169786689685E2    -6.993158453672875E1     8.462600496447693E1    -9.004921923911807E1     8.953613652559662E1    -1.035456901416638E-1    9.680040484583987

 1.401600000000000E9    -4.182219204571253E1    -1.704930611348505E2    -4.189617754453280E-1    1.732326165217879E1    -7.650947599444304E1     3.768537947121967E1    -7.485033749284811E1    -1.355281504970796E1
                        -3.756135590785583E-1    1.706004293233493E1    -3.535502341914268E1     8.094506693198509      -7.606411476198944E1    -1.531827588893357E2    -8.314967777565322E1    -3.182858557656104E1
                        -7.485827204220898E1    -1.211266433834157E1    -7.852879911736889E1     2.924657283091182E1    -1.763230150073468E-1    8.680982575968036      -7.994249252109520E1     4.410470971245832E1
                        -8.485981859765835E1     1.455379198619409E2    -7.489944399360654E1     1.269584905249933E2    -9.262249677241999E1    -9.438217999473324E1    -1.048942790319495E-1    9.659093631550887

 1.401800000000000E9    -4.082663401015658E1    -1.647678274498388E2    -4.123811768703980E-1    1.690653971304037E1    -7.828522875962671E1    -1.128310037449664E2    -6.931911525092832E1     4.806429566561205E1
                        -3.862672427152522E-1    1.671229908847365E1    -3.574341006572804E1     5.095561874714957      -7.757996509089939E1    -1.771231516677687E2    -8.001615747043879E1     1.675009730457571E2
                        -8.143211275280216E1     6.334305661920786E1    -7.316963282707489E1     1.440268308857744E2    -1.741709137465594E-1    8.655802056536871      -7.772169889258088E1     1.656416107720601E2
                        -7.555393745370398E1     1.584595949306977E2    -7.969309390075294E1    -6.672184615544390E1    -7.833943467548025E1    -1.538087869487266E2    -1.119879651329275E-1    9.768444416535489

 1.402000000000000E9    -4.017430242302653E1    -1.673325112672781E2    -4.084511933605596E-1    1.646743765601644E1    -7.834094220497876E1    -2.127693561253983E1    -8.290310242495178E1    -7.724970904970623E1
                        -3.947527956149510E-1    1.626874382950877E1    -3.552479367069373E1     6.319232168591671      -7.546004053713357E1    -1.105103228836818E2    -7.688693168703838E1    -7.624143271994073E1
                        -7.728680994473562E1    -7.811216013845326E1    -7.546433032696123E1     1.269353627262403E2    -1.704623066380690E-1    8.637386577742982      -7.536585049609572E1    -1.525821700650892E2
                        -7.694629392357940E1     9.887294051305970E1    -8.216138885195943E1    -1.333257583858207E1    -8.042617781681113E1    -2.311557879337622E1    -1.261785667127493E-1    9.659343419444065

 1.402200000000000E9    -4.139556061504383E1    -1.661183978007732E2    -4.250186210052639E-1    1.620531038412105E1    -8.975291082198825E1    -3.794892134665108E1    -8.083515234333943E1    -1.041198390688001E2
                        -3.929934099645559E-1    1.579338125924247E1    -3.569226790988770E1     2.591664504877084      -8.230133887341695E1     1.652501118530971E2    -7.901157069472384E1     1.598950929753655E2
                        -7.292290309048266E1     3.328437083892165      -7.555915138741595E1     1.573929280218523E2    -1.827272699512258E-1    8.629131918354778      -7.596290965895193E1    -7.447786961531796E1
                        -7.491771545850773E1    -1.719295557360534E2    -7.705072631455623E1     1.034082288337180E2    -8.127344379044962E1    -2.923093869082850E1    -1.095854104986397E-1    9.666533564922315

 1.402400000000000E9    -3.978822067463704E1    -1.578627022698212E2    -4.026608126625070E-1    1.576375836696790E1    -8.072123182264218E1    -2.655864298149569E1    -7.779488485241328E1    -1.399185437209018E2
                        -3.918347563371566E-1    1.536805137293354E1    -3.569327675464925E1     4.884542475429797      -7.370011230246996E1     3.057448169163315E1    -7.595169018639211E1    -7.225630019224052E1
                        -7.600884680804809E1     1.640241402801459E2    -8.190320974438410E1     1.281908443210663E2    -1.823754273216035E-1    8.636965463938438      -7.323335707379506E1     1.758052095173740E2
                        -8.126134034059407E1    -2.740144720557684      -8.365826283310496E1    -8.375745673553053E1    -7.821711821639484E1    -8.414443947354965E1    -1.009534920134237E-1    9.624526483428982

 1.402600000000000E9    -4.152138301341388E1    -1.576343655625269E2    -4.055664056188651E-1    1.545091391098542E1    -7.661315832306491E1    -1.800750956906954      -7.536517595058024E1     1.007501802282598E2
                        -3.881429052432392E-1    1.498331334682669E1    -3.601529119524847E1     3.332365979496033      -8.291585950025603E1    -1.391206284502446E2    -7.584149213421411E1     6.977402316577386E1
                        -8.087908827044024E1     1.606155272509473E2    -9.181697342916078E1     1.796351892697941E2    -1.827592496329717E-1    8.718426803161099      -7.561276250713799E1    -1.355916383990504E2
                        -7.370080460834642E1     2.464692955878466E1    -7.521058659625969E1     1.155833368024289E2    -7.594993386823626E1     3.732154039278823E1    -1.234298076569583E-1    9.728057638634182

 1.402800000000000E9    -3.979568841174073E1    -1.607519228367058E2    -4.051453652590936E-1    1.494799376126420E1    -7.308290259509944E1    -1.637911908884650E2    -8.534121033391901E1    -3.515503004236536E1
                        -3.967197828864544E-1    1.462095326026510E1    -3.616276655382998E1     3.591289171066925      -1.007805101659338E2    -1.091714777932847E2    -7.132403843737704E1     7.569986992199243E1
                        -7.329365674133197E1     1.653625524399294E2    -8.327316596445783E1     1.566549707273562E2    -1.837714805376192E-1    8.676226053752684      -7.459450583540819E1     1.110468904204991E2
                        -7.702546257660922E1    -4.586304149546618E1    -7.688365271691970E1    -1.079797422853791E1    -8.849518447843138E1    -1.300022023878237E2    -1.165486188647164E-1    9.732922765479119

 1.403000000000000E9    -3.978953745534048E1    -1.555994598339303E2    -4.063426303135520E-1    1.460344218586675E1    -8.270608313595277E1    -1.310301171065411E2    -8.213292255920288E1    -9.033915505245689E1
                        -3.902284959743645E-1    1.417784561962035E1    -3.664270791084209E1     3.869224507723866      -8.975128133835675E1    -5.245625536796310E1    -8.499370809255237E1    -3.266787758531689E1
                        -7.509288355636339E1    -3.577561557932364E1    -8.103043394184310E1    -9.448579160487002E1    -1.874943201436333E-1    8.718420270666710      -8.144123071369940E1    -1.612971382349988E2
                        -7.717075497099928E1     1.584827145496938E2    -7.513295648974152E1     1.021430056471655E2    -8.210069310613594E1     1.225716716604733E2    -1.204570333128269E-1    9.754079559238999

 1.403200000000000E9    -4.006454473523424E1    -1.586608543600540E2    -4.154872556466271E-1    1.406895415325434E1    -7.621496672129423E1     1.190269766841833E2    -7.390188923638463E1    -4.692477047073200E1
                        -3.880096395651899E-1    1.374103138872759E1    -3.573097674869311E1     6.415794711087387      -7.426730067273105E1    -1.918243144466159E1    -7.306801564337954E1     9.825229567288430E1
                        -8.353727846129375E1    -1.048228259621681E2    -8.229657893782898E1    -8.547850276439948E1    -1.869850760843513E-1    8.696810821597845      -7.400555085589814E1    -1.285680727181441E2
                        -8.310518858185718E1     8.429844223583270E1    -7.331312455047579E1    -5.400126981093118E1    -7.571242293911796E1    -3.377837591839734E1    -9.728206352922299E-2    9.742256280399882

 1.403400000000000E9    -3.939427863869602E1    -1.620041676045534E2    -3.998206621402908E-1    1.378157560148140E1    -8.025782744614705E1     5.608979931835282E1    -8.857686501529365E1     8.440184486115200E1
                        -3.895873066378157E-1    1.345546032910353E1    -3.613907687765900E1     1.242397596564943      -7.088252111093526E1     1.516557614119739E2    -7.553500036452023E1    -1.719089801604374E2
                        -8.949578027542194E1     1.453688002753774E2    -8.601648873136367E1     1.450537726364578E2    -1.761913020932838E-1    8.769337895572772      -8.390204696618338E1     8.636010185767361E1
                        -7.266286206519047E1     3.669315283657362E1    -7.788321345429839E1     6.008729242331921E1    -7.142029963949544E1     5.189921042827947E1    -1.122163127971582E-1    9.847925392166642

 1.403600000000000E9    -4.051923379796915E1    -1.616614938971781E2    -3.888222117943315E-1    1.339025233582566E1    -8.849446114505641E1    -1.151602038989508E2    -7.739124841368594E1     6.633815555232405E1
                        -3.850846569551923E-1    1.313960592898904E1    -3.633619600733125E1     2.024362611034007      -7.336064162641188E1    -4.941429399549318E1    -8.531078254768613E1     3.147129830854047E1
                        -7.616318976822481E1     1.302560911881214E2    -7.515987605596962E1    -2.650258013729955E1    -1.836528061361689E-1    8.735728356212833      -7.267658584764382E1    -7.823473072055174E1
                        -7.420673874464607E1    -1.294509254532268E2    -7.758958831514710E1     1.761866968024237E2    -7.270801653797390E1    -1.643432881542750E2    -1.122923248140826E-1    9.612992218978404

 1.403800000000000E9    -4.148598127723916E1    -1.645245748507955E2    -4.013638485075624E-1    1.291055202597999E1    -7.958852597274431E1    -1.218616631719607E2    -7.805186447936661E1    -6.258620244243152E1
                        -3.869402552170159E-1    1.264182617894757E1    -3.632143381498716E1     3.418995822361129      -7.625149711633463E1    -1.967900489314534E1    -7.948266966622019E1     6.924153685157107E1
                        -8.404176383177122E1     8.211476860022884E1    -8.118393730339548E1     1.273658780836813E2    -1.839987720388657E-1    8.758286048975768      -7.506001553816368E1    -9.930502285065789E1
                        -6.959974987944369E1     1.352343924400870      -8.126818167472740E1    -3.666236972223381E1    -9.058508505794883E1     5.041791421235555E1    -1.182741747952653E-1    9.786803025452338

 1.404000000000000E9    -4.122938243686591E1    -1.681748491185363E2    -4.167889893752376E-1    1.264946256868032E1    -8.263722369985216E1    -3.659984688201580E1    -7.183010074282542E1     1.143301096016955E2
                        -3.879056810247732E-1    1.235096660321486E1    -3.697358009143088E1     2.286524491393626E-1   -7.522002875836230E1     7.066878119283423E1    -9.327342844152571E1    -2.423978247605821E1
                        -7.805238158659262E1     7.004212736639100E1    -9.061897062777322E1    -1.045212153565064E2    -1.893879502467455E-1    8.759747404139587      -8.250433800167448E1    -9.744349356010230E1
                        -7.659327120202509E1    -1.357342257215254E2    -7.587522865310140E1    -1.187281706013924E2    -7.954032175491635E1    -1.698757375093261E2    -9.889497516666032E-2    9.623173466995462

 1.404200000000000E9    -4.201009636282326E1    -1.624063594318840E2    -4.094188281838998E-1    1.210960691344306E1    -7.117514033314433E1    -8.491376322957409E1    -8.240929908978187E1     9.809916277371256E1
                        -3.740944998617562E-1    1.191572671091545E1    -3.731541570450963E1     9.230963368394757E-1   -7.699425476894929E1    -7.831082045149098E1    -7.536876570145387E1     1.595335275892652E2
                        -9.202588930105398E1     1.502409041323429E2    -7.650890817140569E1    -1.651121605880059E2    -1.734440684714582E-1    8.746694640717863      -8.195908699178057E1    -4.390513683926734E1
                        -7.890801338778375E1     5.510830140975586E1    -7.673800408190039E1    -1.625248622039633E2    -7.458421113314635E1    -6.411611992146302E1    -1.098317060602106E-1    9.708030499175985

 1.404400000000000E9    -4.136210148068747E1    -1.564355983190178E2    -3.914240016036418E-1    1.178797711293885E1    -7.617144848872712E1     8.589341356812291E1    -7.057014009373839E1     5.609998995210352E1
