#  HZ   S   DB   R     50.00 
! Rohde & Schwarz Vector Network Analyzer 
! Rohde-Schwarz,ZNB8-4Port,1311601044102961,2.82
! Created: UTC 1/17/2019, 3:50:38 PM
! freq[Hz]                db:S11                  ang:S11                 db:S12                  ang:S12                 db:S13                  ang:S13                 db:S14                  ang:S14
!                         db:S21                  ang:S21                 db:S22                  ang:S22                 db:S23                  ang:S23                 db:S24                  ang:S24
!                         db:S31                  ang:S31                 db:S32                  ang:S32                 db:S33                  ang:S33                 db:S34                  ang:S34
!                         db:S41                  ang:S41                 db:S42                  ang:S42                 db:S43                  ang:S43                 db:S44                  ang:S44
! 
 1.400000000000000E9    -2.246431815603853E1     1.345273053432850E2    -4.157103238587975E-1    3.781637223204190E1    -7.357569314515990E1    -8.246799316128112      -8.456276921464695E1     8.135960758406458
                        -3.764944811238097E-1    3.763837198100698E1    -2.259944250946343E1     1.121576322032073E2    -8.382145606462697E1    -1.807408158443273E1    -7.719968500133578E1    -1.380826158570569E2
                        -7.619577691380835E1     1.194581456908204E2    -7.836125765386976E1     1.132227887361766E2     2.120647253407697E-2    9.929411507972864      -7.514334422688866E1     1.789512028613821E2
                        -7.217026625792200E1    -9.279094629312985E1    -7.356990995348900E1     1.693261605411847E2    -7.164852890054922E1    -9.039647501644313E1    -1.096849343013064E-1    9.704965867528530

 1.400200000000000E9    -2.244129115998782E1     1.334365408695703E2    -3.930432458485592E-1    3.746130539241763E1    -7.586100143489514E1     1.474602314104861E2    -7.958445682729470E1    -2.873307160886720E1
                        -3.785154285511183E-1    3.740341483896965E1    -2.276460555816184E1     1.119766413688467E2    -7.760117829442871E1    -1.274646799984386E2    -8.081472172061773E1    -1.543009009700957E2
                        -7.700896705305024E1    -2.301780170500249E1    -8.447306099144933E1    -1.088384176990123E2     2.355765693667720E-2    1.004942815131567E1    -7.860986215503742E1     1.339036348988590E2
                        -8.661805294401425E1     1.295921627188543E1    -7.478053453861206E1    -1.406962242269420E2    -7.639920022628773E1    -7.371295770306271E1    -8.695390262183195E-2    9.722927114224595

 1.400400000000000E9    -2.240642793924242E1     1.339056179499529E2    -4.067954821095741E-1    3.708440283910575E1    -7.542053545348259E1     6.592510898434026E1    -7.064153362988613E1     1.669929761244728E1
                        -3.698558607978673E-1    3.694704868467873E1    -2.261027160422929E1     1.125838073427254E2    -7.866547852804486E1     5.473422510089738E1    -7.916902600800719E1     1.415445435631950E2
                        -7.779983342709356E1     6.917645417386088E1    -7.264025495633257E1    -1.641752395267513E1     3.502648953995148E-2    9.967244232777787      -8.093264517833524E1    -1.293392235985618E2
                        -9.187330874722642E1     2.832539716899671E1    -7.212595768284494E1     1.475600939187775E2    -6.967653072378674E1    -1.093512028425427E2    -1.040631447779047E-1    9.672124789937088

 1.400600000000000E9    -2.257525419062528E1     1.336710723315566E2    -3.982796067465741E-1    3.678979563151673E1    -8.680341856025818E1    -3.427499646037570E1    -7.820321311133880E1    -1.024958595837975E1
                        -3.685449360412718E-1    3.660015768149059E1    -2.270989803183163E1     1.120332839426355E2    -8.406905009709170E1    -1.178290763151660E2    -7.185148206881445E1    -1.041056362067279E1
                        -7.561612715608925E1    -3.101285915378794E1    -7.333506171101863E1    -1.625548429934152E2     1.316259223064253E-2    1.006091323987650E1    -7.978804286421098E1     1.215668980891176E2
                        -8.462956324702658E1     1.472289717795516E2    -8.593489474377783E1     1.017370629864199E2    -7.889943580573677E1    -1.021275060283104E1    -9.771735960614035E-2    9.814724497781485

 1.400800000000000E9    -2.250616214429756E1     1.323942704755087E2    -3.880974220638975E-1    3.646974362546989E1    -7.894654702277170E1     7.882294587635589E1    -8.443580871235986E1    -1.658489961066209E2
                        -3.817165348327613E-1    3.635642279587126E1    -2.281422634296111E1     1.107379538250063E2    -7.456536715834658E1    -1.459780969515823E1    -8.224347670230642E1     9.657214417905348E1
                        -8.080638592599451E1    -3.166653842438873E1    -7.991108611627800E1     7.313433521653923E1     3.171433707997509E-2    9.985879872467775      -7.417267586846577E1     1.783739517528264E1
                        -7.338764811480365E1    -2.462900320665349E1    -7.606257259028949E1    -1.679468031487487E2    -7.769745931824494E1     1.141576165613018E2    -9.837924175818845E-2    9.812851171625217

 1.401000000000000E9    -2.247099995004565E1     1.323924572027436E2    -4.159754442698880E-1    3.618607914117006E1    -8.256661597263337E1     1.530402235235651E1    -7.855702603985924E1    -1.326520443812691E1
                        -3.857252271701874E-1    3.589221508804828E1    -2.262003271068367E1     1.112323579454421E2    -7.800632560436924E1     9.964718297252911E1    -7.579252080162469E1     1.831402402693813E1
                        -8.080224028594655E1    -1.317340720385924E2    -7.740815630215596E1    -2.949148286239879E1     1.789313165535095E-2    9.957459601967692      -7.451355526450517E1    -1.087014557274348E2
                        -7.778929165885080E1     1.693264366737731E2    -6.916546705228720E1    -1.154399974198386E2    -7.112026109929494E1     1.600452725094584E2    -1.076722190869305E-1    9.856046474143398

 1.401200000000000E9    -2.243573977116593E1     1.315699818305954E2    -4.033627230202169E-1    3.582589446499708E1    -8.503260593496611E1     1.467295554186032E2    -8.089215660121802E1    -8.456193926411432E1
                        -3.901578940232655E-1    3.559162351613252E1    -2.254558638079765E1     1.105022078985704E2    -7.596853412961376E1    -2.381190684281294E1    -8.422158698505496E1     7.423492396207513E1
                        -7.835643959639990E1    -4.665672952140264E1    -8.315946377442927E1     5.224013855226006       1.021059176028936E-2    1.000828315748106E1    -7.898609296419159E1    -9.681144428472265E1
                        -8.105530076529333E1    -9.688853335485013E1    -8.742641325057521E1    -1.196943905189390E2    -8.223725221425546E1     1.275724826374113E2    -1.017187127879912E-1    9.789218704122959

 1.401400000000000E9    -2.236689659338201E1     1.313958145789337E2    -3.925601968168452E-1    3.542613498259784E1    -7.678004648936677E1    -1.115907346558311      -8.071205320225276E1     1.515975101495159E1
                        -3.783808445521378E-1    3.524498835371072E1    -2.265179309085230E1     1.101137229896857E2    -7.479145317335403E1     1.502717105818824E2    -9.054294876148971E1     9.110917273085983
                        -8.270957479561695E1    -1.314607416811070E2    -7.170651717502290E1     1.369750700607061E2     1.213070999641071E-2    9.942306418569046      -8.287657653695172E1    -1.915527245110165E1
                        -8.504837257365384E1     1.763476651726134E2    -7.440335303374708E1    -5.611880042704822E1    -7.748848718230744E1    -4.101330559717616E1    -1.005861955015349E-1    9.749271134915086

 1.401600000000000E9    -2.243984101277346E1     1.312067565348900E2    -3.936285763947340E-1    3.512982558268309E1    -7.777034984375678E1     1.271310661562488E2    -8.188354150027892E1    -6.566074895250429E1
                        -3.734230923743812E-1    3.477804991626604E1    -2.266824513541562E1     1.102051920038687E2    -7.169780050295940E1     5.031048434747093E1    -7.876017615034459E1    -3.025525297316112E1
                        -7.903313511381870E1    -1.638062915681066E2    -7.689964276574324E1    -1.353371199359370E2     2.294551619633277E-2    9.922717592353468      -7.827709367772121E1    -1.374132208368460E1
                        -8.383862335183403E1     1.367480689272730E2    -7.231049201230350E1     5.447068596174153E1    -7.500346072131930E1    -1.836926298608473E1    -9.181337650096141E-2    9.911367103862624

 1.401800000000000E9    -2.235556481493585E1     1.309697760793648E2    -3.990517965997473E-1    3.481460785206678E1    -9.032942489885866E1    -8.133351430786873E1    -8.207232543940842E1     3.516389396788949E1
                        -3.783377042557167E-1    3.459385068413971E1    -2.266825736596710E1     1.092436189645763E2    -8.831217747853381E1     1.715596361027821E2    -7.455751353348066E1    -1.060102823048985E2
                        -8.071854846212213E1     1.274141168924464E2    -7.152591676364332E1     1.112344624043551E2     1.300500717955624E-2    9.868949443316772      -8.283980583340265E1     7.071700262213244E1
                        -7.640638963366740E1     1.790710996495100E2    -7.817398076985698E1    -2.235262466183329E1    -7.444155777284790E1     1.440366439872697E2    -9.970232093432328E-2    9.928047729317285

 1.402000000000000E9    -2.250014156928413E1     1.314175184121474E2    -4.033095978256628E-1    3.449135265373690E1    -8.253736388932774E1    -1.575757550797219E2    -8.007502461614897E1     1.624509697543931E1
                        -3.736078509443027E-1    3.427093812933027E1    -2.275621001590577E1     1.087088057596205E2    -7.941631437954402E1    -8.473458525815639E1    -7.739118722129911E1    -2.424211737174233E1
                        -7.649543837180735E1    -5.735221764971210      -7.982125119980734E1     1.119188929947388E1     2.886292978822327E-2    9.929786179984538      -8.108626853981082E1    -1.191116504550604E2
                        -8.649177040359517E1     1.807941626152357E1    -7.300892099715060E1     1.270325041758650E2    -7.967547525526440E1     1.152665605532449E2    -9.139942704912017E-2    9.832250868854557

 1.402200000000000E9    -2.224428905768795E1     1.302751542201770E2    -3.958617040472273E-1    3.408748889381797E1    -7.545998265410258E1    -2.528001054838147E1    -7.065302980846694E1    -1.203918755151196E2
                        -3.906924454983272E-1    3.378139614954931E1    -2.264652245653254E1     1.090704009240326E2    -7.659764162118972E1     1.155172665559685E2    -8.510028577515615E1    -7.338348439714054E1
                        -8.131730471980588E1    -1.166507523942505E1    -8.076817399803046E1     1.430043096966831E2     2.113183089009994E-2    9.940420048031426      -7.385174310947615E1     1.483900367579527E2
                        -8.288371047775340E1    -2.112093873137944E1    -7.801766225516437E1     1.400862803569928E2    -7.614371222312866E1    -1.718719557354068E2    -9.764799737961107E-2    9.878743412530218

 1.402400000000000E9    -2.245440010650259E1     1.309492204712768E2    -4.041186878239175E-1    3.373210912558018E1    -8.351559148155671E1    -4.293834094410921E1    -7.911097094332624E1    -1.140695509480524E2
                        -3.781812833438398E-1    3.343269742397001E1    -2.275741655643461E1     1.089090206162543E2    -7.709208889034535E1     5.838602292675403E1    -7.903698280179853E1     1.090510731678935E2
                        -7.904169049889175E1     8.774004073966499E1    -7.826274712667404E1    -8.490074217711860E1     1.699231306882348E-2    9.898611325577290      -7.711783220960581E1    -9.504849674814714E1
                        -8.780955072496447E1    -7.245719593614211E1    -8.821875874607507E1    -8.882261399747161E1    -7.397385032579382E1    -9.704405276396972E1    -1.028301397874854E-1    9.865921624920084

 1.402600000000000E9    -2.255500592571252E1     1.295719582239491E2    -3.928370320708705E-1    3.347230724653434E1    -8.696556011040327E1    -1.220491780138027E2    -7.734555983539148E1     3.125384167402639E1
                        -3.804399921962579E-1    3.309577118708432E1    -2.270707688537722E1     1.092462102528098E2    -8.794315173309983E1     3.660264776151909E1    -8.227605865066931E1    -1.209330865350268E2
                        -8.070689114886547E1     7.243008270028382E1    -8.432338586585316E1    -2.598572429331569E-1    2.042762526269578E-2    9.949396677976250      -8.304201188484940E1     1.244375730106837E2
                        -7.122971519330024E1     7.605751314456111E1    -8.226397144461976E1     1.742581486835457E2    -9.041640671470269E1    -1.330963928307580E2    -8.736042731306648E-2    9.852643088916688

 1.402800000000000E9    -2.255132469327410E1     1.288219692681186E2    -3.945416074040992E-1    3.322168227705100E1    -7.516300493317402E1     9.472114317980461E1    -7.960561513861518E1     5.969717520610483E1
                        -3.728100861514266E-1    3.284655953588586E1    -2.271147086657219E1     1.093152621284264E2    -8.071835035896433E1    -1.769072757804258E2    -7.569302444538462E1     1.562542635517057E2
                        -9.041664305865314E1    -1.479938259595901E2    -7.224776854292466E1    -1.336857144654348E1     9.371348382843715E-3    9.971794698464063      -7.451265131713227E1     3.144284580775214E1
                        -7.585432694741361E1     1.352236837803665E2    -9.200205587542646E1    -7.525920154140653E1    -7.942942855234750E1     1.492002690916528E2    -9.052242293208759E-2    9.850062345365449

 1.403000000000000E9    -2.267618201545575E1     1.299339383751763E2    -3.885424844424537E-1    3.272974362297151E1    -7.311647563217771E1     5.667293404062967E1    -7.492765467390947E1    -1.605556335088788E2
                        -3.752710241729265E-1    3.247126776693344E1    -2.264149548288554E1     1.089275638058758E2    -7.743269597431153E1     9.034138184109655E1    -7.588789617741833E1    -2.143637072046180E1
                        -7.761205847203920E1     5.775604071279327E1    -8.053387061986288E1     1.105841351013014E2     1.768791197398597E-2    1.004395648975857E1    -7.667623936789342E1    -9.217760662182216E1
                        -7.510471617552916E1    -4.403337610818976E1    -7.964415673069929E1     1.019284550196360E2    -8.229266374708607E1     1.142005967446457E2    -8.568656639271419E-2    9.830612296213317

 1.403200000000000E9    -2.250010367636437E1     1.290782423078678E2    -3.968969998462654E-1    3.236093423988619E1    -7.754035696333580E1     4.569450116368435E1    -8.542987016823886E1    -1.834971957456939E1
                        -3.705192770201274E-1    3.209926017296083E1    -2.264179845899736E1     1.084400536463550E2    -7.781349555067133E1    -1.023793618315554E2    -7.665673433266787E1     1.714850712831393E1
                        -8.617667108064596E1    -1.438314649352711E1    -7.241845657777249E1    -5.512394994694704E1     1.580246419864141E-2    1.003960658843137E1    -8.024612756620181E1     1.475851395446389E2
                        -8.459930271456625E1    -2.758557588106971E1    -7.382510371538329E1    -5.580546781815521E1    -7.874805894636160E1     1.538067673355840E2    -8.953774007182266E-2    9.846306458558189

 1.403400000000000E9    -2.261566396823384E1     1.287921617241528E2    -3.779134481916865E-1    3.209641599095486E1    -7.706661665166736E1     1.724693622465265E2    -7.227559659192144E1     2.986148856098179E1
                        -3.924275829230201E-1    3.173691501162492E1    -2.268889255830102E1     1.084350523963654E2    -7.705547796324835E1     1.476122289591916E2    -8.272873217461080E1     1.773116851268303E2
                        -7.118465197143235E1    -1.730436749442441E2    -8.208689284665495E1     1.381752774600891E2     1.719032764115053E-2    1.002583196803179E1    -8.641153502667126E1    -1.535955662731120E2
                        -7.679652785004616E1     7.906101128532283E1    -7.354884186485079E1     4.761950867681357E1    -7.773459190123302E1     4.282550569290714E1    -9.853616333727699E-2    9.879500421597468

 1.403600000000000E9    -2.256617274437446E1     1.286878704174596E2    -3.836980138230439E-1    3.164484100475550E1    -7.990328560474465E1    -5.228195528165517E1    -8.277147218538502E1    -1.532224105928028E2
                        -3.798057958763580E-1    3.150037616551300E1    -2.276381686060261E1     1.082124891384069E2    -7.195112486945766E1     3.006882099214813E1    -7.349284751253882E1    -5.317443110736718
                        -7.891265836616284E1    -7.685647923688001E1    -7.910450796502195E1     1.238015721288980E2     1.458713436601935E-2    9.956278890758007      -7.816316092882151E1    -6.913920820122679E1
                        -8.352193744307188E1    -1.126209508326381E2    -7.822470023802734E1    -1.594814314677361E2    -7.578141185908103E1     1.960574466479137      -7.707700927653384E-2    9.862056425540070

 1.403800000000000E9    -2.248340333392729E1     1.280998090453446E2    -3.968015284400606E-1    3.138412366651974E1    -7.479728335438676E1    -8.742775795929195E1    -7.916019276338238E1    -4.298972961328568
                        -3.730447949718702E-1    3.105783262885160E1    -2.268810715220393E1     1.077171894928967E2    -7.874270442530487E1    -1.582799249693075E2    -7.450627889406700E1    -1.421979481843559E2
                        -8.418798609794308E1     2.047412177219421E1    -7.301173389320849E1    -1.281851707107539E2     7.156408575030304E-3    1.001350537954029E1    -7.441204328729555E1    -1.333384552229602E2
                        -7.373814445364175E1     6.656622925439214E1    -7.406202366590632E1     8.694734682680389E1    -7.719610342378640E1    -3.615104253176402E1    -8.593860258459692E-2    9.825670047748229

 1.404000000000000E9    -2.252535298435944E1     1.264712300053607E2    -3.850541115020733E-1    3.092200500734105E1    -7.572500704271010E1    -1.435774642245254E2    -7.685430548985387E1     9.749194429767627E1
                        -3.628638460029421E-1    3.081825707853444E1    -2.266300899452297E1     1.066438752541043E2    -7.915259869808463E1    -8.741203369795684E1    -7.400685757127630E1     4.156878637441223E1
                        -7.851117261217452E1     1.734191104904906E2    -7.598699605354099E1    -2.692730962720621E1     2.156564255639479E-2    1.000021662850642E1    -8.643399976096184E1     1.448065655914685E2
                        -8.011896959297579E1     1.414881917431990E2    -7.571201623434627E1     1.429842807853162E2    -8.697573536566743E1    -1.686929451798986E2    -9.718822910799366E-2    9.824522546627049

 1.404200000000000E9    -2.244225161335998E1     1.264059864684982E2    -4.059915717052353E-1    3.055510824457758E1    -7.724307566257592E1    -1.158121422620660E2    -8.599483058912553E1     8.418155181362488E1
                        -3.662230685535020E-1    3.040950254435251E1    -2.257255114216780E1     1.069511452359295E2    -7.657029187137336E1    -8.735821544256747E1    -9.157939447803892E1    -5.536186505806516E1
                        -7.389705058971592E1    -9.426186774027667E1    -8.085273992028814E1    -3.267105193934005       9.735448296218894E-3    9.972533899175536      -8.183515475577568E1     1.557515064988628E2
                        -7.708151868168494E1     1.506689868253246E2    -7.700647687930727E1     6.019527562172818E1    -7.778821583751119E1    -1.179141020362478E2    -9.291767230841158E-2    9.866840968906123

 1.404400000000000E9    -2.263509795851952E1     1.267297942506947E2    -3.903752512104825E-1    3.029876736422679E1    -8.233732414291561E1    -1.573556778160223E2    -7.389753598805405E1     4.223237381375453E1
