#  HZ   S   DB   R     50.00 
! Rohde & Schwarz Vector Network Analyzer 
! Rohde-Schwarz,ZNB8-4Port,1311601044102961,2.82
! Created: UTC 1/17/2019, 3:20:16 PM
! freq[Hz]                db:S11                  ang:S11                 db:S12                  ang:S12                 db:S13                  ang:S13                 db:S14                  ang:S14
!                         db:S21                  ang:S21                 db:S22                  ang:S22                 db:S23                  ang:S23                 db:S24                  ang:S24
!                         db:S31                  ang:S31                 db:S32                  ang:S32                 db:S33                  ang:S33                 db:S34                  ang:S34
!                         db:S41                  ang:S41                 db:S42                  ang:S42                 db:S43                  ang:S43                 db:S44                  ang:S44
! 
 1.000000000000000E9    -2.615969968063299E1    -6.179587840756206E1    -6.129547553740392      -7.851558803293121E1    -1.678912892174794      -7.583389474559162E1    -2.585723188207453E1     1.758742520493698E2
                        -6.109163321498370      -7.859336438028154E1    -3.256833917137434E1    -5.895824389879449E1    -2.593422473496853E1     1.705293730581656E2    -1.676485934251804      -7.629867960643016E1
                        -1.673673512833768      -7.582485739061848E1    -2.597859466129957E1     1.711807276111869E2    -2.121653725696718E1     4.631442806817620E1    -6.271093013493609       1.087882149643508E2
                        -2.578464418050792E1     1.761296072489828E2    -1.681738128283656      -7.611132726202942E1    -6.269511803256815       1.083685862197662E2    -2.217325639784559E1     3.727991159900014E1

 1.001000000000000E9    -2.611468307046046E1    -6.219345932699871E1    -6.264241262442944      -8.030401217272097E1    -1.634858081544536      -7.756444841098670E1    -2.579875494799468E1     1.759565395601736E2
                        -6.238594887357047      -8.043320097624346E1    -3.236699304462607E1    -5.775518488424557E1    -2.590480035197692E1     1.702387334637290E2    -1.626906086945561      -7.799500973671165E1
                        -1.632448073115327      -7.752624733073077E1    -2.596889007126384E1     1.711280307860484E2    -2.111573231873322E1     4.430233960536397E1    -6.404632990142694       1.072303137550883E2
                        -2.573458048307475E1     1.754004831070460E2    -1.636084696632823      -7.799053988450980E1    -6.400045239909595       1.066630718651670E2    -2.211586574227013E1     3.479789282564789E1

 1.002000000000000E9    -2.610644993979399E1    -6.263628931632291E1    -6.398664512682315      -8.211837920185548E1    -1.589538266318124      -7.929744787925630E1    -2.585075635351630E1     1.750373261300059E2
                        -6.375128586203926      -8.243218710239987E1    -3.201418741256362E1    -5.371040641889862E1    -2.588735997443101E1     1.691428615666991E2    -1.588509931041610      -7.972799505205964E1
                        -1.586792644504879      -7.927767099732662E1    -2.592956077788733E1     1.697921610719756E2    -2.104083167018312E1     4.212139938705836E1    -6.535691533892939       1.056505840102245E2
                        -2.572026825505676E1     1.744499885316714E2    -1.593748436937379      -7.983569346552373E1    -6.540732376336602       1.050243646456601E2    -2.201683877787276E1     3.252052258364166E1

 1.003000000000000E9    -2.619039292604317E1    -6.240099558389884E1    -6.531613359421077      -8.398649621751908E1    -1.544664467797790      -8.106658921643839E1    -2.582144038569334E1     1.749868559383506E2
                        -6.509188252214387      -8.422644991284621E1    -3.213587632208656E1    -5.332481540765186E1    -2.578680874509739E1     1.688857507084115E2    -1.533968768739621      -8.149094782279863E1
                        -1.545071360454453      -8.108676081168765E1    -2.585326666337313E1     1.694885271746330E2    -2.109438139650510E1     4.006319618874012E1    -6.677776144740545       1.039796700374679E2
                        -2.573366697015988E1     1.739815113715338E2    -1.548319360720465      -8.166764953333565E1    -6.676131891639940       1.033126092383407E2    -2.203208869413118E1     3.086102318328485E1

 1.004000000000000E9    -2.615954843045472E1    -6.276276901307107E1    -6.667830150761475      -8.578753709407728E1    -1.505864989875750      -8.281948214359406E1    -2.575330677036676E1     1.744486908414471E2
                        -6.652903873170946      -8.609876622065129E1    -3.164563368270666E1    -5.125496741730622E1    -2.571159711153722E1     1.680959154007641E2    -1.503139160129595      -8.322535716600540E1
                        -1.503620975094261      -8.277597606091024E1    -2.576132328518156E1     1.686277934923154E2    -2.104061951178900E1     3.836217536801279E1    -6.821222057231725       1.023680698393914E2
                        -2.574067645147370E1     1.741822144722725E2    -1.509125577503618      -8.344735450231754E1    -6.814683307468686       1.016741387560440E2    -2.196950977910275E1     2.768777021317595E1

 1.005000000000000E9    -2.613407319565784E1    -6.363298279304335E1    -6.816824697344064      -8.762340325658201E1    -1.459192816931485      -8.453983343793504E1    -2.575506146190907E1     1.737312785971039E2
                        -6.796228265167530      -8.794813532860675E1    -3.153021356047637E1    -5.088420363462156E1    -2.574243494648192E1     1.672897505126321E2    -1.458633509017447      -8.498847911575301E1
                        -1.459233012317281      -8.456109194458914E1    -2.576272928002594E1     1.680807732239391E2    -2.108200732407401E1     3.581911667202291E1    -6.965611051624759       1.006983436432629E2
                        -2.575567275261553E1     1.733229054358484E2    -1.475537308620908      -8.526987032482094E1    -6.956270939997484       1.000491461691172E2    -2.197559562731571E1     2.577853776934580E1

 1.006000000000000E9    -2.626660228560521E1    -6.438456462422931E1    -6.959742756269732      -8.944198898813362E1    -1.416777641231353      -8.630199614343592E1    -2.576658207705705E1     1.733575578239451E2
                        -6.941722494740054      -8.975435804563573E1    -3.137431913219119E1    -5.038883944823036E1    -2.584021584119867E1     1.658570005965373E2    -1.418550726737125      -8.675354025800847E1
                        -1.415281719274183      -8.630728902422823E1    -2.581573704673897E1     1.668752146542818E2    -2.097854377474013E1     3.424211510155994E1    -7.106902692514300       9.908677508952874E1
                        -2.574615131455044E1     1.722433133837578E2    -1.428285805913000      -8.703448107795782E1    -7.101703767514977       9.839420721898914E1    -2.190790634695805E1     2.324213480088964E1

 1.007000000000000E9    -2.602851624874947E1    -6.391228464019635E1    -7.105136691281803      -9.131537557726885E1    -1.385252441339792      -8.804091263297578E1    -2.570048358245081E1     1.723849482038571E2
                        -7.092348773982976      -9.156680875807115E1    -3.108584435610510E1    -4.971265865155354E1    -2.576250436305332E1     1.648125365231866E2    -1.377619006793811      -8.848007395761586E1
                        -1.382905788770540      -8.803564507181675E1    -2.576503323364636E1     1.652836300365196E2    -2.104110146408004E1     3.216074141308827E1    -7.260026174086670       9.746514762155451E1
                        -2.566831872820207E1     1.715282521022533E2    -1.391503021813784      -8.883040700546476E1    -7.263451039721570       9.679644188384320E1    -2.191533096599961E1     2.115375768392813E1

 1.008000000000000E9    -2.608229542667140E1    -6.449320752893208E1    -7.260792589701114      -9.313474433753319E1    -1.341958114457248      -8.975728840687724E1    -2.570668956146611E1     1.716455305977633E2
                        -7.242698392189856      -9.341227597170807E1    -3.101610976650503E1    -4.705943740988668E1    -2.571175808792793E1     1.639822372386959E2    -1.342693513205382      -9.027283575769340E1
                        -1.339408366705339      -8.973968457752245E1    -2.578798032581325E1     1.648662790815500E2    -2.104283829067199E1     2.998964376264144E1    -7.415547002597123       9.583117034232393E1
                        -2.575812038514206E1     1.705767159070724E2    -1.350432368417678      -9.061013196783044E1    -7.416904486351553       9.516151793064849E1    -2.190361354743962E1     1.905368892221344E1

 1.009000000000000E9    -2.612389479392270E1    -6.486499352488978E1    -7.419154470156738      -9.491820385177260E1    -1.299621116857440      -9.151129480301266E1    -2.569560774985553E1     1.711993203715787E2
                        -7.397216029179497      -9.525934081932022E1    -3.064766032577268E1    -4.744930399701771E1    -2.570061327873942E1     1.634455631173393E2    -1.302293686230429      -9.199084214850130E1
                        -1.298600476890878      -9.152189386741495E1    -2.575529273225464E1     1.639451530585215E2    -2.112752828307480E1     2.779523815095888E1    -7.567443367417463       9.426502926000626E1
                        -2.572140880008054E1     1.703589600245428E2    -1.321484383342392      -9.232789283346975E1    -7.565404263557274       9.353327755701210E1    -2.188335448469490E1     1.633266740526365E1

 1.010000000000000E9    -2.608128908548363E1    -6.459191080173721E1    -7.579311419400191      -9.682377909089246E1    -1.265075594790336      -9.323514048759024E1    -2.571136272779292E1     1.698931336872837E2
                        -7.553261828946853      -9.710594353536875E1    -3.037341259822874E1    -4.740026255043317E1    -2.580747610121597E1     1.622508950475198E2    -1.263632720265747      -9.374749386727976E1
                        -1.265974483963278      -9.322939144703160E1    -2.580200157574083E1     1.626517137893971E2    -2.100749983596621E1     2.539033013746490E1    -7.732643964145471       9.269756398049736E1
                        -2.566939665494626E1     1.694111772706109E2    -1.281073504293371      -9.411978265211307E1    -7.729751957496706       9.195769219015405E1    -2.185713450739122E1     1.450745217047384E1

 1.011000000000000E9    -2.615942934922935E1    -6.535885567107687E1    -7.734169670059179      -9.862181315580403E1    -1.226326959881811      -9.499138048466554E1    -2.569455002366398E1     1.688714631264168E2
                        -7.720742865258316      -9.891237465414851E1    -3.019043997919611E1    -4.643036407103185E1    -2.567577355875894E1     1.608054875469856E2    -1.227432665035920      -9.550159446083522E1
                        -1.225827040149589      -9.497002986180549E1    -2.578415370248651E1     1.608340529240349E2    -2.108625616464242E1     2.388985394741050E1    -7.896510427812867       9.102551781066146E1
                        -2.561019170010776E1     1.681581959910095E2    -1.241383734572719      -9.587781259972023E1    -7.894179377550553       9.035529816482874E1    -2.185941025704698E1     1.219736577166320E1

 1.012000000000000E9    -2.604704660964011E1    -6.448045541069854E1    -7.902976128305632      -1.004935556642678E2    -1.194452863924952      -9.674616580035232E1    -2.563871847683356E1     1.686624004163621E2
                        -7.887003216053243      -1.007663492102656E2    -2.992726932061107E1    -4.634851757456691E1    -2.575073477321014E1     1.602381111806586E2    -1.200522480494784      -9.726012592183820E1
                        -1.195450438232985      -9.671302018716894E1    -2.579184923662276E1     1.603161609613223E2    -2.108404507826959E1     2.122601205103986E1    -8.067660311631975       8.941495965679376E1
                        -2.562994585392989E1     1.681316510007210E2    -1.204184256979862      -9.762818304723474E1    -8.062881779232049       8.872809404996416E1    -2.180596011702896E1     9.693607590738489

 1.013000000000000E9    -2.609118571775189E1    -6.523709161655285E1    -8.070288180455691      -1.023109538113217E2    -1.157756660935412      -9.842975127822596E1    -2.562849249546714E1     1.674157381182457E2
                        -8.047761097450536      -1.025959192697007E2    -2.971629603295462E1    -4.433375723183065E1    -2.575822946269915E1     1.589128816302908E2    -1.156337137349090      -9.897340832752681E1
                        -1.154088415193805      -9.843986194298807E1    -2.583664794695120E1     1.591710657251169E2    -2.116121541634411E1     1.938426324694652E1    -8.236050852995687       8.786849127610705E1
                        -2.566829497750029E1     1.667284202415093E2    -1.178428975501675      -9.936743749122360E1    -8.236817176839230       8.716666293212121E1    -2.182655296016872E1     8.131386431423916

 1.014000000000000E9    -2.602730773226470E1    -6.497573638495858E1    -8.246138499043674      -1.041504947658781E2    -1.121262385618829      -1.001949364034788E2    -2.570405805327319E1     1.672811456392847E2
                        -8.226029667168525      -1.044451497802098E2    -2.941840221861729E1    -4.520576346364968E1    -2.584469571141392E1     1.577979277532269E2    -1.126293961403031      -1.007537280112369E2
                        -1.124517534741681      -1.001945853084700E2    -2.583304860218380E1     1.581415273841394E2    -2.114082484183270E1     1.711553071930640E1    -8.404623038606735       8.626533808298355E1
                        -2.568892602624283E1     1.659711679639053E2    -1.143872675623742      -1.011504029733416E2    -8.407804971396248       8.551960900365205E1    -2.184061908263633E1     5.462111425907824

 1.015000000000000E9    -2.596910601949600E1    -6.526891664351672E1    -8.425420721213405      -1.059836283011646E2    -1.096636949494331      -1.019371644909537E2    -2.567771188115290E1     1.660061992673718E2
                        -8.405949419032814      -1.062924547298654E2    -2.933764773486013E1    -4.542875368929297E1    -2.583753596739542E1     1.567939470743779E2    -1.090528047547769      -1.025087735485338E2
                        -1.085223643235490      -1.019491969697317E2    -2.592076177236358E1     1.569360413070347E2    -2.127576070159337E1     1.470537569847963E1    -8.590916622502506       8.472951504337748E1
                        -2.566729579203905E1     1.648978913507241E2    -1.109601755694649      -1.028847494608885E2    -8.591937079895388       8.397385644487278E1    -2.184195184419023E1     3.266322768725817

 1.016000000000000E9    -2.609612827496558E1    -6.571523744158225E1    -8.605977769493158      -1.077958077691971E2    -1.061228158954104      -1.036712050273327E2    -2.564824020973057E1     1.649733421205464E2
                        -8.586063445719855      -1.081369162649778E2    -2.902322563290465E1    -4.649152217858624E1    -2.587839359255376E1     1.555296366331483E2    -1.060609913608797      -1.042362081005380E2
                        -1.052208355081895      -1.036625119760059E2    -2.587012618220801E1     1.561562066335035E2    -2.130639946168860E1     1.263323258497852E1    -8.778977927459486       8.318610344946865E1
                        -2.566842866023733E1     1.643839445582275E2    -1.074188159289500      -1.046429116770282E2    -8.770146884398395       8.241063449193008E1    -2.190195010830182E1     1.556766156085021

 1.017000000000000E9    -2.609166419443778E1    -6.477384856324805E1    -8.796513008690834      -1.097162696625145E2    -1.029176633401449      -1.054007960796461E2    -2.567279511636098E1     1.636698301157294E2
                        -8.779602708618766      -1.100462598852375E2    -2.895051309932862E1    -4.472533971107585E1    -2.589171752104495E1     1.545564017980646E2    -1.033605797740718      -1.060366462894543E2
                        -1.024703342499878      -1.053811480781537E2    -2.591252603030561E1     1.546509509337313E2    -2.136005611799063E1     1.042126364345985E1    -8.969674782867367       8.157119209829638E1
                        -2.569135817883552E1     1.627289538460842E2    -1.043376993600511      -1.063986613940926E2    -8.959654901613074       8.086960882810978E1    -2.185355259765653E1    -3.419412247249287E-1

 1.018000000000000E9    -2.588244584139794E1    -6.591146896087871E1    -8.992731438543887      -1.115755535306964E2    -1.006841559856888      -1.071831594244122E2    -2.576881032672395E1     1.633980775187345E2
                        -8.965604490197570      -1.118727338801795E2    -2.842090488548158E1    -4.532921946173946E1    -2.593548873452235E1     1.533890340696281E2    -1.005341825850960      -1.077444895907229E2
                        -9.906837042333916E-1   -1.071272355406389E2    -2.595023004189198E1     1.540417975416922E2    -2.142841847533923E1     7.713177993595047      -9.166776236201132       8.007913760062021E1
                        -2.572301667047525E1     1.623920194089018E2    -1.012967297602692      -1.081602403600502E2    -9.156153434520258       7.933159368086398E1    -2.183727933702112E1    -3.787055866858227

 1.019000000000000E9    -2.596138042476141E1    -6.557321749894194E1    -9.182147778437802      -1.134515941422971E2    -9.703779538091262E-1   -1.088888814486409E2    -2.582453142106964E1     1.622757982004051E2
                        -9.168588691391800      -1.137206097341541E2    -2.836173297311480E1    -4.652455730077518E1    -2.599581597808856E1     1.519021853883441E2    -9.703372427420658E-1   -1.095505122667786E2
                        -9.681399076283419E-1   -1.088855464853837E2    -2.603061480923587E1     1.522737832691576E2    -2.148458905807561E1     6.256091057921210      -9.360601283384835       7.847929357564468E1
                        -2.579719900327907E1     1.617024510155236E2    -9.874928896226041E-1   -1.098724481309751E2    -9.347345750202930       7.775313039801829E1    -2.179933094877772E1    -5.824084072880566

 1.020000000000000E9    -2.595432690781298E1    -6.538958456275107E1    -9.395004873526791      -1.153204374898618E2    -9.364652726689610E-1   -1.105958741592660E2    -2.582232405512020E1     1.614030514307278E2
                        -9.360735397412322      -1.155792654756027E2    -2.813937019313348E1    -4.583883054463416E1    -2.606880253201814E1     1.513168204678769E2    -9.433909325872325E-1   -1.112413785162123E2
                        -9.358010639398602E-1   -1.106270858652746E2    -2.604380516398934E1     1.513613081131556E2    -2.152375554357185E1     3.847883645579197      -9.552035130595199       7.698013185248514E1
                        -2.579313338205640E1     1.603976905723830E2    -9.585452981678033E-1   -1.116572866526037E2    -9.554213006768402       7.629355446681826E1    -2.188863735801518E1    -7.171286365016288

 1.021000000000000E9    -2.595928034073903E1    -6.621163039037162E1    -9.604877650065605      -1.172196138178535E2    -9.064769971093313E-1   -1.123630775908695E2    -2.588701587584898E1     1.599848178093421E2
                        -9.569862964781070      -1.174437606250686E2    -2.787630059323460E1    -4.662656859629432E1    -2.606566512130058E1     1.498856139155069E2    -9.160860827826880E-1   -1.129938654350824E2
                        -9.081507122420538E-1   -1.123404461294953E2    -2.609887910139216E1     1.506573760560811E2    -2.165307176814133E1     1.196660768044194      -9.771596312636738       7.548293662696207E1
                        -2.587850502844427E1     1.595837854502204E2    -9.290795924847005E-1   -1.134262070744216E2    -9.757912120191843       7.469985374652880E1    -2.191304965480168E1    -9.595381087730516

 1.022000000000000E9    -2.603086548922094E1    -6.681376743319416E1    -9.806646368353443      -1.190583427196821E2    -8.751804594055491E-1   -1.141155609838911E2    -2.592128674228041E1     1.596097641490025E2
