#  HZ   S   DB   R     50.00 
! Rohde & Schwarz Vector Network Analyzer 
! Rohde-Schwarz,ZNB8-4Port,1311601044102961,2.82
! Created: UTC 1/17/2019, 3:06:59 PM
! freq[Hz]                db:S11                  ang:S11                 db:S12                  ang:S12                 db:S13                  ang:S13                 db:S14                  ang:S14
!                         db:S21                  ang:S21                 db:S22                  ang:S22                 db:S23                  ang:S23                 db:S24                  ang:S24
!                         db:S31                  ang:S31                 db:S32                  ang:S32                 db:S33                  ang:S33                 db:S34                  ang:S34
!                         db:S41                  ang:S41                 db:S42                  ang:S42                 db:S43                  ang:S43                 db:S44                  ang:S44
! 
 1.000000000000000E9    -2.074675769479764E1    -9.983381190882777E1    -2.098508903326376      -1.670340149319968E2    -5.183251736773512       1.162591026776838E1    -2.487016475585522E1     1.670814143158273E2
                        -2.073978659748212      -1.671301068604946E2    -2.125516264338821E1    -1.073890749203726E2    -2.461691275956593E1     1.611484393221770E2    -5.167469344557389       9.054329292911428
                        -5.173008453654925       1.167983235586604E1    -2.466358496634616E1     1.618302820262911E2    -2.839323676622358E1     5.375092860418452      -2.158652610520390       6.078110274763493
                        -2.482796534977809E1     1.671429439084531E2    -5.178840047371319       9.272118065703660      -2.163295538919302       5.651291940350444      -2.835210787596981E1     8.351146610896425

 1.001000000000000E9    -2.088418390788732E1    -1.015211644170952E2    -2.034275578577990      -1.687236376523427E2    -5.309850055916864       1.004010326171123E1    -2.478980888685859E1     1.671845108477538E2
                        -2.007993641343042      -1.688676869132198E2    -2.128116530484169E1    -1.092851862326208E2    -2.462388753233401E1     1.609092572165856E2    -5.297376073760458       7.462530536132808
                        -5.301192826612216       1.004303781478605E1    -2.470210049078178E1     1.618421989816980E2    -2.845200246349629E1     4.478895726299670      -2.097512962423427       4.618231977508592
                        -2.476726169065992E1     1.664627246015893E2    -5.306518075794557       7.510149956645546      -2.095465455260235       4.031371874599731      -2.845052961179297E1     9.779546549983792

 1.002000000000000E9    -2.104614027343970E1    -1.030358762374101E2    -1.974030496888139      -1.704312451683664E2    -5.441812495847460       8.416748776558158      -2.488334997900580E1     1.663210475851280E2
                        -1.951785936267842      -1.707311010517736E2    -2.139490425294244E1    -1.113069173723634E2    -2.464342553414266E1     1.600227751324973E2    -5.436103408193271       5.793920888714748
                        -5.436228111266539       8.397454354912503      -2.466313024810405E1     1.603061802343348E2    -2.883570766862093E1     4.831251001699344      -2.035007292344016       2.992700667335039
                        -2.482732422253009E1     1.657023768414649E2    -5.444234318024746       5.718864829994891      -2.036530132432998       2.400568548609700      -2.851981411446904E1     9.229503699177714

 1.003000000000000E9    -2.112843834470698E1    -1.047570299265554E2    -1.904317867079832      -1.722131828118592E2    -5.573771985914069       6.764362242216799      -2.487919329171731E1     1.660344490423275E2
                        -1.884271524943845      -1.724486369430533E2    -2.146766907791525E1    -1.127755653030694E2    -2.459820134380764E1     1.594674101753628E2    -5.563886916707848       4.124766380739782
                        -5.571675282696685       6.744386935904684      -2.459674522482165E1     1.599172766341798E2    -2.899556009116926E1     3.966897094474925      -1.975616312376214       1.397363017425445
                        -2.481395324862999E1     1.653998661966097E2    -5.571599384249203       3.996587074637384      -1.975027708545627       7.234953423124505E-1   -2.846063442211133E1     7.083836096696377

 1.004000000000000E9    -2.132563705512196E1    -1.069825996559253E2    -1.850039812889051      -1.739106411144170E2    -5.716868552551930       5.132537032771793      -2.487715955830907E1     1.657585028894389E2
                        -1.835044942130300      -1.742088089781967E2    -2.166865238850479E1    -1.145512546645765E2    -2.446586872467246E1     1.586512658411997E2    -5.704029514600092       2.481250749293988
                        -5.708205930007281       5.129680988656964      -2.455132232349714E1     1.591118827119129E2    -2.923040745764442E1     3.756533437207497      -1.923142341557015      -2.052990102405658E-1
                        -2.482304805217552E1     1.651126095048516E2    -5.719552289683171       2.263042962392110      -1.918586603038747      -8.677693377083947E-1   -2.850184377297089E1     7.944979698354856

 1.005000000000000E9    -2.146394167714420E1    -1.081360757486714E2    -1.792621961757277      -1.756389171366271E2    -5.856500587857995       3.523255231190995      -2.485090223803328E1     1.652317087137765E2
                        -1.769782581908100      -1.759618645333774E2    -2.184864160638839E1    -1.170861185167037E2    -2.461471324162145E1     1.580449775434524E2    -5.846825512919187       8.571571469890533E-1
                        -5.847377121558380       3.530429979837466      -2.461942962556707E1     1.585019257413659E2    -2.950285204499662E1     3.848869334265665      -1.868656472860257      -1.794253970198374
                        -2.481760768336856E1     1.645837384815760E2    -5.859444939092827       5.269714232552363E-1   -1.855266769971949      -2.525524031210586      -2.870500361639119E1     6.496155923583411

 1.006000000000000E9    -2.166610716992865E1    -1.095290462700100E2    -1.733201797417294      -1.773645813679882E2    -5.997324190052399       1.922689731473777      -2.489327662717322E1     1.647876894933512E2
                        -1.717154634486343      -1.776744610438840E2    -2.190735117432405E1    -1.191203816486373E2    -2.459320373576146E1     1.568651001826783E2    -5.991317541755761      -8.795644945471176E-1
                        -5.995033379420982       1.878120953286934      -2.461358781810248E1     1.573618246346859E2    -2.981402901981532E1     2.364010973142606      -1.801224430748689      -3.442537082232212
                        -2.488927235808660E1     1.639980660918534E2    -6.010471207098401      -1.134414613057993      -1.798484296850286      -4.090702588244414      -2.853852888798416E1     5.960914150313231

 1.007000000000000E9    -2.185808207351694E1    -1.115550841876865E2    -1.673435819329421      -1.790823866681157E2    -6.146773041889887       2.730184134950495E-1   -2.482473262518289E1     1.637394153632773E2
                        -1.660244187965437      -1.793678022140979E2    -2.207778813025380E1    -1.204245598043180E2    -2.459601391574259E1     1.558369949885201E2    -6.138510133356235      -2.484632586224998
                        -6.145784410286273       2.931074394949764E-1   -2.456772136852081E1     1.560272113292896E2    -2.990609995048341E1     2.480610667581428      -1.754255823772356      -5.032124216732131
                        -2.483208978217446E1     1.629997713082791E2    -6.147623879432040      -2.802941043233843      -1.745086863816838      -5.702870810577025      -2.866691439742525E1     5.963217882939778

 1.008000000000000E9    -2.200010300383339E1    -1.130130416994476E2    -1.624673628913234       1.792008615570201E2    -6.298515641331052      -1.316412284316696      -2.488200502687030E1     1.630396509851187E2
                        -1.600658398049013       1.788930950755824E2    -2.227744308218164E1    -1.224709766504229E2    -2.458949622523933E1     1.549379626821525E2    -6.300368538145175      -4.195883851788118
                        -6.294804697739514      -1.336618193749188      -2.460518739851805E1     1.557392759333500E2    -3.029772300219931E1     3.053832303753958      -1.700101596700482      -6.662979780222420
                        -2.490719055480238E1     1.620513392787566E2    -6.309346147646897      -4.471362996389913      -1.699476948480602      -7.318026862633825      -2.860515705400844E1     4.231454266247642

 1.009000000000000E9    -2.227103241894670E1    -1.146004544280931E2    -1.569986420190973       1.775004085071404E2    -6.453596866721860      -2.976804185841463      -2.487562484706837E1     1.629632758380429E2
                        -1.547660691608237       1.772028640946629E2    -2.246854750048665E1    -1.247338474132468E2    -2.459266453579914E1     1.545127123955927E2    -6.447234425118892      -5.804844975956727
                        -6.445420163383961      -2.971188789817526      -2.466215799147175E1     1.548753922670951E2    -3.053882463474656E1     3.750727180710324      -1.645454867296402      -8.297241521882546
                        -2.489078120032637E1     1.622398609862336E2    -6.467798605990849      -6.143039704543601      -1.644455082286318      -8.980937444789564      -2.868093096500102E1     5.026404789236462

 1.010000000000000E9    -2.246589374099722E1    -1.159801291303919E2    -1.516792901495957       1.757929097859818E2    -6.609910774265647      -4.631604569171413      -2.484711398405206E1     1.614902221217396E2
                        -1.497365105755068       1.755016832983759E2    -2.270737488077874E1    -1.272067649385461E2    -2.469483698912304E1     1.531020163391624E2    -6.615326145967638      -7.459485822816256
                        -6.608109488972368      -4.509438032446607      -2.469130983548094E1     1.536588458290219E2    -3.080501378187625E1     4.968232398875702      -1.599876579054629      -9.854167272885825
                        -2.488024765703458E1     1.611692754143825E2    -6.625828567046125      -7.805161447194043      -1.593290495698585      -1.056915072020183E1    -2.873890643557229E1     4.153585032374405

 1.011000000000000E9    -2.267126870902525E1    -1.169189886904728E2    -1.464642703247669       1.741070878118625E2    -6.773016939050276      -6.205968895651617      -2.491137116593909E1     1.608578637906323E2
                        -1.445300551692978       1.737639616513885E2    -2.270721975949226E1    -1.283337834940778E2    -2.457705223796941E1     1.522324435345296E2    -6.780000456679116      -9.153084238441904
                        -6.771875896787365      -6.190193834789159      -2.463005882250721E1     1.522857242066594E2    -3.105265901558443E1     4.667864887140230      -1.546287888397024      -1.149149814253677E1
                        -2.486686049743749E1     1.600622999054932E2    -6.792796899604129      -9.536313172406114      -1.546184743136737      -1.221656872736631E1    -2.855676538334946E1     3.783748585305679

 1.012000000000000E9    -2.294705157903179E1    -1.189266938028969E2    -1.413655880781596       1.723547004163350E2    -6.940990173828599      -7.841637719489606      -2.484450314478847E1     1.605166752933787E2
                        -1.395357493236666       1.720882740912117E2    -2.297045370073444E1    -1.313277432932280E2    -2.468783547251537E1     1.512350505698493E2    -6.950789774887305      -1.080162052440409E1
                        -6.937657933236737      -7.779123139153842      -2.470217938600938E1     1.511878191602128E2    -3.123500554227835E1     4.510099123421429      -1.503812411102667      -1.311289262316723E1
                        -2.483228609744199E1     1.599564605082389E2    -6.949968921847006      -1.118560342817156E1    -1.499921313396943      -1.385015246245882E1    -2.880303678626312E1     3.196635474369108

 1.013000000000000E9    -2.312685911332500E1    -1.201091308622526E2    -1.362401210647720       1.707119055078209E2    -7.114566602746777      -9.441781508266628      -2.484605043916739E1     1.591882413340951E2
                        -1.348723593907876       1.703675040368267E2    -2.322508028187911E1    -1.329374312382331E2    -2.463758902130765E1     1.500677797317219E2    -7.116126124160775      -1.245001052351828E1
                        -7.105883303317379      -9.391332960677660      -2.469874746082932E1     1.506329710174354E2    -3.162403237693485E1     4.744195200271643      -1.453321956262383      -1.472737674990721E1
                        -2.491869443456429E1     1.587214225769438E2    -7.133240052182232      -1.279687140925361E1    -1.450932200734530      -1.544619492653285E1    -2.861140533025797E1     2.096845608123886

 1.014000000000000E9    -2.347640500332767E1    -1.222496893940027E2    -1.315606920743875       1.689997331228287E2    -7.280163300347168      -1.098790760218686E1    -2.490619399933380E1     1.590528319226187E2
                        -1.299779512884550       1.686663009003502E2    -2.339263572248470E1    -1.350635899879168E2    -2.476441747029082E1     1.488808611427427E2    -7.291080641701920      -1.413602084806634E1
                        -7.281881113777006      -1.098353326801655E1    -2.478715088408654E1     1.495899505126098E2    -3.188574952369817E1     5.811435552387207      -1.406573034638622      -1.636286664204358E1
                        -2.489533425151424E1     1.579662154355883E2    -7.311592023347057      -1.449162137901505E1    -1.404821782955445      -1.706925202375764E1    -2.892195212000500E1     1.659753319887795

 1.015000000000000E9    -2.372157776974810E1    -1.232656066196128E2    -1.272075989289816       1.673033871046320E2    -7.464315168611825      -1.262201624315305E1    -2.493527743411669E1     1.580170137354932E2
                        -1.250746746052127       1.669386365456732E2    -2.362862963851306E1    -1.372255626255554E2    -2.478483091080268E1     1.484194025167230E2    -7.471142840955901      -1.581897307822131E1
                        -7.460249261202375      -1.262197899924354E1    -2.479486964805238E1     1.485362535500595E2    -3.207315045826942E1     7.206924731245021      -1.364815240643095      -1.798230627359834E1
                        -2.490821864433349E1     1.572777518160873E2    -7.483076685961931      -1.615072470493967E1    -1.359407402336877      -1.871693274175832E1    -2.882210182341930E1     2.356369347252959

 1.016000000000000E9    -2.406567828579675E1    -1.239706453051751E2    -1.224180464602305       1.656016754686611E2    -7.649894572433932      -1.422125725515821E1    -2.488880604358354E1     1.571892437252134E2
                        -1.210828960219226       1.652699748323751E2    -2.392330066725682E1    -1.397121415991763E2    -2.480426442283390E1     1.468767405499628E2    -7.660113061166833      -1.740584164377387E1
                        -7.644930867826989      -1.418296416106724E1    -2.486211001427011E1     1.476085750392433E2    -3.203659345778237E1     9.227349295218193      -1.323339841975194      -1.957325417736948E1
                        -2.491320231556277E1     1.566452563760922E2    -7.670426289177375      -1.778999600161046E1    -1.318768237761497      -2.031932412998452E1    -2.871295312460984E1     4.191594010358061E-1

 1.017000000000000E9    -2.420478408630883E1    -1.254588501265253E2    -1.187931996977488       1.638787192986756E2    -7.845126575721287      -1.582401322425517E1    -2.493892315428658E1     1.560410566375700E2
                        -1.167770894706890       1.635352340509377E2    -2.415627476136686E1    -1.413356960617130E2    -2.484091402018449E1     1.460080240563743E2    -7.848107881694398      -1.913319285080245E1
                        -7.843171353194274      -1.577662721689330E1    -2.483687970273573E1     1.463961197126937E2    -3.226488158910737E1     8.628583954692841      -1.277505990199153      -2.118664908585829E1
                        -2.493252956516545E1     1.549801188553890E2    -7.862863235387056      -1.950023257171281E1    -1.275037474996623      -2.193175976946484E1    -2.894029230031795E1    -5.151175488924173E-3

 1.018000000000000E9    -2.480258568884895E1    -1.275872728783664E2    -1.143911624973959       1.621354091597484E2    -8.031727941512976      -1.745268998225296E1    -2.502450302276444E1     1.558182722984047E2
                        -1.122041431075297       1.618641212570518E2    -2.452709004566840E1    -1.446043580341963E2    -2.491323047327870E1     1.448169092145573E2    -8.048151146771085      -2.076336885132675E1
                        -8.030175594570522      -1.734737320220041E1    -2.493240482995937E1     1.454082205763526E2    -3.273681804314998E1     1.124548693186801E1    -1.239087120032326      -2.281223094734727E1
                        -2.500375384887152E1     1.550836865183462E2    -8.061223625937252      -2.112294425242667E1    -1.233987774787033      -2.354146677470798E1    -2.869819892705821E1     5.684598550937262E-1

 1.019000000000000E9    -2.513916941271461E1    -1.295972931989155E2    -1.102544045368193       1.604555335995651E2    -8.239149043328307      -1.901293839541230E1    -2.502174391984804E1     1.547714087362597E2
                        -1.079761148017459       1.601563130086680E2    -2.480275121963150E1    -1.454342845321536E2    -2.491066716957919E1     1.435996342478863E2    -8.250637659900363      -2.244995073256292E1
                        -8.233319037487718      -1.897259573974722E1    -2.501509970783831E1     1.437321670954845E2    -3.272080463137784E1     1.170450358776475E1    -1.197416360827301      -2.445449723038199E1
                        -2.503225410843319E1     1.541938356450054E2    -8.265696732055195      -2.278098317865459E1    -1.196170985726737      -2.520560853801776E1    -2.897812136316322E1     3.090625325372541E-1

 1.020000000000000E9    -2.547069373694227E1    -1.301566556800381E2    -1.059922676413871       1.587219588587583E2    -8.441272456223208      -2.058344838060178E1    -2.508529480090133E1     1.535966124770702E2
                        -1.037067090231020       1.584636048773988E2    -2.505229895725933E1    -1.482985454919242E2    -2.498784860660719E1     1.427619261850704E2    -8.458509537087831      -2.410459723292591E1
                        -8.436855140078807      -2.055350277579823E1    -2.502704444415000E1     1.429164078454614E2    -3.295567239627108E1     1.268236784021578E1    -1.159118466747914      -2.606827040307140E1
                        -2.502282632356083E1     1.531259081334763E2    -8.472446644178692      -2.447009836378421E1    -1.150363896974483      -2.682975493564207E1    -2.880192108920209E1    -1.028487559237927

 1.021000000000000E9    -2.574913826157792E1    -1.312865338792524E2    -1.022079810779509       1.570683899806230E2    -8.648746994120666      -2.215485569807007E1    -2.511974542169563E1     1.527905071441264E2
                        -9.978113403485462E-1    1.567584581554462E2    -2.549124140269787E1    -1.507173965929832E2    -2.504908425935675E1     1.418306151343136E2    -8.677447574176187      -2.570511050967336E1
                        -8.652277724465398      -2.218380874854065E1    -2.505307204878262E1     1.422256933544841E2    -3.304009989566843E1     1.604175393751100E1    -1.124958966942480      -2.771220145962307E1
                        -2.512553816092030E1     1.521950379778259E2    -8.693914492097786      -2.610394555565096E1    -1.116428930766632      -2.842394631877514E1    -2.883015071411123E1    -1.627046701745175

 1.022000000000000E9    -2.626363005040403E1    -1.326551212920344E2    -9.814558962640597E-1    1.553505040959218E2    -8.867966014632941      -2.377046565367140E1    -2.509628412675867E1     1.522525988029487E2
