#  HZ   S   DB   R     50.00 
! Rohde & Schwarz Vector Network Analyzer 
! Rohde-Schwarz,ZNB8-4Port,1311601044102961,2.82
! Created: UTC 1/17/2019, 3:09:22 PM
! freq[Hz]                db:S11                  ang:S11                 db:S12                  ang:S12                 db:S13                  ang:S13                 db:S14                  ang:S14
!                         db:S21                  ang:S21                 db:S22                  ang:S22                 db:S23                  ang:S23                 db:S24                  ang:S24
!                         db:S31                  ang:S31                 db:S32                  ang:S32                 db:S33                  ang:S33                 db:S34                  ang:S34
!                         db:S41                  ang:S41                 db:S42                  ang:S42                 db:S43                  ang:S43                 db:S44                  ang:S44
! 
 1.000000000000000E9    -2.267710314054410E1    -1.150548798758159E2    -3.370809325738015      -1.763528842958903E2    -3.329026477638588       1.236421721227327      -2.729854606909643E1     1.489538089159876E2
                        -3.350471430014578      -1.765032574360002E2    -2.274370416833544E1    -1.255136382427403E2    -2.673733681412023E1     1.445899390262619E2    -3.325841992514323      -9.341222751846273E-1
                        -3.321487235359986       1.286573505978980      -2.682984482393504E1     1.457227973603994E2    -2.858460743648171E1    -1.003771919671859E1    -3.434938166904811      -5.045462496887335
                        -2.721887103714609E1     1.501025876258455E2    -3.333775434959628      -7.095560038477389E-1   -3.431299918559394      -5.468127004993440      -2.778073978778770E1    -8.336598209052445

 1.001000000000000E9    -2.285332093263303E1    -1.171278436018113E2    -3.284203149251879      -1.781102968227258E2    -3.411508016446174      -3.623490685880903E-1   -2.728427681129379E1     1.499293396233407E2
                        -3.256384654080932      -1.782953278277991E2    -2.287909992887752E1    -1.275879155649577E2    -2.678691525563290E1     1.451181173624943E2    -3.410921353189742      -2.519398888917796
                        -3.407501928422683      -3.535101454947089E-1   -2.685017324860340E1     1.460521899621805E2    -2.879590662336092E1    -9.964788437645623      -3.338214650768860      -6.529869871610990
                        -2.723450863666069E1     1.495420904432190E2    -3.417600479042493      -2.488150416036234      -3.333095149630971      -7.084901738276951      -2.787238195952210E1    -7.076889315741703

 1.002000000000000E9    -2.313398865436401E1    -1.186870687547000E2    -3.199738995394466      -1.798619661723260E2    -3.503188149767929      -2.024868153275467      -2.753002907883183E1     1.494452594811093E2
                        -3.171533635744854       1.798531093762885E2    -2.307390128160582E1    -1.299658661420195E2    -2.686981532513225E1     1.440213432086331E2    -3.508987997957301      -4.234434777691786
                        -3.499480753571734      -2.000485896815551      -2.690722992919444E1     1.448271916421231E2    -2.914156046097885E1    -1.087361614224782E1    -3.256083999439138      -8.103592236510940
                        -2.734493168034191E1     1.489005387689802E2    -3.517768510885188      -4.283700006385163      -3.255441971065272      -8.682259520547742      -2.806009794192950E1    -7.770213655665465

 1.003000000000000E9    -2.326253306561869E1    -1.207582193924912E2    -3.104269783401069       1.783125249372355E2    -3.592073708585300      -3.715363910934295      -2.753163737070224E1     1.500884969088383E2
                        -3.085089960876899       1.780663926638252E2    -2.316754857979745E1    -1.316426825044382E2    -2.682022302331573E1     1.444369008924961E2    -3.593011759119345      -5.858047396643896
                        -3.589999034313256      -3.726767255388998      -2.692205993273685E1     1.445192721140959E2    -2.931437407226202E1    -1.130235113239148E1    -3.165929207336346      -9.671282942407721
                        -2.745617223881047E1     1.489669947664320E2    -3.603287100666770      -6.021555193543161      -3.168196914564366      -1.036161919264835E1    -2.799820443858579E1    -9.320923639193827

 1.004000000000000E9    -2.347635090785003E1    -1.232465422174711E2    -3.020392666121648       1.765944592276207E2    -3.694465898468841      -5.384668261197974      -2.764279314072358E1     1.498673292228444E2
                        -3.004644180284098       1.763012977847930E2    -2.342309325810309E1    -1.338146352410662E2    -2.686272383878463E1     1.435906257385735E2    -3.689710128404630      -7.487030121728643
                        -3.683431536402410      -5.336416769951716      -2.686957671390118E1     1.440713611819222E2    -2.967075796570143E1    -1.157118276850486E1    -3.088293403362854      -1.127341343920273E1
                        -2.754916727376204E1     1.496751397289707E2    -3.700546087416077      -7.722265591316209      -3.090620522152857      -1.199130578850305E1    -2.802239444152785E1    -8.618377766886926

 1.005000000000000E9    -2.373294059456457E1    -1.244081437902670E2    -2.939964584191624       1.748366699300157E2    -3.784254645794311      -6.974038293743312      -2.767169201278149E1     1.501239419881400E2
                        -2.920784325175145       1.745215333566178E2    -2.365077061181305E1    -1.367569385806185E2    -2.702761718611853E1     1.432989875262542E2    -3.784841919260950      -9.186739763969408
                        -3.777282014748135      -7.034422677073718      -2.703735449804016E1     1.441266154508100E2    -3.002905990439808E1    -1.129614984773301E1    -3.014400867450046      -1.289517196318057E1
                        -2.765653557627921E1     1.493540706956493E2    -3.794491050229110      -9.453898079490402      -3.003099056846545      -1.356893172827575E1    -2.812953591435321E1    -1.044028478203106E1

 1.006000000000000E9    -2.401316700985836E1    -1.257269363267682E2    -2.865352861588782       1.730637517468989E2    -3.880003334821820      -8.661559046406291      -2.785696449590780E1     1.501331032958345E2
                        -2.839688841409045       1.727657948975292E2    -2.376485028771459E1    -1.394097445731964E2    -2.711441119360448E1     1.426038963099961E2    -3.882210108219708      -1.087162659194412E1
                        -3.877286707149575      -8.663067899829057      -2.711269066719686E1     1.433156062133535E2    -3.041649747437269E1    -1.341251345358175E1    -2.923898383413711      -1.451567586308757E1
                        -2.780298872681962E1     1.493480695499103E2    -3.894437428112240      -1.118977798935494E1    -2.927133448509289      -1.517510485311535E1    -2.810544056257212E1    -1.084042636477684E1

 1.007000000000000E9    -2.430670691345855E1    -1.283704124303608E2    -2.774991790312597       1.713324878586705E2    -3.981642766734066      -1.031791555473325E1    -2.784579583194713E1     1.497112353533744E2
                        -2.763153270438232       1.710289427412874E2    -2.404987163592632E1    -1.407356959639635E2    -2.716439417749941E1     1.415307499251665E2    -3.982163465707217      -1.251405904095348E1
                        -3.979160511724764      -1.028756159741070E1    -2.724409937045948E1     1.418245907781502E2    -3.051349137824088E1    -1.472051104138708E1    -2.858202045289310      -1.610580033255761E1
                        -2.782638834199130E1     1.486630105172158E2    -3.995859453921935      -1.285834052612788E1    -2.847693742891837      -1.678949111888480E1    -2.816827268927032E1    -1.091549711175921E1

 1.008000000000000E9    -2.454210523417308E1    -1.298982992658799E2    -2.707556670854866       1.695725152121296E2    -4.080225750541667      -1.193808992108903E1    -2.796444569292800E1     1.496353182479099E2
                        -2.679748864978574       1.692824264588620E2    -2.424735144581941E1    -1.434115455949087E2    -2.725439770072668E1     1.414036040129342E2    -4.092002639945386      -1.426416560702975E1
                        -4.077770548127691      -1.192102519378365E1    -2.718130977249598E1     1.417773533877615E2    -3.090562883074671E1    -1.321502813873562E1    -2.780058598698490      -1.773934868837522E1
                        -2.801305167362257E1     1.482957921105111E2    -4.100828244875472      -1.456215543261608E1    -2.772405179922531      -1.839075068034774E1    -2.814093316028680E1    -1.254549636021916E1

 1.009000000000000E9    -2.489476915490120E1    -1.317959792468989E2    -2.628014486898139       1.678503383890353E2    -4.183282321102216      -1.362961851033087E1    -2.801730373514917E1     1.497130534383707E2
                        -2.605667235480824       1.675353119566996E2    -2.453860821134676E1    -1.460586715970100E2    -2.726688567534151E1     1.411852847070198E2    -4.184473069777780      -1.590334637820281E1
                        -4.178252678103461      -1.360096418476055E1    -2.728583409554301E1     1.417208993450375E2    -3.124189729721988E1    -1.386412782074057E1    -2.701621136920705      -1.934275865791701E1
                        -2.804895683777657E1     1.492639694745078E2    -4.207918598124632      -1.621134557870401E1    -2.697884260793824      -2.004126737853622E1    -2.821892882776667E1    -1.229582827571876E1

 1.010000000000000E9    -2.525969164419316E1    -1.341097631167937E2    -2.553524814121251       1.661317634414047E2    -4.291532786230745      -1.528084416477269E1    -2.810403096039469E1     1.485255796665909E2
                        -2.531680089622721       1.657935147713504E2    -2.482969457952884E1    -1.495171309618591E2    -2.747020611895669E1     1.402071615704137E2    -4.299155731186422      -1.756098860962313E1
                        -4.293635547157065      -1.523387538319879E1    -2.749815668039741E1     1.407659438653948E2    -3.159419241511843E1    -1.188972129546967E1    -2.630817334909825      -2.090565912679108E1
                        -2.814348613887080E1     1.486460726199549E2    -4.312795795000191      -1.788059598773236E1    -2.625539132404584      -2.162424753539327E1    -2.829721557869636E1    -1.359233161405474E1

 1.011000000000000E9    -2.553328637058430E1    -1.347559618064717E2    -2.479998981611499       1.644134782568301E2    -4.396786092082092      -1.688135693632113E1    -2.824504546589619E1     1.485167178469675E2
                        -2.461524239597997       1.640944462197326E2    -2.493973290098640E1    -1.508478170282671E2    -2.741532276513970E1     1.392716517685602E2    -4.408935845004065      -1.923840111840489E1
                        -4.400427708360956      -1.687497364448278E1    -2.745791669040923E1     1.391012969402511E2    -3.195610061703799E1    -1.294173401007079E1    -2.552174884150435      -2.251875000685063E1
                        -2.815754600373629E1     1.474743750758949E2    -4.424824870195856      -1.957909017288137E1    -2.556625189490409      -2.324068228619956E1    -2.817084410113313E1    -1.431977203090857E1

 1.012000000000000E9    -2.593491914350714E1    -1.377020539858920E2    -2.410326768346177       1.626384008039609E2    -4.512724437632916      -1.855487623141963E1    -2.818999256671296E1     1.490475707863423E2
                        -2.389753522408809       1.623540810022967E2    -2.525350681172350E1    -1.545912546105184E2    -2.753936257327321E1     1.389271992713644E2    -4.521198632883227      -2.090950376874433E1
                        -4.513726250973697      -1.853294798776684E1    -2.760202874969922E1     1.389111525685215E2    -3.220576720125901E1    -1.176610769696927E1    -2.489599977929398      -2.418184462265910E1
                        -2.814946636974979E1     1.481734189350304E2    -4.527983774114546      -2.127661688206486E1    -2.486858429838827      -2.486516601820242E1    -2.841361297591682E1    -1.438291604568083E1

 1.013000000000000E9    -2.627980650829732E1    -1.393419698382674E2    -2.332646942652485       1.609329824936461E2    -4.620229814717034      -2.015104089965560E1    -2.827899378571287E1     1.477177987615118E2
                        -2.319529402291804       1.606051999420927E2    -2.565948370606322E1    -1.572933812856148E2    -2.763853150666152E1     1.377756190042945E2    -4.624358577235859      -2.256327102331933E1
                        -4.616366345773779      -2.018982442695499E1    -2.768003111070928E1     1.386354430795854E2    -3.272621433734915E1    -1.319067316216465E1    -2.421858942881831      -2.574141062555361E1
                        -2.835278023260013E1     1.472250138122010E2    -4.643745239437323      -2.292189992706267E1    -2.415949849052154      -2.644448867830891E1    -2.831716919521876E1    -1.590215585510622E1

 1.014000000000000E9    -2.682145713870462E1    -1.418596102486232E2    -2.268668098673679       1.591872884615432E2    -4.733270528022511      -2.180757141216917E1    -2.834891111122698E1     1.488180984866579E2
                        -2.250595097345099       1.588811961534268E2    -2.590318263323915E1    -1.597162803963983E2    -2.786501481615298E1     1.371955568003610E2    -4.750225257099309      -2.426969287488026E1
                        -4.736485692845710      -2.181943157917351E1    -2.789624233543691E1     1.382660517356615E2    -3.299880276318370E1    -1.190135269253264E1    -2.349669812059597      -2.737111811603863E1
                        -2.837739720513607E1     1.476420034390182E2    -4.758157240355805      -2.461400128926427E1    -2.352569489066797      -2.811760589250163E1    -2.856524678338906E1    -1.627491314553074E1

 1.015000000000000E9    -2.729545176719367E1    -1.435312514827663E2    -2.199826825947478       1.575210191698046E2    -4.852256412635960      -2.343067872892790E1    -2.843575408703032E1     1.478350639683826E2
                        -2.182740703928549       1.571300907143221E2    -2.620315708703803E1    -1.622172890941928E2    -2.784003194338535E1     1.369854570814340E2    -4.862576273170707      -2.593498462951341E1
                        -4.854555073380370      -2.347455654397668E1    -2.789642081752835E1     1.369920182314307E2    -3.334903255729832E1    -1.041256304925993E1    -2.290071351924109      -2.900220260598231E1
                        -2.842523326734938E1     1.470453262227933E2    -4.877200236005599      -2.625633920798642E1    -2.282547934603390      -2.969931753448189E1    -2.854505281572814E1    -1.588337099373352E1

 1.016000000000000E9    -2.779133543714700E1    -1.449008882004137E2    -2.138048642129737       1.557588768414653E2    -4.977601109543068      -2.510083179723651E1    -2.842854428183964E1     1.473381742810632E2
                        -2.116283480282652       1.554381747310830E2    -2.665763061451024E1    -1.661080136957442E2    -2.803068452301229E1     1.360764420891698E2    -4.982907682441192      -2.756814517573337E1
                        -4.967278238037455      -2.505988266406222E1    -2.799011352140736E1     1.363289058046788E2    -3.359517125321813E1    -8.494414304496537      -2.220499684436482      -3.061841895581510E1
                        -2.843806366419647E1     1.470824046718937E2    -5.001379521405756      -2.796489005862556E1    -2.219312708030411      -3.133674405765369E1    -2.841744609734031E1    -1.800107235462100E1

 1.017000000000000E9    -2.806925719974565E1    -1.468707974041054E2    -2.077305892596059       1.540369495837719E2    -5.098009580118179      -2.676484007370406E1    -2.855802715405334E1     1.466473347083388E2
                        -2.056705826405890       1.536570328476255E2    -2.693641505459667E1    -1.691969395158637E2    -2.816285901265771E1     1.353147126202777E2    -5.107252838432805      -2.927423516047080E1
                        -5.099350862518499      -2.670718901360328E1    -2.806355885942743E1     1.351234036489072E2    -3.386746831919049E1    -1.012051722513800E1    -2.162298281127478      -3.221814998000640E1
                        -2.851675781383979E1     1.458747845433491E2    -5.120458653292999      -2.962474549831383E1    -2.154973421636242      -3.294639026118063E1    -2.870424201694343E1    -1.927460034414879E1

 1.018000000000000E9    -2.902280458830298E1    -1.502188702625424E2    -2.011717074599937       1.522961506129282E2    -5.229187758439534      -2.839407333082814E1    -2.875985759003117E1     1.475907831289341E2
                        -1.988461261804410       1.519686098196680E2    -2.734653314317807E1    -1.737398192403195E2    -2.823438559078615E1     1.351220719814683E2    -5.236216380592627      -3.097227058157492E1
                        -5.207961479640093      -2.833327798842234E1    -2.822296776639256E1     1.350125559510514E2    -3.434392171872310E1    -7.069446901605575      -2.101562837343063      -3.385372144640673E1
                        -2.863775432657814E1     1.466775561298849E2    -5.247730971897343      -3.132318275503833E1    -2.098265338758829      -3.456764774479578E1    -2.845581636695788E1    -1.777604442576575E1

 1.019000000000000E9    -2.960378507703482E1    -1.539447099884226E2    -1.948193230817722       1.505602945241647E2    -5.355372143306970      -3.000830132991675E1    -2.881665476178317E1     1.469015332882559E2
                        -1.927199394592109       1.502393903596800E2    -2.782824605899894E1    -1.753463498632379E2    -2.823539704352177E1     1.336899398236858E2    -5.368874615542544      -3.263912169994923E1
                        -5.348097786668582      -3.000860310063949E1    -2.840561044213679E1     1.336166718024386E2    -3.452486682630723E1    -5.891743464031272      -2.040301202876921      -3.546089613126654E1
                        -2.878435788605742E1     1.465529425003085E2    -5.376729821435467      -3.296308248437833E1    -2.037447872234925      -3.624106650360202E1    -2.881122072911023E1    -1.863384448909743E1

 1.020000000000000E9    -3.026290856318169E1    -1.547352954846591E2    -1.891428317356864       1.488297537769274E2    -5.477426899706269      -3.163729671369808E1    -2.886569209039065E1     1.465100672710358E2
                        -1.869805293097683       1.485399568868402E2    -2.812845034902956E1    -1.796987205686139E2    -2.841679686262142E1     1.328975746546160E2    -5.493932801014628      -3.428925705413798E1
                        -5.480856089720999      -3.164749939755141E1    -2.841397768508637E1     1.334810125361381E2    -3.501201001735689E1    -5.359391680028731      -1.981661944305340      -3.710716519859943E1
                        -2.882502755072997E1     1.457568274609559E2    -5.506150361515660      -3.465902700152134E1    -1.974145029619434      -3.783243489913923E1    -2.870713670352188E1    -2.002451843331208E1

 1.021000000000000E9    -3.090140055727075E1    -1.567959514290012E2    -1.834583885779439       1.470963120048500E2    -5.615442638534368      -3.330104042397852E1    -2.888825320229281E1     1.461006540473766E2
                        -1.809607016846527       1.467979110329988E2    -2.861649789038106E1     1.757789025589249E2    -2.845054519951354E1     1.326282902527470E2    -5.634543424048878      -3.592758607191384E1
                        -5.615301575170271      -3.328517812431351E1    -2.855236057321379E1     1.328448845791239E2    -3.530700698211123E1    -1.571788197623068      -1.924155552602059      -3.874304889284962E1
                        -2.898149187711077E1     1.451772714973679E2    -5.645659827735431      -3.637103725314907E1    -1.918181511278766      -3.945837738159654E1    -2.865896322747154E1    -2.086951159174656E1

 1.022000000000000E9    -3.180227788055876E1    -1.595838129636776E2    -1.773422481303076       1.453863051106319E2    -5.748888703762787      -3.494431274104066E1    -2.902496504473966E1     1.466180703773229E2
