#  HZ   S   DB   R     50.00 
! Rohde & Schwarz Vector Network Analyzer 
! Rohde-Schwarz,ZNB8-4Port,1311601044102961,2.82
! Created: UTC 1/17/2019, 3:18:42 PM
! freq[Hz]                db:S11                  ang:S11                 db:S12                  ang:S12                 db:S13                  ang:S13                 db:S14                  ang:S14
!                         db:S21                  ang:S21                 db:S22                  ang:S22                 db:S23                  ang:S23                 db:S24                  ang:S24
!                         db:S31                  ang:S31                 db:S32                  ang:S32                 db:S33                  ang:S33                 db:S34                  ang:S34
!                         db:S41                  ang:S41                 db:S42                  ang:S42                 db:S43                  ang:S43                 db:S44                  ang:S44
! 
 1.000000000000000E9    -2.593675800146623E1    -4.959376785580824E1    -1.161132285780557E1    -6.778169096704767E1    -6.793953358819628E-1   -6.040556023864505E1    -2.530164798731702E1    -1.578674012889810E2
                        -1.157971769407535E1    -6.787742170507515E1    -3.153490323237234E1    -4.926492577068152E1    -2.551758104469421E1    -1.637053668541002E2    -6.859916876396375E-1   -6.122067878179801E1
                        -6.748107685365290E-1   -6.038586617503061E1    -2.558614924424589E1    -1.629666915772920E2    -2.321214706153874E1     7.629702566722844E1    -1.167383009422631E1     1.300673201881020E2
                        -2.523693346646322E1    -1.577586245733462E2    -6.955348700554771E-1   -6.098629658669151E1    -1.168348110525701E1     1.296210692792193E2    -2.483900363711144E1     6.512530714783100E1

 1.001000000000000E9    -2.583930632224109E1    -4.946744222406814E1    -1.188956680308585E1    -6.976982882734554E1    -6.554794028329600E-1   -6.209495604399801E1    -2.516018583633066E1    -1.583113826453246E2
                        -1.186071225665843E1    -6.992185063831491E1    -3.165568392662555E1    -4.870392378166569E1    -2.537699280554416E1    -1.643077831579286E2    -6.658986917569305E-1   -6.282812066825715E1
                        -6.553630444256436E-1   -6.207016369359345E1    -2.541931618724416E1    -1.635249092914602E2    -2.303801599007895E1     7.385761901329960E1    -1.195053833304827E1     1.288375869769526E2
                        -2.513532978912336E1    -1.589904585694878E2    -6.713956760328855E-1   -6.284795991918494E1    -1.195646764501755E1     1.282844756111261E2    -2.476716421454036E1     6.244534312833309E1

 1.002000000000000E9    -2.565222605394437E1    -4.973324937485141E1    -1.219002435981647E1    -7.174918605050391E1    -6.376178170158443E-1   -6.381703592556659E1    -2.504384239652810E1    -1.594349245595601E2
                        -1.216677398693196E1    -7.207949984327237E1    -3.121379817120701E1    -4.531190321669888E1    -2.527472902655018E1    -1.654926249691962E2    -6.504182535249882E-1   -6.459347175006388E1
                        -6.336656145882985E-1   -6.383119390124021E1    -2.526828671574835E1    -1.648045610806810E2    -2.290928326639875E1     7.170206235552455E1    -1.225184028622320E1     1.275674428826969E2
                        -2.499221063218141E1    -1.598618448545904E2    -6.589825604357064E-1   -6.471931183465425E1    -1.225697266734936E1     1.269437952166232E2    -2.453920228108295E1     5.985774395890574E1

 1.003000000000000E9    -2.577289691470728E1    -4.995072088036543E1    -1.247943850278223E1    -7.391884693860015E1    -6.157629759609196E-1   -6.557151810477188E1    -2.487036420166895E1    -1.601811916055063E2
                        -1.246543442418886E1    -7.406698527862645E1    -3.127704286831202E1    -4.447724151879590E1    -2.511091349367575E1    -1.660280011987618E2    -6.212715455050986E-1   -6.634599535203267E1
                        -6.155143612123727E-1   -6.553209151603230E1    -2.512334824360794E1    -1.659998482035452E2    -2.299644506568789E1     6.953235825391199E1    -1.254889023329410E1     1.262156292026337E2
                        -2.484439817785393E1    -1.607734659966779E2    -6.335215500431202E-1   -6.652320422740044E1    -1.255953335292670E1     1.255246439987683E2    -2.452207169252262E1     5.808086502845235E1

 1.004000000000000E9    -2.571058127070580E1    -5.008545409908219E1    -1.279487013148843E1    -7.591672769292772E1    -5.973097763756584E-1   -6.732423423578733E1    -2.476330047148785E1    -1.608555250389536E2
                        -1.277939556393357E1    -7.620051763410653E1    -3.084873601060935E1    -4.261108714035485E1    -2.497560908238706E1    -1.674216516101536E2    -6.100984502742171E-1   -6.803701462340334E1
                        -5.929736640663044E-1   -6.729369096209929E1    -2.499158716640041E1    -1.670546878618289E2    -2.282826018995344E1     6.780557817147680E1    -1.287997854057210E1     1.249544917273180E2
                        -2.478244865001141E1    -1.616137604459382E2    -6.170490479438844E-1   -6.830003589614708E1    -1.287225998264304E1     1.243080866789664E2    -2.444676122421116E1     5.449440549415045E1

 1.005000000000000E9    -2.563473457262543E1    -5.089961641288712E1    -1.313367805333832E1    -7.798206234000217E1    -5.791780845673985E-1   -6.903288779533965E1    -2.462916894435864E1    -1.617843342420808E2
                        -1.310444281211334E1    -7.829950902582333E1    -3.070680144531885E1    -4.187930357605387E1    -2.492934546054332E1    -1.684769632130233E2    -5.892053136658145E-1   -6.978831192977201E1
                        -5.747138665876310E-1   -6.906962948881396E1    -2.489191278665862E1    -1.679379394334788E2    -2.278202580166609E1     6.521230772555884E1    -1.321004139261446E1     1.237512810200906E2
                        -2.463010374472677E1    -1.627714367790735E2    -6.065557600113422E-1   -7.009208216933334E1    -1.320386737424509E1     1.229663227827411E2    -2.439150558115552E1     5.282058190386290E1

 1.006000000000000E9    -2.560834235940433E1    -5.178945568653921E1    -1.346723462858786E1    -8.008102003938997E1    -5.592824240326331E-1   -7.074020208001882E1    -2.455886615002727E1    -1.631364639150864E2
                        -1.344809839227115E1    -8.039884874521995E1    -3.060305263954311E1    -4.050435191670341E1    -2.482607314145945E1    -1.699438655511220E2    -5.749006659691840E-1   -7.154236142759332E1
                        -5.516868457817280E-1   -7.075557133389741E1    -2.481040053358404E1    -1.693411784347858E2    -2.258834957888376E1     6.399279871683194E1    -1.354173157895379E1     1.225319435006643E2
                        -2.453314200157850E1    -1.637789119291307E2    -5.840749276447602E-1   -7.185749574893981E1    -1.354398820344610E1     1.218562951011176E2    -2.425137928484861E1     4.991778788929940E1

 1.007000000000000E9    -2.536997117749749E1    -5.075877281950556E1    -1.381660554015494E1    -8.220855316887074E1    -5.451546335435031E-1   -7.246244345620103E1    -2.443597966423258E1    -1.643239753482680E2
                        -1.381465083138570E1    -8.250603193338971E1    -3.009361447044755E1    -4.109275590383703E1    -2.472122395804256E1    -1.712089874011619E2    -5.555235565419312E-1   -7.325585236535966E1
                        -5.451984504309603E-1   -7.248255998725644E1    -2.473853673552013E1    -1.708695716435527E2    -2.266560585120340E1     6.216871171495258E1    -1.390302947757272E1     1.213220443099557E2
                        -2.443196728062214E1    -1.648243552831858E2    -5.736403440728430E-1   -7.360096370938052E1    -1.390173729712014E1     1.206693483808313E2    -2.419213091037494E1     4.794043859637613E1

 1.008000000000000E9    -2.531099393410653E1    -5.186155259889353E1    -1.420287022320730E1    -8.439421578507448E1    -5.277768705433937E-1   -7.418693697471923E1    -2.432210991719004E1    -1.652680344415959E2
                        -1.418087836346898E1    -8.471781149871613E1    -3.011832654959017E1    -3.886915333289940E1    -2.461416738548052E1    -1.722287010307308E2    -5.429331842677478E-1   -7.502829906774761E1
                        -5.258977209624297E-1   -7.420886350153756E1    -2.460189219153940E1    -1.718518966638797E2    -2.258299989419887E1     5.993076388957261E1    -1.427882408664792E1     1.202528231103189E2
                        -2.434163773216086E1    -1.659294969619918E2    -5.543672803955111E-1   -7.534973423136067E1    -1.427773951788852E1     1.196510632776244E2    -2.414157101681685E1     4.596298259971379E1

 1.009000000000000E9    -2.534544683331928E1    -5.217970676708315E1    -1.458777738207028E1    -8.661234545314684E1    -5.143503540023743E-1   -7.593982187058327E1    -2.423350414806604E1    -1.662662734586464E2
                        -1.457247010425033E1    -8.688233455684451E1    -2.979447873499867E1    -3.916022248936886E1    -2.451592580882043E1    -1.731118722967721E2    -5.245173917281574E-1   -7.672591255194210E1
                        -5.060862688792840E-1   -7.593024631764827E1    -2.449860749544072E1    -1.731481538145894E2    -2.263367446336371E1     5.770296891981390E1    -1.466143348590068E1     1.193477052692861E2
                        -2.424796907973962E1    -1.668900558869933E2    -5.457491818662096E-1   -7.706924054569419E1    -1.464864668869021E1     1.186147476455227E2    -2.413872184636562E1     4.292096514090352E1

 1.010000000000000E9    -2.512682882883278E1    -5.180813024959295E1    -1.498789010529281E1    -8.884497712964999E1    -4.990687928770587E-1   -7.768777184710076E1    -2.413453764934837E1    -1.676083622861536E2
                        -1.496803030125160E1    -8.917883955306471E1    -2.933850710673390E1    -3.853202275445542E1    -2.448542709766382E1    -1.745757339116126E2    -5.145911274382473E-1   -7.845032442411034E1
                        -4.952193298549797E-1   -7.761988957580586E1    -2.446625179311601E1    -1.745114879103748E2    -2.237671872962246E1     5.524583529272415E1    -1.506626411921330E1     1.183438687018665E2
                        -2.414021668511030E1    -1.679755109970414E2    -5.257928640544454E-1   -7.883356999811436E1    -1.506039270573738E1     1.175916484908260E2    -2.405901977199887E1     4.131761099131494E1

 1.011000000000000E9    -2.509813363737497E1    -5.281990560328506E1    -1.541234184299745E1    -9.114112235449790E1    -4.830776152214320E-1   -7.938504751844158E1    -2.405933053221278E1    -1.686710934143185E2
                        -1.540548424971290E1    -9.142258593110479E1    -2.921298258436909E1    -3.854039054412014E1    -2.431134292201101E1    -1.761945752563379E2    -4.976236673072446E-1   -8.019681446594450E1
                        -4.841462021837740E-1   -7.935071873438324E1    -2.436815508646701E1    -1.757130507836232E2    -2.244711627150131E1     5.399788305507870E1    -1.548628319559561E1     1.174597696701967E2
                        -2.404553361621684E1    -1.694716818504077E2    -5.142623864276039E-1   -8.058208210626870E1    -1.548510725290805E1     1.167851857149483E2    -2.400764202126670E1     3.907865616144371E1

 1.012000000000000E9    -2.502679903718608E1    -5.213041130155230E1    -1.586011774796310E1    -9.348787205549519E1    -4.747453993364353E-1   -8.115474757042328E1    -2.398520229232791E1    -1.696118862629160E2
                        -1.583181755868997E1    -9.391164439200382E1    -2.886268697400846E1    -3.798212394632732E1    -2.427731257240256E1    -1.772526249725895E2    -4.934600951404716E-1   -8.197485078705873E1
                        -4.748569976012005E-1   -8.109111305855923E1    -2.432514197026340E1    -1.770167693608505E2    -2.239728903669274E1     5.132529301631478E1    -1.594078447918603E1     1.166184169258491E2
                        -2.398590775458055E1    -1.700903336652530E2    -4.999397061087170E-1   -8.230233341197638E1    -1.593646411205215E1     1.158677766562516E2    -2.394120527589949E1     3.612268914288019E1

 1.013000000000000E9    -2.495966252021970E1    -5.285521868981932E1    -1.632329442303679E1    -9.602456380851098E1    -4.618387290269332E-1   -8.279676068673710E1    -2.387587368109718E1    -1.709559088973959E2
                        -1.631406768027638E1    -9.630889283355828E1    -2.860152047258721E1    -3.743265250486304E1    -2.417095632735830E1    -1.785505838681254E2    -4.756734688822309E-1   -8.368413407127346E1
                        -4.572826224336957E-1   -8.280772088267929E1    -2.423418135335365E1    -1.783516354275453E2    -2.238489518987402E1     5.004329133523481E1    -1.640070298159139E1     1.160084974715242E2
                        -2.389970896325330E1    -1.716992741047870E2    -4.943672855560531E-1   -8.406301328301058E1    -1.638084303694205E1     1.151899679023078E2    -2.388547367289855E1     3.496642434392138E1

 1.014000000000000E9    -2.479078718816917E1    -5.286789180762983E1    -1.682203699403170E1    -9.854114789380590E1    -4.466120894212652E-1   -8.452602605231049E1    -2.380946221069026E1    -1.720741700348935E2
                        -1.680398210821435E1    -9.882036595189145E1    -2.823789227662648E1    -3.857186531913317E1    -2.418216941861305E1    -1.799086834086452E2    -4.655848421119784E-1   -8.542856836756072E1
                        -4.476971319337869E-1   -8.455478324179107E1    -2.418638251079634E1    -1.794245849565562E2    -2.228131286650353E1     4.791741060454812E1    -1.687563745665498E1     1.153930336134169E2
                        -2.378897818330464E1    -1.728346892173264E2    -4.839670400721051E-1   -8.582531053222580E1    -1.688770895459198E1     1.146602915090617E2    -2.384908429277961E1     3.211179737348152E1

 1.015000000000000E9    -2.464961892596820E1    -5.329851662965445E1    -1.735234049283255E1    -1.011510501769695E2    -4.414238900371717E-1   -8.627063844848134E1    -2.375384675989126E1    -1.732595500407997E2
                        -1.733243433125000E1    -1.013773412442341E2    -2.820421800160691E1    -3.833809116926284E1    -2.413192622792185E1     1.790270272706912E2    -4.536957545049872E-1   -8.716493710671067E1
                        -4.361257287483602E-1   -8.624526549663820E1    -2.415116358386927E1     1.792560522356402E2    -2.238606755290849E1     4.547165392755974E1    -1.739174408497192E1     1.149542190156331E2
                        -2.374235134677288E1    -1.741346953454679E2    -4.686760694390001E-1   -8.749726207534278E1    -1.738322609491002E1     1.143262438973951E2    -2.376904065476145E1     2.975106525042944E1

 1.016000000000000E9    -2.464636786587870E1    -5.399680154728318E1    -1.790749118359210E1    -1.039152405286721E2    -4.324490599029735E-1   -8.799516782568641E1    -2.371211050217094E1    -1.743905759772799E2
                        -1.789003124117804E1    -1.040551904168666E2    -2.779444597841145E1    -3.907126406455559E1    -2.408377391329382E1     1.773988113908378E2    -4.445542334158822E-1   -8.884889594095752E1
                        -4.237786442352234E-1   -8.796838304436849E1    -2.408947854070057E1     1.781064848348234E2    -2.235094618088473E1     4.349016866686433E1    -1.793426883517505E1     1.148290175744164E2
                        -2.371307976924200E1    -1.751099624028390E2    -4.594056759991073E-1   -8.927795306686393E1    -1.792163113596516E1     1.140314341153119E2    -2.386310136070341E1     2.833018308031477E1

 1.017000000000000E9    -2.455949314374124E1    -5.385600271297083E1    -1.849850413263238E1    -1.067772671915838E2    -4.247014846255961E-1   -8.969134806240383E1    -2.363820040758439E1    -1.758216462338439E2
                        -1.850291737955385E1    -1.070738023851179E2    -2.771392399309073E1    -3.853814795519478E1    -2.407123161747104E1     1.761947893904769E2    -4.364155414700466E-1   -9.063259768912860E1
                        -4.156716790810097E-1   -8.965813754270913E1    -2.405914163456144E1     1.763031264416463E2    -2.239241595404744E1     4.172441846965142E1    -1.848981694866853E1     1.146131320490209E2
                        -2.364686726215430E1    -1.764786357521161E2    -4.524653763580644E-1   -9.103022646206048E1    -1.848629697698096E1     1.139935742292000E2    -2.375923901642119E1     2.703103152877689E1

 1.018000000000000E9    -2.434271300643824E1    -5.446955765001834E1    -1.912666715222041E1    -1.098904049545962E2    -4.203078274962672E-1   -9.144908145059030E1    -2.362740429456154E1    -1.768127027938326E2
                        -1.912148533844393E1    -1.103094359597838E2    -2.717926209806439E1    -3.890996261274295E1    -2.396538446343747E1     1.748456956066797E2    -4.296613761463790E-1   -9.235759570600354E1
                        -4.046806244308531E-1   -9.141948896712066E1    -2.399057046872786E1     1.752849339200826E2    -2.238854151939099E1     3.888083842017014E1    -1.909976401171479E1     1.150214547693280E2
                        -2.359557286617453E1    -1.775589562125349E2    -4.432709799017450E-1   -9.276801675299652E1    -1.908987875599013E1     1.143074533713681E2    -2.368489085398040E1     2.284215848992260E1

 1.019000000000000E9    -2.436962674547583E1    -5.453807193533371E1    -1.982279290968055E1    -1.130552807867536E2    -4.089846192558669E-1   -9.315400459220462E1    -2.356647508703547E1    -1.781257253784984E2
                        -1.980327252958896E1    -1.134766080559431E2    -2.697584245496122E1    -4.057446805141522E1    -2.396751755874891E1     1.734303480556991E2    -4.224163139491978E-1   -9.411656418566820E1
                        -4.028723856972582E-1   -9.316019892168130E1    -2.403491596132502E1     1.737286761448621E2    -2.244203607271479E1     3.793178114238269E1    -1.973162523467108E1     1.154901696638638E2
                        -2.356456474929892E1    -1.789460435822045E2    -4.391951747016257E-1   -9.447404977417030E1    -1.971282303677918E1     1.147750357240481E2    -2.359703638305017E1     2.124768520886257E1

 1.020000000000000E9    -2.424676389816773E1    -5.488559549354268E1    -2.053906942338410E1    -1.167282687565320E2    -3.956805825106995E-1   -9.483765772768334E1    -2.352359976991081E1    -1.794579786625279E2
                        -2.054501549605974E1    -1.170328394533539E2    -2.679660120148799E1    -3.951740658442499E1    -2.391179924002836E1     1.720305473551693E2    -4.149477505047587E-1   -9.578475824567269E1
                        -3.947460741548746E-1   -9.488972725228643E1    -2.398331920221823E1     1.725311676529915E2    -2.240822584155605E1     3.584898204969861E1    -2.037954911871785E1     1.163877404998252E2
                        -2.352170199700266E1     1.798273003233990E2    -4.258024906075691E-1   -9.622795864327510E1    -2.036835705730804E1     1.157328669333692E2    -2.360997100514095E1     1.990499172402810E1

 1.021000000000000E9    -2.418121427698949E1    -5.592227437219201E1    -2.131786891347697E1    -1.205856752868949E2    -3.871383713737441E-1   -9.661152574663853E1    -2.352428318357825E1     1.792524426993734E2
                        -2.130112461713368E1    -1.209908831729293E2    -2.650292221984608E1    -4.034128979566198E1    -2.392511929916775E1     1.706910917573990E2    -4.112791528487505E-1   -9.754587954457456E1
                        -3.917837037024643E-1   -9.659318160751819E1    -2.394786438001216E1     1.711202764383500E2    -2.244574463696564E1     3.356419488087042E1    -2.108248255786383E1     1.177551409236847E2
                        -2.352007206544481E1     1.785139726784393E2    -4.280614929233670E-1   -9.801346362602894E1    -2.105124300723124E1     1.169010434874822E2    -2.362487545714570E1     1.785225561707517E1

 1.022000000000000E9    -2.413524379886337E1    -5.683146376605194E1    -2.217696668500585E1    -1.251545637411196E2    -3.810983329282517E-1   -9.835792758656859E1    -2.348391182381536E1     1.780285486021727E2
