#  HZ   S   DB   R     50.00 
! Rohde & Schwarz Vector Network Analyzer 
! Rohde-Schwarz,ZNB8-4Port,1311601044102961,2.82
! Created: UTC 1/17/2019, 3:15:21 PM
! freq[Hz]                db:S11                  ang:S11                 db:S12                  ang:S12                 db:S13                  ang:S13                 db:S14                  ang:S14
!                         db:S21                  ang:S21                 db:S22                  ang:S22                 db:S23                  ang:S23                 db:S24                  ang:S24
!                         db:S31                  ang:S31                 db:S32                  ang:S32                 db:S33                  ang:S33                 db:S34                  ang:S34
!                         db:S41                  ang:S41                 db:S42                  ang:S42                 db:S43                  ang:S43                 db:S44                  ang:S44
! 
 1.000000000000000E9    -3.860926448483479E1    -7.344474725893981E1    -1.216128261166998E1     1.597518208218999E2    -6.310395207530783E-1   -2.979971634144442E1    -3.526540360899173E1    -1.185075808882956E2
                        -1.213864079829185E1     1.596719103272220E2    -3.628574068765887E1    -1.484243435494428E2    -3.528935745932256E1    -1.254480475553257E2    -6.967482212915267E-1   -3.074114499584362E1
                        -6.261523820425584E-1   -2.974213562849325E1    -3.530413802922998E1    -1.239110525851039E2    -4.098931092014670E1    -1.787475143852273E2    -1.223469689798006E1    -4.466003806297378E1
                        -3.530956817714463E1    -1.193064087318103E2    -7.030552903206317E-1   -3.055181652494385E1    -1.222926514321642E1    -4.514981891921666E1    -3.702286852672392E1    -4.826408709780495E1

 1.001000000000000E9    -3.912153530646923E1    -6.588484637424197E1    -1.186631523066126E1     1.575909085572050E2    -6.522920544773087E-1   -3.143273870054004E1    -3.457905585434477E1    -1.193157326970295E2
                        -1.183540240334654E1     1.574645246553532E2    -3.692768093334698E1    -1.518325377861555E2    -3.463295119095047E1    -1.279414109957094E2    -7.196302130109291E-1   -3.241352647340987E1
                        -6.486014797869477E-1   -3.140988654059260E1    -3.448819443019484E1    -1.267805230632642E2    -4.118550623042508E1     1.698194974253905E2    -1.194078156030281E1    -4.574422394808206E1
                        -3.454765198162126E1    -1.198154123816771E2    -7.294452906088826E-1   -3.241235982230350E1    -1.193453430882043E1    -4.625922994482662E1    -3.706446852943062E1    -4.116792135836889E1

 1.002000000000000E9    -3.913381233921184E1    -5.456205449736738E1    -1.156119215983994E1     1.555946982921392E2    -6.790632103909856E-1   -3.313352329046667E1    -3.382428682405622E1    -1.192869583083676E2
                        -1.153950343143742E1     1.552956732641672E2    -3.853586268541785E1    -1.565947119076065E2    -3.395719581941830E1    -1.261735430559443E2    -7.469251309427755E-1   -3.409521167960203E1
                        -6.721347559606330E-1   -3.314265214360488E1    -3.409835288470965E1    -1.260320899996867E2    -4.004539048640594E1     1.598563757404672E2    -1.165184311862102E1    -4.691927165760070E1
                        -3.407430866539666E1    -1.208020276825478E2    -7.534785739162243E-1   -3.419200722630218E1    -1.165945259309372E1    -4.745392571257553E1    -3.774110027635607E1    -3.566169753463083E1

 1.003000000000000E9    -3.947003814055584E1    -4.934029051448430E1    -1.127342654085962E1     1.534272100152561E2    -6.994838928478698E-1   -3.485267648958234E1    -3.325181166183534E1    -1.206456260234542E2
                        -1.125557970216778E1     1.532232234288734E2    -3.887045891451717E1    -1.631737227784348E2    -3.340592996374286E1    -1.295721146520518E2    -7.655587023312145E-1   -3.580134305090917E1
                        -6.967762359977346E-1   -3.486455048020221E1    -3.342024053075102E1    -1.282399366288198E2    -4.022911384577107E1     1.565115251459870E2    -1.137285582226916E1    -4.810906254020649E1
                        -3.340108663934974E1    -1.218468813334565E2    -7.720667692198947E-1   -3.596973925988529E1    -1.136359085435450E1    -4.882776733019836E1    -3.771464198507170E1    -3.624726476631329E1

 1.004000000000000E9    -3.986056746662914E1    -4.180249108124379E1    -1.100010180617091E1     1.513944307252533E2    -7.286100528630434E-1   -3.659052084947871E1    -3.264132575457766E1    -1.222819332835243E2
                        -1.099283553937851E1     1.511466593303804E2    -4.078066293036827E1    -1.728948782503011E2    -3.301235642424623E1    -1.299128207891893E2    -7.924793866681800E-1   -3.748596319958888E1
                        -7.253098870622438E-1   -3.655271645669656E1    -3.297592022744328E1    -1.298215223869116E2    -3.911149716356022E1     1.491853274964311E2    -1.108909434597306E1    -4.939703718350550E1
                        -3.272274345931005E1    -1.231074079653624E2    -8.013224859986972E-1   -3.775814763969034E1    -1.110723343074130E1    -5.003846945909135E1    -3.721843334083677E1    -2.835689888545683E1

 1.005000000000000E9    -3.899007866305237E1    -3.565270061978570E1    -1.074051966703090E1     1.494556895261144E2    -7.506006594444701E-1   -3.825380456539803E1    -3.213167444611512E1    -1.231433335171421E2
                        -1.071066761199934E1     1.490780449841962E2    -4.224515817886920E1     1.758270427535565E2    -3.225312487662018E1    -1.311829862139022E2    -8.156761414183678E-1   -3.922155994655515E1
                        -7.474034388916201E-1   -3.829395725906851E1    -3.232710002038618E1    -1.317285642074867E2    -3.843541570824603E1     1.395389062248165E2    -1.083910827815199E1    -5.066513725263601E1
                        -3.218040595457642E1    -1.237861053551633E2    -8.302562660024588E-1   -3.949183053700562E1    -1.083215040955524E1    -5.133666624190708E1    -3.771257171110742E1    -2.874569131084173E1

 1.006000000000000E9    -3.817873935066687E1    -2.899708070196013E1    -1.047449508741892E1     1.473914189133052E2    -7.767430480408266E-1   -3.995491132831670E1    -3.150570422082915E1    -1.236159578860994E2
                        -1.045534513184639E1     1.470328121591222E2    -4.298435580343427E1     1.637298997361350E2    -3.186500858966013E1    -1.322840819803218E2    -8.443409877532050E-1   -4.091023465734073E1
                        -7.716455181218773E-1   -3.996959208682592E1    -3.199750185996842E1    -1.320900786979364E2    -3.721078079386451E1     1.379436197036206E2    -1.057786909219949E1    -5.198779910021521E1
                        -3.151904302283436E1    -1.251737789854265E2    -8.561924237260217E-1   -4.123187854708487E1    -1.057835547536793E1    -5.257270050717057E1    -3.740953981165290E1    -2.454371422935528E1

 1.007000000000000E9    -3.702783879032447E1    -1.818565296976684E1    -1.022282278784838E1     1.454174498448892E2    -8.065502515573162E-1   -4.168337365858879E1    -3.127665409293338E1    -1.249648892438857E2
                        -1.022205706226517E1     1.450897294243254E2    -4.590770090794119E1     1.455883614625947E2    -3.149068385596974E1    -1.337461420055324E2    -8.728077127059275E-1   -4.260254230241837E1
                        -8.057647532763028E-1   -4.165529516863756E1    -3.153508678146647E1    -1.326248347292511E2    -3.699646588696059E1     1.356988394087965E2    -1.034932231611974E1    -5.328730223245780E1
                        -3.122893278157893E1    -1.254418510156962E2    -8.876517268001639E-1   -4.296170334548986E1    -1.033383326479791E1    -5.395922099380712E1    -3.753328179090806E1    -2.041805971163854E1

 1.008000000000000E9    -3.605656711944078E1    -1.722251154243697E1    -9.995201193564652       1.433852541155502E2    -8.323118731106565E-1   -4.335991716959595E1    -3.074768777492406E1    -1.257265959513952E2
                        -9.970495472020899       1.430148606565184E2    -4.472955262720582E1     1.222001926263280E2    -3.101636349153408E1    -1.347799607479271E2    -9.033756798931030E-1   -4.437483610060334E1
                        -8.277201916832957E-1   -4.334840423778432E1    -3.113392012382600E1    -1.339727079994322E2    -3.628885895896504E1     1.289790176062900E2    -1.010066110294036E1    -5.465542323683757E1
                        -3.075410343119686E1    -1.259437460850156E2    -9.173728147605404E-1   -4.467119555023962E1    -1.010325457850877E1    -5.535735403880799E1    -3.733263765780825E1    -2.027833261044128E1

 1.009000000000000E9    -3.551945670929230E1    -1.325305704819053E1    -9.758885061151917       1.414551323626133E2    -8.639004311089229E-1   -4.508463737903859E1    -3.032591949952675E1    -1.275244465292144E2
                        -9.724499638879273       1.412029584799882E2    -4.436683511720608E1     1.009944515273839E2    -3.062873043604859E1    -1.368599128445534E2    -9.303168913499792E-1   -4.602608680861403E1
                        -8.560406522960946E-1   -4.506556349792928E1    -3.071389628484267E1    -1.359947804012087E2    -3.610436558580638E1     1.255595933985822E2    -9.866293051592223      -5.598932551665821E1
                        -3.031482431089017E1    -1.284908881098932E2    -9.535378367189646E-1   -4.639175888731590E1    -9.864943161660065      -5.670792055181300E1    -3.661988667771263E1    -1.603700243695514E1

 1.010000000000000E9    -3.456856125137183E1    -9.155209975008775      -9.529501353287866       1.394980445523871E2    -8.906379855830322E-1   -4.678815167393051E1    -3.006630048761073E1    -1.282823390367853E2
                        -9.510820212494469       1.391795266177108E2    -4.246614153301550E1     7.935568357565461E1    -3.027681997026449E1    -1.369024054266840E2    -9.638463864960429E-1   -4.775214441140581E1
                        -8.935925657432251E-1   -4.672869219670312E1    -3.029308883909881E1    -1.368624569037345E2    -3.496826688822608E1     1.186265911470475E2    -9.644745431295114      -5.741389406872523E1
                        -2.997125714740160E1    -1.293282491493609E2    -9.764652075391084E-1   -4.812284240889635E1    -9.635446127251827      -5.805329145720699E1    -3.704336727764380E1    -1.589096617434142E1

 1.011000000000000E9    -3.384597453262774E1    -8.221325772872801      -9.301292348837659       1.375534609929078E2    -9.226398045118982E-1   -4.849594859471135E1    -2.965827082288148E1    -1.291372389375155E2
                        -9.285520475790721       1.372717488074395E2    -4.132935069547902E1     7.200954636899601E1    -3.010562531274869E1    -1.385417740075984E2    -9.954876416392500E-1   -4.948057961767423E1
                        -9.250136580641901E-1   -4.845907213864400E1    -3.009486411581454E1    -1.377463040024222E2    -3.478086047927394E1     1.196920489929603E2    -9.418305973493744      -5.877943668596801E1
                        -2.971683802419091E1    -1.300926846995400E2    -1.009397536688347      -4.985896981073705E1    -9.421282278528496      -5.952783491419263E1    -3.679705066135880E1    -1.361853616343002E1

 1.012000000000000E9    -3.304791946766307E1    -4.558570669104178      -9.096501476102430       1.356825561619031E2    -9.560843899547393E-1   -5.018337049580264E1    -2.929442742781530E1    -1.313712437839606E2
                        -9.078410639843515       1.353679972210936E2    -3.914827696390922E1     6.387244837885204E1    -2.963158083925917E1    -1.395703344496792E2    -1.034124852693585      -5.119465501569966E1
                        -9.588433374402887E-1   -5.016097275972607E1    -2.969892235003094E1    -1.393374293620477E2    -3.425482850351401E1     1.140167475141228E2    -9.211986300861394      -6.022592791687273E1
                        -2.939796861979939E1    -1.319625262771386E2    -1.039524078044131      -5.154408866076251E1    -9.208847109659901      -6.094278770500095E1    -3.608958881682121E1    -1.105152397165498E1

 1.013000000000000E9    -3.230173241875801E1    -5.432843807647646      -8.881075561116750       1.338038812390301E2    -9.916331295588375E-1   -5.185196467618022E1    -2.907471760993412E1    -1.315317352201458E2
                        -8.873482774952505       1.334397362426701E2    -3.768771393416693E1     5.499064801306061E1    -2.946364134177093E1    -1.407368252698942E2    -1.056666427416710      -5.288543079947252E1
                        -9.884440191702186E-1   -5.186051878236403E1    -2.942190005563615E1    -1.408230658819657E2    -3.382489579470461E1     1.143185935297829E2    -9.002956280659678      -6.166232455178560E1
                        -2.907991929513039E1    -1.322441148921878E2    -1.078698818675644      -5.327047927926835E1    -9.003395060779265      -6.231276906015733E1    -3.647603524340043E1    -1.147043128803770E1

 1.014000000000000E9    -3.142116415604689E1    -4.061862935191856      -8.673395509379494       1.318818318251642E2    -1.024743427905450      -5.356173012789891E1    -2.870557592661583E1    -1.338367285947905E2
                        -8.667634886024043       1.315834669534957E2    -3.674631549852494E1     4.765355596618683E1    -2.911889286965441E1    -1.420977393239317E2    -1.098845209092045      -5.459900786386505E1
                        -1.024762821964875      -5.355429320791573E1    -2.906550826554808E1    -1.414685292590420E2    -3.310180444825151E1     1.105494928630912E2    -8.794196399211002      -6.310800077681488E1
                        -2.873308918859888E1    -1.338581401826372E2    -1.110038251635906      -5.498251134791497E1    -8.801908309515213      -6.380424552871359E1    -3.593513205771512E1    -7.749242061437266

 1.015000000000000E9    -3.072542256756244E1    -4.355528092228990      -8.484574753038016       1.300329994279107E2    -1.060830633239341      -5.528718716214873E1    -2.847587923902657E1    -1.344400574764809E2
                        -8.460684938460172       1.297047898006529E2    -3.581661317019751E1     4.408191276765747E1    -2.882914314559280E1    -1.440037054200825E2    -1.130338248274070      -5.631055441041045E1
                        -1.059088919033550      -5.525575714875685E1    -2.887668350245180E1    -1.425203854360131E2    -3.307315921355908E1     1.072532323780265E2    -8.608197658414300      -6.454392017797744E1
                        -2.846995415726390E1    -1.351152806750263E2    -1.148455247228538      -5.668407100576020E1    -8.605430156197631      -6.529082288315490E1    -3.549116934368341E1    -6.899593957843058

 1.016000000000000E9    -3.015331699778847E1    -4.549281892654210      -8.287712941795032       1.281712661703881E2    -1.098351929738540      -5.696134014382076E1    -2.832146452915666E1    -1.362561504325711E2
                        -8.279260312779819       1.278283158204670E2    -3.434944352010215E1     3.919147269434776E1    -2.860530210879258E1    -1.449585999454882E2    -1.167122875812361      -5.800792911997672E1
                        -1.092452521809152      -5.692159478359008E1    -2.854430690944151E1    -1.445729294528350E2    -3.258187141248498E1     1.036780500588120E2    -8.418277893939710      -6.603985046280540E1
                        -2.826101996069387E1    -1.364213514357888E2    -1.182517422613894      -5.839425740776001E1    -8.406958547541061      -6.676528348990448E1    -3.562330654470512E1    -8.325545146814298

 1.017000000000000E9    -2.972612808522641E1    -4.668585415674876      -8.107772770937370       1.262825449311342E2    -1.140508356293922      -5.867650412257704E1    -2.807047062371978E1    -1.368913252233338E2
                        -8.087715788239633       1.259706204922915E2    -3.348111299014281E1     3.725388962967299E1    -2.837159200352236E1    -1.460338260021297E2    -1.204640740874603      -5.973875164960230E1
                        -1.131616714594729      -5.860677503404199E1    -2.847878856617532E1    -1.461202133794346E2    -3.247903960171140E1     1.037651801793199E2    -8.226800535565818      -6.746660591982830E1
                        -2.810247214208416E1    -1.371808210029343E2    -1.222912283784720      -6.011500590280546E1    -8.226604874502275      -6.820512631440720E1    -3.591066301279228E1    -6.030915528683440

 1.018000000000000E9    -2.884505007062580E1    -4.655237692114318      -7.925876377719292       1.244209274660809E2    -1.181703761301072      -6.035533150695103E1    -2.772965051906429E1    -1.383271427109612E2
                        -7.909597474894920       1.241111296400539E2    -3.237734407323173E1     3.280695698880702E1    -2.811799024918408E1    -1.477484322209319E2    -1.246537135982101      -6.143138949577784E1
                        -1.168911431255636      -6.032170395582644E1    -2.809735354417066E1    -1.471713450379201E2    -3.200924773149764E1     1.000881129973217E2    -8.045372306525998      -6.896548533268209E1
                        -2.773726755799647E1    -1.392930734211525E2    -1.260479362301434      -6.182384674797700E1    -8.041932773115439      -6.971882052178241E1    -3.449863241795642E1    -4.915844573893389

 1.019000000000000E9    -2.851262118473068E1    -4.739391885635233      -7.747681247911017       1.225440871374922E2    -1.215775620344544      -6.204081848617446E1    -2.752915672165638E1    -1.393053499014668E2
                        -7.726842589094838       1.222437141437136E2    -3.168046309693792E1     2.834106019722474E1    -2.792206550834725E1    -1.485415059779080E2    -1.287118767516745      -6.318805957895717E1
                        -1.209079284015504      -6.203632134726813E1    -2.796282816192657E1    -1.481208151541447E2    -3.176851362509576E1     9.898480949257053E1    -7.872365799329371      -7.046950298609093E1
                        -2.748611164186684E1    -1.402569542025777E2    -1.300978871584084      -6.353641624763587E1    -7.865552814446863      -7.126564342463364E1    -3.453737059939940E1    -1.722898614321201

 1.020000000000000E9    -2.797792313579316E1    -5.656600819433972      -7.571182015363624       1.207140577262539E2    -1.251821582183870      -6.373035154130196E1    -2.733083172639933E1    -1.409148988653492E2
                        -7.549564723965667       1.203933555124841E2    -3.098150139515055E1     2.797498963687833E1    -2.784423941519413E1    -1.502137652880855E2    -1.328888903996043      -6.487276457088522E1
                        -1.253452561699771      -6.372763853228503E1    -2.777243713334116E1    -1.501871393771732E2    -3.136676037649748E1     9.742732725154721E1    -7.697977244084356      -7.203239100775045E1
                        -2.734149785000083E1    -1.414847468516685E2    -1.337112320614477      -6.526189177311258E1    -7.684255424831529      -7.271619587907782E1    -3.467392507175592E1    -2.301334360800688

 1.021000000000000E9    -2.749655570514495E1    -6.981523791744033      -7.408232811255817       1.188674733033868E2    -1.291801979749587      -6.541436690807636E1    -2.713544498695629E1    -1.414727374412935E2
                        -7.378713908136326       1.185794840043876E2    -3.019310879140709E1     2.422593635117294E1    -2.761005378950227E1    -1.515858521820503E2    -1.367377689762276      -6.656175359585284E1
                        -1.294440980574157      -6.542787654083293E1    -2.760190862910826E1    -1.516909790139266E2    -3.116376957785721E1     9.424880922900907E1    -7.528100048711961      -7.354537025725722E1
                        -2.715614453897067E1    -1.427109735007369E2    -1.383072759497624      -6.699380997804542E1    -7.515202466080025      -7.424236092777893E1    -3.435500856970761E1    -3.105561023450563

 1.022000000000000E9    -2.709006738951032E1    -7.753839091859642      -7.233894005047055       1.170516384545739E2    -1.336972600124764      -6.715721382233421E1    -2.691027208035710E1    -1.436800767136908E2
