#  HZ   S   DB   R     50.00 
! Rohde & Schwarz Vector Network Analyzer 
! Rohde-Schwarz,ZNB8-4Port,1311601044102961,2.82
! Created: UTC 1/17/2019, 3:17:34 PM
! freq[Hz]                db:S11                  ang:S11                 db:S12                  ang:S12                 db:S13                  ang:S13                 db:S14                  ang:S14
!                         db:S21                  ang:S21                 db:S22                  ang:S22                 db:S23                  ang:S23                 db:S24                  ang:S24
!                         db:S31                  ang:S31                 db:S32                  ang:S32                 db:S33                  ang:S33                 db:S34                  ang:S34
!                         db:S41                  ang:S41                 db:S42                  ang:S42                 db:S43                  ang:S43                 db:S44                  ang:S44
! 
 1.000000000000000E9    -2.745870763632449E1    -3.946697871654556E1    -1.982627529341737E1    -7.203057248117850E1    -3.994103016153546E-1   -5.032147868450417E1    -2.641599367549447E1    -1.407167542515156E2
                        -1.982157346961330E1    -7.209132654316473E1    -3.402289414500588E1    -3.272208403951839E1    -2.675353761871074E1    -1.462217900371855E2    -3.960248621628042E-1   -5.121065208518171E1
                        -3.924329719804324E-1   -5.026529653621682E1    -2.671687290165428E1    -1.454651653331028E2    -2.601098928050298E1     9.742067136411025E1    -1.932479711595828E1     1.594688797557145E2
                        -2.638081812381186E1    -1.409791375476002E2    -3.963851479715504E-1   -5.105296855441829E1    -1.931102563302634E1     1.589122366202108E2    -2.851317590148661E1     8.640659650085931E1

 1.001000000000000E9    -2.732650139619558E1    -3.878262294045221E1    -2.055897611864488E1    -7.574390843582467E1    -3.936435992513471E-1   -5.200277356644386E1    -2.616434741907772E1    -1.414582152448552E2
                        -2.054902809835172E1    -7.572460235382188E1    -3.389968537027036E1    -3.107008193317115E1    -2.651647477873999E1    -1.470010203439343E2    -3.826133691429987E-1   -5.287955088872025E1
                        -3.901821170999812E-1   -5.197322590374710E1    -2.658578572056760E1    -1.464428691193920E2    -2.586090941462228E1     9.397196463651495E1    -1.995808202208581E1     1.603217645619857E2
                        -2.617142132250489E1    -1.420506849249360E2    -3.916892770326017E-1   -5.290800240607044E1    -1.995154506527225E1     1.595988364547397E2    -2.839076086146372E1     8.271856575969255E1

 1.002000000000000E9    -2.703455506903023E1    -3.815479700233481E1    -2.132997339362481E1    -7.985963723476145E1    -3.838811928742178E-1   -5.374927310060372E1    -2.596017894429783E1    -1.424645944625531E2
                        -2.131487880839313E1    -7.995329353556797E1    -3.310021619356705E1    -2.643292212325295E1    -2.632639407586019E1    -1.484588463025306E2    -3.839749365839268E-1   -5.461004144611551E1
                        -3.796396289689391E-1   -5.371461411577550E1    -2.636213954043664E1    -1.480437433975478E2    -2.554831291519286E1     9.198376663373193E1    -2.063721251976664E1     1.614283021443083E2
                        -2.595488834209704E1    -1.433573639690795E2    -3.909698094742821E-1   -5.475191933448897E1    -2.065835825869409E1     1.606895758875032E2    -2.808442263264705E1     7.937457532388255E1

 1.003000000000000E9    -2.710323803235259E1    -3.861256429987200E1    -2.220936730575296E1    -8.442191028783169E1    -3.800637023062857E-1   -5.547437446841979E1    -2.575685981037034E1    -1.437708329192330E2
                        -2.216162989980953E1    -8.457167616717274E1    -3.319895240835032E1    -2.613628613764733E1    -2.615663705464613E1    -1.497771551616309E2    -3.701636085569814E-1   -5.634265526138355E1
                        -3.764168856841608E-1   -5.544308593727363E1    -2.613588082395354E1    -1.492482893679127E2    -2.562410684011044E1     8.968851018945654E1    -2.136110976421040E1     1.633100014688929E2
                        -2.574369249867363E1    -1.441934465356719E2    -3.845327291119212E-1   -5.654085671657980E1    -2.133460913110714E1     1.626187333191280E2    -2.800088922342172E1     7.728105141972613E1

 1.004000000000000E9    -2.702876418498750E1    -3.796962506861687E1    -2.312747844585914E1    -8.965331304296839E1    -3.774019615131339E-1   -5.722261832323792E1    -2.556381451638026E1    -1.447134485604392E2
                        -2.307606049115599E1    -8.969153008262748E1    -3.243015428297328E1    -2.279437053201462E1    -2.596421336716098E1    -1.513038140658654E2    -3.695585934432774E-1   -5.806269084657243E1
                        -3.706914115273479E-1   -5.716717799956129E1    -2.597127919804996E1    -1.504330389367466E2    -2.544560792559411E1     8.795124172010961E1    -2.206340830360647E1     1.657368387630899E2
                        -2.558026632129531E1    -1.451714459551141E2    -3.794672467527928E-1   -5.832090852516589E1    -2.208095177819886E1     1.648683037966914E2    -2.791647824846472E1     7.294783066401574E1

 1.005000000000000E9    -2.680464798185042E1    -3.885114748673384E1    -2.408356479780610E1    -9.570170856968439E1    -3.713572149182779E-1   -5.889791622320315E1    -2.535969091476277E1    -1.457481356657055E2
                        -2.406438441179620E1    -9.622649311638301E1    -3.206453251989981E1    -2.217438234166107E1    -2.575240767146373E1    -1.522357050270501E2    -3.641126838764500E-1   -5.980395562700362E1
                        -3.658728170638680E-1   -5.894011851569741E1    -2.577555654998685E1    -1.516498882453629E2    -2.525358883666785E1     8.493690010103092E1    -2.280997240297949E1     1.686065859612181E2
                        -2.536668335475828E1    -1.465637116718006E2    -3.773303044057915E-1   -6.009532844331271E1    -2.279769351025706E1     1.679172308482568E2    -2.777737850326128E1     7.178749494182840E1

 1.006000000000000E9    -2.670349971594266E1    -3.958392190416904E1    -2.507160972758666E1    -1.028883429875469E2    -3.684653861160512E-1   -6.062492692363453E1    -2.521063495627455E1    -1.469795438171726E2
                        -2.511289877601066E1    -1.029750508145368E2    -3.182535206420850E1    -2.111482796040973E1    -2.557908471812247E1    -1.537611237441969E2    -3.631763884939410E-1   -6.154535506409591E1
                        -3.653246794442532E-1   -6.060735217314587E1    -2.562942937044056E1    -1.531486534228643E2    -2.503641044828845E1     8.360683225300120E1    -2.351758993436313E1     1.727847670791649E2
                        -2.522577327572613E1    -1.476875334480482E2    -3.756086287374190E-1   -6.184910066982143E1    -2.351077680998910E1     1.720688895732473E2    -2.757342393548078E1     6.794872332743341E1

 1.007000000000000E9    -2.637374525635870E1    -3.800310633467228E1    -2.617315227321836E1    -1.116082620803139E2    -3.645519049533102E-1   -6.234670042657834E1    -2.501039756631199E1    -1.482541570681528E2
                        -2.611855392227442E1    -1.121332463441595E2    -3.114349646853232E1    -2.170787821255161E1    -2.543902848551282E1    -1.550141523137900E2    -3.607642086732372E-1   -6.322683005655954E1
                        -3.628601449074582E-1   -6.234649858558044E1    -2.550276654830540E1    -1.546586556195307E2    -2.502974751672905E1     8.245194176902230E1    -2.421145981691658E1     1.776997322981592E2
                        -2.501078311381667E1    -1.488223820492671E2    -3.757461768740016E-1   -6.358261128074977E1    -2.418860591773545E1     1.768465755263025E2    -2.748545583895745E1     6.641787684310545E1

 1.008000000000000E9    -2.620096107579705E1    -3.898333542394956E1    -2.715508989788332E1    -1.221290121207626E2    -3.662295272764077E-1   -6.404264092622265E1    -2.487978724228620E1    -1.496388554513107E2
                        -2.708461614197184E1    -1.224967185930315E2    -3.089157742025725E1    -1.945437988387536E1    -2.535991651933159E1    -1.561930903989078E2    -3.640899125788005E-1   -6.501529562177291E1
                        -3.626622016754363E-1   -6.403975116870114E1    -2.535020710346007E1    -1.558407448646341E2    -2.487165601780232E1     7.978131308540827E1    -2.480738726718631E1    -1.763384412774896E2
                        -2.488682166117312E1    -1.501155907748219E2    -3.762372287514680E-1   -6.534675931265748E1    -2.480417233142537E1    -1.769372221251792E2    -2.738655422540490E1     6.420170042595217E1

 1.009000000000000E9    -2.620241233514744E1    -3.910184219680972E1    -2.803114272868396E1    -1.347338170098757E2    -3.640637577984993E-1   -6.579160002039014E1    -2.471638159336476E1    -1.505803437783566E2
                        -2.804631735912580E1    -1.347402431758131E2    -3.033364307479832E1    -1.975560255933739E1    -2.516708080109987E1    -1.574309290683257E2    -3.582240791288655E-1   -6.670758697125501E1
                        -3.545331630625453E-1   -6.577248303569996E1    -2.518195266873252E1    -1.571304102181948E2    -2.489362679241125E1     7.737950273369222E1    -2.519418460864486E1    -1.690901989625625E2
                        -2.470362506148411E1    -1.513541475034502E2    -3.782524714579745E-1   -6.707130048393799E1    -2.520681458052753E1    -1.698890917127671E2    -2.739695115214495E1     6.059042646943480E1

 1.010000000000000E9    -2.588726905607967E1    -3.869750803506810E1    -2.852938150051219E1    -1.491747907693181E2    -3.646275123563740E-1   -6.752172922351755E1    -2.457267817055782E1    -1.518325141014529E2
                        -2.849214696630615E1    -1.494926051629562E2    -2.982776944218794E1    -2.014453075111257E1    -2.507670720764041E1    -1.588355089710558E2    -3.643393515452450E-1   -6.842729813267179E1
                        -3.650589960727810E-1   -6.744905005910422E1    -2.501227918815570E1    -1.584425347929026E2    -2.453083194248182E1     7.456685980138236E1    -2.545686094629017E1    -1.612944518632242E2
                        -2.456725214540349E1    -1.524355795422582E2    -3.745398179507247E-1   -6.878399810591239E1    -2.543039507665767E1    -1.621887697590657E2    -2.722818048862546E1     5.925186689342854E1

 1.011000000000000E9    -2.573334877557138E1    -3.922720642086233E1    -2.856581835787294E1    -1.648284955018539E2    -3.641390804826761E-1   -6.921609084294977E1    -2.440678140462359E1    -1.530621359387507E2
                        -2.857120290697841E1    -1.653403258630478E2    -2.956809363510597E1    -2.041759415671732E1    -2.488035875603246E1    -1.600462294820293E2    -3.635137483111020E-1   -7.016683634091216E1
                        -3.624672038044020E-1   -6.920114802957220E1    -2.490625905925901E1    -1.599380619038356E2    -2.456545736140808E1     7.367281230021941E1    -2.545463509060975E1    -1.536184181119224E2
                        -2.440815688327153E1    -1.540462105174762E2    -3.759139679907682E-1   -7.052827239419977E1    -2.542469871780401E1    -1.543632483362883E2    -2.715843877856117E1     5.646799448491026E1

 1.012000000000000E9    -2.557714654734667E1    -3.840856520583760E1    -2.817582508685659E1    -1.796215694269741E2    -3.681566621873589E-1   -7.094467353548838E1    -2.429942244091247E1    -1.543385281102960E2
                        -2.815667714733621E1    -1.799617694879193E2    -2.911824438931175E1    -2.013061664051298E1    -2.479834541653096E1    -1.615856678965195E2    -3.700263827256904E-1   -7.190751198840383E1
                        -3.690361140093549E-1   -7.089575137546245E1    -2.481055139159183E1    -1.611821452854707E2    -2.444532779826886E1     7.089953409219926E1    -2.514811827740412E1    -1.458500919174908E2
                        -2.430923095651009E1    -1.551862116644087E2    -3.756695801273347E-1   -7.228039768823399E1    -2.515151195931140E1    -1.465551059983002E2    -2.704129242924386E1     5.320635495768502E1

 1.013000000000000E9    -2.543915685465641E1    -3.946752446764817E1    -2.737178336605010E1     1.667924491925895E2    -3.692717842587884E-1   -7.263870669804953E1    -2.417565086089521E1    -1.555320232786394E2
                        -2.739055713237783E1     1.667043804015540E2    -2.871598033039075E1    -1.982968204068018E1    -2.469544354464819E1    -1.628631565932055E2    -3.635894150178290E-1   -7.361078452332255E1
                        -3.684248785050753E-1   -7.262160122313783E1    -2.471221574253912E1    -1.626323114990498E2    -2.437244268802114E1     6.981085153350513E1    -2.472843939248532E1    -1.388489826045121E2
                        -2.418235925914180E1    -1.564272982633605E2    -3.862186411078197E-1   -7.398308711049134E1    -2.470808420990825E1    -1.396166102528960E2    -2.697807511652027E1     5.244567980963670E1

 1.014000000000000E9    -2.517104072375945E1    -3.895059133048699E1    -2.639356656163241E1     1.557494900579314E2    -3.713854923048832E-1   -7.433764891904146E1    -2.404878998097727E1    -1.568527493894131E2
                        -2.639188215231836E1     1.556768731711358E2    -2.827655159678965E1    -2.108921178335051E1    -2.457640234717955E1    -1.641812188137293E2    -3.707433009122292E-1   -7.536708118523184E1
                        -3.732892540970856E-1   -7.434911620554826E1    -2.458838508609179E1    -1.638752741802327E2    -2.425527863743581E1     6.757288629088380E1    -2.411283429907831E1    -1.332187646209591E2
                        -2.405602656273767E1    -1.578327748111318E2    -3.901276210899158E-1   -7.574089618607779E1    -2.410968077255275E1    -1.337282771455125E2    -2.679357003932186E1     4.909897544473958E1

 1.015000000000000E9    -2.498283460823070E1    -3.958231941645030E1    -2.538253428411716E1     1.467203835952143E2    -3.779327524695147E-1   -7.605713794284318E1    -2.392119965377293E1    -1.582527003274331E2
                        -2.536305985047304E1     1.463688832154684E2    -2.805517605003766E1    -2.155540826860952E1    -2.445829508823380E1    -1.658189884465683E2    -3.727924884706465E-1   -7.709311132326531E1
                        -3.721017594888511E-1   -7.607100878561991E1    -2.451566456726768E1    -1.654622631744904E2    -2.427097288286181E1     6.507479540628422E1    -2.342616068219432E1    -1.282568610081523E2
                        -2.397753353950642E1    -1.590035210825291E2    -3.893392334714066E-1   -7.744128510795594E1    -2.339876664439638E1    -1.289615679772792E2    -2.675384402296251E1     4.688458559206157E1

 1.016000000000000E9    -2.491633407429889E1    -4.050856306791350E1    -2.433978426788815E1     1.393416485122356E2    -3.802456698454371E-1   -7.777763292630772E1    -2.385382776159844E1    -1.597302705339866E2
                        -2.429823348006818E1     1.390702442009861E2    -2.762249433956512E1    -2.263203259828779E1    -2.435974814914717E1    -1.668568895009179E2    -3.792757759371284E-1   -7.878598349569278E1
                        -3.742416309750101E-1   -7.774807102202689E1    -2.435685756823371E1    -1.665493659918196E2    -2.418464471894403E1     6.330826089192497E1    -2.266364633010236E1    -1.244624095218055E2
                        -2.384591401317234E1    -1.606333006797629E2    -3.919932031286852E-1   -7.920340734507279E1    -2.267319276760491E1    -1.251573146596359E2    -2.684406371981759E1     4.546169414669247E1

 1.017000000000000E9    -2.471928692748484E1    -4.000751145931385E1    -2.333569774904937E1     1.332529445118210E2    -3.917447290809860E-1   -7.948526668117344E1    -2.379038535569917E1    -1.609175789249227E2
                        -2.332713541126381E1     1.326814379775970E2    -2.740098310122179E1    -2.259916125799531E1    -2.429804629450743E1    -1.686142052796580E2    -3.881036680535295E-1   -8.054781738799785E1
                        -3.861108690369298E-1   -7.945491232599723E1    -2.435494414919821E1    -1.679096372117154E2    -2.420282642120245E1     6.162359972282056E1    -2.196490429376448E1    -1.214161222591049E2
                        -2.379877670202481E1    -1.615667071602108E2    -3.980634935167225E-1   -8.091064176783452E1    -2.196723701534661E1    -1.222729626985953E2    -2.665737375353045E1     4.446223471178065E1

 1.018000000000000E9    -2.442759732292437E1    -4.061063223944566E1    -2.243801436921097E1     1.278176213291728E2    -3.996506974036204E-1   -8.122239389408361E1    -2.365096418019694E1    -1.623993896435556E2
                        -2.241317637087296E1     1.273586105920686E2    -2.681778672881032E1    -2.311131273274923E1    -2.422033279581823E1    -1.699741864914897E2    -3.906725204549972E-1   -8.225391609129238E1
                        -3.893863644902756E-1   -8.117125063377651E1    -2.421580375082312E1    -1.694742805906096E2    -2.416083203588102E1     5.888240135661947E1    -2.121765445104828E1    -1.190914130821514E2
                        -2.365642788363072E1    -1.629211148991479E2    -4.068555530149859E-1   -8.263150363595399E1    -2.124454183328389E1    -1.200271528056737E2    -2.653427963816815E1     3.934453305537698E1

 1.019000000000000E9    -2.438010782967181E1    -4.086606876614599E1    -2.154943233551829E1     1.229895483782743E2    -4.045591282817698E-1   -8.292228663438537E1    -2.358293827900845E1    -1.636608598155521E2
                        -2.154988452035024E1     1.226450178296692E2    -2.653328086161023E1    -2.510709233458545E1    -2.413514193013058E1    -1.711845122368030E2    -3.998868169197091E-1   -8.399541801380131E1
                        -3.983070420791752E-1   -8.290104876610030E1    -2.416867986894195E1    -1.710779678407818E2    -2.411218982523816E1     5.795120699934138E1    -2.052056823514750E1    -1.177376836786421E2
                        -2.359432466324401E1    -1.642971741678970E2    -4.170289027186194E-1   -8.433468118739907E1    -2.052900141447742E1    -1.184127937688826E2    -2.637047599445186E1     3.788576589954512E1

 1.020000000000000E9    -2.416775983718114E1    -4.125851131521016E1    -2.076138885088930E1     1.187579847444527E2    -4.079054525298433E-1   -8.460274198174770E1    -2.349791448814361E1    -1.651674019972228E2
                        -2.072281174645383E1     1.184469031798286E2    -2.628197324150359E1    -2.466743485293248E1    -2.410640926165465E1    -1.726093163259729E2    -4.129041724827930E-1   -8.570121844081066E1
                        -4.051999190170351E-1   -8.463300262218826E1    -2.412382620214471E1    -1.725246130327434E2    -2.403709571551903E1     5.600771832837229E1    -1.986180954238560E1    -1.165065412681678E2
                        -2.348038479710831E1    -1.656812217024469E2    -4.220364409868471E-1   -8.609926756897296E1    -1.984881120669671E1    -1.170966508717180E2    -2.638504129268372E1     3.680182728275735E1

 1.021000000000000E9    -2.399143374195112E1    -4.277607258414086E1    -2.001432820895000E1     1.149665574989890E2    -4.120578866184848E-1   -8.635686751447582E1    -2.342752610762815E1    -1.663619390869602E2
                        -1.999630384281601E1     1.145623921265109E2    -2.598640128109540E1    -2.593539231451857E1    -2.406066181574397E1    -1.742023301889128E2    -4.188941403517419E-1   -8.743807866571106E1
                        -4.172518948598270E-1   -8.632160318042720E1    -2.406022278595317E1    -1.738452474589514E2    -2.404229869605043E1     5.324731182521207E1    -1.924450458313057E1    -1.156723649433929E2
                        -2.342672576748381E1    -1.671721318433553E2    -4.310443996988012E-1   -8.785029697934540E1    -1.920477028394495E1    -1.164137059940754E2    -2.634616887907714E1     3.520909554010412E1

 1.022000000000000E9    -2.390870609770241E1    -4.330865625053815E1    -1.932966615214307E1     1.115023469857516E2    -4.241498649593249E-1   -8.806258627031764E1    -2.336090770768562E1    -1.677065884597772E2
