#  HZ   S   DB   R     50.00 
! Rohde & Schwarz Vector Network Analyzer 
! Rohde-Schwarz,ZNB8-4Port,1311601044102961,2.82
! Created: UTC 1/17/2019, 3:19:13 PM
! freq[Hz]                db:S11                  ang:S11                 db:S12                  ang:S12                 db:S13                  ang:S13                 db:S14                  ang:S14
!                         db:S21                  ang:S21                 db:S22                  ang:S22                 db:S23                  ang:S23                 db:S24                  ang:S24
!                         db:S31                  ang:S31                 db:S32                  ang:S32                 db:S33                  ang:S33                 db:S34                  ang:S34
!                         db:S41                  ang:S41                 db:S42                  ang:S42                 db:S43                  ang:S43                 db:S44                  ang:S44
! 
 1.000000000000000E9    -2.569466862500495E1    -5.484760290611250E1    -9.315815236535849      -7.066484950660151E1    -9.306970754814402E-1   -6.542725485150494E1    -2.520157304868384E1    -1.665352466715312E2
                        -9.294259526199165      -7.075026901943699E1    -3.150399417394853E1    -5.488042073031925E1    -2.536542522092825E1    -1.721289469970402E2    -9.354072800777806E-1   -6.616596522458282E1
                        -9.229515887233968E-1   -6.540775808814286E1    -2.545350660732023E1    -1.712948042155402E2    -2.232249705343726E1     6.642740181044515E1    -9.422708899708495       1.221124719079489E2
                        -2.511050130260232E1    -1.666757059975873E2    -9.414056898050338E-1   -6.597867835126851E1    -9.434463446045662       1.216814842992572E2    -2.361791877316419E1     5.578587237024873E1

 1.001000000000000E9    -2.564402383173057E1    -5.485286562587206E1    -9.523558067224769      -7.254495907960846E1    -8.975200472809598E-1   -6.714307505685625E1    -2.503051862629406E1    -1.665676777735422E2
                        -9.502806464487561      -7.272070672150478E1    -3.149308265671545E1    -5.380133616208536E1    -2.530197880865588E1    -1.728429999306269E2    -9.064535425807572E-1   -6.780501759141249E1
                        -8.919792932454617E-1   -6.711073651965045E1    -2.532830042870353E1    -1.719705210491655E2    -2.219403873991622E1     6.403812730080425E1    -9.637495460246752       1.207447379689087E2
                        -2.504173581185731E1    -1.673479142500138E2    -9.162542326551613E-1   -6.783747943385122E1    -9.633227024596637       1.201618276413125E2    -2.359731401644263E1     5.338178592435556E1

 1.002000000000000E9    -2.548955897327722E1    -5.510957150195095E1    -9.744468197039328      -7.446170717198220E1    -8.689116453976096E-1   -6.888701406360784E1    -2.502999186611296E1    -1.678175050023887E2
                        -9.714499829906938      -7.470482285422632E1    -3.113606888895514E1    -5.030608348663352E1    -2.519083716576717E1    -1.740907963467255E2    -8.849413838490539E-1   -6.957613363506093E1
                        -8.690029856624830E-1   -6.889375352982071E1    -2.522642391947090E1    -1.731649974746738E2    -2.207971111529240E1     6.198672678244950E1    -9.854496164666843       1.191794900799560E2
                        -2.491790283693362E1    -1.684614936170155E2    -8.908736184429505E-1   -6.970190126044314E1    -9.859656658076968       1.186273381088250E2    -2.340547215115318E1     5.072697195253863E1

 1.003000000000000E9    -2.560324085497802E1    -5.560605328362872E1    -9.961235433421541      -7.646177455807958E1    -8.420105905638164E-1   -7.063945447718461E1    -2.487649850851982E1    -1.682416530236861E2
                        -9.940495773604033      -7.660102507586237E1    -3.131546511853162E1    -4.964693693820722E1    -2.511285252626208E1    -1.746516249866489E2    -8.538590009555653E-1   -7.133193323266877E1
                        -8.431410538633121E-1   -7.066838995618218E1    -2.512551108965846E1    -1.742747570180113E2    -2.213390813848833E1     5.984178101051489E1    -1.007160316846768E1     1.176916072437472E2
                        -2.482474334407897E1    -1.691917893193252E2    -8.576583060788938E-1   -7.149182477281504E1    -1.008236542355997E1     1.170346779067225E2    -2.341955831542514E1     4.908561129968223E1

 1.004000000000000E9    -2.563481944518869E1    -5.534208283493883E1    -1.018800318633150E1    -7.832821841726144E1    -8.158691553202244E-1   -7.241264031833079E1    -2.478605636005694E1    -1.692491905038838E2
                        -1.016987049927576E1    -7.857147692375624E1    -3.080191401315791E1    -4.764412837456338E1    -2.493961150778010E1    -1.757529839111618E2    -8.288924317983603E-1   -7.303733673296513E1
                        -8.123040457427816E-1   -7.233754047804264E1    -2.499251836976291E1    -1.749560945280605E2    -2.203448949981166E1     5.822906922760440E1    -1.031327795749795E1     1.162485763191517E2
                        -2.478878473629177E1    -1.694195054350205E2    -8.399618278820524E-1   -7.329002819021746E1    -1.031768480405921E1     1.155285041468884E2    -2.334133502664825E1     4.570851730309827E1

 1.005000000000000E9    -2.549963999315873E1    -5.636307800200729E1    -1.042911895400309E1    -8.022618680419372E1    -7.906659612463695E-1   -7.407587460725378E1    -2.469250274102272E1    -1.701139064776771E2
                        -1.040761394118287E1    -8.055986177685671E1    -3.063714732953159E1    -4.724328389717425E1    -2.491656017373312E1    -1.763891009515768E2    -8.000479083760006E-1   -7.481480867136500E1
                        -7.882897000389120E-1   -7.413932271110335E1    -2.492526385498814E1    -1.761251976640627E2    -2.198605418913388E1     5.559747298798123E1    -1.055447233977306E1     1.147394046698427E2
                        -2.468938044266709E1    -1.706136257963644E2    -8.163408305540071E-1   -7.508124435918320E1    -1.054999800845621E1     1.140681625923677E2    -2.329441734632138E1     4.402269400473917E1

 1.006000000000000E9    -2.555469395498912E1    -5.676632295908739E1    -1.067556774813600E1    -8.210338178119814E1    -7.641890533991629E-1   -7.583102939134076E1    -2.466516282030806E1    -1.709053754966502E2
                        -1.065531808978375E1    -8.245186731851980E1    -3.064643870188466E1    -4.660469345110451E1    -2.490320604724437E1    -1.777922710355064E2    -7.817447316335247E-1   -7.653606212200818E1
                        -7.563258279882957E-1   -7.584384537970091E1    -2.489392232135607E1    -1.773581215137994E2    -2.186486756559793E1     5.421608847810023E1    -1.078853462561865E1     1.132805155880299E2
                        -2.463972676472334E1    -1.717553738706639E2    -7.926220479556417E-1   -7.684676678800192E1    -1.080293207800699E1     1.125867405689406E2    -2.319155143547006E1     4.131682299558464E1

 1.007000000000000E9    -2.532366611584761E1    -5.641164809343623E1    -1.091938057055460E1    -8.410838985517951E1    -7.379021586245991E-1   -7.757365316584961E1    -2.456089706735079E1    -1.720063750162614E2
                        -1.089948452544560E1    -8.445650651687488E1    -3.019019114179091E1    -4.645405014757674E1    -2.479993247419402E1    -1.790585530796286E2    -7.560639093934867E-1   -7.826690434963437E1
                        -7.414196974286822E-1   -7.755802936152702E1    -2.478690214740845E1    -1.790241096846797E2    -2.191160868617310E1     5.234103316299422E1    -1.105620110077135E1     1.118578659746156E2
                        -2.450303393609346E1    -1.727082054165316E2    -7.682289987513601E-1   -7.860401035437243E1    -1.105536341961473E1     1.111371696624050E2    -2.312858758663509E1     3.925155443775672E1

 1.008000000000000E9    -2.528729411705978E1    -5.751553724643863E1    -1.117944765226406E1    -8.601353056011777E1    -7.179141921534029E-1   -7.925841270943762E1    -2.450309904513314E1    -1.730840026691818E2
                        -1.115806266972207E1    -8.639958496867521E1    -3.020668218897181E1    -4.452821989766266E1    -2.475150466967354E1     1.798097130231327E2    -7.344315020538923E-1   -8.005473436151895E1
                        -7.159461296049681E-1   -7.926981426116194E1    -2.471855414458258E1    -1.797699640883928E2    -2.185899703240121E1     5.028334969607421E1    -1.131685249261374E1     1.104367224634644E2
                        -2.450041050374468E1    -1.739516454745276E2    -7.416330360309492E-1   -8.035295428044303E1    -1.131521023064511E1     1.097897171482515E2    -2.314396784194059E1     3.744622401695136E1

 1.009000000000000E9    -2.533587232940972E1    -5.784003486917798E1    -1.144286341270279E1    -8.803545277008277E1    -6.927361363124798E-1   -8.101842446906611E1    -2.437757758988450E1    -1.738000325697049E2
                        -1.142856368021176E1    -8.829975809789349E1    -2.992145186883058E1    -4.457974565541403E1    -2.461130303417114E1     1.786794029331227E2    -7.056081096413219E-1   -8.175150034818584E1
                        -6.871163641295124E-1   -8.102668351943365E1    -2.465341339837428E1     1.792267939017704E2    -2.192980163261472E1     4.815542532615063E1    -1.157269602443426E1     1.091050302734331E2
                        -2.441425634894880E1    -1.747210260314309E2    -7.243623513629155E-1   -8.210114365789902E1    -1.157360296440680E1     1.083508017499900E2    -2.310215201906696E1     3.447630381698013E1

 1.010000000000000E9    -2.520822548308689E1    -5.725414708357759E1    -1.172416388869138E1    -8.997886487638742E1    -6.720175887396969E-1   -8.276524141431236E1    -2.435822339230487E1    -1.752297057741985E2
                        -1.170260176540758E1    -9.024665783811528E1    -2.954876354681762E1    -4.391240951043388E1    -2.462506180637643E1     1.775603905529890E2    -6.901391805731789E-1   -8.347453189150863E1
                        -6.716108265551833E-1   -8.270414299034349E1    -2.462755244116656E1     1.779807942394428E2    -2.173254723208611E1     4.542263240122660E1    -1.187009877190028E1     1.077242405224424E2
                        -2.431590775611696E1    -1.756936942141030E2    -7.044530452886727E-1   -8.382743568261802E1    -1.186262154287489E1     1.069623559478190E2    -2.302023695552847E1     3.281649954314914E1

 1.011000000000000E9    -2.520561372092033E1    -5.823346145773334E1    -1.200653734070328E1    -9.199705018340013E1    -6.529946967992286E-1   -8.448569172937961E1    -2.429272216128288E1    -1.762736985502098E2
                        -1.198491273337222E1    -9.232304111121056E1    -2.940738074085500E1    -4.383114160497522E1    -2.447941537857975E1     1.760618838019811E2    -6.676244003589285E-1   -8.524359215108088E1
                        -6.524209569020233E-1   -8.446168192967348E1    -2.452976880347724E1     1.766472139191619E2    -2.181781640167332E1     4.428534490477610E1    -1.215174882662892E1     1.063852983483564E2
                        -2.426220993225802E1    -1.767538477503730E2    -6.841651085383691E-1   -8.559193955967920E1    -1.214949484812425E1     1.055953473591426E2    -2.299327866159311E1     3.036288375766757E1

 1.012000000000000E9    -2.509988575907328E1    -5.751667120880982E1    -1.229795291597150E1    -9.401612487412410E1    -6.325178343547346E-1   -8.622945038828293E1    -2.419000416585641E1    -1.769184525974962E2
                        -1.227843062767817E1    -9.428578846428373E1    -2.904881167080346E1    -4.347776134122248E1    -2.450009671680259E1     1.750559306117505E2    -6.518157586322027E-1   -8.699414814218618E1
                        -6.329208562523797E-1   -8.620606945248734E1    -2.455209881149941E1     1.755643591834617E2    -2.174453936509819E1     4.155213187839345E1    -1.244855518442828E1     1.050153270614148E2
                        -2.420100238032083E1    -1.776623528867841E2    -6.570513138043467E-1   -8.734814356950996E1    -1.244338769409215E1     1.043458094096142E2    -2.296429975294005E1     2.773358570883559E1

 1.013000000000000E9    -2.513095721186014E1    -5.823656125489412E1    -1.260198698785361E1    -9.603941438055998E1    -6.138125321839961E-1   -8.791455400792287E1    -2.417784363884556E1    -1.783057094591989E2
                        -1.259400840814330E1    -9.636613737253289E1    -2.886515432999651E1    -4.259300517116274E1    -2.446348645251587E1     1.736579703898392E2    -6.311918709381476E-1   -8.873933289758020E1
                        -6.122162198339495E-1   -8.792232117628841E1    -2.445094705966421E1     1.742000254534687E2    -2.179746891756717E1     4.014838385317215E1    -1.276225153416613E1     1.037466097533837E2
                        -2.417691314588673E1    -1.793232576357765E2    -6.501179086221154E-1   -8.907118252057590E1    -1.275982581301153E1     1.030360946591630E2    -2.291596399417207E1     2.640562256438995E1

 1.014000000000000E9    -2.494811277476936E1    -5.825382816689121E1    -1.291714192525758E1    -9.807437897402767E1    -5.887076921116988E-1   -8.965037450991872E1    -2.410685700092807E1    -1.791874697328314E2
                        -1.290738617924839E1    -9.840800882375898E1    -2.855173636738594E1    -4.288964047544106E1    -2.441208472637953E1     1.724389519398449E2    -6.109302867018542E-1   -9.045581160457228E1
                        -5.937980429992238E-1   -8.966382362736863E1    -2.445911936492627E1     1.726936092868077E2    -2.170611636053920E1     3.789639508087913E1    -1.307847178553753E1     1.025088139051515E2
                        -2.411109025526681E1     1.799832832004505E2    -6.287701126845425E-1   -9.086048819226242E1    -1.307302928933692E1     1.017614065537352E2    -2.288754774204009E1     2.355883809052914E1

 1.015000000000000E9    -2.488725484201085E1    -5.889388496219870E1    -1.325397218914444E1    -1.001169673276246E2    -5.770824624740490E-1   -9.139441016791534E1    -2.407533394033014E1     1.795179726219350E2
                        -1.323370044694981E1    -1.004403614974894E2    -2.848154230862649E1    -4.276534736071272E1    -2.443111473442693E1     1.714056771892974E2    -5.893244888218160E-1   -9.219936580879624E1
                        -5.724379486093277E-1   -9.138902501837877E1    -2.443663027767720E1     1.715719568790568E2    -2.182490892875947E1     3.546466832610756E1    -1.340944618704887E1     1.012927434103009E2
                        -2.404859851691567E1     1.788682437449024E2    -6.075524498262822E-1   -9.254879681477563E1    -1.340536319332450E1     1.005249639288578E2    -2.286874830485026E1     2.157682762996564E1

 1.016000000000000E9    -2.490572136876503E1    -5.943271935214115E1    -1.360095565924668E1    -1.022625123706972E2    -5.587952545615628E-1   -9.311950015458474E1    -2.404418395771075E1     1.782957142562382E2
                        -1.358193945001496E1    -1.025388521721010E2    -2.813253887885515E1    -4.434225656239484E1    -2.435649114153192E1     1.699669482481868E2    -5.809399414765433E-1   -9.392952743095542E1
                        -5.528285027068253E-1   -9.308203274599632E1    -2.439034810604644E1     1.703008875190775E2    -2.180053414763820E1     3.347225397386241E1    -1.374813395502092E1     1.000542271378889E2
                        -2.402977258984619E1     1.776579463839180E2    -5.915430543350017E-1   -9.434685330302929E1    -1.374954291046012E1     9.936378285685497E1    -2.294134031878201E1     1.965587084312761E1

 1.017000000000000E9    -2.482885160044878E1    -5.894177487074857E1    -1.396163011733468E1    -1.044156166662829E2    -5.461383151590661E-1   -9.485219564320774E1    -2.402184065821537E1     1.770426404436762E2
                        -1.393764002105916E1    -1.046561467539844E2    -2.801954764584044E1    -4.315626279625223E1    -2.437638295093982E1     1.686161936770529E2    -5.645309690609139E-1   -9.568226203297243E1
                        -5.416055846567798E-1   -9.479186320550834E1    -2.437449078096013E1     1.690130778832458E2    -2.186330021514890E1     3.160084253381282E1    -1.411366943019790E1     9.900815782471207E1
                        -2.397883255565647E1     1.760976658646782E2    -5.757222833988188E-1   -9.608972089175387E1    -1.410650011719256E1     9.826532454727305E1    -2.285707173671293E1     1.832211552493364E1

 1.018000000000000E9    -2.463617155506827E1    -5.980555042920285E1    -1.432602366233020E1    -1.066115241056549E2    -5.316670374932415E-1   -9.657289465449807E1    -2.400027020187185E1     1.761002007389861E2
                        -1.430687846675003E1    -1.068812983359024E2    -2.753229715590509E1    -4.331826244321036E1    -2.434319841050710E1     1.673266114753056E2    -5.487406170436348E-1   -9.741348399039158E1
                        -5.196442465133779E-1   -9.652002890445549E1    -2.437185136055039E1     1.678735314563526E2    -2.187601565361018E1     2.888340873888143E1    -1.449218518877723E1     9.795936379047096E1
                        -2.400188633097393E1     1.752392276351611E2    -5.609551436048376E-1   -9.784444714037261E1    -1.449117903226760E1     9.727203806575722E1    -2.279307566532001E1     1.431265012128746E1

 1.019000000000000E9    -2.469919576701225E1    -5.981959165513033E1    -1.471698250951820E1    -1.087320183528251E2    -5.134725939763835E-1   -9.830773101017627E1    -2.398733361137445E1     1.750045369600433E2
                        -1.469490879575666E1    -1.090890861707090E2    -2.740063781295474E1    -4.494583474363876E1    -2.432367738239269E1     1.660649915008208E2    -5.342996777979696E-1   -9.913308766041635E1
                        -5.105538408828645E-1   -9.829494913668319E1    -2.438813434590122E1     1.659176758985782E2    -2.194834740483231E1     2.767466016331581E1    -1.487769859592370E1     9.701442650817170E1
                        -2.399266947529221E1     1.741439102125957E2    -5.425874413665602E-1   -9.949543514549514E1    -1.487165154370268E1     9.621116968470676E1    -2.273942413005069E1     1.272027207875579E1

 1.020000000000000E9    -2.464017760231027E1    -6.003021669904347E1    -1.514048108906945E1    -1.110729239816993E2    -4.978005621650613E-1   -1.000076497923081E2    -2.399504842067628E1     1.734240193384192E2
                        -1.510583317641910E1    -1.113642417421094E2    -2.721299454446903E1    -4.382634910943514E1    -2.433660870217155E1     1.645221977183698E2    -5.246404715901322E-1   -1.009120391835960E2
                        -4.929260588710847E-1   -1.000444956980377E2    -2.434723646681305E1     1.651824034100179E2    -2.191540174483036E1     2.532853550693035E1    -1.527220959867621E1     9.602535651069049E1
                        -2.396218499636084E1     1.730199084259716E2    -5.280551541146492E-1   -1.012986531135221E2    -1.526783698583694E1     9.533634834249176E1    -2.276695127363503E1     1.124694247279359E1

 1.021000000000000E9    -2.460811157748785E1    -6.097923225666840E1    -1.555658016969971E1    -1.134077136306718E2    -4.816450914166436E-1   -1.017716621180852E2    -2.397541625593307E1     1.723639032757056E2
                        -1.554035681225242E1    -1.136909244993107E2    -2.691971303041474E1    -4.449548929400319E1    -2.432688599660446E1     1.635653034822698E2    -5.065674268623919E-1   -1.026082300703722E2
                        -4.866070065834265E-1   -1.017410926863197E2    -2.435546063648633E1     1.638472849119121E2    -2.202227718889789E1     2.293447961456213E1    -1.570126479424693E1     9.514362371043112E1
                        -2.396355537959372E1     1.715462197388863E2    -5.192554859046707E-1   -1.030747888516912E2    -1.569179543092042E1     9.446061632468208E1    -2.279649961632582E1     9.114489249747196

 1.022000000000000E9    -2.456972358904725E1    -6.195614800271672E1    -1.601047485130806E1    -1.157682364460912E2    -4.655970622080810E-1   -1.035179948122930E2    -2.396947496040738E1     1.714952755555093E2
