#  HZ   S   DB   R     50.00 
! Rohde & Schwarz Vector Network Analyzer 
! Rohde-Schwarz,ZNB8-4Port,1311601044102961,2.82
! Created: UTC 1/17/2019, 3:14:32 PM
! freq[Hz]                db:S11                  ang:S11                 db:S12                  ang:S12                 db:S13                  ang:S13                 db:S14                  ang:S14
!                         db:S21                  ang:S21                 db:S22                  ang:S22                 db:S23                  ang:S23                 db:S24                  ang:S24
!                         db:S31                  ang:S31                 db:S32                  ang:S32                 db:S33                  ang:S33                 db:S34                  ang:S34
!                         db:S41                  ang:S41                 db:S42                  ang:S42                 db:S43                  ang:S43                 db:S44                  ang:S44
! 
 1.000000000000000E9    -3.582350060567452E1    -1.135457146811357E2    -9.740367733472953       1.626052663879585E2    -8.779825329347351E-1   -2.470458893793342E1    -4.006902038145564E1    -1.356633165087479E2
                        -9.715812928502613       1.625364315593009E2    -3.296382118991475E1    -1.536975328887887E2    -4.060460108348841E1    -1.460262659829297E2    -9.223507068621116E-1   -2.592309652654197E1
                        -8.705167287882897E-1   -2.467797984733818E1    -4.058669642833952E1    -1.427265855526483E2    -4.203752175637544E1    -1.014071568525588E2    -9.852339765014179      -3.627690611181539E1
                        -3.969948700845307E1    -1.396639761844906E2    -9.311081967369810E-1   -2.576761755168886E1    -9.857675580561743      -3.673305382004733E1    -3.439690027651328E1    -4.476444678790722E1

 1.001000000000000E9    -3.699082739269807E1    -1.136424293058073E2    -9.519007106961841       1.606145927219602E2    -9.064912964674958E-1   -2.639086050926115E1    -3.884993931435493E1    -1.351286875972658E2
                        -9.488907918805532       1.605193629360233E2    -3.316573140932454E1    -1.581859773614368E2    -3.926754168530096E1    -1.436126082079056E2    -9.494928632044308E-1   -2.758317677283091E1
                        -9.035463133573017E-1   -2.636067096910174E1    -3.888543991652384E1    -1.426576634256537E2    -4.383900918419342E1    -1.026001118111209E2    -9.625724036210961      -3.756242856964318E1
                        -3.906415342631031E1    -1.354735075580249E2    -9.624052659353997E-1   -2.757318224076276E1    -9.623402372210647      -3.816052766036975E1    -3.429537683680187E1    -3.972728772715892E1

 1.002000000000000E9    -3.823980315341660E1    -1.086014740821469E2    -9.294882310587202       1.586586890120741E2    -9.424153067455965E-1   -2.809932084989687E1    -3.775873304376457E1    -1.313404675077463E2
                        -9.268785433615248       1.584504442993032E2    -3.434761364269816E1    -1.638444065599489E2    -3.831528275172330E1    -1.410928552930589E2    -9.896311911758935E-1   -2.927621953662749E1
                        -9.366404463999343E-1   -2.805340728796692E1    -3.836715737796168E1    -1.390466802435695E2    -4.541305158480922E1    -1.201665620375021E2    -9.409563066154231      -3.890949204580756E1
                        -3.814042981484060E1    -1.339819076095623E2    -9.954353417011430E-1   -2.939280000484212E1    -9.411615478568649      -3.952209419326318E1    -3.491806076788475E1    -3.757759817148414E1

 1.003000000000000E9    -3.916094591296621E1    -1.102788670031142E2    -9.068951445171622       1.566546854052273E2    -9.688604786284695E-1   -2.979547628913851E1    -3.691658192419814E1    -1.316075261310673E2
                        -9.044259458389924       1.564858945541662E2    -3.452644110208079E1    -1.661146698942708E2    -3.748736781643758E1    -1.421796230573812E2    -1.014664164773970      -3.098623194230877E1
                        -9.683489455353617E-1   -2.980451540824361E1    -3.751050512837396E1    -1.414516835171044E2    -4.655204606424381E1    -1.231003693712569E2    -9.194448683512981      -4.033982721016620E1
                        -3.715653693770850E1    -1.338081038434045E2    -1.024712948635300      -3.117662074527348E1    -9.190677026238598      -4.102965566751390E1    -3.499187284787423E1    -3.792234862137508E1

 1.004000000000000E9    -4.105338278340980E1    -1.100706804825657E2    -8.856753133578334       1.547829170152089E2    -1.005719803733652      -3.153284134195975E1    -3.615928232508206E1    -1.311766688469957E2
                        -8.848572359090738       1.545161087270652E2    -3.554945879285208E1    -1.735860756379494E2    -3.693315373912148E1    -1.429990592571120E2    -1.055120900765802      -3.267103159239940E1
                        -1.003595140273287      -3.147576649729106E1    -3.691849818311440E1    -1.425855925902772E2    -4.805365102338885E1    -1.399114121517168E2    -8.984849330577431      -4.173609050937821E1
                        -3.607088569590187E1    -1.335538787666371E2    -1.065354261663121      -3.290785154973116E1    -8.987718844543849      -4.240189810364939E1    -3.480459010600586E1    -3.390959599207270E1

 1.005000000000000E9    -4.190987521845412E1    -1.013854360402377E2    -8.654174053874169       1.528519896513328E2    -1.039595952610454      -3.319442336116576E1    -3.542792298127272E1    -1.312746956553616E2
                        -8.639542876396973       1.525820225789282E2    -3.620841590837673E1     1.789776159015197E2    -3.598191525483578E1    -1.402921543836567E2    -1.085438339405258      -3.439228092954708E1
                        -1.038319511978436      -3.319532472255997E1    -3.578047099633184E1    -1.408113111871586E2    -4.949324257351366E1    -1.659388037230540E2    -8.781582283694693      -4.312845664271926E1
                        -3.545843028264366E1    -1.326164787564315E2    -1.098980498945740      -3.470787133295986E1    -8.778465282132975      -4.382089161824673E1    -3.511808799770171E1    -3.448769701572502E1

 1.006000000000000E9    -4.291131275692990E1    -8.867413369198435E1    -8.452181672495732       1.509735430444580E2    -1.075636241452009      -3.488752593677754E1    -3.460002652666415E1    -1.303608058264875E2
                        -8.432519921855811       1.506818927266076E2    -3.638065226907987E1     1.733528642954061E2    -3.542293652130860E1    -1.408385801275642E2    -1.121193389235699      -3.607644624415962E1
                        -1.069657853806241      -3.489360275254793E1    -3.536708600883506E1    -1.411529643383320E2    -4.612665023876008E1     1.743275513156291E2    -8.580300817310505      -4.461505777471324E1
                        -3.463477246852325E1    -1.318343459426054E2    -1.130152967552156      -3.639846092731305E1    -8.575716710748022      -4.525807402049204E1    -3.507385302568677E1    -3.176878000816387E1

 1.007000000000000E9    -4.556398879317029E1    -6.225580063057981E1    -8.260215547773624       1.490315349807208E2    -1.114751624473622      -3.658127613616361E1    -3.415417473279466E1    -1.310981571461158E2
                        -8.245460421083878       1.488036254649476E2    -3.770904257642234E1     1.661406747930367E2    -3.494392122814448E1    -1.406837357269666E2    -1.159228769614920      -3.776752497732956E1
                        -1.111559692869141      -3.657227224622818E1    -3.502129289209272E1    -1.401747738281632E2    -4.579426231731320E1     1.730112614645503E2    -8.391230183986268      -4.605625110237857E1
                        -3.436370484669497E1    -1.317362596366233E2    -1.173523305067690      -3.813307198672877E1    -8.384575711386329      -4.672988382480742E1    -3.536463706815672E1    -3.028570802086103E1

 1.008000000000000E9    -4.468722848836327E1    -5.061753477509791E1    -8.072553937779073       1.471988153520109E2    -1.150722522354259      -3.826553257984978E1    -3.368426661415697E1    -1.320338310139313E2
                        -8.047935902674308       1.468249030144537E2    -3.798258244456100E1     1.553845735429211E2    -3.440321487091680E1    -1.413556383107645E2    -1.199338752789238      -3.951520651075946E1
                        -1.145747125655748      -3.824789580067208E1    -3.438050117203863E1    -1.414274501075572E2    -4.501695547460082E1     1.521758184965673E2    -8.198715247871846      -4.754811031123921E1
                        -3.358668333764481E1    -1.310218575240319E2    -1.211774758573005      -3.984185043885250E1    -8.203157738197692      -4.821141279208906E1    -3.530439872199288E1    -3.042778048640927E1

 1.009000000000000E9    -4.441313443787494E1    -3.244609349698224E1    -7.885903452166097       1.453133398120253E2    -1.188303880558354      -3.995190254317700E1    -3.303696832560191E1    -1.327119223365485E2
                        -7.865952362951467       1.450055208523488E2    -3.876184353966281E1     1.451723650465858E2    -3.377288928284338E1    -1.425062000000241E2    -1.232412044745298      -4.121971163122101E1
                        -1.177129938775798      -3.994701707251268E1    -3.376296764006251E1    -1.423253129863327E2    -4.438789854228773E1     1.413218792401478E2    -8.011833428850997      -4.897697624898395E1
                        -3.301522446403825E1    -1.331654862400318E2    -1.255308398907265      -4.154113755147960E1    -8.016632853016551      -4.968693928933627E1    -3.497783959960528E1    -2.700877891467130E1

 1.010000000000000E9    -4.216829132041099E1    -1.481030772811361E1    -7.704600735620009       1.434233240192453E2    -1.228498462631368      -4.167939055000765E1    -3.268051359568017E1    -1.323308619299426E2
                        -7.685991158279303       1.431080746480764E2    -3.909758132839397E1     1.293197862728584E2    -3.337066730445694E1    -1.407756912104763E2    -1.278532124242988      -4.289563990838044E1
                        -1.224564374092738      -4.163756780317566E1    -3.325022974938349E1    -1.417838451440649E2    -4.205406193618988E1     1.280943005095887E2    -7.839776357439606      -5.044417112492926E1
                        -3.252896898244623E1    -1.334737543289235E2    -1.294031011897678      -4.322370815256555E1    -7.832592369916168      -5.115743540489986E1    -3.536963715200405E1    -2.772889588784213E1

 1.011000000000000E9    -4.056678372019785E1    -9.568294147951319      -7.524738541622206       1.416282871542989E2    -1.268277504522700      -4.334135385468768E1    -3.218649506810938E1    -1.323586340367803E2
                        -7.515253843306820       1.412891129962386E2    -3.888731431076364E1     1.199252018502243E2    -3.303954866688156E1    -1.424681377962094E2    -1.320454073609036      -4.460949226991206E1
                        -1.267282623029498      -4.331904658732784E1    -3.313036500064294E1    -1.420788446910215E2    -4.143113505443225E1     1.284226572011202E2    -7.656548315813173      -5.196817558798900E1
                        -3.221440282806982E1    -1.335577287990479E2    -1.331216630310907      -4.493424807313756E1    -7.665071513983161      -5.267018504795634E1    -3.521179619907650E1    -2.605397781405476E1

 1.012000000000000E9    -3.919960491298034E1     4.282633103484372E-1   -7.358652598890794       1.397368559223454E2    -1.310343499335367      -4.505975308149198E1    -3.183245930490824E1    -1.347118460290106E2
                        -7.339852360320643       1.394286545293065E2    -3.835799278671365E1     1.072809759688164E2    -3.239984492530940E1    -1.429823791105648E2    -1.364514323278526      -4.630950727970510E1
                        -1.310985079755511      -4.501699295471441E1    -3.261189539244770E1    -1.433395604164474E2    -4.058505084064463E1     1.210458702593752E2    -7.496282534307879      -5.346352650173993E1
                        -3.185605748019616E1    -1.357423044032926E2    -1.370828366046159      -4.666302229616537E1    -7.487392737884589      -5.418378411205162E1    -3.492075473924017E1    -2.294794782439583E1

 1.013000000000000E9    -3.771327925536993E1     1.156048804844861      -7.186271507011435       1.379047687535532E2    -1.352127382073708      -4.670983316205559E1    -3.154163369460738E1    -1.343072609899963E2
                        -7.179398185147092       1.375800193664576E2    -3.773687693730501E1     9.404113573190722E1    -3.225424315923522E1    -1.449356506342425E2    -1.400831768425075      -4.798832398984920E1
                        -1.350911100215697      -4.669927337670737E1    -3.225430377854453E1    -1.440832681115315E2    -3.935123295201140E1     1.228389234594670E2    -7.320424194569041      -5.495105112892255E1
                        -3.150761368123492E1    -1.349743222258534E2    -1.417549358994751      -4.835292542282552E1    -7.322714047913555      -5.567576004146526E1    -3.512860646072839E1    -2.553247208522655E1

 1.014000000000000E9    -3.600162870493235E1     5.570173446861613      -7.025534361713088       1.360303893995126E2    -1.393374118906144      -4.838972919748979E1    -3.101443446309240E1    -1.361517663475284E2
                        -7.008898002653278       1.357421515855371E2    -3.743733949761742E1     8.282104835644991E1    -3.182644916556907E1    -1.448413113752735E2    -1.451405246762296      -4.972283926149093E1
                        -1.395043415984546      -4.843392614911483E1    -3.184037673420654E1    -1.445898840818625E2    -3.838417195375713E1     1.175497313464483E2    -7.165035715497792      -5.652440738900953E1
                        -3.112198254403551E1    -1.362712647844519E2    -1.463989850748355      -5.009255001766073E1    -7.162879583386856      -5.724338662669383E1    -3.508448258480014E1    -2.113703853633384E1

 1.015000000000000E9    -3.479427977501906E1     5.001927036256436      -6.868611932742734       1.342362088325552E2    -1.445946564241925      -5.009282526093563E1    -3.067876094255349E1    -1.363641802848258E2
                        -6.850326334757730       1.339318214272619E2    -3.662928323885852E1     7.677651333501257E1    -3.141860472488073E1    -1.460970463503952E2    -1.489184720359288      -5.143670981889353E1
                        -1.439965782706872      -5.010094825227785E1    -3.143477357009445E1    -1.452368050927248E2    -3.806918078159717E1     1.124328374944242E2    -7.004529352996281      -5.803692361003812E1
                        -3.076138380200023E1    -1.369897744595655E2    -1.509335496959905      -5.176338855180746E1    -7.000744453345398      -5.879378751105521E1    -3.492325306636305E1    -2.031818756199022E1

 1.016000000000000E9    -3.412908212752147E1     4.543035018384792      -6.707824238319226       1.324039166122817E2    -1.483096924396833      -5.182628908252617E1    -3.059345367346314E1    -1.379783423253897E2
                        -6.696408637441486       1.320955462481869E2    -3.543367190677636E1     6.727324443445991E1    -3.117054143166835E1    -1.463155822887033E2    -1.538991058524693      -5.310216716294676E1
                        -1.481371629857209      -5.175663927242614E1    -3.110949257913003E1    -1.463162890651950E2    -3.737889938027630E1     1.077308354456832E2    -6.847140245928188      -5.960358511555683E1
                        -3.040280928997174E1    -1.384776450736943E2    -1.552713303899616      -5.348807321660682E1    -6.839148887575698      -6.032152864808486E1    -3.484396238910978E1    -2.320022180430135E1

 1.017000000000000E9    -3.313298891474219E1     5.948954040501207      -6.564646466498605       1.305640285299683E2    -1.534937749349681      -5.347515713458968E1    -3.025961150727713E1    -1.381981784425585E2
                        -6.541173080871413       1.302732435219442E2    -3.471326342372385E1     6.241895838551373E1    -3.084901415837196E1    -1.470502762742593E2    -1.586232105218144      -5.481412146152902E1
                        -1.532686571658045      -5.344368147539820E1    -3.103376274585827E1    -1.471993134572406E2    -3.696970523022801E1     1.082144535568648E2    -6.696422652494377      -6.111458682373427E1
                        -3.027563928554422E1    -1.389006148833018E2    -1.601490735012116      -5.518825011677605E1    -6.687900999506923      -6.185110643807297E1    -3.541208054211823E1    -2.193959623996059E1

 1.018000000000000E9    -3.180374194298273E1     5.092749724480490      -6.416040124457949       1.287226269407086E2    -1.588280755496193      -5.517299240266413E1    -2.974953771267590E1    -1.393196694215968E2
                        -6.397001005584132       1.284056151998254E2    -3.354812700288927E1     5.444039688656441E1    -3.051997285969451E1    -1.477060903124766E2    -1.634482713139857      -5.652497348918168E1
                        -1.577497927328813      -5.515973311104511E1    -3.050985698413900E1    -1.482672209879814E2    -3.610418341799515E1     1.042754802404264E2    -6.547946057193272      -6.265855611623856E1
                        -2.984267814796244E1    -1.400976983130646E2    -1.648111764929973      -5.693294677778676E1    -6.543435558477318      -6.338719307825076E1    -3.432266859621080E1    -1.862674510016565E1

 1.019000000000000E9    -3.123505467401660E1     6.207058822908259      -6.266126353696332       1.269477708093639E2    -1.637339871671135      -5.684721108631344E1    -2.950274298966845E1    -1.400860392426461E2
                        -6.249006979637734       1.266317609694999E2    -3.293308160473089E1     4.772087668686065E1    -3.045191183299335E1    -1.493753137895322E2    -1.684594425472320      -5.826350641548647E1
                        -1.631752418112354      -5.685357237180534E1    -3.040453801437553E1    -1.480428510695527E2    -3.583172690025278E1     1.047037722710971E2    -6.401136432249355      -6.421772339154501E1
                        -2.948973546303878E1    -1.410220010593230E2    -1.695375401255035      -5.858837213087160E1    -6.400576029102766      -6.496250098043541E1    -3.461801349217237E1    -1.636897221294814E1

 1.020000000000000E9    -3.050887527261225E1     4.656932598575365      -6.130158989544822       1.251520321731782E2    -1.680293695307161      -5.851530785074147E1    -2.926443298948697E1    -1.411162836306012E2
                        -6.110305998620726       1.248203649025007E2    -3.202770807276959E1     4.587154584460394E1    -3.009521768778422E1    -1.499923123908802E2    -1.734312533791248      -5.992511769117289E1
                        -1.680824615087025      -5.855293554206126E1    -3.009717320576471E1    -1.496861273864026E2    -3.521424407409438E1     1.029342869270685E2    -6.261111868888128      -6.577495466967166E1
                        -2.935522336331182E1    -1.420045521316318E2    -1.751359001905088      -6.030930828524680E1    -6.252095030802397      -6.650195661877341E1    -3.476124276995402E1    -1.711232701536993E1

 1.021000000000000E9    -2.985354437042984E1     2.359826970056326      -5.991932450369313       1.233429398030108E2    -1.729313867482787      -6.024916184984289E1    -2.904037994180165E1    -1.416708574684536E2
                        -5.964366468296473       1.230362572309411E2    -3.128578960121014E1     4.106313264393177E1    -2.990754507030206E1    -1.514976813189450E2    -1.784920221457796      -6.160881517656060E1
                        -1.736305898925271      -6.022984785687930E1    -2.986821143818691E1    -1.514593426877729E2    -3.470216255973387E1     9.844042768962673E1    -6.124081429764850      -6.736086507204287E1
                        -2.908730754566143E1    -1.422784928645261E2    -1.797651769377616      -6.204874623593035E1    -6.111310479649413      -6.807770588403324E1    -3.463945569032402E1    -1.768541901682813E1

 1.022000000000000E9    -2.925126072414476E1     1.677647612546885      -5.851642058689991       1.215307201707598E2    -1.785947368219947      -6.191371094611565E1    -2.873659048604651E1    -1.435033237363076E2
