#  HZ   S   DB   R     50.00 
! Rohde & Schwarz Vector Network Analyzer 
! Rohde-Schwarz,ZNB8-4Port,1311601044102961,2.82
! Created: UTC 1/17/2019, 3:10:14 PM
! freq[Hz]                db:S11                  ang:S11                 db:S12                  ang:S12                 db:S13                  ang:S13                 db:S14                  ang:S14
!                         db:S21                  ang:S21                 db:S22                  ang:S22                 db:S23                  ang:S23                 db:S24                  ang:S24
!                         db:S31                  ang:S31                 db:S32                  ang:S32                 db:S33                  ang:S33                 db:S34                  ang:S34
!                         db:S41                  ang:S41                 db:S42                  ang:S42                 db:S43                  ang:S43                 db:S44                  ang:S44
! 
 1.000000000000000E9    -2.601629180098202E1    -1.271498040563658E2    -5.220569247560382       1.744124638311447E2    -2.036684095463593      -9.325919737693488      -3.210934584881646E1     1.362807548644209E2
                        -5.198138945284958       1.742469754723764E2    -2.554324921579003E1    -1.449247313141672E2    -3.123617509826246E1     1.300194188210124E2    -2.030588234442848      -1.105770905007369E1
                        -2.036904448556376      -9.260554895032369      -3.128056904198398E1     1.311857987162040E2    -3.066317489463717E1    -3.288333106922102E1    -5.290370116558282      -1.690758548128963E1
                        -3.194478696754650E1     1.374823852706608E2    -2.039137709898007      -1.083049537135356E1    -5.294949581027409      -1.737157923202604E1    -2.916971077314421E1    -2.668102726881934E1

 1.001000000000000E9    -2.633436011633269E1    -1.294550766157244E2    -5.095595307011012       1.726538338327619E2    -2.098435263979830      -1.090899828437276E1    -3.212489314462913E1     1.394927282619701E2
                        -5.070878835991465       1.724545860538966E2    -2.570764509667495E1    -1.469637223354828E2    -3.134950567441273E1     1.312064951593208E2    -2.090868095028916      -1.267635794076837E1
                        -2.091876678287203      -1.091369219711536E1    -3.140345491036085E1     1.330975306723972E2    -3.102862930638022E1    -3.223736606406011E1    -5.170251320154322      -1.832634161773107E1
                        -3.214855224240942E1     1.382769791411225E2    -2.096004283029334      -1.264949434589667E1    -5.166257176680116      -1.891876878074353E1    -2.926125560291056E1    -2.478359738887541E1

 1.002000000000000E9    -2.678993398840872E1    -1.316342956854907E2    -4.972290913790094       1.708331149054536E2    -2.158382491385603      -1.261293815985221E1    -3.267898980494243E1     1.396272059158239E2
                        -4.947565928689295       1.705315602662114E2    -2.602233117155545E1    -1.504471915021576E2    -3.158611949826847E1     1.312876859098330E2    -2.158661259271102      -1.435323736489602E1
                        -2.153317306764023      -1.260356496740776E1    -3.165441758786924E1     1.321754284946594E2    -3.157633171225928E1    -3.396456032209110E1    -5.047634086911348      -1.994365987765759E1
                        -3.241995066216796E1     1.395037342309005E2    -2.161835695296529      -1.447081663406832E1    -5.047735769113499      -2.051458218883124E1    -2.959925511252462E1    -2.579835189715136E1

 1.003000000000000E9    -2.695571024541074E1    -1.340479531734447E2    -4.848314226182464       1.689734805350582E2    -2.220395315627991      -1.427865825430094E1    -3.276519780972716E1     1.414621027764641E2
                        -4.830291263307457       1.687328331735495E2    -2.611948089530312E1    -1.522320902365301E2    -3.166468148417133E1     1.329767293769405E2    -2.212293092132848      -1.606402117607023E1
                        -2.216119194524533      -1.429425939886806E1    -3.167130337176879E1     1.331256092189056E2    -3.179602011314369E1    -3.404128525502974E1    -4.930104941671305      -2.145422160307854E1
                        -3.270725043849080E1     1.405674733331659E2    -2.224083296527287      -1.622159373105696E1    -4.926409638507461      -2.213806415282420E1    -2.956007348561770E1    -2.686704421767706E1

 1.004000000000000E9    -2.737459989169345E1    -1.363427927386466E2    -4.735733236623667       1.671754277223179E2    -2.288994524281468      -1.600590304482796E1    -3.293176441448382E1     1.440805636946084E2
                        -4.718046793661056       1.668936756650333E2    -2.653578266188051E1    -1.553629881024303E2    -3.173714646862347E1     1.330454333831164E2    -2.283619604260839      -1.773987804443529E1
                        -2.282515022457095      -1.595715517132227E1    -3.180154102929975E1     1.334601745413272E2    -3.226614484536817E1    -3.461622546607405E1    -4.815894755753701      -2.301881065845013E1
                        -3.295069764608235E1     1.432878505913201E2    -2.287192207357258      -1.795040992979026E1    -4.811891491654676      -2.371336022876657E1    -2.961404424836882E1    -2.579257711846352E1

 1.005000000000000E9    -2.773398791775622E1    -1.377843712808754E2    -4.624698988624055       1.654038753565350E2    -2.351279956566822      -1.761841701804088E1    -3.328742664896940E1     1.449937710133727E2
                        -4.601175122207125       1.650840121933809E2    -2.682192729782722E1    -1.590382694139934E2    -3.207504725703561E1     1.345154318435538E2    -2.342585396173005      -1.943743061944188E1
                        -2.346839098059210      -1.765174974578418E1    -3.201083834819279E1     1.356495347322857E2    -3.279565724793537E1    -3.436263232446662E1    -4.706201480823678      -2.462267363759285E1
                        -3.320168608146445E1     1.440054329680809E2    -2.358514884721154      -1.968809217985432E1    -4.699439020661449      -2.531103935427425E1    -2.978356585915996E1    -2.804655767190075E1

 1.006000000000000E9    -2.823073119570718E1    -1.396849247727725E2    -4.509235355856253       1.635765764268880E2    -2.416322062320556      -1.933478302070397E1    -3.361022687837426E1     1.471623062170133E2
                        -4.487431328947126       1.632771858720839E2    -2.697601220141272E1    -1.622623688810878E2    -3.229764310026967E1     1.349472910065030E2    -2.409448112656619      -2.112047644159124E1
                        -2.409033864049261      -1.933043056302670E1    -3.239729005150943E1     1.350244797146954E2    -3.336495132372577E1    -3.714065683573426E1    -4.586363042746915      -2.625593243417117E1
                        -3.346198517102327E1     1.463074766317239E2    -2.423024124350127      -2.141423560932323E1    -4.585771797378943      -2.690304197399794E1    -2.974901620343740E1    -2.751559549368995E1

 1.007000000000000E9    -2.890548794380035E1    -1.430286452205909E2    -4.395925265246140       1.618176882335165E2    -2.483712939936859      -2.099075349782379E1    -3.371347912904030E1     1.478941345625036E2
                        -4.381117847388468       1.614961487769087E2    -2.748031720360729E1    -1.638947694019209E2    -3.254002295358527E1     1.340138134888217E2    -2.479678593031881      -2.275088749008977E1
                        -2.484116219304710      -2.099699930078855E1    -3.252079006705365E1     1.338934527599126E2    -3.355002965098247E1    -3.829757380446650E1    -4.482966820138995      -2.778979109907513E1
                        -3.362905534962008E1     1.463569520159776E2    -2.496027116174724      -2.311742078396802E1    -4.477471115318475      -2.846380402868296E1    -2.996704448916743E1    -2.802786787248100E1

 1.008000000000000E9    -2.937712895082527E1    -1.443549946602552E2    -4.292957395512969       1.600428358138379E2    -2.553316167926453      -2.267261395225395E1    -3.399444782173460E1     1.498584317948041E2
                        -4.269697634437820       1.596912126379932E2    -2.773624268330634E1    -1.686359274845450E2    -3.268388869400396E1     1.351962470535471E2    -2.551156194647610      -2.453336371793274E1
                        -2.553733065953583      -2.263756567288660E1    -3.259433181546341E1     1.362808220637270E2    -3.422290001734324E1    -3.684418654320938E1    -4.383205747651374      -2.939710075254169E1
                        -3.406454485073488E1     1.486855382081877E2    -2.562310157527751      -2.482794276243999E1    -4.374832961070553      -3.008691507398696E1    -2.982622714161193E1    -2.937801204967588E1

 1.009000000000000E9    -2.988277055412635E1    -1.473666925927584E2    -4.184331848387837       1.582869170186915E2    -2.625291015320507      -2.433050841088557E1    -3.394519321428617E1     1.527586951295169E2
                        -4.159975454517595       1.579261762300805E2    -2.811611916352929E1    -1.721474618351416E2    -3.264125119880963E1     1.368113891164761E2    -2.620954887020149      -2.614368094193097E1
                        -2.614433685340676      -2.434888517891388E1    -3.280388188712634E1     1.373835726206541E2    -3.474082774390074E1    -3.739411433494927E1    -4.270095950929575      -3.096441551077452E1
                        -3.395392716698274E1     1.522165183406392E2    -2.638317457267136      -2.650506995914392E1    -4.269427327134244      -3.168647411117322E1    -2.991696829582893E1    -2.895084195624634E1

 1.010000000000000E9    -3.059586269729469E1    -1.502240465624171E2    -4.081781998510309       1.565047688183905E2    -2.691768006408302      -2.601150906535019E1    -3.415284332360696E1     1.521583742515013E2
                        -4.059102394043752       1.561884978276126E2    -2.855276767255099E1    -1.771102002881436E2    -3.336513376205907E1     1.363893865833947E2    -2.692412434386948      -2.784899460508411E1
                        -2.693047358088653      -2.597119794189077E1    -3.315900103287756E1     1.374770581548859E2    -3.555482226517517E1    -3.529362540882767E1    -4.172343049378195      -3.252491696507067E1
                        -3.412818116142425E1     1.529914558872474E2    -2.709791600610592      -2.817910965914237E1    -4.160792423421255      -3.325373313473791E1    -3.012046627357896E1    -3.023796518619728E1

 1.011000000000000E9    -3.118606198134984E1    -1.522478152002319E2    -3.974995772442731       1.547284285558483E2    -2.766486898741230      -2.768210057556049E1    -3.446962944632740E1     1.555257814225972E2
                        -3.961592127001304       1.543840637854896E2    -2.869739866070319E1     1.799137420466051E2    -3.314697066363420E1     1.368351320520371E2    -2.768803351428635      -2.955070172811359E1
                        -2.767745550358736      -2.766889676493967E1    -3.316928367789675E1     1.362208413164235E2    -3.603665539309264E1    -3.698681483910041E1    -4.071182759884834      -3.412084940805265E1
                        -3.435190411185771E1     1.534972206420150E2    -2.782906508947023      -2.990448590882326E1    -4.065523279737312      -3.485450067761526E1    -3.002098741889459E1    -3.073569408648508E1

 1.012000000000000E9    -3.196256983356041E1    -1.560887960773024E2    -3.881333805189489       1.529425837199400E2    -2.844344084219781      -2.936641956618414E1    -3.422135318132307E1     1.576355910499513E2
                        -3.862275833370888       1.526485662229668E2    -2.901074648775541E1     1.745812168240097E2    -3.348644754625853E1     1.382851929614596E2    -2.852315270620403      -3.123256367282207E1
                        -2.845428234234601      -2.931035103442836E1    -3.349774348478099E1     1.386585118510805E2    -3.665189578724638E1    -3.560055141824238E1    -3.973643663149495      -3.572799378610614E1
                        -3.399358196242238E1     1.567486245400570E2    -2.856031626569272      -3.161351563965039E1    -3.972085327924080      -3.646780810445947E1    -3.019908715054480E1    -3.033845719800048E1

 1.013000000000000E9    -3.269976254444663E1    -1.593418251036373E2    -3.780562008661095       1.511901070665641E2    -2.922200280552464      -3.102515909520348E1    -3.446584653283565E1     1.575799807046493E2
                        -3.764460708266244       1.508934284311864E2    -2.953906444737521E1     1.699883020233443E2    -3.353161338282456E1     1.371674387436878E2    -2.916556777996618      -3.291041131136771E1
                        -2.919857683417550      -3.100542821573564E1    -3.362868213189375E1     1.390239365210376E2    -3.742188613019822E1    -3.831272882501631E1    -3.876927741409158      -3.734998832752537E1
                        -3.446444302656302E1     1.577437618836771E2    -2.935922760559450      -3.325203874653640E1    -3.872949362597523      -3.802965035802944E1    -3.017905481656068E1    -3.286121291650625E1

 1.014000000000000E9    -3.387428931677535E1    -1.640935316868637E2    -3.686143827311803       1.494448794741784E2    -2.997353669922553      -3.265286875952908E1    -3.437810373442805E1     1.613260613189965E2
                        -3.667349835482582       1.490976131873721E2    -2.992333051458112E1     1.661562712293987E2    -3.403066697291592E1     1.397211859449884E2    -3.002057795297831      -3.461554195005700E1
                        -2.999561410216858      -3.267953849021590E1    -3.398685466540685E1     1.400121114287836E2    -3.848445144290343E1    -3.515216710565012E1    -3.776289571057914      -3.896968294712278E1
                        -3.437943569132901E1     1.596808343418267E2    -3.014452586851269      -3.498008168612871E1    -3.779466484403279      -3.967657782629091E1    -3.043615085998834E1    -3.225274594465380E1

 1.015000000000000E9    -3.499734177563751E1    -1.677708950435168E2    -3.591530227460039       1.476839720284746E2    -3.080094602476086      -3.435566394906743E1    -3.442230758574822E1     1.630636466142407E2
                        -3.571409003169155       1.473700469226197E2    -3.021413801588581E1     1.611925016887559E2    -3.389584911345460E1     1.409174397910360E2    -3.079227777745986      -3.631269385730673E1
                        -3.074981382086141      -3.432768336291800E1    -3.403607554261569E1     1.415751177674614E2    -3.880040169383487E1    -3.333088555978656E1    -3.689940244912298      -4.053923782363484E1
                        -3.446041492707631E1     1.613031578954729E2    -3.092943717083110      -3.663639064854642E1    -3.682661019929788      -4.127190650858810E1    -3.047139342520395E1    -3.165989340448684E1

 1.016000000000000E9    -3.612899937233164E1    -1.707062457836133E2    -3.498555627252651       1.459600329953358E2    -3.161825299965930      -3.602543443852775E1    -3.441026598448345E1     1.627213130093880E2
                        -3.480104212309257       1.456094819947516E2    -3.059180728395081E1     1.542769832820879E2    -3.413333106589675E1     1.421202762841880E2    -3.160694909548909      -3.797323429508065E1
                        -3.153588010279187      -3.598405480587765E1    -3.434165804665162E1     1.432225442955497E2    -3.947488339354216E1    -2.685596056948703E1    -3.596835640531714      -4.216122103426270E1
                        -3.444146926356882E1     1.630625244965103E2    -3.174440215318055      -3.835477111487239E1    -3.593525856945403      -4.288780210248808E1    -3.041140425396801E1    -3.395778945246645E1

 1.017000000000000E9    -3.704336194196317E1    -1.774698868530135E2    -3.413433686151062       1.441904754267480E2    -3.244897640972122      -3.767293683717455E1    -3.445736544160687E1     1.635224198975792E2
                        -3.392932435923386       1.438554496665963E2    -3.089549520741008E1     1.492694335242786E2    -3.435276478876516E1     1.423280083300950E2    -3.246790473992724      -3.969553560589696E1
                        -3.236946965082269      -3.762307579292412E1    -3.433676179490157E1     1.423412313381247E2    -4.014617052429992E1    -2.896573487364350E1    -3.511854239965483      -4.376119685120171E1
                        -3.447296510928724E1     1.623589184433247E2    -3.263895440153695      -4.004455360558004E1    -3.504169378009467      -4.446000976854434E1    -3.074544764704497E1    -3.572915764227431E1

 1.018000000000000E9    -3.947838031528645E1     1.695216372926505E2    -3.329928210950078       1.424095304206520E2    -3.333715851463734      -3.935308636268585E1    -3.435121786010005E1     1.681605203506942E2
                        -3.306113353727555       1.421119831074250E2    -3.128383344912623E1     1.408354181001214E2    -3.462002576127273E1     1.445910682931214E2    -3.336005675968956      -4.135678283638408E1
                        -3.323789812700030      -3.931784303575182E1    -3.449866480448120E1     1.446547397991266E2    -4.129391628738329E1    -2.172875330949337E1    -3.426713368576221      -4.537628616671638E1
                        -3.441486474583144E1     1.667165316255909E2    -3.347448641104351      -4.173840824006635E1    -3.422515105692001      -4.606851810959832E1    -3.046067926856495E1    -3.317802894406130E1

 1.019000000000000E9    -4.032530393664086E1     1.556328657844273E2    -3.242746763770724       1.406445828623356E2    -3.421673328678752      -4.099344368620345E1    -3.435757305681454E1     1.699023764039734E2
                        -3.222647299170652       1.403307438871736E2    -3.182433388325648E1     1.355168503588964E2    -3.470817329537917E1     1.442418749963460E2    -3.423411018846227      -4.306114076328939E1
                        -3.413522865170689      -4.099614391293965E1    -3.492338352920552E1     1.444523838799915E2    -4.187286414295096E1    -2.059066361240019E1    -3.339741782138264      -4.698075263166266E1
                        -3.433168084305923E1     1.693883907916687E2    -3.433063295068235      -4.340497918840725E1    -3.336160000009887      -4.771349446350678E1    -3.091009366968316E1    -3.413943147374103E1

 1.020000000000000E9    -4.200985082237582E1     1.423624063734692E2    -3.156249275129229       1.389139223073817E2    -3.505009052435587      -4.266561286251405E1    -3.437522559174154E1     1.706122368365313E2
                        -3.134014568687597       1.385750964312798E2    -3.164058530262464E1     1.290999418018070E2    -3.492296018965303E1     1.460307056344798E2    -3.510767596577384      -4.474384855498531E1
                        -3.502723832220183      -4.268848037539036E1    -3.479786870339560E1     1.450284636353012E2    -4.287374306651763E1    -1.747543125419022E1    -3.250249920693217      -4.862290523191547E1
                        -3.434140459131368E1     1.694482586282653E2    -3.519433268387900      -4.511304201321229E1    -3.247650532858787      -4.933307576056696E1    -3.085977458540494E1    -3.500784538901032E1

 1.021000000000000E9    -4.361681477955199E1     1.267977432379041E2    -3.074714692809078       1.371366254616163E2    -3.594113526666796      -4.435673064760079E1    -3.442110182774108E1     1.718057965245070E2
                        -3.055343569807253       1.368365863592549E2    -3.183976986155508E1     1.210297777514588E2    -3.477512748982068E1     1.475120432548399E2    -3.599198633374741      -4.641634374534352E1
                        -3.593789029778901      -4.432626706187126E1    -3.483955232347385E1     1.469925994791815E2    -4.313867394763214E1    -6.624731790990838      -3.175864866973128      -5.023387184029804E1
                        -3.436445908960202E1     1.720987605506721E2    -3.609694128983016      -4.685272032538234E1    -3.166816162395686      -5.094245838927166E1    -3.087941411761635E1    -3.626379996011072E1

 1.022000000000000E9    -4.316161404243141E1     9.992608325384359E1    -2.991366613558290       1.354195385112457E2    -3.686475805948344      -4.602670040284356E1    -3.397509546866334E1     1.747217749188155E2
