#  HZ   S   DB   R     50.00 
! Rohde & Schwarz Vector Network Analyzer 
! Rohde-Schwarz,ZNB8-4Port,1311601044102961,2.82
! Created: UTC 1/17/2019, 3:13:31 PM
! freq[Hz]                db:S11                  ang:S11                 db:S12                  ang:S12                 db:S13                  ang:S13                 db:S14                  ang:S14
!                         db:S21                  ang:S21                 db:S22                  ang:S22                 db:S23                  ang:S23                 db:S24                  ang:S24
!                         db:S31                  ang:S31                 db:S32                  ang:S32                 db:S33                  ang:S33                 db:S34                  ang:S34
!                         db:S41                  ang:S41                 db:S42                  ang:S42                 db:S43                  ang:S43                 db:S44                  ang:S44
! 
 1.000000000000000E9    -3.197289963948046E1    -1.277284439682863E2    -7.902496935326557       1.660079835092026E2    -1.200505046095776      -1.975742762986193E1    -4.232286565297584E1     1.727628105862008E2
                        -7.874637767245055       1.659194689648850E2    -2.654863825585416E1    -1.509881826095271E2    -3.694179323887027E1    -1.781352583623965E2    -1.178497864138731      -1.985905684517150E1
                        -1.191641554225571      -1.970149287958526E1    -3.702369269633114E1    -1.766987888240222E2    -3.632934892248188E1    -7.942678323644226E1    -7.990887450376544      -2.835555036475244E1
                        -4.168287894510890E1     1.715269738675962E2    -1.180165698556298      -1.966305659033586E1    -7.993374480310173      -2.879610749453811E1    -2.777858098663497E1    -6.750997490533356E1

 1.001000000000000E9    -3.281756375606022E1    -1.298132552859862E2    -7.722209681361633       1.641069587317330E2    -1.236758466446721      -2.141059150427012E1    -4.167860723125109E1    -1.770486374337746E2
                        -7.694494732968577       1.639686703445807E2    -2.668310536276960E1    -1.542351366887360E2    -3.606449980379271E1    -1.745864025451531E2    -1.211913080147469      -2.151795603388286E1
                        -1.230698559334619      -2.138337842954677E1    -3.612892069968639E1    -1.735746183674599E2    -3.739718775121300E1    -8.022720315431516E1    -7.810456870821986      -2.973308842533000E1
                        -4.162573080826650E1    -1.785170152398846E2    -1.220506498717353      -2.147908979547024E1    -7.812738686177197      -3.026819669264517E1    -2.800367978435010E1    -6.618928027037576E1

 1.002000000000000E9    -3.387109559369527E1    -1.299352840888116E2    -7.548353512416497       1.622490608940254E2    -1.275740702480992      -2.311273628785044E1    -4.149826620656459E1    -1.658001223351328E2
                        -7.516047302802412       1.619538805219878E2    -2.715862541612460E1    -1.585424120174220E2    -3.589210599107091E1    -1.723248230107808E2    -1.262276005133516      -2.321150288530106E1
                        -1.270900144734474      -2.306883475492408E1    -3.580783165115755E1    -1.716667845837269E2    -3.833429717318306E1    -8.860031504168414E1    -7.632705886039895      -3.117498883178660E1
                        -4.134809368555547E1    -1.713544187132402E2    -1.264720714026151      -2.331382683210589E1    -7.634312688747572      -3.178901475598968E1    -2.826921911597398E1    -6.679303854012375E1

 1.003000000000000E9    -3.444453428303923E1    -1.334989606527364E2    -7.363535817989872       1.603464600596841E2    -1.318490123657876      -2.481690551866488E1    -4.056907561489800E1    -1.603963790994528E2
                        -7.338655849153607       1.601087718466536E2    -2.728218756121186E1    -1.616233789824524E2    -3.526206071466855E1    -1.723374956581852E2    -1.291256349206110      -2.492069753210851E1
                        -1.311773768460361      -2.483075299129909E1    -3.526886484341955E1    -1.713998786959600E2    -3.898130888777610E1    -8.973169215247147E1    -7.460353450848356      -3.266050153338860E1
                        -4.072625919466132E1    -1.643640326597733E2    -1.304129980373244      -2.507310466393823E1    -7.464048116081692      -3.334044595612495E1    -2.816523055794421E1    -6.722402103370516E1

 1.004000000000000E9    -3.532451812059215E1    -1.368092082550407E2    -7.200321645463398       1.584924169881542E2    -1.363881906861785      -2.651808272584666E1    -3.963145197809018E1    -1.553356771393802E2
                        -7.178591120560812       1.582091692856153E2    -2.775894063139479E1    -1.654956950106093E2    -3.493708258763220E1    -1.717472875097812E2    -1.336805468089958      -2.658608839252876E1
                        -1.356780662211330      -2.647953355187682E1    -3.492498338271476E1    -1.716230041833767E2    -4.006730122359042E1    -9.562827760585581E1    -7.295536774816426      -3.418721608959088E1
                        -3.972958949772163E1    -1.579697433033049E2    -1.353345692910559      -2.680586629689723E1    -7.301441259601874      -3.480202118260189E1    -2.832658041522322E1    -6.600328077470763E1

 1.005000000000000E9    -3.654248147773224E1    -1.356787810656866E2    -7.036278815280072       1.566437974288746E2    -1.406318446185169      -2.818679466761038E1    -3.895935042802166E1    -1.511671464534440E2
                        -7.011029547598384       1.562937602832594E2    -2.807637708429287E1    -1.700421037507841E2    -3.424664893580019E1    -1.691545445208310E2    -1.382498120996296      -2.831040631981509E1
                        -1.400776224297196      -2.823578081497185E1    -3.426751243732129E1    -1.689790058368793E2    -4.150895617809417E1    -1.031099104897384E2    -7.139888597888362      -3.567541074606817E1
                        -3.893599236916229E1    -1.534305915417124E2    -1.398498263221493      -2.855205846916764E1    -7.134801214938760      -3.635456897593453E1    -2.840063460984288E1    -6.750985228929700E1

 1.006000000000000E9    -3.764011685424133E1    -1.356396445936352E2    -6.875129329636111       1.547894425498508E2    -1.444135243593224      -2.990143333906672E1    -3.797271373214171E1    -1.459262008674582E2
                        -6.858095969098823       1.544606527662397E2    -2.830872406031970E1    -1.738248818486796E2    -3.409030174968132E1    -1.674043317801338E2    -1.429735597884228      -2.999496344819022E1
                        -1.446883933046223      -2.988802024441322E1    -3.398336849322726E1    -1.678019388251217E2    -4.224110820061307E1    -1.192313148156085E2    -6.972460375391647      -3.715662094932960E1
                        -3.807675452159571E1    -1.485502105573352E2    -1.437874506495624      -3.028543735808916E1    -6.972322000610989      -3.782226202544108E1    -2.851027247068945E1    -6.673300077935174E1

 1.007000000000000E9    -4.025716279034135E1    -1.387510467711738E2    -6.709519637438807       1.529283063225687E2    -1.493805387881107      -3.157507382480918E1    -3.755290065973315E1    -1.442982691623074E2
                        -6.696157977696396       1.526320419458408E2    -2.896136983336667E1    -1.777272442373730E2    -3.367929046879714E1    -1.673503160440326E2    -1.472195805593814      -3.167287946328650E1
                        -1.493581198543184      -3.157326063645705E1    -3.387545079201760E1    -1.670518205739489E2    -4.160945492869043E1    -1.243266662280651E2    -6.828080863174922      -3.869110482508319E1
                        -3.782083363015448E1    -1.472265746933731E2    -1.484747659794053      -3.199725015234128E1    -6.825320553550830      -3.936025783784170E1    -2.862948519855812E1    -6.763074854096232E1

 1.008000000000000E9    -4.168449390729327E1    -1.376270219975634E2    -6.562090185252157       1.511154697096781E2    -1.540303672175075      -3.324836375989612E1    -3.683436566540006E1    -1.426904624398768E2
                        -6.536404968057077       1.507465393753153E2    -2.914647602390596E1     1.769566344691420E2    -3.339130230858918E1    -1.682709161254666E2    -1.524253616566428      -3.340366407667305E1
                        -1.538097371166073      -3.327079733602702E1    -3.330650505484477E1    -1.678210657254407E2    -4.295100574306531E1    -1.416743407007209E2    -6.670273995521436      -4.024523361995847E1
                        -3.695741530744917E1    -1.424798323831083E2    -1.534612759740440      -3.372787300946479E1    -6.671793715634655      -4.086891291508533E1    -2.856659298641213E1    -6.802391680971593E1

 1.009000000000000E9    -4.420011986292624E1    -1.386355687397241E2    -6.411317399913057       1.492784313571282E2    -1.588244511518482      -3.495378984517088E1    -3.596826737461700E1    -1.424818620540382E2
                        -6.386768600449453       1.489848585766026E2    -2.957724666262774E1     1.716457730616544E2    -3.296631730498008E1    -1.674324182867543E2    -1.566688580110965      -3.509071187823627E1
                        -1.580175189000392      -3.496551074305585E1    -3.287582850125389E1    -1.672684722397458E2    -4.421358243613125E1    -1.496410265581310E2    -6.520420506736954      -4.172325922134952E1
                        -3.594374819496175E1    -1.431907956795879E2    -1.587963069537155      -3.540802238085411E1    -6.516237638201336      -4.245856546125313E1    -2.875217858552428E1    -6.696306283714500E1

 1.010000000000000E9    -5.018961953329360E1    -1.305824107629324E2    -6.264013269267311       1.474495127889487E2    -1.637331634295347      -3.667501017801734E1    -3.570174616874921E1    -1.399161009550819E2
                        -6.248147143104413       1.471424008104934E2    -2.999342286588618E1     1.645876754232591E2    -3.272655422641913E1    -1.660159253648271E2    -1.621980680128010      -3.676171844799703E1
                        -1.633483785975820      -3.662234753590135E1    -3.274070964416871E1    -1.660966622943155E2    -4.399620426305711E1    -1.729917706228435E2    -6.377169261598692      -4.323839131225541E1
                        -3.562243434507059E1    -1.413854200103359E2    -1.628648593771944      -3.711874056376215E1    -6.372268993542015      -4.396653652928019E1    -2.879486912526988E1    -6.806348269121992E1

 1.011000000000000E9    -5.550999175077747E1    -9.940585198517479E1    -6.116260692989085       1.456583365879233E2    -1.687330532221704      -3.832486855237643E1    -3.504755318969772E1    -1.394821545213237E2
                        -6.102680714693760       1.453397020864918E2    -3.015537376037224E1     1.613392756182244E2    -3.256408442627451E1    -1.682056179420507E2    -1.671425816521072      -3.848958769818051E1
                        -1.686697034755999      -3.831880325095892E1    -3.263770370380941E1    -1.672905233960724E2    -4.301583747018825E1     1.799743562490643E2    -6.230581487586405      -4.479258061668126E1
                        -3.512683288630218E1    -1.410934677958915E2    -1.684288615612653      -3.883253976560010E1    -6.238967273905123      -4.551897732861988E1    -2.871488669572972E1    -6.766916902452903E1

 1.012000000000000E9    -5.834710454117240E1     1.463398523063465E1    -5.989486417919694       1.438405262536121E2    -1.740152676630491      -4.004789623164535E1    -3.435259654883064E1    -1.407950272846454E2
                        -5.961530265531781       1.435161764995378E2    -3.049980097218540E1     1.536181239476745E2    -3.221094368089180E1    -1.675014603343226E2    -1.725049150475469      -4.021495568337127E1
                        -1.740240535713838      -3.998767703480325E1    -3.227037704629903E1    -1.671940675975961E2    -4.243763390813144E1     1.644325601312856E2    -6.092480124113030      -4.635966153582486E1
                        -3.458521481757980E1    -1.422128552443647E2    -1.731072098835779      -4.054303559546082E1    -6.090542269507732      -4.712751767990174E1    -2.891789160217666E1    -6.716352946630053E1

 1.013000000000000E9    -4.926689760988388E1     1.547149168856824E1    -5.847687586167919       1.419866267966248E2    -1.792353763622939      -4.169798614626603E1    -3.419105267553684E1    -1.397272128141724E2
                        -5.831239774884772       1.416915906366791E2    -3.094474436519605E1     1.464014541941081E2    -3.191504241086283E1    -1.685331038877321E2    -1.765559552526632      -4.187445568306409E1
                        -1.789657323703548      -4.170672048246119E1    -3.201983504826633E1    -1.677031562549785E2    -4.082968481745336E1     1.600073159081470E2    -5.959337529059279      -4.789875386689829E1
                        -3.410112675037845E1    -1.402872686903313E2    -1.791862617335239      -4.223673332738434E1    -5.955953733723590      -4.862126389678303E1    -2.886243324511103E1    -6.819994671088574E1

 1.014000000000000E9    -4.362001982733874E1     2.293140510753634E1    -5.712855085496511       1.402401829893586E2    -1.838311011076146      -4.338565789970340E1    -3.342558529356104E1    -1.409878077184182E2
                        -5.692944738931264       1.399050060074883E2    -3.123345666579489E1     1.394496005275539E2    -3.172477517396078E1    -1.676354190479291E2    -1.828500345380229      -4.360349494534454E1
                        -1.845789099922182      -4.340161630397300E1    -3.173821108731570E1    -1.676140606250724E2    -3.971220453125994E1     1.492901741967209E2    -5.819923360418299      -4.946210648143941E1
                        -3.360135948839977E1    -1.400477444462430E2    -1.842878080942199      -4.395776680751752E1    -5.817155850429535      -5.018802652906656E1    -2.909105293526152E1    -6.771189545745463E1

 1.015000000000000E9    -4.071124158374869E1     2.025629521458071E1    -5.580278220201969       1.384545324023179E2    -1.900667545941616      -4.511252540917279E1    -3.298047669372900E1    -1.404900326628391E2
                        -5.564420353253584       1.381005441395854E2    -3.135807596872338E1     1.340953625357342E2    -3.140855495958108E1    -1.684450344664451E2    -1.881781322475844      -4.530933392314202E1
                        -1.898151174012875      -4.509271422958867E1    -3.135303032333584E1    -1.679815790061261E2    -3.946130017345369E1     1.411350537358809E2    -5.689639023596536      -5.104924741548587E1
                        -3.312597135695860E1    -1.414535252490908E2    -1.894188235258109      -4.563449670386838E1    -5.688514232831081      -5.178893873247783E1    -2.921144469605890E1    -6.711176397841210E1

 1.016000000000000E9    -3.896008789900668E1     1.735744778171656E1    -5.453391677991631       1.366702563771410E2    -1.957770444096939      -4.677980410143492E1    -3.281633804878081E1    -1.414549875836541E2
                        -5.435191510070329       1.363468248107778E2    -3.146634541404632E1     1.249027792206461E2    -3.124580178398520E1    -1.688127819178806E2    -1.939069864872396      -4.697600373783985E1
                        -1.953378747517309      -4.674308957807694E1    -3.122269198772491E1    -1.688905149268500E2    -3.848956860926420E1     1.335931126178616E2    -5.563329434068387      -5.260894079394003E1
                        -3.270364590964942E1    -1.420904671975106E2    -1.955068017525122      -4.735300107734680E1    -5.565781519218175      -5.333044694684958E1    -2.897766843858477E1    -6.842289965825454E1

 1.017000000000000E9    -3.751846248134797E1     1.902001468354239E1    -5.335666250649251       1.348577367445975E2    -2.015570381667093      -4.845861602876926E1    -3.251207368165288E1    -1.406847716611497E2
                        -5.311346545597383       1.345288641980924E2    -3.155444042924870E1     1.177322188725179E2    -3.111883327627379E1    -1.694035552377501E2    -1.996415343844232      -4.868966759826374E1
                        -2.012588178471451      -4.840887978968394E1    -3.113720682502716E1    -1.693599132265064E2    -3.775792247019212E1     1.317184916388609E2    -5.441794124700029      -5.414616997580578E1
                        -3.254217856621777E1    -1.410451787512199E2    -2.012597132977480      -4.906536848038421E1    -5.437993522931754      -5.487187953756303E1    -2.928522992060706E1    -6.958608672888357E1

 1.018000000000000E9    -3.533074201342063E1     1.726953883894543E1    -5.209848995918941       1.330288414944386E2    -2.082268428812018      -5.017441117005532E1    -3.183470463778571E1    -1.413082967542462E2
                        -5.192610686784022       1.327150275141248E2    -3.134268866658604E1     1.081755665280026E2    -3.085162128650570E1    -1.696531542232781E2    -2.061231723748158      -5.041677954957325E1
                        -2.071998749719115      -5.012310262562131E1    -3.082243290505117E1    -1.700758253706638E2    -3.698472321944436E1     1.253733557827747E2    -5.318601944891817      -5.572338078738900E1
                        -3.185932439780855E1    -1.419897159956182E2    -2.068532217483570      -5.079143778460114E1    -5.316283284154038      -5.645453703616403E1    -2.924350717219789E1    -6.610452639982840E1

 1.019000000000000E9    -3.435827070128209E1     1.821488940959346E1    -5.088023973277069       1.312459908568210E2    -2.139111095760676      -5.179445851229682E1    -3.145279831699132E1    -1.420004789202854E2
                        -5.067458503371719       1.309864850827484E2    -3.159893616011001E1     9.996240213802693E1    -3.082263403451973E1    -1.711938792727663E2    -2.117585986147647      -5.211971546657329E1
                        -2.134305730178419      -5.181080224894809E1    -3.083506321354114E1    -1.701622548083541E2    -3.621139720310836E1     1.239069291511662E2    -5.202074927144730      -5.730427403494487E1
                        -3.146636277872318E1    -1.419967740711765E2    -2.132797355361587      -5.246938008901446E1    -5.201027884640497      -5.804045453519049E1    -2.948754986369682E1    -6.697055715300395E1

 1.020000000000000E9    -3.329921277056470E1     1.569143983620876E1    -4.970490418719032       1.294541987464605E2    -2.196824573773477      -5.350201598152764E1    -3.119718796601290E1    -1.420998621519928E2
                        -4.948216641182250       1.291710914988863E2    -3.097276843941704E1     9.482407254153216E1    -3.054273679754196E1    -1.712390694278730E2    -2.180800232372416      -5.377487570236192E1
                        -2.193335314053998      -5.354207226318912E1    -3.059755844196467E1    -1.712991427707700E2    -3.542560385718311E1     1.207070249612734E2    -5.080655868655835      -5.889457830567040E1
                        -3.127199210819889E1    -1.433567250853681E2    -2.190360369652887      -5.419496828406106E1    -5.073321788351849      -5.961133861246264E1    -2.942878111690148E1    -6.779131817526735E1

 1.021000000000000E9    -3.241667225330007E1     1.232604538127384E1    -4.859273071231362       1.276945656551949E2    -2.259458039313541      -5.519631948868264E1    -3.095383915360980E1    -1.425416283343745E2
                        -4.833864983244570       1.274029284572561E2    -3.068152442184463E1     8.578565597491460E1    -3.037836552280617E1    -1.727798418582300E2    -2.242785493706618      -5.548036835590293E1
                        -2.262088077365801      -5.518991286971195E1    -3.042596521583497E1    -1.721750160416960E2    -3.486729348841183E1     1.146716322350113E2    -4.965700571853152      -6.050773657897104E1
                        -3.090174993016770E1    -1.427804700550974E2    -2.255416641087203      -5.591565603572670E1    -4.960765280401083      -6.122125016222516E1    -2.944782620621863E1    -6.763779613101065E1

 1.022000000000000E9    -3.158331967257858E1     1.157624537475437E1    -4.743877183364546       1.259264613741901E2    -2.324794727623861      -5.691208135887623E1    -3.054785725095041E1    -1.444112109284563E2
