#  HZ   S   DB   R     50.00 
! Rohde & Schwarz Vector Network Analyzer 
! Rohde-Schwarz,ZNB8-4Port,1311601044102961,2.82
! Created: UTC 1/17/2019, 3:21:58 PM
! freq[Hz]                db:S11                  ang:S11                 db:S12                  ang:S12                 db:S13                  ang:S13                 db:S14                  ang:S14
!                         db:S21                  ang:S21                 db:S22                  ang:S22                 db:S23                  ang:S23                 db:S24                  ang:S24
!                         db:S31                  ang:S31                 db:S32                  ang:S32                 db:S33                  ang:S33                 db:S34                  ang:S34
!                         db:S41                  ang:S41                 db:S42                  ang:S42                 db:S43                  ang:S43                 db:S44                  ang:S44
! 
 1.000000000000000E9    -2.674329369624854E1    -6.357760634942306E1    -4.974086527312041      -8.273546813128409E1    -2.138877160348338      -8.071379671673141E1    -2.662184987118052E1     1.676167315473585E2
                        -4.946901759116157      -8.283130364720827E1    -3.345894627960161E1    -5.570499480991650E1    -2.660721715517161E1     1.623207271415948E2    -2.150847595435319      -8.116408324726247E1
                        -2.135281931554787      -8.069156178261564E1    -2.667679309609484E1     1.630436930360329E2    -2.087192905836681E1     3.752034547427574E1    -5.084141070195089       1.030922956646070E2
                        -2.651213526909221E1     1.680132955026448E2    -2.158804538531668      -8.097995113580899E1    -5.088076584499323       1.026531849030651E2    -2.176466117783558E1     2.837006464157664E1

 1.001000000000000E9    -2.672930194389317E1    -6.349532388378578E1    -5.083643048115361      -8.451972277892736E1    -2.085047993412843      -8.242600975374624E1    -2.658942240277081E1     1.680762884805657E2
                        -5.057026245246585      -8.468909919299622E1    -3.318487248419174E1    -5.494190617838988E1    -2.663097077714015E1     1.625164063493656E2    -2.088480126398081      -8.287753946338430E1
                        -2.083132600308508      -8.243865199888559E1    -2.665960532833633E1     1.635515377368913E2    -2.079194914548847E1     3.552903864463822E1    -5.189636134445643       1.015380274435317E2
                        -2.654498021984600E1     1.675165454699536E2    -2.104841282831116      -8.286689967365699E1    -5.190099537335568       1.009622280703016E2    -2.169779306108179E1     2.611065002322996E1

 1.002000000000000E9    -2.671206586119763E1    -6.369309364805263E1    -5.193505052913529      -8.632038145859480E1    -2.032257859386822      -8.417378117526643E1    -2.668659400072862E1     1.675389928670016E2
                        -5.167982829874736      -8.660145646883204E1    -3.280434712473746E1    -5.004126656056393E1    -2.665664539576420E1     1.614059983399112E2    -2.046543054341266      -8.461722282156420E1
                        -2.029809062889372      -8.416203073838348E1    -2.666443066976362E1     1.620950600744213E2    -2.075526591644315E1     3.342418536159029E1    -5.304081375017049       9.989175359402516E1
                        -2.655702181263499E1     1.667344108438566E2    -2.049898822147963      -8.473955064598133E1    -5.307083891271230       9.929446370734843E1    -2.161538286475322E1     2.361397955907318E1

 1.003000000000000E9    -2.679740379754890E1    -6.398842982194719E1    -5.301598051411423      -8.820294549192602E1    -1.979506049001575      -8.593927417462859E1    -2.668209062144712E1     1.673263864323295E2
                        -5.279664785823623      -8.842141310551162E1    -3.286732837530195E1    -4.943097546500089E1    -2.660835513033693E1     1.613062558198301E2    -1.985200328611154      -8.635647083945678E1
                        -1.977391806858571      -8.595480759440831E1    -2.664069328660148E1     1.615127090971186E2    -2.080215099793076E1     3.147930297872883E1    -5.414441941802576       9.820515592644641E1
                        -2.660883100919941E1     1.668751543984478E2    -1.998687842326603      -8.658433818322145E1    -5.416548711627759       9.753267100653937E1    -2.166164306379414E1     2.196370598491054E1

 1.004000000000000E9    -2.677179884021040E1    -6.402138172450087E1    -5.409022934953022      -9.001723849484614E1    -1.930756201916198      -8.772634138571303E1    -2.667125013681693E1     1.673253042280918E2
                        -5.395121099943151      -9.025627134361083E1    -3.232321818936510E1    -4.796200338913450E1    -2.658008261996621E1     1.605670890916023E2    -1.943080876894897      -8.814114598734399E1
                        -1.924432112831210      -8.768455390673464E1    -2.657626025602063E1     1.610518564911503E2    -2.077900679086692E1     2.951994917594130E1    -5.538691716648411       9.655029412059082E1
                        -2.663272326876535E1     1.667087231114885E2    -1.950358693060351      -8.838550309169406E1    -5.535827639574068       9.586666317138298E1    -2.160746252511990E1     1.890418440708815E1

 1.005000000000000E9    -2.677996015208500E1    -6.490447290645074E1    -5.533250802867489      -9.179470573091611E1    -1.877861065007706      -8.941580970267290E1    -2.667241042101993E1     1.668354640305402E2
                        -5.510832976723414      -9.211209792393221E1    -3.204513336241975E1    -4.703055019730463E1    -2.666094326073473E1     1.600796593992095E2    -1.886627132427572      -8.989200111363999E1
                        -1.874486548053238      -8.948008197459645E1    -2.665701115473497E1     1.611046946267413E2    -2.081921635888836E1     2.703651018680397E1    -5.652077130949055       9.489813777873499E1
                        -2.667800491070661E1     1.666133089699024E2    -1.906603296112099      -9.019127529106396E1    -5.643591260950853       9.419043312018015E1    -2.158261748696265E1     1.712111984137730E1

 1.006000000000000E9    -2.693760451766833E1    -6.503163399482227E1    -5.649277713787911      -9.365125789860588E1    -1.825388074457581      -9.118316174230080E1    -2.677720816374263E1     1.665280501169906E2
                        -5.630588660206302      -9.392042387932280E1    -3.179552670134218E1    -4.547419012668361E1    -2.674220488923539E1     1.590274015064278E2    -1.839844338450419      -9.166477454319971E1
                        -1.822680011275237      -9.119515803364224E1    -2.669452174002293E1     1.596545105977108E2    -2.074553277116116E1     2.520872679970531E1    -5.766361351532758       9.319568216648784E1
                        -2.670553591475899E1     1.657099219530057E2    -1.854956065742111      -9.198292614695114E1    -5.764846906816857       9.252993973312771E1    -2.157625951053145E1     1.460829057271892E1

 1.007000000000000E9    -2.674133504946763E1    -6.499601459021055E1    -5.766061086692239      -9.543410908770592E1    -1.783149808573752      -9.291500992705440E1    -2.674586290112777E1     1.656935704728878E2
                        -5.756524192041837      -9.572969885804567E1    -3.159910227750689E1    -4.597550204944258E1    -2.668580906890914E1     1.577163705674668E2    -1.790235451651907      -9.339269958983292E1
                        -1.780198760488568      -9.291733887031649E1    -2.666931514240380E1     1.585506385837732E2    -2.082060244807988E1     2.336758946229916E1    -5.893807985981208       9.155173407770293E1
                        -2.665029420679098E1     1.645488350596195E2    -1.807507699511608      -9.373213573540824E1    -5.892980062537222       9.088300872235159E1    -2.154929584854727E1     1.241515927317849E1

 1.008000000000000E9    -2.670508072956840E1    -6.506336553819057E1    -5.896082116150811      -9.721987649486074E1    -1.731007980175681      -9.465620295848385E1    -2.678255699666476E1     1.649099567814119E2
                        -5.871941199776813      -9.755041429820311E1    -3.140592724286369E1    -4.285409980752598E1    -2.668546832308696E1     1.575344816768115E2    -1.748286675856209      -9.519329090706482E1
                        -1.729622325098173      -9.466014667332279E1    -2.665538524660332E1     1.577782280851450E2    -2.084816562347026E1     2.097146680723561E1    -6.018263179406517       8.985558357404183E1
                        -2.683022932750940E1     1.638427362625084E2    -1.758959169718911      -9.551195066382934E1    -6.013692820632524       8.918626084935988E1    -2.158597288911322E1     1.038004385499284E1

 1.009000000000000E9    -2.689807882471030E1    -6.553852838902098E1    -6.016866031655277      -9.903489809677149E1    -1.685085512589145      -9.642257750518080E1    -2.683797907795973E1     1.650706008243999E2
                        -5.992754661944659      -9.930512721442847E1    -3.114831569058546E1    -4.412377648009790E1    -2.664010125558583E1     1.571275766392396E2    -1.696130546405947      -9.692484196693950E1
                        -1.677990684366460      -9.642338115356637E1    -2.672431535132756E1     1.573912696172698E2    -2.093410561577706E1     1.879808361082441E1    -6.138156890403566       8.824229928021778E1
                        -2.684190798746407E1     1.646211396416927E2    -1.716716443762969      -9.726650736112801E1    -6.134075741071403       8.757693095859214E1    -2.158295633984002E1     7.895572527282338

 1.010000000000000E9    -2.674981160343899E1    -6.502042175110340E1    -6.147023962183683      -1.008738745247004E2    -1.642731108016508      -9.818746924222253E1    -2.677968818868882E1     1.636072350642109E2
                        -6.126066743547813      -1.011324867652976E2    -3.072322251542317E1    -4.359587920276201E1    -2.685105337303721E1     1.560494707068768E2    -1.656733865610582      -9.867256734263161E1
                        -1.636904746502752      -9.812469052992957E1    -2.683637340713528E1     1.562640339321098E2    -2.086752875036972E1     1.624252228233623E1    -6.273244803960964       8.661821183077434E1
                        -2.682650194349471E1     1.632977049362394E2    -1.668201337240969      -9.903316019839156E1    -6.265562310722447       8.591136033888012E1    -2.156741137814040E1     5.499009494073767

 1.011000000000000E9    -2.686445789777131E1    -6.585124514930313E1    -6.277512980729539      -1.026868791399696E2    -1.588619271761750      -9.991381707665911E1    -2.688216017261749E1     1.628055180158833E2
                        -6.258931079562293      -1.029640061875313E2    -3.072460826297079E1    -4.215772630849594E1    -2.674633814636235E1     1.550294103258919E2    -1.608815696336651      -1.004454470335056E2
                        -1.592676097820007      -9.991035043310730E1    -2.678392627628096E1     1.549310194228347E2    -2.091977111938228E1     1.452385753203600E1    -6.399486599085723       8.495128776403983E1
                        -2.683006704051316E1     1.623008767447502E2    -1.629186992828169      -1.008278743091025E2    -6.402360577958111       8.422753164688896E1    -2.158477090097897E1     3.426075261038228

 1.012000000000000E9    -2.675635014864654E1    -6.481257865035119E1    -6.405082533085120      -1.044853967171195E2    -1.552118730264781      -1.017127936035639E2    -2.682239794840567E1     1.632063773173870E2
                        -6.384247970044838      -1.047707266269203E2    -3.022084326374613E1    -4.285002912425411E1    -2.684570370334961E1     1.544760377226072E2    -1.570233096273121      -1.022029265544152E2
                        -1.545725757481810      -1.016220104922425E2    -2.689361673762900E1     1.541855615938131E2    -2.095228711822659E1     1.196744546887151E1    -6.534124230862242       8.331248042751260E1
                        -2.680681503602612E1     1.629018424750370E2    -1.578181100432221      -1.025723077311977E2    -6.534296911402301       8.256602133103678E1    -2.156611657459568E1     8.298223449676482E-1

 1.013000000000000E9    -2.691297216953208E1    -6.544994988060873E1    -6.546457653258019      -1.062865488898538E2    -1.505851022504337      -1.033896416874138E2    -2.690847655124584E1     1.615372199035575E2
                        -6.524620532498267      -1.066083948442669E2    -3.004563414902757E1    -4.160689054274663E1    -2.683380399021459E1     1.529185088786296E2    -1.519447676873639      -1.039567716417497E2
                        -1.505198417102849      -1.033845912349555E2    -2.691420491182562E1     1.537858038056085E2    -2.103855919779844E1     1.023568377699639E1    -6.670294996431929       8.166210030673068E1
                        -2.692558343470927E1     1.613139882075879E2    -1.541659797774169      -1.043342279441587E2    -6.669524366248720       8.096291219944533E1    -2.156531590167294E1    -8.002873485798703E-1

 1.014000000000000E9    -2.671557364292443E1    -6.526652499977624E1    -6.673486762631608      -1.081255677570785E2    -1.461499918197202      -1.051293084964940E2    -2.695572850443362E1     1.618127370986248E2
                        -6.663662949257057      -1.084337987720182E2    -2.968498797551551E1    -4.275072686727700E1    -2.696465812862869E1     1.518512371128699E2    -1.486802244133565      -1.057001693330336E2
                        -1.463734412929740      -1.051424963149985E2    -2.698403762633092E1     1.527364431915261E2    -2.104364891135084E1     7.801755632794856      -6.812076810446976       8.002423265831943E1
                        -2.693877911515234E1     1.610098474179722E2    -1.495438815109465      -1.061271046002681E2    -6.808135731810174       7.925669706484034E1    -2.156716672867228E1    -3.429761307150044

 1.015000000000000E9    -2.671721221833775E1    -6.538911501968259E1    -6.821926661066509      -1.099246674696068E2    -1.420087707355217      -1.068970320396565E2    -2.696144887330153E1     1.612793691427760E2
                        -6.802604635947049      -1.102607397219822E2    -2.954134673212210E1    -4.189660354761870E1    -2.704662546356536E1     1.514220269301240E2    -1.434135268267733      -1.074748499982771E2
                        -1.422038074513153      -1.069003788025022E2    -2.708632895872380E1     1.518106165866909E2    -2.116120592304882E1     5.344530975598016      -6.950682855513469       7.839938136237203E1
                        -2.696241088877014E1     1.597810929264786E2    -1.456022675352837      -1.078351961390874E2    -6.948941951058806       7.766687257997145E1    -2.158704003434716E1    -5.760984749320223

 1.016000000000000E9    -2.679631497810050E1    -6.562024494005770E1    -6.967797515766691      -1.117381076596881E2    -1.382324781412593      -1.086256067573572E2    -2.694354921252118E1     1.599502876691123E2
                        -6.944499837439658      -1.120542117028737E2    -2.930784023671792E1    -4.342285841011913E1    -2.710882100902442E1     1.506224903697640E2    -1.403555876431936      -1.092125034215419E2
                        -1.378166410126260      -1.086021936270727E2    -2.714517805009241E1     1.502066691170907E2    -2.120652164686789E1     3.034714477952099      -7.097925221095043       7.676924339821210E1
                        -2.696386991379813E1     1.593211996739999E2    -1.415707931539526      -1.096243319237842E2    -7.093138757404047       7.602690876827130E1    -2.165157523009078E1    -7.479408480491024

 1.017000000000000E9    -2.681538994059265E1    -6.482084397277264E1    -7.113291435249773      -1.135951486734795E2    -1.351520518355830      -1.104058121056508E2    -2.703359272771117E1     1.591595774623245E2
                        -7.087237796072818      -1.138945514473196E2    -2.916844929611763E1    -4.210567788329463E1    -2.715134886233483E1     1.495256317650350E2    -1.367071344148366      -1.109952091848911E2
                        -1.342195832592477      -1.103352949168542E2    -2.716569063720792E1     1.496872595947804E2    -2.133829438064114E1     9.797602889545445E-1   -7.244298076440804       7.513381578363436E1
                        -2.709793683643353E1     1.579669475654322E2    -1.376784647126633      -1.114106747562842E2    -7.242797245988624       7.442995035930656E1    -2.161958205962547E1    -9.461085650164939

 1.018000000000000E9    -2.666991424820726E1    -6.545879934150779E1    -7.259592278908902      -1.154290281250126E2    -1.310238931708459      -1.121078153661736E2    -2.716726891237321E1     1.592159467977518E2
                        -7.249902248934973      -1.156848610803111E2    -2.871576420013748E1    -4.327352199116434E1    -2.723754408719107E1     1.484576727287254E2    -1.325885056692043      -1.127153520080713E2
                        -1.303991758169456      -1.120704570517687E2    -2.723637621197466E1     1.488470136649615E2    -2.136712401524872E1    -1.906707735056630      -7.394162087555706       7.354338597477239E1
                        -2.713960792159838E1     1.585713327047484E2    -1.335415973236188      -1.131253474897769E2    -7.392572237903297       7.286061156410351E1    -2.164182863579018E1    -1.292613689523930E1

 1.019000000000000E9    -2.673018509397963E1    -6.510520194378789E1    -7.418224010653237      -1.172800777095433E2    -1.274100699402374      -1.138537423117287E2    -2.719552631363337E1     1.585210794139676E2
                        -7.399564431591235      -1.175219981925516E2    -2.868318705575973E1    -4.389076333194782E1    -2.726484973559596E1     1.470577475360303E2    -1.291423264669316      -1.144962733809092E2
                        -1.265740137840676      -1.138403241575065E2    -2.741151668527818E1     1.470993650809862E2    -2.150062676666558E1    -3.590653471244309      -7.550719109950289       7.190997282466593E1
                        -2.723140683184563E1     1.578413884102149E2    -1.302282516970272      -1.148689872147590E2    -7.548806838283266       7.118163083777773E1    -2.162466288709472E1    -1.498814298981679E1

 1.020000000000000E9    -2.667962342466312E1    -6.504198979886616E1    -7.579092832704254      -1.191013112976333E2    -1.224893800135943      -1.156002834063741E2    -2.733585372810236E1     1.575994767743069E2
                        -7.548854579344187      -1.193948490884455E2    -2.834500842208607E1    -4.338680671274222E1    -2.742878076477765E1     1.461104934784300E2    -1.251431067213249      -1.162573993118559E2
                        -1.226898893990766      -1.156170575973119E2    -2.735645254550891E1     1.469715296473707E2    -2.151940781065902E1    -6.222829800593183      -7.706138363028440       7.026005078212891E1
                        -2.726987486472448E1     1.567301966789216E2    -1.264732195181910      -1.166601032592733E2    -7.694153502240644       6.957222904233730E1    -2.168962932875754E1    -1.647030668631999E1

 1.021000000000000E9    -2.669741430075324E1    -6.502775913915018E1    -7.740808730420936      -1.208828737110820E2    -1.192179790837927      -1.173473652163221E2    -2.741816715717405E1     1.566923985368491E2
                        -7.708410512513565      -1.211889967030214E2    -2.801555368025920E1    -4.450402342867540E1    -2.748181932774058E1     1.458555315074927E2    -1.216891840961261      -1.179901445097890E2
                        -1.190476551788104      -1.173386656077666E2    -2.749661557494795E1     1.462972121457368E2    -2.163710878622579E1    -8.622138399372336      -7.867071617856356       6.867774758224165E1
                        -2.735855997551858E1     1.561296720120709E2    -1.230660988332148      -1.184305128476109E2    -7.858145680499192       6.796880655524562E1    -2.176688484500627E1    -1.871640592454941E1

 1.022000000000000E9    -2.685978830932248E1    -6.551614394650993E1    -7.899801455297625      -1.227517828601435E2    -1.154852634745273      -1.191367311848241E2    -2.744173275549255E1     1.563487237859247E2
