#  HZ   S   DB   R     50.00 
! Rohde & Schwarz Vector Network Analyzer 
! Rohde-Schwarz,ZNB8-4Port,1311601044102961,2.82
! Created: UTC 1/17/2019, 3:19:40 PM
! freq[Hz]                db:S11                  ang:S11                 db:S12                  ang:S12                 db:S13                  ang:S13                 db:S14                  ang:S14
!                         db:S21                  ang:S21                 db:S22                  ang:S22                 db:S23                  ang:S23                 db:S24                  ang:S24
!                         db:S31                  ang:S31                 db:S32                  ang:S32                 db:S33                  ang:S33                 db:S34                  ang:S34
!                         db:S41                  ang:S41                 db:S42                  ang:S42                 db:S43                  ang:S43                 db:S44                  ang:S44
! 
 1.000000000000000E9    -2.580271450282744E1    -5.881232940961026E1    -7.551198881608397      -7.437182424560740E1    -1.250311798942491      -7.054910079419378E1    -2.537186222605882E1    -1.754396224780213E2
                        -7.530608349161546      -7.447272038026067E1    -3.163979499418117E1    -5.852022666044153E1    -2.549964119268641E1     1.790346139953833E2    -1.259026717766226      -7.115514980992062E1
                        -1.247821111171497      -7.051687161126648E1    -2.555604309307722E1     1.798838895469984E2    -2.163615711635538E1     5.658986109490085E1    -7.672614068820267       1.152859445360639E2
                        -2.532931582473410E1    -1.752932445625901E2    -1.264522818441214      -7.100883263329833E1    -7.671907416025757       1.148341433011133E2    -2.278657594192186E1     4.667638551527777E1

 1.001000000000000E9    -2.574068427303036E1    -5.905592140151780E1    -7.714313151938353      -7.615237228102772E1    -1.213672317384940      -7.226728745480195E1    -2.524459048528501E1    -1.753091317813681E2
                        -7.693656152916521      -7.631786031557435E1    -3.175535081253766E1    -5.683704521187995E1    -2.543346491638656E1     1.790628354194385E2    -1.218995397423496      -7.282852283567038E1
                        -1.210712557201803      -7.222663622789644E1    -2.546834885199112E1     1.793957747545588E2    -2.152350556134808E1     5.420853020083533E1    -7.828416348646129       1.138282037137172E2
                        -2.523504522917681E1    -1.759647661241546E2    -1.226357728837888      -7.282482429687448E1    -7.832098325956958       1.131830275132879E2    -2.272410394954646E1     4.420407089275157E1

 1.002000000000000E9    -2.567426657812744E1    -5.926327268082898E1    -7.887122356293971      -7.799078258376902E1    -1.179697741412225      -7.398656846072906E1    -2.523362395854203E1    -1.764456278835861E2
                        -7.856625573279451      -7.828394325161781E1    -3.133834012051974E1    -5.371431452165898E1    -2.534631487419127E1     1.774781229513164E2    -1.188359886477127      -7.456747337129980E1
                        -1.173489432689050      -7.398751334817712E1    -2.542100899679303E1     1.780891957954419E2    -2.144056962404662E1     5.220944164683011E1    -8.003799065396107       1.122283908799001E2
                        -2.517446033715607E1    -1.770949289777977E2    -1.195091151323738      -7.470341363473189E1    -8.008641728206850       1.115869412130278E2    -2.257060083802029E1     4.164000057394456E1

 1.003000000000000E9    -2.580559018658829E1    -5.973562113398067E1    -8.051718638508401      -7.996113404934381E1    -1.139177620434503      -7.574514499657569E1    -2.518765555130552E1    -1.766930725489576E2
                        -8.026994181295319      -8.011483847690782E1    -3.155746716323687E1    -5.285205625970262E1    -2.529590440272757E1     1.771894319269197E2    -1.147571541541578      -7.635108330316794E1
                        -1.138883309201806      -7.571295382206705E1    -2.533649247389426E1     1.774143834426308E2    -2.149079649318146E1     5.012245453036533E1    -8.181767242412123       1.105909496070935E2
                        -2.512874920305226E1    -1.773571814347217E2    -1.157187967074740      -7.651754394904215E1    -8.171387266655968       1.099407777192061E2    -2.257682177920727E1     4.009587432658473E1

 1.004000000000000E9    -2.582317365567908E1    -5.965120504554591E1    -8.227228794116542      -8.177063031040809E1    -1.111706495613735      -7.749153579265584E1    -2.509577471413817E1    -1.773005766166111E2
                        -8.211077015841545      -8.198633720654206E1    -3.107455568206803E1    -5.115337489649777E1    -2.519551073991393E1     1.762292327788446E2    -1.119445057509191      -7.807786857353536E1
                        -1.104926473274472      -7.744219656789014E1    -2.521104591160235E1     1.767056743910999E2    -2.140069523281494E1     4.854522558592313E1    -8.358616872088248       1.090671297262782E2
                        -2.508167999956956E1    -1.776293927984571E2    -1.127098335835766      -7.830545450885263E1    -8.354894733575849       1.083749809673805E2    -2.250967896798756E1     3.681282803016607E1

 1.005000000000000E9    -2.575279351698832E1    -6.057118423663255E1    -8.411617264257354      -8.360104917547075E1    -1.072104454308950      -7.919607207578005E1    -2.504866011365477E1    -1.779454864812873E2
                        -8.385717191877900      -8.392775468937059E1    -3.098114585417016E1    -5.068950906605016E1    -2.521436940229162E1     1.751368173699022E2    -1.079585900345831      -7.981209084781536E1
                        -1.066494768295707      -7.923457180297558E1    -2.522134084216759E1     1.759645565289783E2    -2.141803234987142E1     4.590088363010249E1    -8.539222337149361       1.074679603005491E2
                        -2.501511839030754E1    -1.785839765125405E2    -1.095944643816437      -8.011134746774435E1    -8.538025031782432       1.067968759053452E2    -2.248360785366539E1     3.516925543833587E1

 1.006000000000000E9    -2.585375119863378E1    -6.104766836369004E1    -8.593701568773900      -8.543830039486430E1    -1.033679897856370      -8.094106119494116E1    -2.504500525858636E1    -1.789818588328050E2
                        -8.568814577380463      -8.576479158361995E1    -3.094765334435857E1    -4.959259669429929E1    -2.514150859385474E1     1.738601244703614E2    -1.050337763334657      -8.156285173174071E1
                        -1.033169243835125      -8.094691641764898E1    -2.516081400057528E1     1.748307476341057E2    -2.130308341465184E1     4.418180700377518E1    -8.728910055964255       1.058823264141941E2
                        -2.503864399942682E1    -1.797545855832030E2    -1.061042927780257      -8.188868361371510E1    -8.726369947571754       1.052205053677652E2    -2.239467574513430E1     3.267123588367298E1

 1.007000000000000E9    -2.558327942522153E1    -6.091132475999926E1    -8.786094979390310      -8.734762576620150E1    -1.006703091013475      -8.266109925195579E1    -2.497495609582387E1    -1.798127310443743E2
                        -8.761893362567282      -8.760611047804635E1    -3.050328703721441E1    -4.966691705464994E1    -2.515355929165946E1     1.727840374218377E2    -1.020982175116492      -8.326336293084002E1
                        -1.009408837221495      -8.268539765180636E1    -2.513551165872448E1     1.731961846955342E2    -2.135978031475781E1     4.245957862727772E1    -8.926418113159953       1.043605320948777E2
                        -2.489058531259967E1     1.795340759225222E2    -1.032450702267845      -8.365103780180506E1    -8.919336455632331       1.036619970524887E2    -2.237230650156705E1     3.054943302207586E1

 1.008000000000000E9    -2.558919131201510E1    -6.167413725883935E1    -8.977549927355126      -8.919555336983491E1    -9.802270497982033E-1   -8.440775136603885E1    -2.494168135165852E1     1.793396265928892E2
                        -8.956570116221714      -8.949280915276813E1    -3.052670016491510E1    -4.746258315415245E1    -2.502349614663297E1     1.714638147123744E2    -9.900278262972712E-1   -8.506501085370098E1
                        -9.752854916076241E-1   -8.440101254596698E1    -2.503350256159589E1     1.721915886444987E2    -2.136842731280630E1     4.020254994070118E1    -9.123301178014730       1.027502456646689E2
                        -2.495380798894814E1     1.782641190182195E2    -1.001236326594021      -8.542316008863980E1    -9.127462567736291       1.021048311002341E2    -2.238321451072924E1     2.846457671372440E1

 1.009000000000000E9    -2.570141439826197E1    -6.180780492327255E1    -9.176482452160148      -9.105815492920017E1    -9.514916837372768E-1   -8.616755318763627E1    -2.484806589464407E1     1.787001626665553E2
                        -9.154485626549471      -9.139393797165994E1    -3.016139523161163E1    -4.709479629948604E1    -2.497344394335892E1     1.710942278711554E2    -9.596924984600315E-1   -8.679775193124135E1
                        -9.391426020993339E-1   -8.616147930101440E1    -2.504415209572145E1     1.713240840494665E2    -2.142404465535504E1     3.817050146156250E1    -9.319370484455423       1.012596741862501E2
                        -2.487718912486709E1     1.779441962874734E2    -9.779076902340635E-1   -8.715335028829631E1    -9.315375084216550       1.005438516397482E2    -2.237532752998068E1     2.567484486768849E1

 1.010000000000000E9    -2.553935893288078E1    -6.193226537117669E1    -9.382312563114603      -9.294175869222811E1    -9.171897203782948E-1   -8.790116583149376E1    -2.479994650694275E1     1.775206703615908E2
                        -9.359303773534332      -9.319859198050708E1    -2.985262799776259E1    -4.697347143529770E1    -2.502995866251711E1     1.697271314233541E2    -9.314274483983540E-1   -8.851294977271473E1
                        -9.149501523523779E-1   -8.785601399684246E1    -2.502760798371401E1     1.700927959502993E2    -2.126835191951420E1     3.553696731545490E1    -9.530068233105260       9.975196494370142E1
                        -2.481405259931287E1     1.768367715046028E2    -9.459505332792745E-1   -8.888891963232017E1    -9.521847263823075       9.903365359128978E1    -2.232262375663581E1     2.372737048695499E1

 1.011000000000000E9    -2.557780356138406E1    -6.232444424465659E1    -9.585868145569974      -9.484898852398369E1    -8.847942038534904E-1   -8.960044555433844E1    -2.480989569322282E1     1.761395411610052E2
                        -9.566681752570370      -9.514597953656920E1    -2.979123848987745E1    -4.651004403945844E1    -2.497389878477644E1     1.682853098593547E2    -9.018771968279381E-1   -9.029236937497474E1
                        -8.893016585937640E-1   -8.958262795110532E1    -2.496862372442998E1     1.686668643636885E2    -2.130577572586278E1     3.420630529441397E1    -9.738343674444261       9.824113068227727E1
                        -2.479941732378558E1     1.756220973864662E2    -9.171688191931695E-1   -9.065756814575741E1    -9.740007463472233       9.752425073312853E1    -2.232245148514217E1     2.151649886864988E1

 1.012000000000000E9    -2.550854966136616E1    -6.193617300842367E1    -9.804582324885965      -9.673850038524893E1    -8.630411377627125E-1   -9.137292884015797E1    -2.475284891911618E1     1.759031056542857E2
                        -9.786452380801118      -9.697106054442263E1    -2.941607278996301E1    -4.640672406749577E1    -2.493340126162994E1     1.674207268409409E2    -8.815667521409090E-1   -9.202470045937902E1
                        -8.642873081253961E-1   -9.133544932929740E1    -2.495225415178953E1     1.677037601997689E2    -2.131634955585358E1     3.165049897415177E1    -9.959914079395796       9.671325734457051E1
                        -2.471462360572417E1     1.750575441697442E2    -8.875383581463842E-1   -9.242987019584709E1    -9.954316151004337       9.597846919464963E1    -2.226579734604418E1     1.881695511682588E1

 1.013000000000000E9    -2.556210526085218E1    -6.292440704610885E1    -1.001717809253687E1    -9.866582471371116E1    -8.375829124618932E-1   -9.307101821067688E1    -2.474243599330582E1     1.741048623670627E2
                        -1.000865251251304E1    -9.888147930255819E1    -2.924606614963001E1    -4.491101296550559E1    -2.494367878231655E1     1.660098713702978E2    -8.455236585251814E-1   -9.379105181716183E1
                        -8.321593194350853E-1   -9.306067246517215E1    -2.496607521270272E1     1.666822935944836E2    -2.136260020208886E1     3.025136966319113E1    -1.018376317715502E1     9.521064237694294E1
                        -2.475683954004647E1     1.736176142842733E2    -8.665118913275329E-1   -9.415265650231567E1    -1.018811909584235E1     9.450124609148739E1    -2.224083810380949E1     1.740262798646690E1

 1.014000000000000E9    -2.538910604953317E1    -6.250111138448674E1    -1.025220790732483E1    -1.005216218610424E2    -8.035820707882641E-1   -9.479641821295391E1    -2.470186724853459E1     1.737284054843673E2
                        -1.023524429589171E1    -1.008271928427836E2    -2.906468159772808E1    -4.604852790203116E1    -2.498703046022484E1     1.649832090950640E2    -8.237720948555194E-1   -9.551697208278885E1
                        -8.078834592908326E-1   -9.481620705045150E1    -2.501643203891436E1     1.654083040437525E2    -2.133704047644370E1     2.792183635784955E1    -1.041836855379114E1     9.371835944042800E1
                        -2.471980768526306E1     1.729360671439609E2    -8.378740787306410E-1   -9.591747493577807E1    -1.041594695776984E1     9.296383588282086E1    -2.222977279883289E1     1.471277777446469E1

 1.015000000000000E9    -2.536921870008476E1    -6.306231578661040E1    -1.049116188989866E1    -1.024056197580457E2    -7.851425336343071E-1   -9.656512396259210E1    -2.466957270586073E1     1.724938129347105E2
                        -1.046076682312006E1    -1.027524251857969E2    -2.876605660275695E1    -4.526729658037468E1    -2.494784626064789E1     1.639478307006537E2    -7.965558813775051E-1   -9.726934788251533E1
                        -7.782603524653544E-1   -9.653260797253797E1    -2.498245581717662E1     1.642655834867916E2    -2.144341352655751E1     2.529675680894140E1    -1.065599892746523E1     9.232781304618803E1
                        -2.468796986470405E1     1.716596926952109E2    -8.151759201511084E-1   -9.763427201911199E1    -1.064403220255102E1     9.153589283720908E1    -2.220930416188826E1     1.254055477365883E1

 1.016000000000000E9    -2.537567183518093E1    -6.332469293332214E1    -1.073430971482395E1    -1.043844504888407E2    -7.590935106917609E-1   -9.826790818272360E1    -2.466962679348438E1     1.712419928236121E2
                        -1.070612197797496E1    -1.046371426649127E2    -2.864258905303966E1    -4.613081882178842E1    -2.494165047125026E1     1.625338094692145E2    -7.797593167713444E-1   -9.899485986757595E1
                        -7.539472597670273E-1   -9.824951000117694E1    -2.496093530270249E1     1.629087131717534E2    -2.143194702152645E1     2.337358706145433E1    -1.090375799599299E1     9.089018107540366E1
                        -2.465411019057101E1     1.707162720076527E2    -7.870586804124108E-1   -9.939936646963268E1    -1.088964738925801E1     9.012198110491687E1    -2.228194197362369E1     1.088482702283577E1

 1.017000000000000E9    -2.536563772301399E1    -6.319144330755537E1    -1.098196160812540E1    -1.062380842098420E2    -7.358765716231028E-1   -1.000267711025737E2    -2.467894823021251E1     1.700547040204892E2
                        -1.095996173923690E1    -1.065342789771220E2    -2.849089729756459E1    -4.528531913204147E1    -2.497032019097542E1     1.609982803784841E2    -7.514742898359925E-1   -1.007880885118292E2
                        -7.325742917950183E-1   -9.997264017775241E1    -2.495813926821488E1     1.617328082596679E2    -2.146317284322210E1     2.123437626356651E1    -1.114971053480170E1     8.944094984587058E1
                        -2.465956275669915E1     1.694408301293657E2    -7.639108069113985E-1   -1.011436543423009E2    -1.114358177020467E1     8.867019272377253E1    -2.222473798770368E1     9.238425869083553

 1.018000000000000E9    -2.517329482018582E1    -6.395516319109169E1    -1.123099111979476E1    -1.082504146233049E2    -7.198303225828530E-1   -1.017584862349966E2    -2.470342125779335E1     1.694443924886792E2
                        -1.121299722854919E1    -1.085640944056976E2    -2.799707828277716E1    -4.575425865768114E1    -2.498900918586148E1     1.602537009169993E2    -7.284700210333689E-1   -1.025021224617982E2
                        -7.066328041806249E-1   -1.017012437467520E2    -2.500808532869437E1     1.608365822300263E2    -2.154478533446240E1     1.866122975945092E1    -1.140992809532880E1     8.807407963567049E1
                        -2.465218898995403E1     1.686713489711280E2    -7.468736832352702E-1   -1.029161948060767E2    -1.140675214621390E1     8.732950592689663E1    -2.219373362481257E1     5.536243117823009

 1.019000000000000E9    -2.529967299098745E1    -6.375012188665789E1    -1.150467337034757E1    -1.102088905921669E2    -6.909289348925219E-1   -1.034640932422375E2    -2.468753774338840E1     1.684254272445811E2
                        -1.148690364089220E1    -1.105252134087891E2    -2.792376176094516E1    -4.682870714518823E1    -2.496959491575617E1     1.589711758934996E2    -7.071111433085421E-1   -1.042443271107728E2
                        -6.883305074538187E-1   -1.034403950012910E2    -2.502357438844654E1     1.589498942301817E2    -2.158993838922493E1     1.718584498558999E1    -1.167670674510001E1     8.662102606731467E1
                        -2.469969208997735E1     1.676113040210828E2    -7.229650471206122E-1   -1.046261732753857E2    -1.167594275585824E1     8.591020997014597E1    -2.215215326401851E1     3.809822742247014

 1.020000000000000E9    -2.521804033240225E1    -6.374478425090988E1    -1.177751066710690E1    -1.121755492979768E2    -6.671664727120692E-1   -1.051885763028512E2    -2.477704019475487E1     1.671389289866180E2
                        -1.175533885259412E1    -1.124582063031030E2    -2.767982179373366E1    -4.598586409107917E1    -2.504018845519228E1     1.572480509850960E2    -6.907134272673564E-1   -1.059718208483065E2
                        -6.666050442639622E-1   -1.052306175683214E2    -2.505880591795457E1     1.579393594464746E2    -2.163553370111328E1     1.497028503506609E1    -1.195095925700364E1     8.526054991443108E1
                        -2.471143460876684E1     1.663856880309504E2    -6.984763268519265E-1   -1.064164809197336E2    -1.194319633526347E1     8.455437759825429E1    -2.219480434939314E1     2.285989201359868

 1.021000000000000E9    -2.518274670460787E1    -6.441866180239535E1    -1.207193181543898E1    -1.141538489148200E2    -6.464848738874905E-1   -1.069359327181355E2    -2.473477995149406E1     1.658178425781021E2
                        -1.204872896950370E1    -1.144226234589282E2    -2.746564459998492E1    -4.676911030275915E1    -2.503605460978095E1     1.567689402349792E2    -6.639429303974787E-1   -1.077578294304644E2
                        -6.492850405036521E-1   -1.069251763373981E2    -2.500947074219736E1     1.569392514253852E2    -2.173066712659253E1     1.264113309410227E1    -1.223600522252220E1     8.395539605917114E1
                        -2.471017870339251E1     1.652550889927689E2    -6.783105113796560E-1   -1.081735912887944E2    -1.223248095837604E1     8.321023505609738E1    -2.222436531931794E1     6.934761900495413E-2

 1.022000000000000E9    -2.527063084805794E1    -6.549880071505227E1    -1.235183866060015E1    -1.160791209914829E2    -6.282270578803886E-1   -1.086918997804874E2    -2.471917222987409E1     1.651372260381457E2
