#  HZ   S   DB   R     50.00 
! Rohde & Schwarz Vector Network Analyzer 
! Rohde-Schwarz,ZNB8-4Port,1311601044102961,2.82
! Created: UTC 1/17/2019, 3:16:11 PM
! freq[Hz]                db:S11                  ang:S11                 db:S12                  ang:S12                 db:S13                  ang:S13                 db:S14                  ang:S14
!                         db:S21                  ang:S21                 db:S22                  ang:S22                 db:S23                  ang:S23                 db:S24                  ang:S24
!                         db:S31                  ang:S31                 db:S32                  ang:S32                 db:S33                  ang:S33                 db:S34                  ang:S34
!                         db:S41                  ang:S41                 db:S42                  ang:S42                 db:S43                  ang:S43                 db:S44                  ang:S44
! 
 1.000000000000000E9    -3.131675298441991E1    -3.426715467669038E1    -2.138506033471241E1     1.678150821843829E2    -3.708087070734588E-1   -4.004344352614571E1    -2.920368815010242E1    -1.245622067722927E2
                        -2.136141001153190E1     1.676932125082008E2    -4.107377495174843E1    -6.061469813631501E1    -2.961893635509021E1    -1.309388732541949E2    -4.199735073152403E-1   -4.097473619796984E1
                        -3.680557038203542E-1   -4.002145962506847E1    -2.960836417069125E1    -1.307070963722112E2    -3.085026245952844E1     1.222289254941034E2    -2.059291468523242E1    -7.930377788846316E1
                        -2.920574051297332E1    -1.255828153690416E2    -4.314180822473904E-1   -4.075612439351151E1    -2.060930862002524E1    -7.973057291120449E1    -3.881411055438380E1     8.457450554028736E1

 1.001000000000000E9    -3.104129459163484E1    -3.158761757242204E1    -2.059705354918091E1     1.633913128568388E2    -3.783553193745829E-1   -4.173722905559663E1    -2.884410389333199E1    -1.260906469455577E2
                        -2.059883792269766E1     1.632477010821436E2    -4.176714577304193E1    -5.642431058033483E1    -2.917846043058132E1    -1.323948651296742E2    -4.293292610144969E-1   -4.262073658361500E1
                        -3.700744376792209E-1   -4.169682674991505E1    -2.918951022276412E1    -1.319311612064737E2    -3.053610746149460E1     1.179398180132583E2    -1.997073675858547E1    -7.770572478990650E1
                        -2.887298134332258E1    -1.268528448989483E2    -4.383290535617936E-1   -4.259963911880308E1    -1.997482545474346E1    -7.826258267356070E1    -3.790068714519077E1     7.706597184294311E1

 1.002000000000000E9    -3.063241285221938E1    -3.030412429306300E1    -1.989144186706707E1     1.594891554275873E2    -3.889673050107927E-1   -4.345441987580913E1    -2.851389898108867E1    -1.267781132965006E2
                        -1.986382235682626E1     1.592099694103544E2    -4.129011118007127E1    -3.839909884959904E1    -2.887619445760630E1    -1.334572007947655E2    -4.463849244772065E-1   -4.434377757528889E1
                        -3.842039990683013E-1   -4.341226978584442E1    -2.893685964054007E1    -1.328901504297284E2    -3.014948922374024E1     1.160318681092719E2    -1.935225327455572E1    -7.637446066447755E1
                        -2.853885972731389E1    -1.274950553283181E2    -4.505081982453369E-1   -4.444487838020086E1    -1.936327135478000E1    -7.704020392425484E1    -3.649477858772669E1     7.454778646486555E1

 1.003000000000000E9    -3.069069917418872E1    -2.928016059511278E1    -1.918294925280535E1     1.557142846568564E2    -3.938101031319555E-1   -4.516961533857268E1    -2.819113793395128E1    -1.281014044456275E2
                        -1.917035705936829E1     1.554536088302010E2    -4.181052052218200E1    -3.523280248311235E1    -2.853942841120145E1    -1.352022335112787E2    -4.436330427705141E-1   -4.605671596061416E1
                        -3.935474634097462E-1   -4.515359953361914E1    -2.863109405655711E1    -1.349010075600089E2    -3.007291867007003E1     1.128153835509975E2    -1.875244719988866E1    -7.556097027214877E1
                        -2.817985199042996E1    -1.288266900467875E2    -4.564872736314218E-1   -4.621980060697948E1    -1.874466668183299E1    -7.628451800104475E1    -3.646135046025923E1     7.202149248324889E1

 1.004000000000000E9    -3.059846558272568E1    -2.721434669778923E1    -1.853886308304312E1     1.523213143625015E2    -4.083524643497782E-1   -4.690728661576432E1    -2.785050988129444E1    -1.292933653887761E2
                        -1.853835458442574E1     1.520810856904368E2    -4.021497304134328E1    -1.997264678673473E1    -2.830046580720051E1    -1.364002173855611E2    -4.570596513040306E-1   -4.776070745706716E1
                        -4.006263743667279E-1   -4.685874866539390E1    -2.831037905246955E1    -1.364193428273027E2    -2.965105351766033E1     1.108185008164910E2    -1.819086946505820E1    -7.515352315896719E1
                        -2.788614608663236E1    -1.300653503664676E2    -4.690750380155200E-1   -4.801215573534709E1    -1.818708606734104E1    -7.583816397645947E1    -3.555864517184223E1     6.401717468343902E1

 1.005000000000000E9    -3.010244568640941E1    -2.784865268686973E1    -1.793999736625535E1     1.491770467273603E2    -4.155202679749364E-1   -4.858431777737559E1    -2.759058605826546E1    -1.309208774726346E2
                        -1.790941811073319E1     1.489312494644997E2    -3.947283844483052E1    -1.400222228671600E1    -2.800501105119312E1    -1.381341638773819E2    -4.684902719629036E-1   -4.948276412885796E1
                        -4.128864538118540E-1   -4.860582139590955E1    -2.800870854669093E1    -1.377251548868455E2    -2.945881481466780E1     1.065976672410718E2    -1.764533505901196E1    -7.485751662978517E1
                        -2.759528563658684E1    -1.315154399400653E2    -4.835043502373070E-1   -4.978536757897449E1    -1.764009212615650E1    -7.564024442595236E1    -3.538483960580349E1     6.441717121749342E1

 1.006000000000000E9    -2.982734934936201E1    -2.783964990508910E1    -1.736746926448912E1     1.462450798872896E2    -4.258610509246568E-1   -5.029530262454735E1    -2.731418010034926E1    -1.321834047357679E2
                        -1.734819535110777E1     1.459281188247225E2    -3.884632186139629E1    -1.146332038791586E1    -2.775101279431004E1    -1.391812631238985E2    -4.774992710917394E-1   -5.121836007903485E1
                        -4.220731889910225E-1   -5.030599821188432E1    -2.777589000914033E1    -1.392102894484928E2    -2.896277318767932E1     1.055177812377418E2    -1.711878533450784E1    -7.499844135437914E1
                        -2.731743907853069E1    -1.329602926867196E2    -4.947014756396592E-1   -5.152556884529247E1    -1.711396160268799E1    -7.566113561462069E1    -3.455492276607043E1     6.104472778873034E1

 1.007000000000000E9    -2.931119741953955E1    -2.470219246563381E1    -1.682403688803167E1     1.434475173213077E2    -4.400611365387586E-1   -5.202217936084927E1    -2.703851361514045E1    -1.331068243034136E2
                        -1.681675177700055E1     1.431804074946436E2    -3.727591027853975E1    -8.754872633167611      -2.745409657864137E1    -1.405603285864674E2    -4.918738303896883E-1   -5.290938353127859E1
                        -4.378656383529910E-1   -5.201924748406047E1    -2.743324636322371E1    -1.399592746535103E2    -2.889525241600780E1     1.041620552002201E2    -1.663273498528024E1    -7.509560432121553E1
                        -2.702923247081785E1    -1.339877057229427E2    -5.064696258008872E-1   -5.325237228560197E1    -1.662589217111790E1    -7.585540898488500E1    -3.421023368942434E1     6.033783709032966E1

 1.008000000000000E9    -2.897063662092619E1    -2.560342086199617E1    -1.633929049853973E1     1.407267190768276E2    -4.525211051733170E-1   -5.370803255855601E1    -2.678992177346401E1    -1.346733820344687E2
                        -1.631343039118180E1     1.404326013816339E2    -3.676099426252713E1    -4.204771252439709      -2.723009364072002E1    -1.418782343278972E2    -5.060691358713044E-1   -5.467357904019947E1
                        -4.531200402405819E-1   -5.369196484141833E1    -2.721725630544315E1    -1.418028170801716E2    -2.871847865552287E1     1.012197804840440E2    -1.615528549768375E1    -7.555164237857883E1
                        -2.677000469698843E1    -1.353498105875806E2    -5.204251940636615E-1   -5.500439618619832E1    -1.615511422751058E1    -7.619729383966013E1    -3.398794126467585E1     5.759419666643982E1

 1.009000000000000E9    -2.882485744119073E1    -2.519772120483076E1    -1.585237635713196E1     1.380829531909934E2    -4.635845294224011E-1   -5.542273647360846E1    -2.655735680705972E1    -1.359516669694132E2
                        -1.582534449228093E1     1.377948702583918E2    -3.572948358833909E1    -3.465266534961072      -2.699359433309473E1    -1.440491668682710E2    -5.167168694203738E-1   -5.636717081585241E1
                        -4.578652408160888E-1   -5.544183938373480E1    -2.701364428974392E1    -1.430386878803403E2    -2.867901922162689E1     9.888977730899518E1    -1.570182741558553E1    -7.604093721808074E1
                        -2.654763502785668E1    -1.366942205109531E2    -5.412327306147495E-1   -5.669785740029307E1    -1.570139907283581E1    -7.676226480514529E1    -3.333721313534795E1     5.286292908903612E1

 1.010000000000000E9    -2.831786325091666E1    -2.364260962628088E1    -1.539206037615692E1     1.355913805312120E2    -4.776433608376197E-1   -5.718185016103195E1    -2.633045296843340E1    -1.370742900718244E2
                        -1.537486347949425E1     1.353472944755653E2    -3.461796030508740E1    -1.672763125485433      -2.674172656402456E1    -1.448632319837075E2    -5.369537068323869E-1   -5.807110217748878E1
                        -4.781898394812462E-1   -5.711646885044870E1    -2.673654089320655E1    -1.445944852283448E2    -2.804524104608327E1     9.576332764097775E1    -1.526674298781929E1    -7.659597873938117E1
                        -2.634581506518295E1    -1.378762840932273E2    -5.512822801425974E-1   -5.843352219951292E1    -1.526846314275033E1    -7.730940889236959E1    -3.311837481610004E1     5.277561886028003E1

 1.011000000000000E9    -2.807062311114770E1    -2.406760037115973E1    -1.496177134206979E1     1.332344003234566E2    -4.926944663793648E-1   -5.886271703703151E1    -2.610246753044775E1    -1.386049867261695E2
                        -1.493830596328493E1     1.329184473330874E2    -3.419360529865259E1    -1.491623935341518      -2.658703448144768E1    -1.461624803418189E2    -5.543766476329550E-1   -5.981779348713231E1
                        -5.002746863780215E-1   -5.882946845579642E1    -2.660638561371777E1    -1.460225185539838E2    -2.803737616433610E1     9.508549846587464E1    -1.485661971230577E1    -7.734496335082709E1
                        -2.611870660214905E1    -1.393652719886691E2    -5.659196131622941E-1   -6.017510334531394E1    -1.485780738147784E1    -7.800095062170097E1    -3.281034380307431E1     5.044445195258156E1

 1.012000000000000E9    -2.777957013845972E1    -2.262734834788022E1    -1.454271874506674E1     1.308855537323509E2    -5.144995946787943E-1   -6.058865399087459E1    -2.598065785161133E1    -1.399543320755517E2
                        -1.453118495948104E1     1.305494048545667E2    -3.313157171009675E1    -5.134186173992318E-1   -2.639906778900530E1    -1.479147516294315E2    -5.764628746209231E-1   -6.153620506750675E1
                        -5.149236884930686E-1   -6.053405498360641E1    -2.641189467232626E1    -1.472963849562138E2    -2.786139106472935E1     9.180251805046017E1    -1.445424329436761E1    -7.822358314143588E1
                        -2.596234131017032E1    -1.409044455126565E2    -5.808444674468029E-1   -6.191363013940979E1    -1.444953353639493E1    -7.890612500834536E1    -3.239687604091020E1     4.686802063693079E1

 1.013000000000000E9    -2.744098450518674E1    -2.342140602394461E1    -1.415302402235679E1     1.285288879756061E2    -5.292773417988175E-1   -6.223676991903423E1    -2.576072426330157E1    -1.411609633551375E2
                        -1.413725855334033E1     1.282962314307918E2    -3.232895871700566E1     5.444461703243294E-1   -2.624526869449986E1    -1.494506189220790E2    -5.826802147714973E-1   -6.323318335759324E1
                        -5.295643673180238E-1   -6.224603938934533E1    -2.624079735885886E1    -1.489082337235725E2    -2.762594068011079E1     9.074194518282197E1    -1.407751169028409E1    -7.909630009181211E1
                        -2.571485928973238E1    -1.416300643135400E2    -6.011033175786953E-1   -6.360475231940060E1    -1.408294040842661E1    -7.974721674510167E1    -3.231571135292569E1     4.740063509797268E1

 1.014000000000000E9    -2.701264438720832E1    -2.288217673483077E1    -1.376965179455284E1     1.263494580080500E2    -5.456339175504731E-1   -6.396968235061494E1    -2.559513847832983E1    -1.430369825930805E2
                        -1.376127230071885E1     1.260960309680458E2    -3.164882822654657E1    -1.421798294504465      -2.599648768034194E1    -1.503527405698923E2    -6.057836954586916E-1   -6.497363760871474E1
                        -5.513182195988993E-1   -6.397622915984042E1    -2.603003887154984E1    -1.501696832314854E2    -2.735839620630028E1     8.827492883006909E1    -1.371414770993487E1    -8.006574245131775E1
                        -2.555201611816411E1    -1.434695575064917E2    -6.213236058098421E-1   -6.536554754428701E1    -1.370689215690213E1    -8.075748429906385E1    -3.164942866903095E1     4.385873314829160E1

 1.015000000000000E9    -2.666838505662626E1    -2.353050092941132E1    -1.342071065137683E1     1.241684525233644E2    -5.700285008932589E-1   -6.568873579676369E1    -2.538786647533806E1    -1.438726819330838E2
                        -1.340309872195584E1     1.238470255851462E2    -3.125369973462210E1    -1.339283751314686      -2.585503666292178E1    -1.520920076597662E2    -6.215900679536056E-1   -6.669345829847971E1
                        -5.671190109565591E-1   -6.567719912514684E1    -2.590667653238406E1    -1.516153611132696E2    -2.739400965152316E1     8.565960778351651E1    -1.335337035173952E1    -8.110753881913635E1
                        -2.541360452570475E1    -1.447325968513581E2    -6.439133383370088E-1   -6.703985452391855E1    -1.335459072671097E1    -8.187676972601896E1    -3.146533312079318E1     4.225714176405325E1

 1.016000000000000E9    -2.644292066653053E1    -2.389682268853800E1    -1.307425972529534E1     1.220392572008829E2    -5.905900522442807E-1   -6.739599671115359E1    -2.527068204199896E1    -1.453891995784165E2
                        -1.305311622816691E1     1.217203739190891E2    -3.044091104978908E1    -2.047155772804703      -2.570073458489395E1    -1.532657172970257E2    -6.447257318043831E-1   -6.838644369539577E1
                        -5.889247218541633E-1   -6.736309699978850E1    -2.570978512591879E1    -1.532301882583491E2    -2.717088653912918E1     8.300561621099159E1    -1.303114378361353E1    -8.214286870242130E1
                        -2.523879894320043E1    -1.460127826157701E2    -6.595699083232682E-1   -6.877720781237528E1    -1.301912493216248E1    -8.286340539376670E1    -3.159257577596562E1     4.046935736424993E1

 1.017000000000000E9    -2.617112095903473E1    -2.358211772928246E1    -1.273887121804398E1     1.198987008707435E2    -6.137618284354386E-1   -6.908951057719239E1    -2.517432610994728E1    -1.466743311564802E2
                        -1.271278688729541E1     1.195204081545785E2    -2.990827726096488E1    -1.579437531602599      -2.560528175446706E1    -1.548870232180884E2    -6.664631897608304E-1   -7.014214434808632E1
                        -6.094256691032154E-1   -6.905050771826771E1    -2.560669530918484E1    -1.544050412283525E2    -2.714127056684390E1     8.239075395077761E1    -1.269440417339987E1    -8.332205691983290E1
                        -2.513803314253399E1    -1.470341764643479E2    -6.817632731740814E-1   -7.051209662262085E1    -1.270222221456289E1    -8.399318069316726E1    -3.133166282815304E1     4.121478630985244E1

 1.018000000000000E9    -2.573537555485660E1    -2.399037430003817E1    -1.241913304277198E1     1.177943643620254E2    -6.404372388863260E-1   -7.081029295274388E1    -2.491895908925988E1    -1.481715593806470E2
                        -1.240617905581995E1     1.174769739093170E2    -2.921196462492766E1    -2.738162495745389      -2.543966397324428E1    -1.564849514380832E2    -6.940120357150631E-1   -7.184303998103495E1
                        -6.267642120587487E-1   -7.074733210146766E1    -2.545957380411507E1    -1.561509049755049E2    -2.701044161652519E1     7.940513070115524E1    -1.238265244078788E1    -8.450136332095373E1
                        -2.493342378666672E1    -1.487337366367279E2    -6.998461726451815E-1   -7.224509634758373E1    -1.238071764768289E1    -8.516740954711258E1    -3.061272242720613E1     3.489596992988939E1

 1.019000000000000E9    -2.556401800860687E1    -2.397841756149741E1    -1.211371641036940E1     1.156735135363103E2    -6.587452656004527E-1   -7.250259209136105E1    -2.480701452601201E1    -1.494423120453349E2
                        -1.209826642334223E1     1.154663019331618E2    -2.872161835376637E1    -5.432670661017463      -2.533335352255119E1    -1.578322102008262E2    -7.135833496478939E-1   -7.356621875314903E1
                        -6.553920077701305E-1   -7.249150974330082E1    -2.533750685015209E1    -1.572008377834665E2    -2.689328831926262E1     7.853456666633601E1    -1.209045689752801E1    -8.562871032169515E1
                        -2.474993436736029E1    -1.502500760835056E2    -7.237408212530881E-1   -7.394522106174395E1    -1.208215182137718E1    -8.645869712240328E1    -3.036441151675506E1     3.479151540024809E1

 1.020000000000000E9    -2.524137096428269E1    -2.511577184052055E1    -1.181057230322272E1     1.136913116354942E2    -6.740563377983395E-1   -7.418326140620601E1    -2.466134757902958E1    -1.508833949232877E2
                        -1.178859446569955E1     1.133543842704872E2    -2.831367242855765E1    -4.866877236536474      -2.517815144686157E1    -1.592329034274652E2    -7.366973945565482E-1   -7.523807456125678E1
                        -6.741224587574617E-1   -7.419939535885432E1    -2.523449285521725E1    -1.590791850368895E2    -2.670764491292075E1     7.671979771277755E1    -1.179578094035248E1    -8.683727627871311E1
                        -2.466013660560313E1    -1.514344798414489E2    -7.445780392564407E-1   -7.568196823600445E1    -1.177746554841305E1    -8.762252771474127E1    -3.034937280627052E1     3.464379585288545E1

 1.021000000000000E9    -2.495742373451510E1    -2.645191270662868E1    -1.152702235426544E1     1.116589292471849E2    -6.979680875702209E-1   -7.591401742790600E1    -2.457017027712693E1    -1.521713956892516E2
                        -1.150229862846081E1     1.114107039800933E2    -2.784903181197048E1    -5.913334459893854      -2.508873101633139E1    -1.608081641270185E2    -7.609082358160141E-1   -7.698625941526166E1
                        -7.010334695178857E-1   -7.588363585094986E1    -2.512668897861560E1    -1.604684758153909E2    -2.669089229077279E1     7.395025427322500E1    -1.150126088481958E1    -8.823804819797016E1
                        -2.452805108550530E1    -1.528067330592205E2    -7.738494286936957E-1   -7.741970491702384E1    -1.149667767978231E1    -8.895519010906496E1    -3.016927224201683E1     3.239499273980007E1

 1.022000000000000E9    -2.477458645718365E1    -2.732071236669288E1    -1.123680925226384E1     1.096994337794771E2    -7.234258330371046E-1   -7.762915734715196E1    -2.446300210204920E1    -1.538655406974490E2
