#  HZ   S   DB   R     50.00 
! Rohde & Schwarz Vector Network Analyzer 
! Rohde-Schwarz,ZNB8-4Port,1311601044102961,2.82
! Created: UTC 1/17/2019, 3:08:38 PM
! freq[Hz]                db:S11                  ang:S11                 db:S12                  ang:S12                 db:S13                  ang:S13                 db:S14                  ang:S14
!                         db:S21                  ang:S21                 db:S22                  ang:S22                 db:S23                  ang:S23                 db:S24                  ang:S24
!                         db:S31                  ang:S31                 db:S32                  ang:S32                 db:S33                  ang:S33                 db:S34                  ang:S34
!                         db:S41                  ang:S41                 db:S42                  ang:S42                 db:S43                  ang:S43                 db:S44                  ang:S44
! 
 1.000000000000000E9    -2.156450270890174E1    -1.078935166943436E2    -2.681646525123258      -1.717351820351939E2    -4.159178617929297       6.426843978903362      -2.579969629316583E1     1.575726091096327E2
                        -2.656463050785453      -1.718788938934177E2    -2.183886681187628E1    -1.164027974607511E2    -2.543658458046257E1     1.525193312136599E2    -4.148446773335725       4.046632864560091
                        -4.148717015471828       6.456288809681992      -2.547486864080656E1     1.535415184081390E2    -2.814942845384409E1    -1.490007287791235      -2.731245151757551       5.646084694541486E-1
                        -2.576330854951582E1     1.576204161074904E2    -4.156780068318974       4.284202020991605      -2.740185267600907       1.168948621869624E-1   -2.776022396152967E1     6.073583610189296E-1

 1.001000000000000E9    -2.171432850056753E1    -1.096633578652682E2    -2.608789333987829      -1.734707793102966E2    -4.263278016665915       4.819979939229805      -2.584944995008005E1     1.579296806136000E2
                        -2.582315268730820      -1.736666350641778E2    -2.192824248909859E1    -1.185749463719150E2    -2.544962241700763E1     1.527285099643541E2    -4.254334669937381       2.498197357699299
                        -4.260102275809329       4.815006497455187      -2.552685896683164E1     1.538550855860972E2    -2.841078962740661E1    -1.747177502088587      -2.658883852432767      -9.150093074931647E-1
                        -2.579488716077183E1     1.574971579199589E2    -4.263585835412914       2.487223346077373      -2.656596463622019      -1.509369519276883      -2.782974405469556E1     1.316404241016182

 1.002000000000000E9    -2.193563924709649E1    -1.113362877708159E2    -2.532195154621950      -1.751940673942402E2    -4.369350728346188       3.169439790330848      -2.597040975808895E1     1.570014077703751E2
                        -2.507442077942364      -1.754765335650281E2    -2.206890698684927E1    -1.207951896713966E2    -2.550332525024255E1     1.515689065546314E2    -4.374091098319221       8.080391681535259E-1
                        -4.367436884408217       3.170304598323738      -2.554654614893352E1     1.520493811592283E2    -2.869629776727871E1    -2.319332346492116      -2.590848068147005      -2.532640072153095
                        -2.583108392562739E1     1.565929008385724E2    -4.376493690889726       7.266052953210109E-1   -2.585796369739172      -3.126369369555857      -2.794889451184995E1     9.928283064281402E-1

 1.003000000000000E9    -2.202364936556751E1    -1.131686366897706E2    -2.454160861282987      -1.770013025404239E2    -4.480070452694092       1.500010778911928      -2.598078848897243E1     1.570996646629998E2
                        -2.432011083141484      -1.772476924689098E2    -2.218859978545579E1    -1.225803980992286E2    -2.545999580011480E1     1.517013906195720E2    -4.473801052276848      -8.491928409186037E-1
                        -4.476340195000168       1.521955705329028      -2.549715366477483E1     1.517984148581789E2    -2.884464650909039E1    -2.501441362696097      -2.513151133723943      -4.099883244965632
                        -2.588846798609847E1     1.565820525200585E2    -4.481306054919097      -1.010014668960672      -2.511483199997343      -4.816076658978963      -2.790328953696282E1    -6.971722237144391E-1

 1.004000000000000E9    -2.223025093464763E1    -1.154347293482357E2    -2.382495923691996      -1.787161015191787E2    -4.593386708360596      -1.587210431419094E-1   -2.598896778167291E1     1.570075846019893E2
                        -2.366289996173161      -1.790049959470968E2    -2.235880485474212E1    -1.242595965817768E2    -2.538444640628506E1     1.505682624145890E2    -4.590337984336617      -2.485878586439056
                        -4.587250124015643      -1.019321991971672E-1   -2.543876606441824E1     1.511581017571593E2    -2.918924093184760E1    -2.633820829290430      -2.444486995247555      -5.726245123955756
                        -2.599274521593249E1     1.568387702608948E2    -4.601055856182624      -2.731268148498097      -2.443309877795631      -6.404984113161075      -2.793555829066144E1    -3.010233150321109E-1

 1.005000000000000E9    -2.241405729947752E1    -1.167381327683021E2    -2.317164822019187       1.795632572892993E2    -4.711572828261649      -1.778148520539132      -2.600330660108264E1     1.566044406320150E2
                        -2.294684858057417       1.792068002079406E2    -2.262035882019898E1    -1.270000807865425E2    -2.554622273034035E1     1.501686984843562E2    -4.705815859446554      -4.180260696625428
                        -4.705886621358355      -1.791997779807027      -2.561263750762570E1     1.507928408604645E2    -2.945818547056216E1    -3.090273983967137      -2.381627129926581      -7.327695548414436
                        -2.600762904971406E1     1.562515089196062E2    -4.721339568187786      -4.445328516752597      -2.371899619538214      -7.999062559828827      -2.811926457509520E1    -1.937348341710866

 1.006000000000000E9    -2.262792830892314E1    -1.179706090861672E2    -2.247509850946881       1.778081709836169E2    -4.827838065659242      -3.381332992435385      -2.615013863447665E1     1.564341905143694E2
                        -2.223713083368165       1.775016472406252E2    -2.265013683552155E1    -1.289723654210634E2    -2.562034769296522E1     1.492667863243495E2    -4.822407705084764      -5.845059416283203
                        -4.821466703085409      -3.431432702189351      -2.560449972255231E1     1.497978144646011E2    -2.982222109690930E1    -4.082142516499246      -2.304004423728252      -8.950957293323315
                        -2.608833847566314E1     1.555289806113350E2    -4.837798770425242      -6.138452066759637      -2.308562722002526      -9.612970615386647      -2.798443956043265E1    -2.316425798528723

 1.007000000000000E9    -2.291171450906547E1    -1.202535949487625E2    -2.170763572151738       1.760733287335210E2    -4.949382869323468      -5.027475740088392      -2.609728553177795E1     1.556619626693046E2
                        -2.161299685994138       1.757636803531142E2    -2.290780455868773E1    -1.305209409586780E2    -2.561526826888586E1     1.477703174961440E2    -4.949102567219522      -7.503259384254091
                        -4.945023398770979      -5.026326083276539      -2.560448412663958E1     1.482518616654150E2    -2.982128765347984E1    -5.334742410059642      -2.251067348249974      -1.054480021937138E1
                        -2.609308925450203E1     1.548880322006004E2    -4.956811964967191      -7.855471833796778      -2.247481579931237      -1.122023756355992E1    -2.810685820647141E1    -2.936599251071687

 1.008000000000000E9    -2.305687607225220E1    -1.220389839787348E2    -2.116133158810913       1.743667082586010E2    -5.069132912629297      -6.665484259754600      -2.616987397325699E1     1.551316742616238E2
                        -2.088397876722103       1.740371260927799E2    -2.309666065586933E1    -1.330786670038362E2    -2.566648555901385E1     1.476400006650531E2    -5.078058800209985      -9.214225604287254
                        -5.065670698963465      -6.649696473595182      -2.564975820171438E1     1.483178884113975E2    -3.025299464449223E1    -4.281282565887588      -2.185996456375992      -1.217364544310966E1
                        -2.617653864898553E1     1.540891541416590E2    -5.087389244944301      -9.520102899341858      -2.181930020222189      -1.285340741726330E1    -2.806173252264506E1    -4.022484686189040

 1.009000000000000E9    -2.338813430492149E1    -1.234794918166900E2    -2.046104184287330       1.726460312300966E2    -5.195540594443209      -8.308597791136545      -2.615944788153198E1     1.551806684215354E2
                        -2.026342236255122       1.723098346616547E2    -2.333383433026503E1    -1.352678638954533E2    -2.559126268708365E1     1.475189309821727E2    -5.194200678357269      -1.084532947091766E1
                        -5.188643608927569      -8.334127676121247      -2.569249827352051E1     1.476172121772937E2    -3.048139757299188E1    -4.526582713815134      -2.118383169690051      -1.377749859288729E1
                        -2.619948998371619E1     1.543781150954401E2    -5.216061061921328      -1.119591290254589E1    -2.115932344595916      -1.448760864907720E1    -2.815210384300734E1    -3.608534480691396

 1.010000000000000E9    -2.368292018601763E1    -1.253727984661038E2    -1.987741494269388       1.709258394104496E2    -5.323360385678432      -9.948717036994738      -2.621970358108898E1     1.541467836337668E2
                        -1.970189983698305       1.705923657083266E2    -2.357897536034023E1    -1.380672063185783E2    -2.580519200373268E1     1.460118944106622E2    -5.333336896874680      -1.250449232204942E1
                        -5.323376653945885      -9.918668120631537      -2.580553795773467E1     1.466366196600424E2    -3.077865633200411E1    -3.013056305728050      -2.062477646901506      -1.539255318659573E1
                        -2.619423392641433E1     1.535659830658493E2    -5.344157013797676      -1.281059678757482E1    -2.054408742223401      -1.607877458397952E1    -2.820095282082234E1    -4.932422682882186

 1.011000000000000E9    -2.387547438231218E1    -1.262210915243230E2    -1.924419575786659       1.692117277860805E2    -5.452322891897827      -1.154949817608758E1    -2.632379004466122E1     1.535013256844198E2
                        -1.905055620086669       1.688865794680114E2    -2.366679200251136E1    -1.395457283562362E2    -2.569528901027227E1     1.450194874919600E2    -5.455673098556705      -1.421855133831474E1
                        -5.454162250250033      -1.155337018435618E1    -2.577228811396669E1     1.450102941964527E2    -3.113907880497557E1    -3.148422570979022      -1.998748660575207      -1.699544131453058E1
                        -2.621882637848732E1     1.527485021384084E2    -5.483268177410183      -1.454437254537053E1    -1.998080563872950      -1.769717529085346E1    -2.796733654157136E1    -5.507759876874973

 1.012000000000000E9    -2.422064508075743E1    -1.286026705699597E2    -1.865335034364475       1.674928887673298E2    -5.588200702824166      -1.322003270140224E1    -2.624212456097992E1     1.534198009822684E2
                        -1.841205303543317       1.671522251453997E2    -2.392599742947377E1    -1.426591810885846E2    -2.584161934501029E1     1.444645630810273E2    -5.602636077014466      -1.584033135437881E1
                        -5.584212685431957      -1.317362391504626E1    -2.584554350403299E1     1.442345894572191E2    -3.135240290787558E1    -3.184925117846951      -1.941893658845502      -1.862189450971243E1
                        -2.622462789555665E1     1.527175786537247E2    -5.608055240620338      -1.619711647432904E1    -1.936226523770895      -1.933297079410528E1    -2.826817212904758E1    -5.716482409453278

 1.013000000000000E9    -2.447321655689286E1    -1.301497160830692E2    -1.800571657546226       1.657496099829533E2    -5.725201974663987      -1.480425708194190E1    -2.633193028194926E1     1.521049172181560E2
                        -1.785589788586816       1.654408445628233E2    -2.426390823019380E1    -1.446298766546282E2    -2.589556953801619E1     1.430320389547316E2    -5.736920451702351      -1.750796539612269E1
                        -5.724421718247719      -1.481906201764398E1    -2.588060344694048E1     1.435390987634196E2    -3.180172029637326E1    -3.389496152082224      -1.885740694656931      -2.021805045740614E1
                        -2.632853527109050E1     1.518326001243721E2    -5.751860721627338      -1.787587372364461E1    -1.879935600037319      -2.090789209809360E1    -2.813841522071586E1    -7.083893702712781

 1.014000000000000E9    -2.490420684856216E1    -1.322459541611146E2    -1.748323173104577       1.640368230544463E2    -5.865458160863946      -1.646081710642862E1    -2.639493691136130E1     1.524438924887943E2
                        -1.727358988133540       1.637147995407952E2    -2.450975803148415E1    -1.470835130332678E2    -2.602348372634035E1     1.421591707617728E2    -5.876285938654245      -1.917365427040658E1
                        -5.863283934915192      -1.645107647966179E1    -2.603466255871689E1     1.430098907828949E2    -3.198542770962620E1    -2.632197486073956      -1.829953860158132      -2.187079443158448E1
                        -2.634774274860652E1     1.512636091479658E2    -5.891629587265173      -1.957532447273312E1    -1.828645695350244      -2.260756345421500E1    -2.841972714239544E1    -7.636445442417431

 1.015000000000000E9    -2.521933241250215E1    -1.335556468314885E2    -1.688213123458255       1.623327820611144E2    -6.016664466932786      -1.807584343783577E1    -2.642032000535318E1     1.513389058917699E2
                        -1.667396967046758       1.619949923821439E2    -2.468875746319553E1    -1.495452708653801E2    -2.598451141846067E1     1.417240324118335E2    -6.018020306060495      -2.084250580562084E1
                        -6.005095916597644      -1.804047942129180E1    -2.608492711433437E1     1.417712447868930E2    -3.225233752762810E1    -1.655891865742489      -1.771463829644243      -2.347748229551369E1
                        -2.641754088566623E1     1.508506389692118E2    -6.033571601493652      -2.119095222719972E1    -1.767583323446824      -2.420548852236456E1    -2.833242935271624E1    -6.695622572490447

 1.016000000000000E9    -2.558096491741588E1    -1.347694536560040E2    -1.634211912724737       1.606313736217227E2    -6.156072122305950      -1.972398588395847E1    -2.639449395400662E1     1.509010013100264E2
                        -1.609949621943159       1.603037000973220E2    -2.507363875553167E1    -1.523989782346213E2    -2.609222975299207E1     1.408175064441990E2    -6.171934633949892      -2.250311043561376E1
                        -6.144816745622279      -1.969051174415010E1    -2.609672682494501E1     1.412997468290173E2    -3.229905045703072E1     7.112478467666715E-1   -1.721516167550587      -2.512680859004533E1
                        -2.640065906523134E1     1.501887883079564E2    -6.183029305619943      -2.287343547104273E1    -1.716414058763860      -2.582910651374411E1    -2.825498089637453E1    -9.277348900925938

 1.017000000000000E9    -2.579547101681612E1    -1.364897108371265E2    -1.587880675753274       1.589247175240134E2    -6.313361752915441      -2.135421315472813E1    -2.648611952898037E1     1.496371210050630E2
                        -1.562508193082781       1.585778479536631E2    -2.533644555260749E1    -1.544556570910042E2    -2.612690441246064E1     1.398005150318560E2    -6.321753088237081      -2.419024290903886E1
                        -6.304177068809878      -2.129455229466182E1    -2.609768969662047E1     1.398439777169078E2    -3.258438904157462E1     2.880858991341442E-1   -1.668294627978239      -2.670378517445310E1
                        -2.648160279154512E1     1.489518365615171E2    -6.336560963128854      -2.452380662669070E1    -1.661317738667814      -2.744133289250360E1    -2.846987158961298E1    -9.818687177053754

 1.018000000000000E9    -2.652186065546898E1    -1.388427930909467E2    -1.532927065317996       1.571695679709346E2    -6.466822843155863      -2.294937973758585E1    -2.659647395422049E1     1.496497282867326E2
                        -1.511725567432946       1.568549559931363E2    -2.572830157064686E1    -1.579297332951785E2    -2.626575671458822E1     1.387956877489356E2    -6.482239282401632      -2.580456012260967E1
                        -6.459530140305930      -2.287869113062718E1    -2.627592065888315E1     1.393336890579270E2    -3.306228392580655E1     1.407128015556429      -1.619551157349552      -2.831112500040040E1
                        -2.652410833801524E1     1.488971293449507E2    -6.495797129551865      -2.621166071697850E1    -1.615243024026182      -2.907122489120803E1    -2.825598528739791E1    -9.159720678369283

 1.019000000000000E9    -2.690775574421715E1    -1.416348974441821E2    -1.481010269428325       1.554597140233992E2    -6.628161058133955      -2.454857791946662E1    -2.655095593962569E1     1.488497762248895E2
                        -1.456926473221077       1.551786235347321E2    -2.611332515339976E1    -1.594947728914957E2    -2.624731947571388E1     1.376523766071660E2    -6.637558819567241      -2.751644541837689E1
                        -6.616648188447539      -2.455363544945546E1    -2.639366355926334E1     1.372690277323108E2    -3.311934313351468E1     3.018645678723479      -1.569902042831557      -2.993337996891214E1
                        -2.667630133096917E1     1.484919899918547E2    -6.647683743996701      -2.785091279655070E1    -1.567446139050849      -3.068815760431500E1    -2.856131189645917E1    -9.829594946034160

 1.020000000000000E9    -2.740386520737170E1    -1.422073221410101E2    -1.429268242820808       1.537473170128609E2    -6.776462105457308      -2.613903356156475E1    -2.666046028292790E1     1.486288801308627E2
                        -1.408368831288327       1.534390141557061E2    -2.642295457371822E1    -1.627804822572210E2    -2.643343467686675E1     1.366851129597253E2    -6.803612615891860      -2.914152781311909E1
                        -6.781819584782482      -2.616549286172850E1    -2.640598036856218E1     1.369455524678153E2    -3.348706712503945E1     3.977661255131320      -1.520221304670877      -3.158628515362682E1
                        -2.665593821846466E1     1.475687842751461E2    -6.809494334686782      -2.953877524671413E1    -1.508521686730160      -3.230579864749970E1    -2.841188571261981E1    -1.131116221134554E1

 1.021000000000000E9    -2.784034576157178E1    -1.433506893374360E2    -1.382785930553588       1.520452048365542E2    -6.943004751320628      -2.782557452704430E1    -2.674081889117503E1     1.474545563952065E2
                        -1.355186977164090       1.517362640169519E2    -2.689906785304163E1    -1.658443435274115E2    -2.644367073121812E1     1.358560328644287E2    -6.964791713815517      -3.080321801807104E1
                        -6.945741830183159      -2.781021244021873E1    -2.649488396152167E1     1.363010290211719E2    -3.352350885408345E1     6.469635356993294      -1.471621970238417      -3.324286167888077E1
                        -2.675396310722217E1     1.467083066655810E2    -6.979234445825725      -3.124868215067802E1    -1.464802803953682      -3.394778281016419E1    -2.844564153460131E1    -1.144958875930472E1

 1.022000000000000E9    -2.848725100307827E1    -1.452720207059092E2    -1.330465331786706       1.503461927476334E2    -7.113756209788342      -2.940993387739453E1    -2.677357072513301E1     1.472983081177406E2
