#  HZ   S   DB   R     50.00 
! Rohde & Schwarz Vector Network Analyzer 
! Rohde-Schwarz,ZNB8-4Port,1311601044102961,2.82
! Created: UTC 1/17/2019, 3:09:58 PM
! freq[Hz]                db:S11                  ang:S11                 db:S12                  ang:S12                 db:S13                  ang:S13                 db:S14                  ang:S14
!                         db:S21                  ang:S21                 db:S22                  ang:S22                 db:S23                  ang:S23                 db:S24                  ang:S24
!                         db:S31                  ang:S31                 db:S32                  ang:S32                 db:S33                  ang:S33                 db:S34                  ang:S34
!                         db:S41                  ang:S41                 db:S42                  ang:S42                 db:S43                  ang:S43                 db:S44                  ang:S44
! 
 1.000000000000000E9    -2.416006279376904E1    -1.216693339662824E2    -4.201702916615794       1.790548868300484E2    -2.631017539335780      -3.913244348411817      -2.926226086545976E1     1.420013722571173E2
                        -4.173942269832280       1.788934065727022E2    -2.402788484938609E1    -1.347597641395247E2    -2.856268892289533E1     1.374898153311872E2    -2.629274770675647      -5.898025316908218
                        -2.624534843898272      -3.891046746745684      -2.864067988210514E1     1.381110228274920E2    -2.941417183269368E1    -2.028538569451862E1    -4.257367176805042      -1.079079473132807E1
                        -2.917860215263983E1     1.425428144544544E2    -2.633352041697286      -5.652152828114097      -4.264489194487917      -1.119963498019496E1    -2.819794793445599E1    -1.718963007949039E1

 1.001000000000000E9    -2.439276381271419E1    -1.238363966363987E2    -4.096836130247138       1.772549198311166E2    -2.700365921795643      -5.567768035979892      -2.937505125508793E1     1.431746361975877E2
                        -4.073830127114353       1.770581040468218E2    -2.414512469635192E1    -1.371119022792298E2    -2.860965466575306E1     1.381846745494064E2    -2.696712406352174      -7.532853230531390
                        -2.697145206466247      -5.527697100261380      -2.874842459243245E1     1.391660583757079E2    -2.974030622362453E1    -2.049571615256234E1    -4.158012336383537      -1.225550113327556E1
                        -2.934856734842632E1     1.425380960126076E2    -2.704317563994469      -7.493118574605438      -4.154656500303319      -1.283499799221742E1    -2.835832809801884E1    -1.608240349611360E1

 1.002000000000000E9    -2.469459573425181E1    -1.255803551514693E2    -3.993928374004753       1.754791474316147E2    -2.771931098606276      -7.217923931330449      -2.967426165808815E1     1.434089126990264E2
                        -3.970926125316265       1.751694582383011E2    -2.435192456917208E1    -1.397603165285855E2    -2.881474633368311E1     1.372376122675959E2    -2.778328421414661      -9.197391534350725
                        -2.769799019421605      -7.187543557212856      -2.889146873071223E1     1.376298269973616E2    -3.013902872287204E1    -2.135587393100145E1    -4.053704723077902      -1.381152527441603E1
                        -2.951198136668191E1     1.422787704841702E2    -2.780621577991242      -9.293226939859679      -4.053950574881100      -1.443879632856519E1    -2.857707689394307E1    -1.672101533416819E1

 1.003000000000000E9    -2.489166002811880E1    -1.277998574157833E2    -3.884971010316764       1.736302763648905E2    -2.850057632377736      -8.883139644328972      -2.983684577046127E1     1.442057123952091E2
                        -3.864039607250133       1.734009431370849E2    -2.449122098659317E1    -1.416775216660535E2    -2.879879423975320E1     1.377512330132072E2    -2.847406637492665      -1.088204231212264E1
                        -2.845548428568105      -8.931364526176225      -2.891721683064081E1     1.379409919534500E2    -3.029533689739997E1    -2.174609945529419E1    -3.952902639227430      -1.535588638023985E1
                        -2.959476119911788E1     1.433657464894165E2    -2.855387168415308      -1.102966758764466E1    -3.953946178198593      -1.604169434514264E1    -2.853507256616933E1    -1.841098043143150E1

 1.004000000000000E9    -2.517126928048977E1    -1.303632137238394E2    -3.788191241889494       1.718956139093373E2    -2.926065792132415      -1.059814370230459E1    -2.987661091939743E1     1.444969806232202E2
                        -3.773861428467942       1.716207646372838E2    -2.480394147402967E1    -1.441430295615665E2    -2.887190994437260E1     1.371386148032943E2    -2.930642090602389      -1.254126055916765E1
                        -2.923683559833293      -1.053669797312472E1    -2.893076729506848E1     1.378360367349212E2    -3.073538193616843E1    -2.204203868366741E1    -3.860267609372591      -1.699128698521140E1
                        -2.988595208521186E1     1.441688267834440E2    -2.938187510462904      -1.276729111724589E1    -3.854873192994115      -1.765548505368404E1    -2.855982432237603E1    -1.735276466309461E1

 1.005000000000000E9    -2.545174785200429E1    -1.319035591575001E2    -3.699470887778953       1.701541329391033E2    -3.002735079010975      -1.220254535943746E1    -2.999753780252210E1     1.454175811714718E2
                        -3.675418716416103       1.698401572445985E2    -2.507989616371265E1    -1.474290596134123E2    -2.914673193505949E1     1.377306221374739E2    -3.003216786163873      -1.423986611711475E1
                        -2.999670238768796      -1.223822161048440E1    -2.914224882091251E1     1.387862183503900E2    -3.106237865346675E1    -2.244643767430199E1    -3.766339212616792      -1.858779536144073E1
                        -3.007750997959649E1     1.444291134106100E2    -3.021410590946054      -1.449695891031066E1    -3.754426509773320      -1.925478589000576E1    -2.872027163744124E1    -1.924388643617122E1

 1.006000000000000E9    -2.582752289893986E1    -1.328327455653190E2    -3.597848370053607       1.683323105370787E2    -3.084020787859601      -1.390577859109278E1    -3.028482744233493E1     1.458090473322118E2
                        -3.580037409778591       1.680505600267543E2    -2.519610651887458E1    -1.497446638062661E2    -2.930008992068736E1     1.370128105662558E2    -3.084659943882219      -1.591629260427030E1
                        -3.083677279569888      -1.389565528121816E1    -2.926232412696871E1     1.381600152116933E2    -3.154715684774507E1    -2.462102533011146E1    -3.661200764781168      -2.018399337180940E1
                        -3.019669508234612E1     1.450030447479608E2    -3.099591485472788      -1.621862415544213E1    -3.662787347231284      -2.083754921112884E1    -2.866907647218408E1    -1.947695714502355E1

 1.007000000000000E9    -2.623107466378163E1    -1.360344983056361E2    -3.502658497644242       1.666166560402029E2    -3.172210449515252      -1.555684022296147E1    -3.037648181333734E1     1.455892517427462E2
                        -3.483736998464224       1.662455419758411E2    -2.554422792906834E1    -1.516502664411509E2    -2.930021377468676E1     1.363064903998390E2    -3.169273386477611      -1.756219349368094E1
                        -3.167328533225939      -1.559207019183713E1    -2.939053260750905E1     1.364467611510712E2    -3.173921498642509E1    -2.553492158720880E1    -3.585529240271072      -2.180509622016141E1
                        -3.030170646911211E1     1.444816925125367E2    -3.184692097466395      -1.792915569689527E1    -3.579072027893512      -2.244187021916124E1    -2.882229961946793E1    -1.998941440289892E1

 1.008000000000000E9    -2.657307895271149E1    -1.378901541859669E2    -3.417337808631031       1.648440356851978E2    -3.255434890143563      -1.723140360137480E1    -3.048038007607310E1     1.457206020589800E2
                        -3.394827600569717       1.645322702998028E2    -2.581364203418394E1    -1.551483331229897E2    -2.949412285190439E1     1.365321245100632E2    -3.257040589103795      -1.928177602235140E1
                        -3.246241094896138      -1.718338916033239E1    -2.946472013314573E1     1.376563937434511E2    -3.225296215014939E1    -2.438271142373552E1    -3.487723240041635      -2.341936073155623E1
                        -3.055051149426364E1     1.451902025397925E2    -3.266689145435143      -1.959191198267903E1    -3.489741243562701      -2.406172456612261E1    -2.876027347786500E1    -2.161950918929389E1

 1.009000000000000E9    -2.699917681064962E1    -1.399188512775206E2    -3.326863060713249       1.630994266138127E2    -3.336431759663890      -1.885755991205232E1    -3.057006295533254E1     1.475238040008149E2
                        -3.303248410217512       1.627608022511207E2    -2.608514356167337E1    -1.582229412075800E2    -2.943810762676407E1     1.374058736740334E2    -3.337389863401491      -2.094374512302617E1
                        -3.330680363205015      -1.887183911288589E1    -2.959432067091924E1     1.377756673314885E2    -3.256920969374359E1    -2.414896563363085E1    -3.403204878779554      -2.496197979743318E1
                        -3.061259753056343E1     1.466500571579288E2    -3.359555199824200      -2.126270672886338E1    -3.399025812318028      -2.569218874493789E1    -2.886945016765923E1    -2.097513248685806E1

 1.010000000000000E9    -2.745650049409144E1    -1.425698556089072E2    -3.230653867731375       1.613093194215782E2    -3.424521341872384      -2.056337497227598E1    -3.076968408547071E1     1.466083428469138E2
                        -3.218093017960028       1.610460321612909E2    -2.650698312455286E1    -1.620905484855460E2    -2.988787063710699E1     1.361152572134814E2    -3.431687895911396      -2.262475215689663E1
                        -3.419600279129387      -2.048728953353072E1    -2.979849061958290E1     1.362254215546575E2    -3.316779335490269E1    -2.323561718147912E1    -3.314935617517320      -2.655896876086607E1
                        -3.076639908567583E1     1.462768169439905E2    -3.439570616224344      -2.297185525209874E1    -3.311830335643417      -2.725527302206993E1    -2.891873847816523E1    -2.267301828371116E1

 1.011000000000000E9    -2.785245065835933E1    -1.439254667395061E2    -3.147528507821821       1.595945999433523E2    -3.509292541353218      -2.216800965792909E1    -3.090661401913513E1     1.466339803679423E2
                        -3.133284736220046       1.592738303051840E2    -2.661288117700635E1    -1.641403065900730E2    -2.983878131006731E1     1.355538955983597E2    -3.519949801011125      -2.431819176113827E1
                        -3.511183845725780      -2.218364759102804E1    -2.985594447083530E1     1.352379776657682E2    -3.348245383005689E1    -2.469035263953444E1    -3.228798710354517      -2.819826035221493E1
                        -3.081612856914657E1     1.466589257810651E2    -3.532033920376921      -2.464951350069270E1    -3.230126446187076      -2.886355124300171E1    -2.883114838197842E1    -2.301631466121198E1

 1.012000000000000E9    -2.841266866496223E1    -1.469281825197845E2    -3.065863962816664       1.578337234459264E2    -3.607117965026514      -2.385896504695283E1    -3.082914898487287E1     1.488145145790366E2
                        -3.050509656018772       1.575259730346028E2    -2.696232184865330E1    -1.685883360235268E2    -2.999458467710902E1     1.357980575434721E2    -3.617681406940392      -2.597507628071760E1
                        -3.605992464363153      -2.381915879756784E1    -3.007809583041599E1     1.358889766167387E2    -3.397852729143077E1    -2.337950605582115E1    -3.149633505881843      -2.977718361404392E1
                        -3.077833498120611E1     1.476056699613291E2    -3.622031299518635      -2.634012682197192E1    -3.146511413079174      -3.048832685358687E1    -2.901000269034567E1    -2.308014696027428E1

 1.013000000000000E9    -2.894766688251205E1    -1.489305011914128E2    -2.983062614197399       1.560777908541861E2    -3.699098595536914      -2.549248631763672E1    -3.111525848138658E1     1.472333427175751E2
                        -2.966843364119354       1.557458173034481E2    -2.746326590636224E1    -1.718388191513101E2    -3.010278188718283E1     1.351235494241849E2    -3.703739341274501      -2.768960736959536E1
                        -3.697547949183159      -2.547972680399439E1    -3.011094092321461E1     1.355924677806962E2    -3.458072310212747E1    -2.462137643123458E1    -3.071539928626136      -3.139494613391478E1
                        -3.110854322287931E1     1.476257234263236E2    -3.722325681027124      -2.801908604701580E1    -3.064897368792232      -3.209245348623596E1    -2.894698832361583E1    -2.485990182063532E1

 1.014000000000000E9    -2.957075341977362E1    -1.522441679915845E2    -2.903878834696169       1.543402339402897E2    -3.792253788230724      -2.713897048407698E1    -3.114813049580379E1     1.495198509728471E2
                        -2.884737936906574       1.540053992924208E2    -2.779080265897580E1    -1.747746911826572E2    -3.040387491842366E1     1.347912634430855E2    -3.802302696571749      -2.932663520967450E1
                        -3.789370792758994      -2.717292969701588E1    -3.040250417883117E1     1.355720712519071E2    -3.510877417882821E1    -2.343941002658275E1    -2.984219032547762      -3.300051638983711E1
                        -3.113848702171910E1     1.479517571406511E2    -3.817609945920700      -2.974293894381468E1    -2.988512980302498      -3.373382683833433E1    -2.922789358452086E1    -2.517522220995331E1

 1.015000000000000E9    -3.029762531843094E1    -1.544114739467413E2    -2.823494818607694       1.526294367312374E2    -3.887527124458383      -2.883524045316744E1    -3.122325402179437E1     1.489051518661741E2
                        -2.804227368304579       1.522813767583502E2    -2.803067003347968E1    -1.781777989080604E2    -3.045858508915739E1     1.352190020077125E2    -3.898573284519737      -3.104065572923325E1
                        -3.888586807020279      -2.882945603901399E1    -3.056054851890657E1     1.360435995364604E2    -3.549488291239827E1    -2.253454147544539E1    -2.909942331803090      -3.463765813639446E1
                        -3.131020565750145E1     1.480694119225439E2    -3.909979424495030      -3.139037213752093E1    -2.906199992764575      -3.535695339337748E1    -2.920394019313245E1    -2.425963020287395E1

 1.016000000000000E9    -3.098420312280670E1    -1.563037107281024E2    -2.746373412494445       1.508685578059928E2    -3.990295406162296      -3.049113002735876E1    -3.126583671316745E1     1.494532388643664E2
                        -2.726316091000174       1.505545895235041E2    -2.852716170897011E1     1.763137903318680E2    -3.071008040455791E1     1.351145242141237E2    -3.996956012410700      -3.267265878810363E1
                        -3.985317064585369      -3.045214644569370E1    -3.063411315671432E1     1.351680202898712E2    -3.579108949705432E1    -1.955861107797075E1    -2.830914791716519      -3.623462220785692E1
                        -3.122425853694899E1     1.493693713591504E2    -4.010341291772865      -3.307578914865140E1    -2.829119363081452      -3.696455717104028E1    -2.913321275983122E1    -2.683768875069442E1

 1.017000000000000E9    -3.147622297267003E1    -1.594957042345486E2    -2.675229483138603       1.491415873262483E2    -4.095742195088187      -3.210713197533768E1    -3.137822555304496E1     1.490226666105467E2
                        -2.650868110561777       1.487754878889845E2    -2.886901998177660E1     1.731553939264003E2    -3.079999063733346E1     1.346113168728662E2    -4.100440490972908      -3.438015687761843E1
                        -4.087190929979480      -3.208424290545047E1    -3.070543616891402E1     1.347913303964794E2    -3.615072979718257E1    -2.059524575560927E1    -2.763620427090507      -3.781100927134197E1
                        -3.141099686676214E1     1.477244469697086E2    -4.116609338110401      -3.474986022750959E1    -2.757100443734732      -3.856268079814069E1    -2.941484101231289E1    -2.770133531267833E1

 1.018000000000000E9    -3.278697477380757E1    -1.650498333568788E2    -2.601254999138404       1.473612275074763E2    -4.201025691609146      -3.379163219090015E1    -3.161184262694817E1     1.510291236550000E2
                        -2.576255037326448       1.470515373188873E2    -2.927365449196101E1     1.666413277358552E2    -3.095299354771861E1     1.342311906589569E2    -4.209842356238440      -3.606862003432283E1
                        -4.186711584578877      -3.372694169059687E1    -3.091629792395796E1     1.351776404930347E2    -3.692300078545279E1    -1.771196684572321E1    -2.692667913529831      -3.945170125396739E1
                        -3.149608735281874E1     1.501083050915582E2    -4.220194426954969      -3.643592693957510E1    -2.685734741130528      -4.020646069549792E1    -2.920140417505596E1    -2.644886508195209E1

 1.019000000000000E9    -3.355883521826691E1    -1.703228222274963E2    -2.526146138682453       1.456235696759840E2    -4.300888861167459      -3.541106124783948E1    -3.162364486392605E1     1.513896923467314E2
                        -2.505299936189236       1.453477676977607E2    -2.987440758009006E1     1.629067385152189E2    -3.113358888064044E1     1.333956750837452E2    -4.309896880079391      -3.777381669761232E1
                        -4.299167381045763      -3.542851515337144E1    -3.122352474698441E1     1.336450223950957E2    -3.736794395828532E1    -1.508811651344575E1    -2.614505931489036      -4.107836411311057E1
                        -3.167453277846384E1     1.516649740487608E2    -4.325710627314893      -3.811118839999133E1    -2.615754506136598      -4.182899536775005E1    -2.954317653480777E1    -2.739882332825948E1

 1.020000000000000E9    -3.456711073547393E1    -1.723969275400262E2    -2.457281676120001       1.439178724874782E2    -4.406064130909654      -3.706519203877295E1    -3.173858127776769E1     1.517232062421950E2
                        -2.433159285273728       1.435906031039890E2    -3.005168549025753E1     1.575895318829016E2    -3.125745096640971E1     1.338870295103166E2    -4.420069363782949      -3.942029462826520E1
                        -4.403395064575675      -3.708456186344983E1    -3.130160217349162E1     1.337042622927594E2    -3.785528489536053E1    -1.347999460098964E1    -2.550014058013630      -4.272777998768075E1
                        -3.167609806260965E1     1.507263137180165E2    -4.429457467966620      -3.978336546645014E1    -2.537658315877748      -4.342833289387486E1    -2.951789413631008E1    -2.883827404408833E1

 1.021000000000000E9    -3.580067820811340E1    -1.767179942168582E2    -2.385945537820001       1.421728831857394E2    -4.512259780753515      -3.876373716309416E1    -3.189210705019067E1     1.523599490208623E2
                        -2.359874267601199       1.418604803235374E2    -3.053777626408108E1     1.517112083659729E2    -3.125899950609729E1     1.339107408099673E2    -4.530882469820602      -4.110907079184387E1
                        -4.514430947686386      -3.872936291186924E1    -3.134774633796415E1     1.349057961289778E2    -3.800915003207840E1    -9.099998047881902      -2.477683403076037      -4.435535593075345E1
                        -3.190131039403672E1     1.506251431806797E2    -4.538783487680141      -4.150763028207459E1    -2.473416878539817      -4.506231723368671E1    -2.947472537074780E1    -2.944748700434313E1

 1.022000000000000E9    -3.721762426012925E1     1.764565835277858E2    -2.313318563254754       1.404413671506802E2    -4.630267441372842      -4.038099728948877E1    -3.176949057803877E1     1.531053156128060E2
