#  HZ   S   DB   R     50.00 
! Rohde & Schwarz Vector Network Analyzer 
! Rohde-Schwarz,ZNB8-4Port,1311601044102961,2.82
! Created: UTC 1/17/2019, 3:10:47 PM
! freq[Hz]                db:S11                  ang:S11                 db:S12                  ang:S12                 db:S13                  ang:S13                 db:S14                  ang:S14
!                         db:S21                  ang:S21                 db:S22                  ang:S22                 db:S23                  ang:S23                 db:S24                  ang:S24
!                         db:S31                  ang:S31                 db:S32                  ang:S32                 db:S33                  ang:S33                 db:S34                  ang:S34
!                         db:S41                  ang:S41                 db:S42                  ang:S42                 db:S43                  ang:S43                 db:S44                  ang:S44
! 
 1.000000000000000E9    -2.849100650786824E1    -1.302020597094093E2    -6.398351266442947       1.701546089140369E2    -1.601020272299754      -1.451594597134372E1    -3.607168407094667E1     1.377874599727166E2
                        -6.374578854320758       1.700298243627922E2    -2.751631446015719E1    -1.535129359494281E2    -3.483667875665964E1     1.289593251572448E2    -1.568284056421960      -1.602352895803790E1
                        -1.594901822890205      -1.448319421558427E1    -3.496336226371757E1     1.301318474544486E2    -3.277425514930625E1    -4.535802542075293E1    -6.500067468141110      -2.310306483188147E1
                        -3.590508865345756E1     1.390838693914914E2    -1.574399471025187      -1.584878403366595E1    -6.502578026413008      -2.354742142322314E1    -3.075924499637453E1    -3.578702822249805E1

 1.001000000000000E9    -2.899652931437366E1    -1.330197512352854E2    -6.251762934359586       1.683282934634805E2    -1.646969131400555      -1.617574514764939E1    -3.647350806072747E1     1.417194377080722E2
                        -6.220812493451831       1.681278618693974E2    -2.767394393899753E1    -1.559300465659317E2    -3.518556437146140E1     1.316757912425855E2    -1.619701210972006      -1.765373654335262E1
                        -1.640496404916037      -1.615601356353759E1    -3.520720036803841E1     1.341622652710557E2    -3.328276258181693E1    -4.443240632122818E1    -6.354146424698176      -2.452818162305608E1
                        -3.630625541781627E1     1.409915750964412E2    -1.621572510591920      -1.766594324144102E1    -6.347531026889516      -2.513880238087045E1    -3.089988831949211E1    -3.343706868547989E1

 1.002000000000000E9    -2.965210750680429E1    -1.347208911172489E2    -6.104167927717735       1.664783957053972E2    -1.700758652335515      -1.787879277508351E1    -3.714030004649387E1     1.434497084398646E2
                        -6.080649319415236       1.662079246547981E2    -2.805964388451816E1    -1.602052313245013E2    -3.572094122098720E1     1.332271846580860E2    -1.675561744824068      -1.936895964443368E1
                        -1.692223377079814      -1.785113538222219E1    -3.564113583564134E1     1.342212507843225E2    -3.407064324179552E1    -4.657817735599018E1    -6.213327830764585      -2.607318571167523E1
                        -3.677306870433434E1     1.427997970596877E2    -1.675890187869093      -1.947495942475893E1    -6.215513107313992      -2.666573015028306E1    -3.133197294935680E1    -3.377839064373869E1

 1.003000000000000E9    -2.992469750328119E1    -1.371830868823204E2    -5.955975162397701       1.645881235527280E2    -1.748200399713012      -1.955798164397942E1    -3.723373838478419E1     1.500554177152870E2
                        -5.937423951258739       1.643841367444392E2    -2.823751362864217E1    -1.628053140290348E2    -3.569909165355942E1     1.365032819111240E2    -1.715141950864077      -2.105953518678223E1
                        -1.746555715066558      -1.957838809043400E1    -3.569525384603649E1     1.367902623482114E2    -3.437505596596018E1    -4.593969811489286E1    -6.063939271120633      -2.758589809743384E1
                        -3.702407510872787E1     1.469589913950383E2    -1.726911001399130      -2.121796258579297E1    -6.068324005016759      -2.826435906399410E1    -3.122961802069714E1    -3.587870542833439E1

 1.004000000000000E9    -3.047672029457077E1    -1.409523753317563E2    -5.817273405788460       1.627703279296441E2    -1.804292166688103      -2.130281328630931E1    -3.740822370033463E1     1.540585295411765E2
                        -5.801980142644855       1.624850483495476E2    -2.874004167695086E1    -1.663868139057317E2    -3.583880061405446E1     1.374383062342497E2    -1.776806745555338      -2.275480752122473E1
                        -1.796730894159554      -2.124521684967972E1    -3.582802004009314E1     1.386778851197208E2    -3.505016051282864E1    -4.740203819583719E1    -5.935443635770819      -2.911747637002524E1
                        -3.714092418043768E1     1.540558083925194E2    -1.782147673787555      -2.296177382995082E1    -5.929688778875213      -2.981384537566813E1    -3.123204892848118E1    -3.338972111818592E1

 1.005000000000000E9    -3.111272572435822E1    -1.416376595867627E2    -5.692005788731133       1.609778729314510E2    -1.855752272674647      -2.291305352402413E1    -3.751532468342511E1     1.573848227056870E2
                        -5.665288348102443       1.606859714638429E2    -2.913104710032219E1    -1.704015005538718E2    -3.623522602842512E1     1.421281739446470E2    -1.825989520407800      -2.440611650563608E1
                        -1.850074866537247      -2.293700220148694E1    -3.617974842643435E1     1.423898922148314E2    -3.576826713050157E1    -4.604555732707544E1    -5.801997706018661      -3.069476157791898E1
                        -3.739270382947226E1     1.570854777966642E2    -1.841045266747329      -2.469494313813538E1    -5.791583830882496      -3.138007943159093E1    -3.157622934526368E1    -3.555990634763044E1

 1.006000000000000E9    -3.176878160521724E1    -1.428433668380536E2    -5.551961147729636       1.591688818566686E2    -1.908438760954909      -2.462359212286087E1    -3.788642939288616E1     1.641109263850688E2
                        -5.535696005642230       1.588274126239350E2    -2.927790083518357E1    -1.742008790604538E2    -3.661865146254951E1     1.429886582523955E2    -1.882938801720123      -2.615134981346572E1
                        -1.902402162010085      -2.461678117182037E1    -3.648057079892351E1     1.442241817330079E2    -3.659336917560904E1    -5.190159074000655E1    -5.663705680281654      -3.226167497705226E1
                        -3.765856132271732E1     1.630506923305112E2    -1.890738973742726      -2.643333211914659E1    -5.663717283791542      -3.291060147974238E1    -3.162241411357895E1    -3.477213937876561E1

 1.007000000000000E9    -3.281643678336310E1    -1.479384208264202E2    -5.425407592301420       1.573111248589022E2    -1.963133651512364      -2.629211763318920E1    -3.776275003269936E1     1.663202949905981E2
                        -5.400158536520003       1.570276942871394E2    -2.992564909662730E1    -1.779038042620334E2    -3.691401305138975E1     1.434310507355267E2    -1.938394683646338      -2.779443091494319E1
                        -1.960365986360012      -2.630014535871881E1    -3.688660219685914E1     1.450588375795034E2    -3.693599260290161E1    -5.338502223266832E1    -5.537634367207659      -3.380515605849986E1
                        -3.764019840849085E1     1.646589045931963E2    -1.952853020317627      -2.814769757252584E1    -5.533798552556048      -3.448489185276562E1    -3.183083884946964E1    -3.472002353340086E1

 1.008000000000000E9    -3.353149810964631E1    -1.488796698913686E2    -5.294573723981669       1.555385824526866E2    -2.021841884569203      -2.800083890641380E1    -3.781520423766516E1     1.718470830300471E2
                        -5.270866618596756       1.552057512688639E2    -3.019336877789946E1     1.768055125102963E2    -3.704303178769700E1     1.485457539246416E2    -1.996577118846443      -2.952619391767736E1
                        -2.019544254891568      -2.794416198382340E1    -3.680315484256978E1     1.489230366010155E2    -3.806031906410259E1    -5.167660533194339E1    -5.411867116231127      -3.538132512276498E1
                        -3.811332931897948E1     1.712977911238932E2    -2.007558694632869      -2.985247413540441E1    -5.410344286789929      -3.606658612430951E1    -3.174701764486933E1    -3.609334096325375E1

 1.009000000000000E9    -3.441449815228486E1    -1.523718281686018E2    -5.172799217071149       1.537968755744877E2    -2.079512864608901      -2.966133499593791E1    -3.751105227109747E1     1.764153497085738E2
                        -5.149173768468900       1.534557458092786E2    -3.063574719363473E1     1.722226485076364E2    -3.700558175253057E1     1.517008317845334E2    -2.052519724270081      -3.123870016978862E1
                        -2.068877785495048      -2.968032028597319E1    -3.688513891172296E1     1.523324810336065E2    -3.859393618378596E1    -5.058728116035458E1    -5.289755458363387      -3.698169066639066E1
                        -3.749818379732033E1     1.768573418799260E2    -2.073984815276933      -3.152501244611930E1    -5.284163144592812      -3.765392133022381E1    -3.181892669708774E1    -3.479796813428658E1

 1.010000000000000E9    -3.567672410448790E1    -1.561621848014468E2    -5.053236927122024       1.519672411763846E2    -2.135934746332532      -3.135108898873166E1    -3.762773522580820E1     1.784901315253734E2
                        -5.029673153731691       1.516527920367140E2    -3.109334461247005E1     1.649898726859053E2    -3.757944107551029E1     1.550289326304808E2    -2.116793328162121      -3.291775724466686E1
                        -2.140266033095831      -3.130718605427258E1    -3.729727614766260E1     1.568665151875882E2    -4.025481370419074E1    -4.829674176580437E1    -5.174655310020382      -3.848677122984353E1
                        -3.734427971513969E1     1.795851014424247E2    -2.128442308812417      -3.323491790930084E1    -5.160375340072108      -3.920338484146861E1    -3.197092214712448E1    -3.669250348590380E1

 1.011000000000000E9    -3.684858351610871E1    -1.585037666432918E2    -4.924451207285890       1.501840536702944E2    -2.199651629012112      -3.302833185317608E1    -3.740822956108134E1    -1.763556019091636E2
                        -4.910205484611490       1.498228803688564E2    -3.129859549325227E1     1.623125157449832E2    -3.740005525735111E1     1.549775373458108E2    -2.178630342498659      -3.459152336820930E1
                        -2.197634542910859      -3.299952871368731E1    -3.744180741078885E1     1.554915380408016E2    -4.088741253820940E1    -4.909818305778359E1    -5.047701805912127      -4.004798089786016E1
                        -3.733541238432753E1    -1.789676837728207E2    -2.193097358825611      -3.494113180170982E1    -5.047504006559662      -4.080574270355807E1    -3.197181541640193E1    -3.699490808237149E1

 1.012000000000000E9    -3.845757808004074E1    -1.660378152841089E2    -4.815384322182675       1.484118411372081E2    -2.264743715071588      -3.473459441982805E1    -3.670724482916321E1    -1.749146354162836E2
                        -4.793710295539945       1.480587188310822E2    -3.162384253482539E1     1.542019687269594E2    -3.714445160642369E1     1.610967644747000E2    -2.247183594829102      -3.631767775283740E1
                        -2.264237996725308      -3.467903172599972E1    -3.740233131274876E1     1.592138618407285E2    -4.224364426570689E1    -4.730117308046974E1    -4.933695290833885      -4.166141070599454E1
                        -3.665865672972470E1    -1.757845594147363E2    -2.251818505976113      -3.663692397118123E1    -4.926772588310440      -4.243085348752737E1    -3.216874636872876E1    -3.533208934348491E1

 1.013000000000000E9    -4.013065127130056E1    -1.723845945271588E2    -4.693796187023743       1.466343139546900E2    -2.325030443435075      -3.634237194996609E1    -3.678071766157165E1    -1.722914904993608E2
                        -4.676042018802399       1.462924097302912E2    -3.199230242245058E1     1.475101592028565E2    -3.723945791067924E1     1.614720160626656E2    -2.299984219922667      -3.800420327411234E1
                        -2.326573994667671      -3.636757077435708E1    -3.732847200757304E1     1.623370470422163E2    -4.408378783124287E1    -5.135501397405461E1    -4.821185972263844      -4.325873041595539E1
                        -3.675451024378538E1    -1.724141841923054E2    -2.322632120840247      -3.834159271276273E1    -4.816320304445988      -4.391644629218944E1    -3.215309703603987E1    -3.802703779037065E1

 1.014000000000000E9    -4.246345621318127E1     1.755305086377372E2    -4.586010619657161       1.447967666773253E2    -2.388144209998213      -3.804955591641854E1    -3.608067475593919E1    -1.690213755045471E2
                        -4.569258033352925       1.444947761888439E2    -3.243587679930158E1     1.414154100487954E2    -3.750335875125528E1     1.659993856704556E2    -2.369866243707870      -3.971623293161272E1
                        -2.393329864474520      -3.803593607003818E1    -3.736390137856536E1     1.668679647762851E2    -4.627566674558444E1    -4.552843056812841E1    -4.707023617144964      -4.487792981323032E1
                        -3.621909732251301E1    -1.697863640815575E2    -2.385550186300108      -4.008396301311829E1    -4.704118114435377      -4.558306089539435E1    -3.249220801651590E1    -3.704730616945481E1

 1.015000000000000E9    -4.542160382795142E1     1.592700297615782E2    -4.480362481999332       1.430791006309895E2    -2.462550528266434      -3.972153079234494E1    -3.578776863727075E1    -1.671464771539385E2
                        -4.451991354936701       1.427226809708730E2    -3.249359502027447E1     1.347234470581186E2    -3.717013856304380E1     1.682796674902416E2    -2.434470475140679      -4.138460516521390E1
                        -2.457316707669983      -3.973498131714796E1    -3.717055773291250E1     1.699770007095050E2    -4.693579731899726E1    -3.776275800376045E1    -4.601002306976635      -4.644748203546349E1
                        -3.609333479833823E1    -1.686501871746804E2    -2.451120398625296      -4.173630280672226E1    -4.597471122635236      -4.717872385250924E1    -3.252017814789684E1    -3.620126378371213E1

 1.016000000000000E9    -4.760363315663008E1     1.360724188867835E2    -4.372850273594714       1.413162917836609E2    -2.532211232076767      -4.140229279409221E1    -3.570698833374711E1    -1.661712770453599E2
                        -4.353558881877796       1.409718467258594E2    -3.261868423226539E1     1.260492831736869E2    -3.707457781090541E1     1.709378514788479E2    -2.506755677071759      -4.307621984812247E1
                        -2.524714824383305      -4.137595953002352E1    -3.696802457023892E1     1.707826278824212E2    -4.875342548422225E1    -2.151135978127149E1    -4.492324916882720      -4.802438634656728E1
                        -3.549437014005984E1    -1.669207519523473E2    -2.519034437388685      -4.343110608140965E1    -4.487989113627431      -4.874701290053194E1    -3.241098645175909E1    -3.904052091168052E1

 1.017000000000000E9    -4.720032820961699E1     1.085449196458681E2    -4.268284318723095       1.395351246941062E2    -2.599795169712231      -4.308985525065490E1    -3.549123377233060E1    -1.653469085826208E2
                        -4.247195831646005       1.391515569561900E2    -3.264292377085287E1     1.190897291179650E2    -3.703215658769926E1     1.742624791917632E2    -2.579175141042754      -4.478248218188624E1
                        -2.596925092118812      -4.303985719485231E1    -3.707803013466249E1     1.724499835648179E2    -5.063981748293827E1    -2.222374018959406E1    -4.392595574747489      -4.958245865600499E1
                        -3.554872497295595E1    -1.656558481966696E2    -2.591042773823716      -4.514747285886503E1    -4.382536164827592      -5.032316915302513E1    -3.280168872995865E1    -4.056215219233280E1

 1.018000000000000E9    -4.361771967450687E1     6.721705066424754E1    -4.168600358579072       1.377352135823461E2    -2.674217035352965      -4.475050149224430E1    -3.472484598719051E1    -1.619812943083009E2
                        -4.143473159249075       1.374129203761105E2    -3.252298103516056E1     1.101515498733976E2    -3.662247011249199E1     1.761073336984943E2    -2.650005524249226      -4.647924807036180E1
                        -2.664935660037385      -4.475730619241553E1    -3.683518206917291E1     1.756213844143153E2    -5.066087972076335E1     1.232616477864186E1    -4.284358076902477      -5.120128318807679E1
                        -3.489394679003395E1    -1.628566719644805E2    -2.663167023783883      -4.684469398602152E1    -4.279532597017234      -5.194165418773701E1    -3.250950095207812E1    -3.709801410350755E1

 1.019000000000000E9    -4.146612968677056E1     5.748333525980230E1    -4.061727162829960       1.359815151011918E2    -2.748333231972089      -4.643602405496927E1    -3.446974361804116E1    -1.616672758708443E2
                        -4.045461250092568       1.356396629831697E2    -3.282910298754016E1     1.024767950293378E2    -3.685483173731854E1     1.768377877908747E2    -2.723034822997764      -4.818981408337236E1
                        -2.739020599748288      -4.642963787744073E1    -3.694670773866917E1     1.780849159446507E2    -5.205612535726353E1     2.326983860497932E1    -4.188991984035126      -5.280989045410014E1
                        -3.450524608308597E1    -1.612489562202393E2    -2.732660023312372      -4.853733284698586E1    -4.183961612752808      -5.354739838644055E1    -3.297212895030818E1    -3.775299320059020E1

 1.020000000000000E9    -3.961332018077680E1     4.789368843078852E1    -3.963933123939753       1.342144782636628E2    -2.815414474689269      -4.811162969547348E1    -3.421567259310538E1    -1.598351371373230E2
                        -3.942795265539573       1.338891136782358E2    -3.229537015477882E1     9.558684744691644E1    -3.659803470576734E1     1.798495377003974E2    -2.795915109994871      -4.984322902595023E1
                        -2.817809314364399      -4.809424720305956E1    -3.637736599247918E1     1.793945468562549E2    -5.078405908752256E1     4.699746106550166E1    -4.086293096683332      -5.438815265727882E1
                        -3.426359421401558E1    -1.614435783232290E2    -2.803523871337363      -5.023962633864868E1    -4.081042874066596      -5.515472803729179E1    -3.301221067385506E1    -3.931832826597400E1

 1.021000000000000E9    -3.813438019567674E1     3.775614258447478E1    -3.867844298563280       1.324611429487673E2    -2.890010257198372      -4.978404498544783E1    -3.392847131971004E1    -1.592775340228006E2
                        -3.837253319450275       1.321354623052770E2    -3.193213396740130E1     8.808019220471502E1    -3.612849991847694E1    -1.794438694637578E2    -2.871226011653522      -5.154306773937932E1
                        -2.891896363989633      -4.980354308577366E1    -3.599503358545560E1    -1.792604151288563E2    -4.754064574782986E1     5.808937259154322E1    -3.989713336626771      -5.602987988491627E1
                        -3.391828520488093E1    -1.599079183690438E2    -2.884665558657239      -5.194887940006467E1    -3.983854883541154      -5.674240526922893E1    -3.306536454284047E1    -3.993740627324883E1

 1.022000000000000E9    -3.663233541663348E1     3.523748001825905E1    -3.767635916492467       1.307082019360977E2    -2.964520168554197      -5.148203774626727E1    -3.341507189395146E1    -1.594643776256273E2
