#  HZ   S   DB   R     50.00 
! Rohde & Schwarz Vector Network Analyzer 
! Rohde-Schwarz,ZNB8-4Port,1311601044102961,2.82
! Created: UTC 1/17/2019, 3:16:59 PM
! freq[Hz]                db:S11                  ang:S11                 db:S12                  ang:S12                 db:S13                  ang:S13                 db:S14                  ang:S14
!                         db:S21                  ang:S21                 db:S22                  ang:S22                 db:S23                  ang:S23                 db:S24                  ang:S24
!                         db:S31                  ang:S31                 db:S32                  ang:S32                 db:S33                  ang:S33                 db:S34                  ang:S34
!                         db:S41                  ang:S41                 db:S42                  ang:S42                 db:S43                  ang:S43                 db:S44                  ang:S44
! 
 1.000000000000000E9    -2.901791326499505E1    -3.536546284247817E1    -2.784291079443387E1    -1.210660912004171E2    -3.604338529968964E-1   -4.525027010399523E1    -2.755485883996836E1    -1.324019062939180E2
                        -2.785423806297253E1    -1.212019902726105E2    -3.678481321827405E1    -3.083839682266496E1    -2.795829919620151E1    -1.380439852736903E2    -3.630856555596562E-1   -4.619337401658858E1
                        -3.554628280537445E-1   -4.522682726631438E1    -2.799228973223860E1    -1.375217793853296E2    -2.812918912887790E1     1.085605832187935E2    -2.482998180263237E1    -1.458812014806233E2
                        -2.751523895458260E1    -1.327144140354809E2    -3.696984865264540E-1   -4.597648595823436E1    -2.482364680548465E1    -1.463723767328883E2    -3.164971404550978E1     9.342067505584149E1

 1.001000000000000E9    -2.876968049173581E1    -3.390622920030336E1    -2.817396690122896E1    -1.356695390749520E2    -3.619551031294760E-1   -4.693332771711316E1    -2.721573442388171E1    -1.332567650279945E2
                        -2.814384151055722E1    -1.360528562534445E2    -3.677212361114358E1    -2.740676036838285E1    -2.770496023384178E1    -1.391164188422847E2    -3.587654714767897E-1   -4.781015562706016E1
                        -3.609342427544685E-1   -4.690777648882153E1    -2.774970425754022E1    -1.388132433493871E2    -2.793899334749202E1     1.053057575381549E2    -2.497649774034961E1    -1.384078781792384E2
                        -2.721407406882454E1    -1.338999500634482E2    -3.715218339130990E-1   -4.785434232899431E1    -2.495596333499933E1    -1.392254873812279E2    -3.137926949115456E1     8.873109988608429E1

 1.002000000000000E9    -2.844493207971951E1    -3.327004007674716E1    -2.800874827401181E1    -1.503823280021786E2    -3.651433045222743E-1   -4.866919879131489E1    -2.699105834362936E1    -1.343156022880662E2
                        -2.795239918192049E1    -1.507766117900125E2    -3.580230484732355E1    -2.070235638977463E1    -2.747513263425341E1    -1.405188072618921E2    -3.694546728401202E-1   -4.954727627702273E1
                        -3.586435362275656E-1   -4.863983764814267E1    -2.745758837270292E1    -1.399148991792366E2    -2.760807370635057E1     1.027074032941627E2    -2.489917046512120E1    -1.310083687714994E2
                        -2.694609876091354E1    -1.352209587359321E2    -3.771703935989997E-1   -4.969968523555330E1    -2.491706358618859E1    -1.316441106737310E2    -3.092206874888897E1     8.534803264367982E1

 1.003000000000000E9    -2.847864982708368E1    -3.300552501549869E1    -2.744787897215303E1    -1.644343286017522E2    -3.624353447609824E-1   -5.037843959793836E1    -2.671879481916930E1    -1.356212009121321E2
                        -2.744551275246014E1    -1.649123023315912E2    -3.568353162120550E1    -2.032669142026786E1    -2.718823924561443E1    -1.417586919210359E2    -3.629122792978884E-1   -5.130590444791348E1
                        -3.643746108734014E-1   -5.040522498363440E1    -2.724927275304942E1    -1.417990760543729E2    -2.760002259163999E1     1.001285655263958E2    -2.461684847158529E1    -1.238602074401926E2
                        -2.674581803656088E1    -1.361606718556501E2    -3.764816339939974E-1   -5.146308297449589E1    -2.465619047382759E1    -1.245985365496012E2    -3.088843018132087E1     8.303947617710001E1

 1.004000000000000E9    -2.832761806221699E1    -3.212562812499300E1    -2.662501114387733E1    -1.766338123331473E2    -3.682461434224575E-1   -5.212558465388697E1    -2.647715416413164E1    -1.367582736710302E2
                        -2.661594185634460E1    -1.764778378253104E2    -3.462665820715790E1    -1.563206218218195E1    -2.697602595124789E1    -1.432315900515102E2    -3.669552220828137E-1   -5.299482549468552E1
                        -3.635416118178236E-1   -5.207040432975542E1    -2.701315213262094E1    -1.425927670387198E2    -2.728364616332981E1     9.880823467736026E1    -2.421170420471175E1    -1.174919109001761E2
                        -2.647699203880438E1    -1.374986207768905E2    -3.846533375638049E-1   -5.323555875166956E1    -2.419746287832216E1    -1.183301786830676E2    -3.056737143586947E1     7.784267720650699E1

 1.005000000000000E9    -2.801584367647515E1    -3.258350765159302E1    -2.566110463271047E1     1.736240061713326E2    -3.726602966057687E-1   -5.379487886982031E1    -2.626641430237597E1    -1.382030122179340E2
                        -2.560899528054887E1     1.736076792979274E2    -3.415299176404037E1    -1.372014168636077E1    -2.677482746521937E1    -1.445466240640987E2    -3.711870446759839E-1   -5.471350839662290E1
                        -3.671277251064981E-1   -5.385205849876644E1    -2.678872137126241E1    -1.443446992435092E2    -2.711732180813171E1     9.514557672497966E1    -2.363515037769570E1    -1.120267537820883E2
                        -2.623493750318083E1    -1.385522952529832E2    -3.878739019849684E-1   -5.501587026879683E1    -2.361476842748307E1    -1.125646484668879E2    -3.052247064659123E1     7.679245859564644E1

 1.006000000000000E9    -2.787238769160206E1    -3.283771065295111E1    -2.465334760696414E1     1.651442947196325E2    -3.718539656972861E-1   -5.555580982958876E1    -2.597267520401538E1    -1.390681033768833E2
                        -2.463182719676782E1     1.649577097871818E2    -3.384840773581612E1    -1.382270021424465E1    -2.654990452519076E1    -1.460052422347142E2    -3.789702495909569E-1   -5.646351705945459E1
                        -3.682770016892512E-1   -5.554296226277125E1    -2.659120407481540E1    -1.454283909556605E2    -2.677699543952751E1     9.411081985890060E1    -2.296486405784638E1    -1.075629385085880E2
                        -2.604245225775700E1    -1.399116860273526E2    -3.887522615874594E-1   -5.675032685689874E1    -2.298612526942390E1    -1.081349064601336E2    -3.019632495785210E1     7.256203413539150E1

 1.007000000000000E9    -2.741895465515858E1    -3.104628388089263E1    -2.363806038653761E1     1.582394926971220E2    -3.789857932619572E-1   -5.728902427235443E1    -2.582344081172748E1    -1.402974815124373E2
                        -2.362344745332158E1     1.580213997425683E2    -3.283119141710764E1    -1.314310152617973E1    -2.640683127438047E1    -1.472326292757257E2    -3.827686981148681E-1   -5.816104943324361E1
                        -3.785820924625077E-1   -5.726175153870388E1    -2.637442196135850E1    -1.469848214816526E2    -2.674235036570683E1     9.264099440306951E1    -2.229740321244054E1    -1.038293571318065E2
                        -2.581926808317649E1    -1.411522605263259E2    -3.959947539813029E-1   -5.852272972481559E1    -2.230772350430811E1    -1.045122335934978E2    -2.998475289407999E1     7.115926421301988E1

 1.008000000000000E9    -2.725433172745608E1    -3.179584899875376E1    -2.271158326245670E1     1.524659916258281E2    -3.820515989095096E-1   -5.896304841889583E1    -2.557890257580463E1    -1.418324886215962E2
                        -2.267327300621066E1     1.522549724157498E2    -3.257717434651981E1    -1.022696798473256E1    -2.617210426447503E1    -1.485919894384240E2    -3.922050972789448E-1   -5.991303810665939E1
                        -3.807466847314772E-1   -5.897006237068263E1    -2.616361284115236E1    -1.485470028906222E2    -2.656703759700108E1     8.959800230401903E1    -2.159077265199800E1    -1.009292713740210E2
                        -2.563290081804671E1    -1.421084271829202E2    -4.006994981296298E-1   -6.024947070375887E1    -2.159215320849715E1    -1.018288370732685E2    -2.991318200151110E1     6.868757600141716E1

 1.009000000000000E9    -2.717557609962701E1    -3.208418470775532E1    -2.184462593574759E1     1.472713992408048E2    -3.905922473813558E-1   -6.068733811520570E1    -2.542340617624114E1    -1.431453831164316E2
                        -2.181440835224306E1     1.470156510613826E2    -3.185518126895653E1    -1.053703286747946E1    -2.597620421237063E1    -1.502335281288057E2    -3.919810635640748E-1   -6.160473432762683E1
                        -3.850206347044436E-1   -6.069724232511103E1    -2.597525297527605E1    -1.497841265963824E2    -2.656954865828048E1     8.759225555055981E1    -2.090198475377135E1    -9.888197356875861E1
                        -2.541730163220344E1    -1.437283311777578E2    -4.116429295730461E-1   -6.194638689712313E1    -2.091106023584952E1    -9.954144980721736E1    -2.973873468377516E1     6.466982772392704E1

 1.010000000000000E9    -2.679790240225770E1    -3.108020762429199E1    -2.102083882206941E1     1.426732559849025E2    -3.995783745621785E-1   -6.242379588346262E1    -2.527328027219120E1    -1.442625211447167E2
                        -2.098457818722974E1     1.423343228888871E2    -3.121145459203020E1    -1.059566597627662E1    -2.580734461153520E1    -1.509254641221361E2    -4.058400095946771E-1   -6.332779161243926E1
                        -3.987168334704105E-1   -6.237180225440318E1    -2.587536292046049E1    -1.508661223734014E2    -2.615242575944056E1     8.457075081222686E1    -2.022142233876383E1    -9.720816702340231E1
                        -2.522665240862520E1    -1.450230876041209E2    -4.170789995266800E-1   -6.368901143750456E1    -2.021867320994398E1    -9.793610305308773E1    -2.957219211411037E1     6.372729278906998E1

 1.011000000000000E9    -2.663220716585506E1    -3.157900855886132E1    -2.025503935831621E1     1.386096512016059E2    -4.042441272486013E-1   -6.412102992466929E1    -2.511450780832010E1    -1.455589583627532E2
                        -2.023713723562080E1     1.383902007169807E2    -3.088958249293637E1    -1.060105545772093E1    -2.566564732892795E1    -1.529041071837809E2    -4.126668712317960E-1   -6.509249873606797E1
                        -4.070228157213839E-1   -6.408020951365667E1    -2.572873062259064E1    -1.524828608490672E2    -2.615299575274632E1     8.376616946353609E1    -1.958970956621291E1    -9.614077888863389E1
                        -2.505828392356297E1    -1.464344193235920E2    -4.247018133455869E-1   -6.543577007175917E1    -1.959223026889690E1    -9.685331457014038E1    -2.937403896880976E1     6.117974199882045E1

 1.012000000000000E9    -2.640838543467612E1    -3.060066288203622E1    -1.955311182908901E1     1.351476613920289E2    -4.195767019895210E-1   -6.583546126892158E1    -2.493187515135503E1    -1.471686093905663E2
                        -1.954030517252440E1     1.348502342501793E2    -3.018125632824873E1    -1.070988660768527E1    -2.550055771276750E1    -1.543861515312904E2    -4.243714799283238E-1   -6.679039748163110E1
                        -4.184548455395248E-1   -6.579154502366424E1    -2.550592803427151E1    -1.536270267104360E2    -2.599863338922097E1     8.071691998548708E1    -1.895458500717699E1    -9.538431515391885E1
                        -2.489458370236634E1    -1.476235992820258E2    -4.351957043740060E-1   -6.717648422785477E1    -1.897797228321205E1    -9.611910321226137E1    -2.922779139440180E1     5.746703064634849E1

 1.013000000000000E9    -2.615805650055595E1    -3.131847107062142E1    -1.887509953439923E1     1.317261703028617E2    -4.243791200862697E-1   -6.750329412192890E1    -2.480168292852660E1    -1.482522783452189E2
                        -1.886573119798320E1     1.314622529602939E2    -2.972984631298067E1    -9.980927696536400      -2.533467162124698E1    -1.554150808845501E2    -4.242569623537134E-1   -6.854076974910947E1
                        -4.238993364937124E-1   -6.752092787736464E1    -2.540012863113015E1    -1.551739490635046E2    -2.585282658335301E1     7.974851691132140E1    -1.837822667269449E1    -9.486658957411775E1
                        -2.478751969719895E1    -1.490415744960720E2    -4.493505256679883E-1   -6.889043417256180E1    -1.838311945529805E1    -9.546613828023639E1    -2.908850619983010E1     5.712579491320449E1

 1.014000000000000E9    -2.583014102661695E1    -3.138344110468387E1    -1.826380118083425E1     1.285124088798499E2    -4.316805325104577E-1   -6.923515612734228E1    -2.462616807962430E1    -1.495701698330824E2
                        -1.826958694922720E1     1.282512011684367E2    -2.919581759152110E1    -1.176043094491001E1    -2.520160223897915E1    -1.570358164204462E2    -4.453352427383056E-1   -7.023602558506107E1
                        -4.386328330055883E-1   -6.924755716759462E1    -2.521741201672100E1    -1.567051065431444E2    -2.562475574453523E1     7.733920135442607E1    -1.781236903154887E1    -9.478725419848114E1
                        -2.462290453561593E1    -1.502549470050462E2    -4.611172387977461E-1   -7.063814407023433E1    -1.782783008059543E1    -9.555062595853488E1    -2.888727006038802E1     5.337417681146056E1

 1.015000000000000E9    -2.556197822095591E1    -3.175048499365747E1    -1.767812901687351E1     1.255620737378040E2    -4.505165053735172E-1   -7.092765029465298E1    -2.452254678467374E1    -1.508602209792429E2
                        -1.764534049734116E1     1.252170596624246E2    -2.897639588987819E1    -1.206698394281393E1    -2.511415155624226E1    -1.584812188603535E2    -4.497465120650097E-1   -7.197748667920844E1
                        -4.474653299391282E-1   -7.094582873504554E1    -2.514263760981811E1    -1.580262291814611E2    -2.570072467476413E1     7.490154579259162E1    -1.728631328386611E1    -9.490594898425637E1
                        -2.449013682929432E1    -1.515026909502807E2    -4.671788608350475E-1   -7.232491955184773E1    -1.728323175253001E1    -9.566532233545337E1    -2.874607622412119E1     5.115751208611421E1

 1.016000000000000E9    -2.546496928808681E1    -3.229790596583021E1    -1.712968462294667E1     1.227437560411804E2    -4.637032751713819E-1   -7.268272187227285E1    -2.437990502682622E1    -1.521598596612289E2
                        -1.711694591076325E1     1.225335332990082E2    -2.840619459078212E1    -1.336922412320595E1    -2.495446092824006E1    -1.599645124548199E2    -4.667977302841796E-1   -7.367464950800633E1
                        -4.572783691743951E-1   -7.262525377791422E1    -2.499709664519806E1    -1.596737676278173E2    -2.556452887741014E1     7.267802736230654E1    -1.679031636800597E1    -9.527726778328345E1
                        -2.438251271701856E1    -1.529960333732798E2    -4.823347073779700E-1   -7.406649506418977E1    -1.676462447471319E1    -9.584913621109624E1    -2.894064850047818E1     4.974500065981466E1

 1.017000000000000E9    -2.520473193869061E1    -3.204341327888566E1    -1.661461499021678E1     1.200655343293850E2    -4.773320810609177E-1   -7.437295568984784E1    -2.425900650399768E1    -1.536941061358851E2
                        -1.659700360000913E1     1.197566580057408E2    -2.808260762050553E1    -1.298989216699015E1    -2.486630663808284E1    -1.610898016434812E2    -4.804505709625841E-1   -7.542568433818606E1
                        -4.702777797691080E-1   -7.433848167599771E1    -2.487801168100814E1    -1.610310336477819E2    -2.554166664291275E1     7.117029025602105E1    -1.630670449820024E1    -9.553298939850770E1
                        -2.426214200690875E1    -1.542523905622659E2    -4.946534741263446E-1   -7.579362306860867E1    -1.630146600479853E1    -9.628817783127995E1    -2.864622436344830E1     4.939893157718485E1

 1.018000000000000E9    -2.483263566771886E1    -3.262429595040184E1    -1.612308169463528E1     1.175512242227685E2    -4.978858396865470E-1   -7.607877135860448E1    -2.410861725409846E1    -1.549930358425706E2
                        -1.612021085019335E1     1.171925420122167E2    -2.746989817633260E1    -1.407487704743867E1    -2.478341487862452E1    -1.622819899753831E2    -4.994613438847070E-1   -7.711777695393877E1
                        -4.853557839540156E-1   -7.603876684023909E1    -2.475815321389620E1    -1.621895227761018E2    -2.540950298041639E1     6.861898955635921E1    -1.582700406538314E1    -9.604625431457443E1
                        -2.412264192611765E1    -1.557301066101690E2    -5.084965032013494E-1   -7.753031402329900E1    -1.582751313147695E1    -9.680237809861612E1    -2.838726903492989E1     4.341714739234418E1

 1.019000000000000E9    -2.475270442198561E1    -3.293718486620170E1    -1.564924085432597E1     1.150527846018627E2    -5.096715211399600E-1   -7.779033781419193E1    -2.399540753808607E1    -1.563667540849818E2
                        -1.562847815089797E1     1.147406151607219E2    -2.718329622579748E1    -1.646734099522835E1    -2.465052172243611E1    -1.641595893456058E2    -5.075838856894459E-1   -7.884201788922393E1
                        -5.033355792714901E-1   -7.777506402042317E1    -2.471540131636966E1    -1.636978412504155E2    -2.537949355662432E1     6.796578981642097E1    -1.538828826893261E1    -9.677648654119592E1
                        -2.397347255328233E1    -1.571397206023762E2    -5.248425005834821E-1   -7.922216779031601E1    -1.539700886256352E1    -9.759392945860169E1    -2.816687078534640E1     4.249532655610093E1

 1.020000000000000E9    -2.455047328796416E1    -3.342338037181730E1    -1.520656909845418E1     1.125990027012250E2    -5.148321808819043E-1   -7.948268123203617E1    -2.391393808074359E1    -1.576752962689066E2
                        -1.520609355758270E1     1.124018803709607E2    -2.685241695932280E1    -1.585133349400844E1    -2.456572865287172E1    -1.656713872203934E2    -5.291719926852302E-1   -8.058453851486917E1
                        -5.179608168677364E-1   -7.950889894816949E1    -2.461745815751191E1    -1.650752180881378E2    -2.522319266653978E1     6.577273592655411E1    -1.497557215249968E1    -9.748737320388032E1
                        -2.388674651203371E1    -1.584250324542681E2    -5.404056880665671E-1   -8.098202106937481E1    -1.495942626236986E1    -9.832160107290427E1    -2.813397115105497E1     4.142165076105128E1

 1.021000000000000E9    -2.432445092979492E1    -3.484910919108577E1    -1.478897589392098E1     1.102974581380086E2    -5.341700604551078E-1   -8.120260966705590E1    -2.380704683751819E1    -1.591641582600334E2
                        -1.475051890045144E1     1.100689089482138E2    -2.642222821220155E1    -1.700912090554844E1    -2.453909842958422E1    -1.667705252054925E2    -5.448698430937964E-1   -8.230126447221896E1
                        -5.340714772629364E-1   -8.117574156341232E1    -2.451135389518472E1    -1.666176256158048E2    -2.527714386195416E1     6.307422288455681E1    -1.456985766579270E1    -9.850495099346968E1
                        -2.380042459201885E1    -1.596846862777274E2    -5.564617210204694E-1   -8.270996753428425E1    -1.456621215230913E1    -9.921375121855073E1    -2.811689709285477E1     3.950045261836941E1

 1.022000000000000E9    -2.414341761236773E1    -3.553408367112740E1    -1.437873245641143E1     1.080800834575385E2    -5.516536326700726E-1   -8.294101953308771E1    -2.370357231787163E1    -1.604470386994917E2
