#  HZ   S   DB   R     50.00 
! Rohde & Schwarz Vector Network Analyzer 
! Rohde-Schwarz,ZNB8-4Port,1311601044102961,2.82
! Created: UTC 1/17/2019, 3:17:54 PM
! freq[Hz]                db:S11                  ang:S11                 db:S12                  ang:S12                 db:S13                  ang:S13                 db:S14                  ang:S14
!                         db:S21                  ang:S21                 db:S22                  ang:S22                 db:S23                  ang:S23                 db:S24                  ang:S24
!                         db:S31                  ang:S31                 db:S32                  ang:S32                 db:S33                  ang:S33                 db:S34                  ang:S34
!                         db:S41                  ang:S41                 db:S42                  ang:S42                 db:S43                  ang:S43                 db:S44                  ang:S44
! 
 1.000000000000000E9    -2.645022644994367E1    -4.454934241842316E1    -1.479013796000367E1    -6.674076594413235E1    -5.048342789117569E-1   -5.537069492625848E1    -2.570714797672997E1    -1.493511461424195E2
                        -1.477673592082092E1    -6.690812354170032E1    -3.239390530956207E1    -4.150222578824521E1    -2.591665978196690E1    -1.550141364172122E2    -5.044811038319840E-1   -5.622938381529944E1
                        -5.021444430532942E-1   -5.535102365604097E1    -2.596582939146597E1    -1.539093150595248E2    -2.443560642126958E1     8.643533341048551E1    -1.474690623017899E1     1.406372111149199E2
                        -2.563853115559864E1    -1.492780909699019E2    -5.103393680049121E-1   -5.601688108084568E1    -1.476214155149890E1     1.401923552838692E2    -2.638525524862672E1     7.571982140110117E1

 1.001000000000000E9    -2.633226371009271E1    -4.392613242151904E1    -1.522114377489367E1    -6.900139659211645E1    -4.890432020756496E-1   -5.705665751303658E1    -2.550548868538596E1    -1.498373060783253E2
                        -1.517490929261029E1    -6.913627366641933E1    -3.242256839795719E1    -3.946252447023799E1    -2.580018953947007E1    -1.557622669339138E2    -4.892398785940438E-1   -5.787704606192516E1
                        -4.860126890024168E-1   -5.703203220965425E1    -2.579998646666386E1    -1.548514543095674E2    -2.428001783899994E1     8.383310082171430E1    -1.515507791368441E1     1.398750547002009E2
                        -2.546777665134558E1    -1.504328336304936E2    -5.001579528416483E-1   -5.786354351555907E1    -1.517255483875173E1     1.392542246307308E2    -2.635983569997231E1     7.247914828573092E1

 1.002000000000000E9    -2.618856263146131E1    -4.444210977086986E1    -1.566532197194086E1    -7.136582319900255E1    -4.797676713945576E-1   -5.877459207348875E1    -2.536221016706491E1    -1.509519893567831E2
                        -1.562555465628307E1    -7.174691426713484E1    -3.190685026987704E1    -3.636515050223961E1    -2.562747309594717E1    -1.569137074427699E2    -4.821805993977220E-1   -5.960663123070438E1
                        -4.727444960882202E-1   -5.877023687977220E1    -2.563635338696021E1    -1.563722944442579E2    -2.406886671812113E1     8.156434817910241E1    -1.558933375551107E1     1.389682321073279E2
                        -2.532226768310510E1    -1.512580133465744E2    -4.906431063085710E-1   -5.973477671082129E1    -1.559940201411431E1     1.383768793032572E2    -2.608659365254017E1     6.972675074416105E1

 1.003000000000000E9    -2.623418127151179E1    -4.443168461951781E1    -1.612628839877604E1    -7.383763173089987E1    -4.600015658378767E-1   -6.049981673006995E1    -2.517594586129518E1    -1.515640154747603E2
                        -1.609343607368212E1    -7.410550294591164E1    -3.184448899557682E1    -3.542289410819853E1    -2.544316487629073E1    -1.579378576445941E2    -4.646778193531157E-1   -6.133138421599758E1
                        -4.628793734319038E-1   -6.050688646720302E1    -2.547818904511108E1    -1.574876515649373E2    -2.411340314349409E1     7.950037700450777E1    -1.604622417685653E1     1.383626466480607E2
                        -2.517022557613471E1    -1.524871398988684E2    -4.759741058114950E-1   -6.152151493000586E1    -1.604419934237520E1     1.375869008839006E2    -2.608304130127416E1     6.798500082943636E1

 1.004000000000000E9    -2.615789226931291E1    -4.411106483322650E1    -1.660856956343323E1    -7.634154396776728E1    -4.545916914047846E-1   -6.226864285512937E1    -2.497915437829713E1    -1.530155215259879E2
                        -1.658432670255156E1    -7.660986339835155E1    -3.133394245424417E1    -3.344257728531603E1    -2.531865940563016E1    -1.589983744388981E2    -4.542993153064711E-1   -6.306144520015420E1
                        -4.451012135956227E-1   -6.222643628827473E1    -2.533044159663350E1    -1.584378092353475E2    -2.394332645858131E1     7.778071017917142E1    -1.652764338469101E1     1.376171673362884E2
                        -2.498909655445331E1    -1.533452968341623E2    -4.659986799204603E-1   -6.331012334561149E1    -1.650066294587126E1     1.370140205221774E2    -2.593235425355848E1     6.355923346743131E1

 1.005000000000000E9    -2.602451762843741E1    -4.505942861327393E1    -1.711824434367544E1    -7.898672326019664E1    -4.435873065473144E-1   -6.396266516322432E1    -2.483665256408021E1    -1.538491757537389E2
                        -1.709694427222561E1    -7.927171100297835E1    -3.105694024960836E1    -3.318000104207471E1    -2.519320448813366E1    -1.601239301916304E2    -4.420170803858580E-1   -6.479766982076414E1
                        -4.386021511312379E-1   -6.398523175193422E1    -2.523936541295911E1    -1.597995609449279E2    -2.386734056000085E1     7.498408511757430E1    -1.701696564976860E1     1.371227095162133E2
                        -2.486949390247154E1    -1.542904611449726E2    -4.583321851500911E-1   -6.508681921466389E1    -1.700687231912790E1     1.363941103071082E2    -2.582740578736370E1     6.264219383039585E1

 1.006000000000000E9    -2.595876050471393E1    -4.567388320251204E1    -1.766394292811633E1    -8.166661533833937E1    -4.326757317131736E-1   -6.568221587085722E1    -2.471404652594042E1    -1.548896721996409E2
                        -1.765783515911177E1    -8.216139696143247E1    -3.102730825470628E1    -3.179926554874838E1    -2.505666219933278E1    -1.615049137729928E2    -4.366864611910553E-1   -6.654595853912306E1
                        -4.234478342390714E-1   -6.571699070470758E1    -2.506497458202239E1    -1.609735860182395E2    -2.365615959143493E1     7.357408850878392E1    -1.753139231985731E1     1.367953351618222E2
                        -2.469968752201639E1    -1.554992652934899E2    -4.455949521281311E-1   -6.683994840995297E1    -1.754829323549176E1     1.360884660312280E2    -2.572237513083655E1     5.927109555603253E1

 1.007000000000000E9    -2.565245143279031E1    -4.463729230319852E1    -1.825197472308692E1    -8.467274756205799E1    -4.243640337561389E-1   -6.739485247707323E1    -2.454770281499493E1    -1.559613574850856E2
                        -1.823913927320699E1    -8.498080863270776E1    -3.032664920273978E1    -3.252594056172305E1    -2.492609801652517E1    -1.629826194239298E2    -4.266788677095085E-1   -6.824411923177800E1
                        -4.206500268466848E-1   -6.741626080681289E1    -2.492083411814669E1    -1.625919003988291E2    -2.368482413171155E1     7.182432181742703E1    -1.811420819763071E1     1.365870248178873E2
                        -2.456162256620372E1    -1.566422357095923E2    -4.381151175265272E-1   -6.861309657752732E1    -1.807539928304058E1     1.359921423286493E2    -2.561156978495919E1     5.760984921015137E1

 1.008000000000000E9    -2.556293318335751E1    -4.569031207165075E1    -1.887134169630058E1    -8.767514966822817E1    -4.165828340720030E-1   -6.909611341176353E1    -2.445453650135955E1    -1.573430599656675E2
                        -1.885214454894732E1    -8.788851004536389E1    -3.019759291932932E1    -3.023613535806292E1    -2.479483662364503E1    -1.639849108320099E2    -4.169411998194618E-1   -7.002093034309623E1
                        -4.155266128652735E-1   -6.911817823704996E1    -2.482476552895877E1    -1.637465539491552E2    -2.359993924792832E1     6.975331983730376E1    -1.867683745891559E1     1.366344906575995E2
                        -2.447029182634851E1    -1.580737356402154E2    -4.289292345004186E-1   -7.035130960950637E1    -1.867675423623548E1     1.360313621686338E2    -2.561104980724805E1     5.555548320781210E1

 1.009000000000000E9    -2.556740924011383E1    -4.600617638139862E1    -1.953719201071515E1    -9.082618086448584E1    -4.043779934656105E-1   -7.085930470295351E1    -2.432905915006865E1    -1.583255523068566E2
                        -1.950888909888099E1    -9.125571450023870E1    -2.981038828825322E1    -3.025750230276369E1    -2.465558912153220E1    -1.655350775790213E2    -4.063409772903560E-1   -7.171748386199208E1
                        -3.987815532762035E-1   -7.088038111363312E1    -2.467743068397654E1    -1.649529001710195E2    -2.363341910116038E1     6.759119055175987E1    -1.928558426924976E1     1.370444871680717E2
                        -2.433109665012111E1    -1.590548254376611E2    -4.267364055815256E-1   -7.207205915784661E1    -1.927286756415527E1     1.363538498396703E2    -2.553804036365317E1     5.222113510054909E1

 1.010000000000000E9    -2.533776687797897E1    -4.562584332271243E1    -2.024801791184652E1    -9.443766544145960E1    -4.022300196951233E-1   -7.259856353441313E1    -2.423006574867369E1    -1.594305885942460E2
                        -2.022603495190861E1    -9.470872709170654E1    -2.940124292955888E1    -2.976965909824574E1    -2.460639051236839E1    -1.665298932224721E2    -4.033902691924085E-1   -7.344928424534523E1
                        -3.981070368104481E-1   -7.253896017857429E1    -2.461360588396694E1    -1.662240304789184E2    -2.335207460239273E1     6.489794722977979E1    -1.994769046577916E1     1.377610935599095E2
                        -2.421194437502171E1    -1.602047353609443E2    -4.184946756794472E-1   -7.380351562658976E1    -1.994968554629155E1     1.368841478280167E2    -2.544550960649311E1     5.069873869049431E1

 1.011000000000000E9    -2.528073991046421E1    -4.629012492821148E1    -2.101631383564997E1    -9.824120184665588E1    -3.906432778722771E-1   -7.427873738342808E1    -2.408781104625468E1    -1.608967357240121E2
                        -2.097167239696805E1    -9.862463282109788E1    -2.918393806366696E1    -3.006946900589577E1    -2.448456022060762E1    -1.680794795529678E2    -3.946726010260192E-1   -7.518795395990510E1
                        -3.919345421418298E-1   -7.430366067245470E1    -2.454907708594989E1    -1.677111156020344E2    -2.336583369686434E1     6.378106670935144E1    -2.060109497704090E1     1.387713895356935E2
                        -2.410546007431714E1    -1.616367010717318E2    -4.139641573700308E-1   -7.554108306082478E1    -2.059019776752935E1     1.381979805155999E2    -2.542672856265364E1     4.830837697084709E1

 1.012000000000000E9    -2.510875462809851E1    -4.548293487113801E1    -2.183799407858821E1    -1.024602203915483E2    -3.877098005253252E-1   -7.604432957110373E1    -2.398749111629032E1    -1.617792449634617E2
                        -2.181158514632400E1    -1.027665161177072E2    -2.875969921498617E1    -3.003862331536405E1    -2.439492367573724E1    -1.694047335144375E2    -3.964263980570094E-1   -7.692939417365794E1
                        -3.893879908965843E-1   -7.599584190270744E1    -2.440829192675313E1    -1.690613597769053E2    -2.332041788108851E1     6.111134331908281E1    -2.132509550152239E1     1.404156220832452E2
                        -2.399422051857907E1    -1.626480068360256E2    -4.011143218393345E-1   -7.727023036079260E1    -2.133849044297673E1     1.396312013752910E2    -2.530489133754931E1     4.515308365129449E1

 1.013000000000000E9    -2.500246034416879E1    -4.637007409239325E1    -2.269576695885322E1    -1.072802250932564E2    -3.817203675404971E-1   -7.770645793170131E1    -2.388647687622809E1    -1.633360048051290E2
                        -2.269493898109400E1    -1.075087532363256E2    -2.845021323309348E1    -2.923415026729508E1    -2.429476718021682E1    -1.709553936514787E2    -3.860017661805027E-1   -7.864658014855898E1
                        -3.807620855038796E-1   -7.773082507380718E1    -2.433328476450601E1    -1.706155059051414E2    -2.327265581737027E1     5.986158426020813E1    -2.209935252776726E1     1.423218781544389E2
                        -2.389245301090219E1    -1.638107216454514E2    -4.036626946069838E-1   -7.900332331088146E1    -2.205057020963677E1     1.417403485033586E2    -2.522812604583479E1     4.411878383105058E1

 1.014000000000000E9    -2.481938149952362E1    -4.627555486188200E1    -2.365845355381935E1    -1.127631690407627E2    -3.748848135488180E-1   -7.941281433905118E1    -2.381943433638730E1    -1.644093615039845E2
                        -2.360290031384862E1    -1.130705965761117E2    -2.813636486420101E1    -3.022700651648699E1    -2.426408020374118E1    -1.719457977138548E2    -3.864812482136305E-1   -8.037982265448761E1
                        -3.793584509046459E-1   -7.945790883814709E1    -2.426774267651265E1    -1.717232033743316E2    -2.311087779446605E1     5.773501813428707E1    -2.283864979769415E1     1.452532617708437E2
                        -2.378233305048699E1    -1.649238538896302E2    -3.987791142254143E-1   -8.076516970563847E1    -2.281758626760421E1     1.448156707705139E2    -2.513217885075311E1     4.086081672062664E1

 1.015000000000000E9    -2.465037237490799E1    -4.676411041025951E1    -2.466351707968467E1    -1.192674850350166E2    -3.784482937011090E-1   -8.118162473373344E1    -2.370649464626303E1    -1.657846189333931E2
                        -2.465052178158162E1    -1.193606307040660E2    -2.793379997349908E1    -3.062877361537834E1    -2.417156937454167E1    -1.734938308215534E2    -3.797058662898670E-1   -8.212685670281269E1
                        -3.759790763817827E-1   -8.114871253831824E1    -2.418630126866007E1    -1.731084615942984E2    -2.321724992892465E1     5.550009904892342E1    -2.357684978879767E1     1.492801161678760E2
                        -2.370986863958704E1    -1.664592923499166E2    -3.918177821025783E-1   -8.247514707285231E1    -2.359376598428166E1     1.484659576164588E2    -2.511024543066504E1     3.872690861353725E1

 1.016000000000000E9    -2.458514907584123E1    -4.770116947873466E1    -2.573485525320164E1    -1.271191987129586E2    -3.753053154764270E-1   -8.291215318630633E1    -2.363515604345420E1    -1.669671971150908E2
                        -2.568260160085426E1    -1.271480574658900E2    -2.755817570530348E1    -3.174529736927319E1    -2.411970727062517E1    -1.745389510772510E2    -3.779269484044660E-1   -8.382335350349018E1
                        -3.690187937831031E-1   -8.285272961707803E1    -2.411828999532624E1    -1.745704327431544E2    -2.315633478831067E1     5.312245081550491E1    -2.427545349812047E1     1.538657267056581E2
                        -2.359812330857375E1    -1.676200963331516E2    -3.919923659984183E-1   -8.422392433229180E1    -2.430084193522647E1     1.531266592645244E2    -2.519158281351703E1     3.750457527107659E1

 1.017000000000000E9    -2.447585004344676E1    -4.731306317330760E1    -2.678523974513637E1    -1.366660127158665E2    -3.751045275913660E-1   -8.461215637566896E1    -2.357992646740915E1    -1.683672040879399E2
                        -2.680565447235872E1    -1.368717840097964E2    -2.729922946723666E1    -3.089445789438796E1    -2.405700321720464E1    -1.760139927714636E2    -3.783987535634308E-1   -8.560135860974893E1
                        -3.692025187188636E-1   -8.457056703269416E1    -2.404873130905664E1    -1.757129892241950E2    -2.318568054017860E1     5.157789229549527E1    -2.495278499791461E1     1.597162757668010E2
                        -2.353507360557967E1    -1.691100274033318E2    -3.917522143211648E-1   -8.597188594311969E1    -2.493146092693566E1     1.591583762556371E2    -2.504358381785445E1     3.610618525918078E1

 1.018000000000000E9    -2.423459985073392E1    -4.795876688020962E1    -2.771963393986883E1    -1.481518713869678E2    -3.776667417331802E-1   -8.631957121302249E1    -2.349231503222880E1    -1.693179956336403E2
                        -2.771395908093410E1    -1.485861650685353E2    -2.684633030853880E1    -3.183671487570680E1    -2.394274858278675E1    -1.777467657455648E2    -3.769658924560750E-1   -8.731226191540732E1
                        -3.683850071509655E-1   -8.628510550257650E1    -2.398407978559849E1    -1.771598545388754E2    -2.314416818763054E1     4.891506198677254E1    -2.546235186746312E1     1.669090058337716E2
                        -2.346883821075176E1    -1.702181365193934E2    -3.915632608738088E-1   -8.770625720983864E1    -2.539347904546534E1     1.660944344403514E2    -2.494396931592809E1     3.146618587684996E1

 1.019000000000000E9    -2.421900549327859E1    -4.823498803860976E1    -2.849516966885486E1    -1.617528959906124E2    -3.722904924764547E-1   -8.803254947040837E1    -2.344168904695560E1    -1.708782323429581E2
                        -2.845481648577385E1    -1.621961748985412E2    -2.665183420853005E1    -3.355283185451126E1    -2.392954426246998E1    -1.791504774719825E2    -3.765553687992616E-1   -8.903890981116231E1
                        -3.687551463094668E-1   -8.802031422872851E1    -2.393948638536077E1    -1.784836720256708E2    -2.313646863901312E1     4.812228236668907E1    -2.571553981998989E1     1.747248593500090E2
                        -2.341381697490307E1    -1.716100166098098E2    -3.908100548992360E-1   -8.940343340407114E1    -2.572971865286592E1     1.740663328711393E2    -2.481362688450272E1     2.996748260363825E1

 1.020000000000000E9    -2.407777799306192E1    -4.859275935687647E1    -2.892875437797220E1    -1.774236691451742E2    -3.666268189349700E-1   -8.973752129317826E1    -2.336210559680086E1    -1.723217544190713E2
                        -2.886135267687419E1    -1.775141943669516E2    -2.637609871785103E1    -3.274527292176250E1    -2.392289752526548E1     1.797050372559798E2    -3.750442967726204E-1   -9.075725060988565E1
                        -3.688033174598253E-1   -8.972951655911554E1    -2.392611343096877E1     1.797734629219588E2    -2.311458558696028E1     4.581678072437766E1    -2.574041178211001E1    -1.769924974320746E2
                        -2.336556579874762E1    -1.728227277529753E2    -3.914521445123070E-1   -9.116820640431064E1    -2.578403522892934E1    -1.777283891392717E2    -2.483623938887990E1     2.864761622697291E1

 1.021000000000000E9    -2.394655347669838E1    -4.987308999119040E1    -2.866669519284250E1     1.669025625624613E2    -3.655197595372955E-1   -9.144682183279959E1    -2.332569892319427E1    -1.738682881185262E2
                        -2.868283772077377E1     1.665248312247392E2    -2.611844003907331E1    -3.371252521007544E1    -2.384439901636919E1     1.785935148081333E2    -3.808102449131156E-1   -9.248733122711975E1
                        -3.709892428959067E-1   -9.146076345408960E1    -2.385547621441075E1     1.785695433060479E2    -2.316228247191059E1     4.359501048664451E1    -2.555527652238476E1    -1.691424507362673E2
                        -2.331425816009899E1    -1.742313420369983E2    -3.918956809594708E-1   -9.294049912206583E1    -2.555187181064852E1    -1.699239609157580E2    -2.480713806133016E1     2.677713423202380E1

 1.022000000000000E9    -2.390283856258244E1    -5.066520324769331E1    -2.806987371722011E1     1.521845438502926E2    -3.705564881496231E-1   -9.321077302325583E1    -2.328995758477728E1    -1.748974823571055E2
