#  HZ   S   DB   R     50.00 
! Rohde & Schwarz Vector Network Analyzer 
! Rohde-Schwarz,ZNB8-4Port,1311601044102961,2.82
! Created: UTC 1/17/2019, 3:15:54 PM
! freq[Hz]                db:S11                  ang:S11                 db:S12                  ang:S12                 db:S13                  ang:S13                 db:S14                  ang:S14
!                         db:S21                  ang:S21                 db:S22                  ang:S22                 db:S23                  ang:S23                 db:S24                  ang:S24
!                         db:S31                  ang:S31                 db:S32                  ang:S32                 db:S33                  ang:S33                 db:S34                  ang:S34
!                         db:S41                  ang:S41                 db:S42                  ang:S42                 db:S43                  ang:S43                 db:S44                  ang:S44
! 
 1.000000000000000E9    -3.456859965433950E1    -4.013509230457097E1    -1.565910599273195E1     1.593433908447740E2    -4.656117843182449E-1   -3.492365831662585E1    -3.151341570803700E1    -1.189488531541480E2
                        -1.562346150513638E1     1.593022614292089E2    -4.527922585456678E1    -1.162950438697654E2    -3.213971129722888E1    -1.258180086169623E2    -5.083803343638711E-1   -3.598301969415412E1
                        -4.596873950544953E-1   -3.486731681939679E1    -3.218075548374729E1    -1.239590429319111E2    -3.494526060896384E1     1.403377262632138E2    -1.555337030320763E1    -5.654790521882299E1
                        -3.149712181109301E1    -1.195792818824665E2    -5.142138712849641E-1   -3.581572742768113E1    -1.556953568093104E1    -5.703961685743082E1    -5.246220262739315E1     5.534248261983194E1

 1.001000000000000E9    -3.446706986917421E1    -3.565312679385774E1    -1.520787566140889E1     1.568915041703540E2    -4.794313752504886E-1   -3.656566896100306E1    -3.105395962707679E1    -1.198079254347883E2
                        -1.517989923579135E1     1.567104353914958E2    -4.791605468740544E1    -1.263007472197392E2    -3.170389451879375E1    -1.272159713601710E2    -5.246128230308834E-1   -3.763194985996718E1
                        -4.743796407343446E-1   -3.655891772082077E1    -3.168756566272172E1    -1.265769402396463E2    -3.459574457826194E1     1.336708824822661E2    -1.513036309349648E1    -5.700431304052933E1
                        -3.104034915303957E1    -1.208876270791701E2    -5.322060363396075E-1   -3.764043770571083E1    -1.512712070945658E1    -5.757559249445019E1    -4.783805054786107E1     4.227519589780825E1

 1.002000000000000E9    -3.384004154405283E1    -3.104207405826080E1    -1.479267365363791E1     1.544374886458668E2    -4.973390562417740E-1   -3.829742160076802E1    -3.054790997278429E1    -1.204202147787649E2
                        -1.477716621858385E1     1.541175633634886E2    -5.539299674885388E1    -9.047180758027201E1    -3.121035297141930E1    -1.285211475859750E2    -5.428048804301165E-1   -3.935637237447353E1
                        -4.914233578664067E-1   -3.827416919375473E1    -3.122124866686182E1    -1.273037507023657E2    -3.388782191469777E1     1.299434923128575E2    -1.472570912050228E1    -5.771272445627963E1
                        -3.059587916863035E1    -1.214800903074040E2    -5.505556149473350E-1   -3.944528339165044E1    -1.472789238461241E1    -5.826422127151067E1    -4.451283539851305E1     5.260324769650104E1

 1.003000000000000E9    -3.398682610199222E1    -3.011152993633658E1    -1.437316904272130E1     1.519132440348582E2    -5.126795134737724E-1   -4.002194319667062E1    -3.001390133458672E1    -1.226113345928490E2
                        -1.435851042141816E1     1.517652409328623E2    -6.110411861817187E1    -7.770884642011623E1    -3.078132540849851E1    -1.302055490834054E2    -5.505258040717165E-1   -4.109468703204554E1
                        -5.077203877991838E-1   -4.002563112697553E1    -3.082921783039529E1    -1.293086881389603E2    -3.396487829844653E1     1.271358187758396E2    -1.434551335730786E1    -5.849148602573252E1
                        -3.015867283937416E1    -1.232956999459865E2    -5.618572739347939E-1   -4.124342164313947E1    -1.433898709380252E1    -5.908294910679235E1    -4.416373260779235E1     5.465516697184712E1

 1.004000000000000E9    -3.378792486396656E1    -2.587309546683610E1    -1.397934436397947E1     1.496186066241901E2    -5.289811960610226E-1   -4.177901856012533E1    -2.970836555878788E1    -1.237125370786659E2
                        -1.397808764874240E1     1.493421323843542E2    -5.206189868140285E1     1.890305283038644E1    -3.042592988222825E1    -1.311802523223100E2    -5.728250937218423E-1   -4.276116294182692E1
                        -5.260243772424014E-1   -4.168562578960445E1    -3.041592298236601E1    -1.308401484345428E2    -3.346158669914203E1     1.241741470126355E2    -1.395203839118134E1    -5.930700979352144E1
                        -2.973573091650619E1    -1.242982314902145E2    -5.829766207976589E-1   -4.302118489914589E1    -1.396133140947459E1    -6.002667365131817E1    -4.200979815019389E1     4.566455385037526E1

 1.005000000000000E9    -3.318321533730419E1    -2.513582227535271E1    -1.362855211582580E1     1.473756534546924E2    -5.487374375565611E-1   -4.342484134773638E1    -2.932736291066567E1    -1.251162549356697E2
                        -1.359259115729286E1     1.469863474364001E2    -4.746652261118398E1     2.511253131791239E1    -3.003874977085998E1    -1.324223330278757E2    -5.882086837709296E-1   -4.448973453466434E1
                        -5.492629152923230E-1   -4.343149646028700E1    -3.001652580851082E1    -1.323776576697065E2    -3.297213331810168E1     1.188887121870063E2    -1.360024158954971E1    -6.027479679334256E1
                        -2.932439155043572E1    -1.260399200341096E2    -6.048664383386794E-1   -4.478636709885305E1    -1.358795250001062E1    -6.098974177652523E1    -4.164488332487647E1     5.050003727525786E1

 1.006000000000000E9    -3.267960583983930E1    -2.386989031460847E1    -1.324570718152183E1     1.450678633975312E2    -5.615016951988092E-1   -4.514789898804565E1    -2.897243422156029E1    -1.265362789004013E2
                        -1.322584752791042E1     1.447502578595859E2    -4.499538189711507E1     2.800152754293463E1    -2.965128449404077E1    -1.337006988613169E2    -6.105971160419975E-1   -4.621681585927738E1
                        -5.601940542696733E-1   -4.515689124598287E1    -2.968185313890092E1    -1.340853496174187E2    -3.222744484816492E1     1.178892660452997E2    -1.323821062177509E1    -6.126478983161009E1
                        -2.899474551329526E1    -1.271409450723760E2    -6.232806350849769E-1   -4.652085253189684E1    -1.324875925366802E1    -6.185798989174977E1    -4.013445180357486E1     4.609094689834777E1

 1.007000000000000E9    -3.196759430115746E1    -1.882650944193542E1    -1.291072568204143E1     1.428616179422048E2    -5.874739703417918E-1   -4.685325550036571E1    -2.864124222928611E1    -1.272269212212143E2
                        -1.289476557254242E1     1.426635645126426E2    -4.181981852724461E1     1.997917866948215E1    -2.938963684697112E1    -1.352957612676110E2    -6.281464712593597E-1   -4.790224210476150E1
                        -5.846996069287286E-1   -4.686067953977835E1    -2.934285328780847E1    -1.351065908593079E2    -3.210133080837532E1     1.166047843462141E2    -1.291900787617030E1    -6.233054540338140E1
                        -2.868515833397057E1    -1.278992692501356E2    -6.465691490597862E-1   -4.825895284918455E1    -1.292014626339112E1    -6.299727902657097E1    -3.933044425898596E1     4.789916071512803E1

 1.008000000000000E9    -3.148000675108883E1    -1.959852728842970E1    -1.258384179633704E1     1.407511390903071E2    -6.070734552749539E-1   -4.853404324478289E1    -2.832557629713564E1    -1.285436010256193E2
                        -1.256754056819233E1     1.404957646282797E2    -4.050178323135892E1     2.535009894063538E1    -2.902492551169577E1    -1.368858735905765E2    -6.544969233600878E-1   -4.963928577751154E1
                        -6.040912793608312E-1   -4.854168130739843E1    -2.906954142737343E1    -1.364490971459685E2    -3.161087828364908E1     1.135775174887504E2    -1.259686489797765E1    -6.337583833778198E1
                        -2.832387440976261E1    -1.291428406145624E2    -6.666736242789717E-1   -4.998138439935480E1    -1.260504046304725E1    -6.402653316447218E1    -3.924620606913815E1     4.605677953018171E1

 1.009000000000000E9    -3.115352894995751E1    -1.801747298116716E1    -1.226298421327006E1     1.386520875788514E2    -6.270481095021263E-1   -5.026808698429860E1    -2.803859931796705E1    -1.306151153835968E2
                        -1.224535962383557E1     1.383908374356220E2    -3.873773508433636E1     2.523892148331577E1    -2.873497828250422E1    -1.384849994023155E2    -6.726918776264635E-1   -5.132871015151913E1
                        -6.225065956945501E-1   -5.027756309635380E1    -2.873862066894950E1    -1.379019316933588E2    -3.162833176221490E1     1.098409647671921E2    -1.227653214602840E1    -6.452404189113459E1
                        -2.805750557462032E1    -1.310780622801147E2    -6.933961288435619E-1   -5.168603245486457E1    -1.227774546567375E1    -6.527682407631319E1    -3.789825220876355E1     4.245753391136935E1

 1.010000000000000E9    -3.055488885642956E1    -1.632879472448949E1    -1.196553757626598E1     1.365321311669302E2    -6.493988085408887E-1   -5.197751542692996E1    -2.778702763392911E1    -1.310402876385165E2
                        -1.194581237287829E1     1.362996455095459E2    -3.694848711700129E1     2.314910477628234E1    -2.842753351324321E1    -1.390210417337445E2    -6.989712469524705E-1   -5.306647022913767E1
                        -6.491420243687451E-1   -5.193642628284518E1    -2.839043570253442E1    -1.390542120722557E2    -3.084260497479855E1     1.053758674007255E2    -1.198578801798029E1    -6.559732312624280E1
                        -2.775536083913150E1    -1.324283912539266E2    -7.072555560022471E-1   -5.341282471880103E1    -1.198114232179209E1    -6.636010312438695E1    -3.771942546152519E1     4.332095962499682E1

 1.011000000000000E9    -3.017540547833553E1    -1.681194355234754E1    -1.165831610935928E1     1.344738580791368E2    -6.698692728143687E-1   -5.364201231269807E1    -2.749071611875928E1    -1.325029465603095E2
                        -1.165684363724170E1     1.342280846574200E2    -3.604922951604782E1     2.216851144017554E1    -2.821719098978804E1    -1.409384656765124E2    -7.212395055120185E-1   -5.477058152314153E1
                        -6.724047307865709E-1   -5.365590208130216E1    -2.833143079340482E1    -1.403161107187800E2    -3.072750140050682E1     1.050783234122554E2    -1.170180328937912E1    -6.688279352682901E1
                        -2.753233597841396E1    -1.333635468977210E2    -7.328691063398531E-1   -5.515206226598963E1    -1.169453462840211E1    -6.763112582883504E1    -3.725297035781866E1     4.026412559084144E1

 1.012000000000000E9    -2.973719249205986E1    -1.380752437290891E1    -1.138223079589082E1     1.325014456367485E2    -6.957811729658754E-1   -5.538900608217251E1    -2.726510079637155E1    -1.342681089062349E2
                        -1.137371747905063E1     1.322195025514871E2    -3.485753815343517E1     2.029377188905548E1    -2.795129739164341E1    -1.421820089614171E2    -7.506547383800765E-1   -5.650766347712418E1
                        -6.996297423823734E-1   -5.535496638070338E1    -2.801522589647048E1    -1.413365418929647E2    -3.048465293127318E1     1.012657081740054E2    -1.142322736366723E1    -6.815128496371332E1
                        -2.733125588306012E1    -1.349615082209774E2    -7.556078340114856E-1   -5.686079395986808E1    -1.141018082494803E1    -6.890171674010266E1    -3.625590349286039E1     3.917455505080225E1

 1.013000000000000E9    -2.928495117189481E1    -1.467446327128883E1    -1.109803084466737E1     1.304807951553158E2    -7.238392189889363E-1   -5.708090779914882E1    -2.705304380839053E1    -1.352071304643937E2
                        -1.109013965617739E1     1.301574942490193E2    -3.385090403732225E1     1.970971386067692E1    -2.781049610989597E1    -1.433998593356750E2    -7.689535571191398E-1   -5.819164862568258E1
                        -7.185420836402111E-1   -5.704413564825922E1    -2.781355599459987E1    -1.432682780792630E2    -3.018189662172947E1     1.010381098544072E2    -1.114353624921465E1    -6.939329436979148E1
                        -2.699611414083937E1    -1.359380481505909E2    -7.882973676764007E-1   -5.856480932550549E1    -1.114928065281699E1    -7.008039669030968E1    -3.648158336669707E1     3.993252538125188E1

 1.014000000000000E9    -2.867851026129019E1    -1.406395782727788E1    -1.084819071440011E1     1.285134591819669E2    -7.492484560674240E-1   -5.877826166774448E1    -2.675031956236387E1    -1.370927660674124E2
                        -1.082911920660858E1     1.281382730080106E2    -3.310283110775418E1     1.651908077386981E1    -2.748712880950988E1    -1.446230892211342E2    -8.001516160125121E-1   -5.991132680986018E1
                        -7.500144946748379E-1   -5.879026663725444E1    -2.746064695519694E1    -1.443180959569866E2    -2.979117890655475E1     9.826300911655899E1    -1.088230302057214E1    -7.072341287080614E1
                        -2.678294341014444E1    -1.370338706908443E2    -8.149558628318538E-1   -6.029481034933783E1    -1.088377745766346E1    -7.145805916884278E1    -3.550168327557446E1     3.783874250106628E1

 1.015000000000000E9    -2.814880797319787E1    -1.429912007786501E1    -1.058383776778588E1     1.265419041768412E2    -7.761064895396053E-1   -6.048546382561149E1    -2.656686951789654E1    -1.381593800968319E2
                        -1.056377346124564E1     1.261612111185842E2    -3.245822963043872E1     1.585538672326771E1    -2.728129223381845E1    -1.467468766493237E2    -8.232123841296208E-1   -6.164453395080091E1
                        -7.755097152914824E-1   -6.048161907880695E1    -2.728751118666172E1    -1.462200738828487E2    -2.978717817398089E1     9.554265549536470E1    -1.063525595865641E1    -7.209276386811433E1
                        -2.660024460709260E1    -1.388043676214335E2    -8.357343751583859E-1   -6.199264180701284E1    -1.062180604259335E1    -7.281187402961872E1    -3.496931493566499E1     3.625038327782579E1

 1.016000000000000E9    -2.790149223100938E1    -1.484728471935367E1    -1.034060676556423E1     1.246006642490284E2    -8.073636976422025E-1   -6.219293658473238E1    -2.639878805991870E1    -1.396922947135209E2
                        -1.031758790032186E1     1.242528455842266E2    -3.151342875759293E1     1.371070945419125E1    -2.711742112008650E1    -1.476973780881291E2    -8.552724181156129E-1   -6.335038722372353E1
                        -7.983431474937710E-1   -6.211810034897017E1    -2.710315191455992E1    -1.471989425665411E2    -2.945068366254253E1     9.275828888336490E1    -1.038275792065021E1    -7.341536429449526E1
                        -2.644148517871392E1    -1.402108363058421E2    -8.680979045427727E-1   -6.373213641059977E1    -1.037718444915870E1    -7.411841249920725E1    -3.523656936149391E1     3.397815753610754E1

 1.017000000000000E9    -2.745858131506713E1    -1.463895793080925E1    -1.009683815232508E1     1.226225323600879E2    -8.355342322327688E-1   -6.387638196283224E1    -2.625341375936408E1    -1.404770615354091E2
                        -1.007782012075955E1     1.222421334406846E2    -3.085330787937032E1     1.285653791528185E1    -2.689071374469876E1    -1.489483838847501E2    -8.852979462696821E-1   -6.509524039781448E1
                        -8.346253230517496E-1   -6.384006370468182E1    -2.699650766190455E1    -1.486856968064120E2    -2.930056223900865E1     9.207232309170260E1    -1.014610397235060E1    -7.477097873605490E1
                        -2.626660960684873E1    -1.411486121949555E2    -8.957781344763109E-1   -6.545341946962108E1    -1.013696806680270E1    -7.548099639052580E1    -3.495946782153641E1     3.681545227802371E1

 1.018000000000000E9    -2.684856334331455E1    -1.498262302660324E1    -9.863146746190012       1.206491869267843E2    -8.705792152791743E-1   -6.559007339269898E1    -2.599921514705966E1    -1.421011476025235E2
                        -9.843984738523568       1.203554540154367E2    -2.995835506869744E1     1.163941183102200E1    -2.672804491942216E1    -1.507259312201137E2    -9.152289247464502E-1   -6.676672951137266E1
                        -8.594277029089148E-1   -6.555901307186150E1    -2.674145632831677E1    -1.501491779219315E2    -2.913135493746836E1     8.836313624165108E1    -9.906301263572564      -7.616102590262001E1
                        -2.601709361507804E1    -1.428829037736298E2    -9.259759578017317E-1   -6.718039765971413E1    -9.902170797823528      -7.687014922034324E1    -3.378985270055195E1     3.026536747120825E1

 1.019000000000000E9    -2.671938896603831E1    -1.515542618362962E1    -9.637289799689357       1.187171998365836E2    -8.994402148728335E-1   -6.729082719007062E1    -2.587295253271075E1    -1.434214797310436E2
                        -9.610644295190907       1.184511582373910E2    -2.950912293775435E1     7.801403858008206      -2.661048315085352E1    -1.517639973282967E2    -9.443740194826145E-1   -6.851393828105194E1
                        -8.933328668402142E-1   -6.729617784012984E1    -2.661713285482904E1    -1.511467108447184E2    -2.898914911022609E1     8.788003963912466E1    -9.678184372322425      -7.758127878045323E1
                        -2.583133734407022E1    -1.444347972069483E2    -9.585291606874530E-1   -6.889273608062025E1    -9.673962261585627      -7.839576323035313E1    -3.348770810632320E1     3.216839011304859E1

 1.020000000000000E9    -2.630171645910206E1    -1.544322217705176E1    -9.414663954373923       1.168162914894228E2    -9.225155564614442E-1   -6.895810053618658E1    -2.571327251407709E1    -1.448690408348824E2
                        -9.398310271928882       1.165661900205701E2    -2.902083549231959E1     8.107600212374210      -2.638138125476165E1    -1.530952409094680E2    -9.749443859268381E-1   -7.021715633289345E1
                        -9.256726739981526E-1   -6.898817679658365E1    -2.645421360771923E1    -1.527610426660371E2    -2.875944249018193E1     8.640877460351003E1    -9.459058722126354      -7.901240602929181E1
                        -2.572432650567797E1    -1.456117736770473E2    -9.893704996965586E-1   -7.060903359580051E1    -9.444390518218528      -7.975662263936169E1    -3.352162953531402E1     3.093943258537042E1

 1.021000000000000E9    -2.591135267294274E1    -1.744677941494664E1    -9.203989333490526       1.149643534710942E2    -9.564198203385997E-1   -7.069131988641898E1    -2.551954507557394E1    -1.461030797619555E2
                        -9.174086186990193       1.146748154588963E2    -2.835257983677895E1     6.415760813383774      -2.632483757487302E1    -1.548259592060125E2    -1.007290005773327      -7.192418213132790E1
                        -9.591581549446392E-1   -7.066288359640419E1    -2.630466984323232E1    -1.546690506494229E2    -2.859419607104952E1     8.333825046430751E1    -9.252697952940267      -8.050018634499256E1
                        -2.553890529234595E1    -1.469279712725557E2    -1.022842530725311      -7.236228094789652E1    -9.240245936856375      -8.118074723779540E1    -3.327796460374707E1     2.983653503417014E1

 1.022000000000000E9    -2.567149250323289E1    -1.808053904327697E1    -8.988398786846032       1.130704074227388E2    -9.909047074097438E-1   -7.238994477287662E1    -2.539827552343801E1    -1.481898477021062E2
