#  HZ   S   DB   R     50.00 
! Rohde & Schwarz Vector Network Analyzer 
! Rohde-Schwarz,ZNB8-4Port,1311601044102961,2.82
! Created: UTC 2/13/2019, 9:32:17 AM
! freq[Hz]                db:S11                  ang:S11                 db:S12                  ang:S12                 db:S13                  ang:S13                 db:S14                  ang:S14
!                         db:S21                  ang:S21                 db:S22                  ang:S22                 db:S23                  ang:S23                 db:S24                  ang:S24
!                         db:S31                  ang:S31                 db:S32                  ang:S32                 db:S33                  ang:S33                 db:S34                  ang:S34
!                         db:S41                  ang:S41                 db:S42                  ang:S42                 db:S43                  ang:S43                 db:S44                  ang:S44
! 
 5.525000000000000E7    -1.656652791793016      -1.352948990618618E2    -2.933691223544432E1     6.954047954325587E1    -7.558736049430470E1     1.708944939952164      -6.638238572432496E1    -1.498373435200155E2
                        -2.934275242302217E1     6.975601341214730E1    -3.216363787107626E-1    9.415802899691214E1    -8.566732319682330E1    -1.594173982453902E2    -8.116049916524926E1     8.314300847665540E1
                        -8.181122654287235E1    -1.169591028389650E1    -9.329517422374096E1    -1.519461114817036E2    -1.387615533973310       3.488245287025779E1    -8.139867122239164E1    -9.052417589129914E1
                        -6.549274652535276E1    -1.531021031323458E2    -8.509300853912480E1    -1.405596168650601E2    -9.573232800721431E1    -9.488103850573508E1    -1.379325168294114       2.846159848506267E1

 5.525025000000000E7    -1.660665896895067      -1.353527397278433E2    -2.933997737355199E1     7.012032933225775E1    -7.758015938110516E1     3.340638251365500E1    -6.617509415179967E1    -1.575242029362327E2
                        -2.930535353795620E1     7.010705167783793E1    -3.221168712328559E-1    9.415633743451964E1    -8.454783814606657E1     1.596691110482885E2    -9.792777312719748E1    -8.217582649475325E1
                        -7.527260999227826E1     1.607392319034635E1    -9.583524488126797E1    -1.349641897590484E2    -1.392527005993089       3.488920667399925E1    -8.397872869571535E1     1.633834067749135E2
                        -6.597052846736402E1    -1.522367856089413E2    -8.314499049766752E1     2.085326732867820E1    -8.333578058943772E1    -5.645822356750973E1    -1.378839899340082       2.846996174637012E1

 5.525050000000000E7    -1.659207983444061      -1.354069528509434E2    -2.925743452666911E1     7.022087455262590E1    -7.738078229189225E1    -5.462734262049196      -6.711553912296360E1    -1.548473931303175E2
                        -2.930157445069664E1     7.010654147792131E1    -3.225713725433240E-1    9.421348096761719E1    -8.512168992027883E1    -6.205363247258346      -8.634322064604103E1     1.306794128831972E2
                        -7.482165600407652E1    -7.815183093575733      -9.629477863768321E1     6.019077593216354E1    -1.393657717727048       3.487637346033040E1    -8.814068623592979E1    -3.912556472643802E1
                        -6.678812074719212E1    -1.499911915901784E2    -8.931183292725918E1    -8.073987451502580E1    -8.777655611158491E1    -1.546005746542565E2    -1.382465672416309       2.846517271776475E1

 5.525075000000000E7    -1.661763138260227      -1.354113137045466E2    -2.926944589398625E1     6.969717233500913E1    -7.435019876831167E1    -8.844102043198253      -6.615778437646074E1    -1.576088986159538E2
                        -2.934018197941083E1     6.998307949622624E1    -3.279534120967442E-1    9.416654256566990E1    -9.069512157850538E1    -1.346854050648618E2    -8.938420151589831E1     2.494232826621633E1
                        -8.019682235798170E1     1.758197899911660E1    -8.384057262276886E1    -6.960871601480733E1    -1.393577590622876       3.490129472374989E1    -9.087007417667360E1     1.085962282299750E2
                        -6.550573122522719E1    -1.545393143060004E2    -8.419926221998473E1    -1.784465411089761E2    -8.580508248837474E1    -1.263199875492324E2    -1.378120202328443       2.845900905784110E1

 5.525100000000000E7    -1.664722491734678      -1.354320204584452E2    -2.921766978162406E1     6.995364899658691E1    -7.710223351969549E1     1.050444685993286E1    -6.569111576411137E1    -1.549260062973015E2
                        -2.922104236196876E1     7.050919882005668E1    -3.259148443469779E-1    9.415736516925389E1    -8.384290425603111E1     1.546275155958799E2    -8.426843337195798E1    -1.723394250260022E1
                        -7.551403090316649E1     2.584757843198535E1    -8.299526648212363E1     5.640982454215543      -1.387293217904166       3.488587765695489E1    -9.604005355815369E1     7.302298500220488E1
                        -6.602458695143443E1    -1.545965692257229E2    -8.494085273701202E1     8.093632624652983E1    -8.167102960122688E1    -6.749432832675021E1    -1.384256517688298       2.842830261546557E1

 5.525125000000000E7    -1.664782759696416      -1.354890525978062E2    -2.932998688845631E1     7.000612311011997E1    -7.849355519969619E1     1.071445997900315E1    -6.715081435483599E1    -1.591075795109239E2
                        -2.934740147157978E1     7.004537588989625E1    -3.255039181351532E-1    9.414700016712921E1    -9.348234998769362E1     1.729778853002851E1    -1.026279806026182E2    -4.036504289943158E1
                        -7.407445018216319E1     2.127814868607347E1    -8.819187427908203E1    -1.187076449306614E2    -1.389629108708386       3.489947539127497E1    -8.599093043699325E1    -1.651936526914938E1
                        -6.640769917698830E1    -1.532658313605412E2    -8.849434850043416E1     1.041716919605212E2    -8.150175454123988E1    -5.660822278149016E1    -1.379820995075145       2.846821361205123E1

 5.525150000000000E7    -1.668036747783419      -1.355365397806750E2    -2.923856255013401E1     6.981775820525580E1    -7.424501434835233E1     2.907813908416876      -6.615993975449966E1    -1.588047425908900E2
                        -2.936894338258814E1     7.016106600614731E1    -3.213665441918090E-1    9.417164281584208E1    -8.523350358632469E1    -1.088756276050793E2    -8.437583786746153E1     5.512667335023730E1
                        -7.513942132304844E1     7.548250543341644      -8.265819465009939E1     1.632929781320386E2    -1.390553004394038       3.491443324374564E1    -9.149918399363207E1     9.010374856671994E1
                        -6.642163187502050E1    -1.509023386480660E2    -8.350398459048323E1     1.145082032812829E2    -8.201955559485676E1    -1.654282184312498E2    -1.381579974623229       2.844054058368133E1

 5.525175000000000E7    -1.668060549162715      -1.355541366259930E2    -2.931965584854467E1     6.989884179533300E1    -7.700892681960032E1     3.053772810168038E1    -6.570568576124425E1    -1.636498972838250E2
                        -2.937648276559473E1     7.002750732545368E1    -3.258561249627504E-1    9.414312540672617E1    -8.120008335849791E1    -8.540454888233977E1    -8.807521904477049E1     7.881581843739127E1
                        -8.764119800314944E1    -3.955885419808517E1    -8.782782451616556E1     1.248444455337069E2    -1.390805648984286       3.487574252950740E1    -8.167350888499685E1    -7.905331208299833E1
                        -6.637511324213007E1    -1.544955577908479E2    -8.657374662108482E1    -2.092704368667693E1    -8.838511571359688E1    -6.029111727241657E1    -1.384045320502175       2.843929757896027E1

 5.525200000000000E7    -1.669674664956432      -1.355936313983910E2    -2.932954550765248E1     6.949181658036548E1    -7.307652316731931E1    -2.154769938770410      -6.575467967986575E1    -1.574067130846742E2
                        -2.925759575517402E1     6.976182763964867E1    -3.226712824389343E-1    9.411852456084692E1    -9.597343763803856E1     1.136759760873778E2    -8.757487899835900E1     7.440351088060170
                        -7.776408417138859E1     2.336602858459004E1    -8.567285236868271E1     3.136255279087353E1    -1.393238406687821       3.490915755830203E1    -8.808663899953558E1    -1.641931100095871E1
                        -6.638479376744689E1    -1.520315996775596E2    -8.632262834411355E1    -1.332272448657856E1    -9.385040568375385E1    -1.750538306234281E2    -1.381887161722203       2.841100150252356E1

 5.525225000000000E7    -1.673937143190510      -1.356229119990764E2    -2.924066153125959E1     6.965923139782025E1    -7.629696980389697E1     2.745228052705839E1    -6.662374269096335E1    -1.455644017935114E2
                        -2.928836155139313E1     6.948536563698306E1    -3.282234248602061E-1    9.415088374735771E1    -9.699234204520421E1     9.506581872580480      -9.487097083590018E1    -3.387595353223938
                        -7.766525987317914E1     5.878516100712712E-1   -9.036934011726336E1    -1.036170257761870E2    -1.391241864583963       3.487091385568846E1    -9.281935095415884E1     5.489241390869852E1
                        -6.573569908739813E1    -1.415103614231325E2    -8.356325004958944E1     1.247345843033451E2    -8.169205446512214E1     9.428316818524300E1    -1.383735145443715       2.843985680424417E1

 5.525250000000000E7    -1.671829731545378      -1.356894774070290E2    -2.926671073959803E1     7.001304211611051E1    -7.809694538716457E1     5.157158697659677E-1   -6.625279825185291E1    -1.529765433848336E2
                        -2.932908253515023E1     6.970630095066474E1    -3.254355966724427E-1    9.414976100880510E1    -9.483111480328290E1     1.544532368467926E1    -8.687127542301479E1    -6.459830686994395E1
                        -7.243895032018828E1    -1.068178755389771E1    -8.739850401558348E1    -4.872541877826517E1    -1.389252805230265       3.484664401893995E1    -8.408903301586605E1    -1.421348233020376E2
                        -6.630420223589401E1    -1.506156487415345E2    -8.556165713294081E1     1.297221506258785E2    -9.160878423941624E1    -8.534668404126707E1    -1.380349882438030       2.844591000779835E1

 5.525275000000000E7    -1.672909047779523      -1.357177237366009E2    -2.932084164767467E1     6.978282232562243E1    -7.466781968815329E1     7.839372173301674E-1   -6.636972645183599E1    -1.516965213231687E2
                        -2.919964005658035E1     6.984531176984500E1    -3.215169305954260E-1    9.409757876036869E1    -9.041054113381009E1     1.214190500920297E2    -8.253090792115535E1     5.353808926569221E1
                        -7.818051489697797E1     1.167971837786594E1    -9.382896330810246E1    -1.640256059658984E2    -1.389911878193587       3.485399751123649E1    -8.323923454440526E1    -7.344224495738413E1
                        -6.642496120047854E1    -1.576104989828492E2    -9.136971943690328E1     7.990806616410330E1    -8.368024251950244E1    -1.079863470440762E2    -1.376791618227224       2.842702502721648E1

 5.525300000000000E7    -1.675340563818022      -1.357318998786524E2    -2.927215859959304E1     6.977072046328881E1    -7.765552316711174E1     2.711515677779250E1    -6.639020150049876E1    -1.522869623230860E2
                        -2.923390971685608E1     6.965439340760966E1    -3.175749635445968E-1    9.412219759199513E1    -9.308304151804443E1    -1.313850175384083E2    -9.210727154381048E1     7.205089778223741E1
                        -7.864525686323174E1    -6.245248497803154      -8.649635830607951E1    -1.218382158767222E2    -1.390357209320509       3.488373156705178E1    -1.010515428089442E2     1.793935166373242E2
                        -6.536829399704088E1    -1.466919447284487E2    -8.647405038861953E1    -6.494747489019481E1    -8.352159368242808E1     1.345901390146098E2    -1.380636265978536       2.843581586923422E1

 5.525325000000000E7    -1.679714989239630      -1.357720836206101E2    -2.920675956389207E1     6.967892831895533E1    -7.492891703255057E1     1.718726726815828E1    -6.641319725825480E1    -1.564391547925120E2
                        -2.933974618105319E1     6.989199891906702E1    -3.230680328609837E-1    9.408550330219805E1    -8.282811271222535E1     1.850115884214704E1    -9.497667441455332E1     7.226260463727765E1
                        -7.459571456512836E1    -8.999633714051791      -9.680385302439049E1     1.510813665788450E2    -1.396375537991384       3.483299085083753E1    -8.394575409793846E1     4.593641004277814E1
                        -6.687662806846325E1    -1.517946587660383E2    -8.510126071691695E1     6.711302769959141E1    -8.223119998482082E1    -1.782569434454347E2    -1.381943119996633       2.843436978459357E1

 5.525350000000000E7    -1.683442582329809      -1.358201292610546E2    -2.927548777151550E1     6.971304401095617E1    -7.485306934072008E1     1.577368266450671E1    -6.718092809713409E1    -1.504250772307826E2
                        -2.943228155219969E1     6.988781216600671E1    -3.207773900177253E-1    9.409401573215143E1    -1.081831434616054E2     4.267911499171578E1    -8.594753613622217E1    -1.124484962098307E2
                        -8.186238501021357E1     4.805225555450183E1    -8.730490896207323E1     1.317962617227573E2    -1.386634119735746       3.482107796899503E1    -8.976703072962395E1     1.087060167714802E2
                        -6.566064687461682E1    -1.551815271776706E2    -8.217921146571099E1     9.881948544591782E1    -8.451405028217367E1    -1.499228437164716E2    -1.379234062970958       2.843605313668305E1

 5.525375000000000E7    -1.683006760783792      -1.358894731984472E2    -2.927187810008078E1     7.002987070706583E1    -7.554387710306662E1     5.095429181347070      -6.609273698612267E1    -1.573894069051452E2
                        -2.937094771758851E1     6.970842567300490E1    -3.231318627323452E-1    9.410086499504220E1    -8.420055992337143E1    -2.372462843545950E1    -9.661699569521306E1    -1.384878179686393E2
                        -7.800852087214847E1     4.224386625681434      -9.127698864129408E1     1.129087010216419E2    -1.392743964908676       3.484712124979749E1    -8.485419361882916E1     1.803538865175268E1
                        -6.466805580932874E1    -1.544490812852941E2    -8.558506081678613E1     9.366308587160498E1    -8.830061849434500E1     9.076272700937473      -1.381341557503340       2.841976096446068E1

 5.525400000000000E7    -1.684567100498521      -1.359081754654486E2    -2.918771891969784E1     6.942778462757926E1    -7.600922304535854E1    -2.171185001730914      -6.642206595986049E1    -1.551727513824402E2
                        -2.938868324244442E1     6.978375996176384E1    -3.203622230197083E-1    9.410509175073345E1    -8.580039502132937E1    -8.549027404154479E1    -8.100478908891287E1     1.572521780534061E1
                        -7.847178086521916E1     3.356383202958179      -8.308203738968285E1    -1.337319908981058E2    -1.386737719380139       3.485802423025141E1    -9.594428684291509E1    -1.587333459225571E-1
                        -6.501507485752026E1    -1.483706362765845E2    -8.866108421732606E1     5.075451682660617E1    -8.405075406173252E1     1.953550637370270E1    -1.383755424369555       2.843373926052908E1

 5.525425000000000E7    -1.687336327501259      -1.359715740547262E2    -2.935191187741991E1     6.999148230668922E1    -7.757178102606444E1    -1.657546296118569E1    -6.717826320302200E1    -1.493240394535551E2
                        -2.938720479826274E1     7.012421056656037E1    -3.243961527529501E-1    9.409960819635101E1    -8.882535901144577E1    -8.090847613219606E1    -8.932640826929818E1    -1.313668920199744E2
                        -7.538168758566462E1     1.115499914971430E1    -8.893667186509694E1    -2.642070730074778E1    -1.390692764939980       3.483869390292797E1    -8.751014358824557E1    -1.448937516846493E2
                        -6.606431973524020E1    -1.539388897367084E2    -9.032535601542875E1     1.020904405284977E2    -9.346775579315502E1    -1.057152668201349E2    -1.385686364109348       2.841120441545143E1

 5.525450000000000E7    -1.692349707300110      -1.359727772216326E2    -2.935658038683485E1     6.968732035960898E1    -7.928521035921544E1    -3.067289497042863E1    -6.594455359320433E1    -1.545402095444299E2
                        -2.939684199671350E1     6.951097602625701E1    -3.250740340530734E-1    9.410320900243995E1    -8.002957328933020E1    -5.982622702668640E1    -8.945443682841696E1     1.508212377743658E2
                        -7.730684994222848E1    -9.198293257587942      -8.644220464936379E1     1.024733105965965E2    -1.393402234348683       3.486024313609236E1    -8.164453721357737E1    -1.518383427099044E2
                        -6.584275227194239E1    -1.517087793665522E2    -8.045930112698265E1    -1.061777481713056E2    -9.690040927863409E1    -4.901401431761819E1    -1.384382273214609       2.841555498612410E1

 5.525475000000000E7    -1.694039864363918      -1.359879923884941E2    -2.924567238710231E1     6.929500524018660E1    -8.219921051356866E1    -4.804298510505720      -6.636750234593396E1    -1.550803378234172E2
                        -2.936331321067296E1     6.958866735209335E1    -3.238855389515324E-1    9.405548058577904E1    -9.513107516670763E1    -1.096489251991641E2    -9.825515187392151E1     1.016082148158614E2
                        -7.798457787895562E1    -1.276808384943529E1    -8.473995926914591E1     1.210106681000838E2    -1.391148681693712       3.481419890342882E1    -9.492717966387144E1    -9.567152852114342
                        -6.612538951414052E1    -1.539989738155509E2    -8.636139644910473E1     1.376932669835956E2    -9.046133794487894E1     7.486293984392275      -1.384487208992712       2.841744807853208E1

 5.525500000000000E7    -1.695979415030251      -1.360809083150360E2    -2.935001207407094E1     6.987247703065751E1    -7.419096419080921E1    -3.289339002795149      -6.643612744195970E1    -1.585205771306553E2
                        -2.937482227198833E1     6.954846302947530E1    -3.254698489002056E-1    9.408809114827619E1    -8.972001616623585E1     1.793033235399780E2    -7.816508085091355E1     1.009904390004671E2
                        -7.580209098888555E1     1.138807959893938E1    -8.356740672162846E1    -1.723334899263040      -1.391411627528254       3.482739753753586E1    -8.599666638192056E1    -1.053176278375168E2
                        -6.626076400147331E1    -1.538061604406345E2    -8.845207373440547E1     1.693909721309298E2    -8.777439549354106E1     8.821571263848728E1    -1.378451465828079       2.838471826567686E1

 5.525525000000000E7    -1.699440399279078      -1.361058081972859E2    -2.928846702294329E1     6.998464178928148E1    -7.925821661676081E1     8.255244685340774E-1   -6.656397514309371E1    -1.501356795343023E2
                        -2.935990821149609E1     7.011066385019149E1    -3.266300126560093E-1    9.407919780282957E1    -8.670173243039331E1    -4.330561542759946E1    -9.590691978957651E1     1.799171587794097E2
                        -7.664159590168507E1     1.453372483184356E1    -8.818400458259204E1    -3.040218378869341E1    -1.389971043745191       3.479163241944633E1    -8.765554494449744E1     1.618087882245014E2
                        -6.536223439653860E1    -1.539537975936902E2    -8.384791138478200E1     1.192453413339957E2    -9.293032123747568E1     1.568635205503905E2    -1.381239832125636       2.839001231968993E1

 5.525550000000000E7    -1.696040099933945      -1.361519567275153E2    -2.926354950666781E1     6.990917246697077E1    -7.458068101425367E1     8.274804704686279      -6.702216946777645E1    -1.558270799100271E2
