#  HZ   S   DB   R     50.00 
! Rohde & Schwarz Vector Network Analyzer 
! Rohde-Schwarz,ZNB8-4Port,1311601044102961,2.82
! Created: UTC 2/13/2019, 8:48:47 AM
! freq[Hz]                db:S11                  ang:S11                 db:S12                  ang:S12                 db:S13                  ang:S13                 db:S14                  ang:S14
!                         db:S21                  ang:S21                 db:S22                  ang:S22                 db:S23                  ang:S23                 db:S24                  ang:S24
!                         db:S31                  ang:S31                 db:S32                  ang:S32                 db:S33                  ang:S33                 db:S34                  ang:S34
!                         db:S41                  ang:S41                 db:S42                  ang:S42                 db:S43                  ang:S43                 db:S44                  ang:S44
! 
 3.000000000000000E7    -2.388271913388488E-1    1.016217505284050E2    -6.908573745849709E1     1.224818870126072E1    -8.619438112674196E1    -9.927003832947746E1    -8.172805261061343E1    -4.660747003510771E1
                        -6.714828967060076E1     3.282127641140020      -1.943616942374462E-1    9.029631992248318E1    -8.217676250039190E1    -8.948169534157975E1    -9.778864401903577E1    -1.555999506642415E2
                        -9.708203971829269E1    -6.167504981365961E1    -8.678042674403612E1     1.626211169244864E1    -9.238895054274883E-1   -1.142794184231200E1    -9.496884872363717E1     1.761562082306608E2
                        -9.511994657485946E1    -4.906813485327065E1    -8.973656794821895E1     4.449405937038893E1    -8.611043653088389E1    -2.235183564842676E1    -9.374494649941639E-1   -1.645266466711045E1

 3.002500000000000E7    -2.432710749323238E-1    1.013028019958658E2    -6.845799657686604E1     9.695720338229371      -8.506131316550720E1     5.216391427139507E1    -8.761523385483095E1    -9.853930677770698E1
                        -6.996526414438888E1     6.950381076186171      -2.044793479849284E-1    8.992638767214271E1    -8.647049877650188E1    -1.433305275595980E2    -8.381658001622796E1     6.912873968733832E1
                        -8.914820859357289E1    -1.747689968620078E2    -9.355353812880095E1    -1.185350841636500E2    -9.272879287734858E-1   -1.174902891546604E1    -9.360533209515299E1    -1.381932796642912E1
                        -9.262266270242162E1    -5.063464621665487E1    -7.995871478632255E1     1.161632512885680E2    -9.860462171488173E1    -1.025225180855390E2    -9.399892096825130E-1   -1.677928490516833E1

 3.005000000000000E7    -2.473131152718255E-1    1.010224675363039E2    -6.950755870872091E1     1.494544829963583      -8.086742162642028E1     6.656868281228222E1    -8.404440350315581E1    -1.083590559369763E1
                        -6.836906139359061E1     7.787810886390238      -1.920554760351742E-1    8.958378628626591E1    -8.494030930995258E1     1.211669994486522E2    -8.975752444933715E1     1.060182963461289E2
                        -9.161645866530049E1    -1.180469654234416E2    -8.244871952648023E1    -1.517428793990103E2    -9.253161160426576E-1   -1.205192139185212E1    -8.282523704269325E1     1.227715252674552E1
                        -8.791782829076773E1    -7.234439316312854E1    -9.064031002847385E1     6.833245414904258E1    -8.816726344456869E1     1.571505142027312E2    -9.345416269404743E-1   -1.705031635812697E1

 3.007500000000000E7    -2.430981036422769E-1    1.006950999712861E2    -6.865013068367281E1    -8.710195186134786      -8.153391868541212E1    -9.032712966364086E1    -8.636655466866152E1     8.412580692188578E1
                        -6.886325490139478E1     1.189402006895804E1    -1.960294531063953E-1    8.915882397352016E1    -8.964347058040757E1     7.090869565661694E1    -8.978948257866500E1    -7.363352436385918E1
                        -8.115990088717469E1     4.381582849833664E1    -9.366502493324265E1    -9.154781939476921E1    -9.294577697767937E-1   -1.240484737443231E1    -8.779575473243304E1    -6.863202429567066E1
                        -8.664559073929085E1    -1.012630372730430E2    -7.984516848406005E1     4.708757695429407E1    -9.481060821224163E1    -2.335967619322918E1    -9.418728418206666E-1   -1.739981153144014E1

 3.010000000000000E7    -2.413090151193538E-1    1.004005189956872E2    -7.068391330856233E1     6.425088638773666      -8.925883247248591E1     4.979680685809085E1    -9.774333957538757E1    -1.001682921271868E2
                        -7.079814453571532E1     2.118000718611517E1    -2.026136141282260E-1    8.883688501286740E1    -9.389203679454325E1    -5.132651432215268E1    -9.009067374890903E1    -5.679473393082445E1
                        -8.302696163124124E1     1.570376806724568E1    -8.418632584762703E1    -1.278152971984610E1    -9.249290499536368E-1   -1.268308086094652E1    -8.311395987252432E1    -1.212021441443146E2
                        -8.731461292253904E1     1.230247271092301E2    -8.337052343941923E1    -6.713996459326472E1    -8.361578397783435E1    -1.479900319162605E2    -9.354045051654608E-1   -1.771335587815006E1

 3.012500000000000E7    -2.335306398336899E-1    1.000808524338295E2    -6.865460935718627E1     1.239253705899480E1    -1.063020351765694E2     3.066694836382585E1    -8.902256574993220E1    -1.186769800767948E2
                        -6.865590167411919E1    -1.021262211772523      -1.929727297225669E-1    8.847440987072623E1    -8.635176370083910E1    -3.827203355216778E1    -8.572347265869644E1    -3.362795036645391E1
                        -9.064205643330158E1    -1.169281546456471E2    -9.868577910748398E1    -8.590458096273547E1    -9.267364745812270E-1   -1.293983541274169E1    -8.848720276227854E1     1.368534691462100E2
                        -8.693595669678538E1    -1.220349929877179E1    -9.630218786587555E1    -1.124683619626500E1    -9.575745930375325E1     8.003350673053845E1    -9.389863808470209E-1   -1.804251199409082E1

 3.015000000000000E7    -2.434031227126118E-1    9.981018528855660E1    -6.997134080319317E1     4.526799662532532      -8.218562678396921E1    -1.223861642625346E2    -8.882059426690789E1    -7.446563063959741E1
                        -6.712667448446015E1     1.475813970864664E1    -1.979628336527608E-1    8.806582262119595E1    -9.116542672129125E1     7.204175731664177      -1.018511689159023E2     5.626004431530200
                        -8.108770483453324E1     1.280282287192063E2    -8.951478716394570E1    -1.831882185636242E1    -9.275883261044950E-1   -1.323721090376261E1    -1.012990933416672E2     6.539588155419854E1
                        -8.494870151619176E1    -1.149346988114927E2    -9.730383028186664E1     1.480745428236121E2    -8.435852615518158E1     1.090720587937623E2    -9.335127599902129E-1   -1.830276839238919E1

 3.017500000000000E7    -2.362671796054258E-1    9.952101207549266E1    -6.865497377001259E1     1.549007834367756E1    -8.983509483757580E1     1.738203057952923E1    -8.580000683287204E1    -3.028171271339085E1
                        -6.689219935990271E1     2.756375756236050      -1.916364916816651E-1    8.771722181603469E1    -8.993381155682977E1    -1.447882218568961E2    -8.942476326962238E1    -5.694658100101842E1
                        -8.250723344957720E1    -1.231265054851840E2    -8.111438392756780E1     2.633096538581373E1    -9.282443865611924E-1   -1.354334830119434E1    -9.148933401836514E1    -8.235563834301853E1
                        -8.573668483991625E1     1.103685463263197E2    -8.707876568920037E1     2.033592004524501E1    -9.407745884178502E1     3.770843018499760E1    -9.395974999893673E-1   -1.867114014062397E1

 3.020000000000000E7    -2.379042358477460E-1    9.924160135351902E1    -6.779107221789393E1     3.791105910735386      -9.487672474409979E1    -1.509904502144757E2    -9.122123934513438E1     2.625448890396423E1
                        -6.794138851664411E1     1.700322877222725E1    -1.882626387599606E-1    8.734469644871059E1    -8.702163467583605E1     6.642529782033192      -9.016431444744968E1     1.654451603294790E2
                        -9.211170231095225E1     1.910491185206142E1    -1.040013234387808E2     8.570118202604776E1    -9.248733435562929E-1   -1.388930809810100E1    -8.241608002826594E1    -1.605593657471137E2
                        -8.495983411822840E1    -7.806713310404936E1    -9.085434688216961E1    -1.167713598600562E2    -8.063042105312547E1     1.383524411138597E2    -9.366756377749551E-1   -1.899199062292024E1

 3.022500000000000E7    -2.415195194201496E-1    9.891358801407684E1    -6.733282935549968E1     1.369926185198299E1    -8.427624018214773E1     6.704326096074399E1    -9.203080426221601E1    -1.340432484386402E2
                        -6.756048868309431E1    -1.648494690267001      -1.923209030170794E-1    8.699377470481382E1    -8.793006084065935E1    -9.757785279545151E1    -9.003245227456324E1     6.411782023876918E1
                        -9.520713220562256E1    -8.449376345976451E1    -8.526921150305824E1    -1.109295287905626E2    -9.266554532528133E-1   -1.417827658735017E1    -8.916018015002996E1    -1.457165374552489E2
                        -8.282545565873171E1    -1.508823693989224E2    -8.904574833178387E1    -1.346047688973364E2    -8.536778119249176E1    -8.511052736435710E1    -9.408149048098080E-1   -1.929525726286950E1

 3.025000000000000E7    -2.456859911342257E-1    9.863303538620744E1    -6.752934739712219E1     1.397081156376138E1    -9.166289431205800E1     6.847670436638543E1    -8.589090401192443E1     1.512954570517468E2
                        -6.887257988796904E1     1.112557757159456E1    -1.983088834191983E-1    8.660020314103349E1    -9.528423367262360E1     1.755697779704665E2    -8.972642186156958E1    -1.255475486320405E2
                        -9.352718506621244E1    -4.437162866020397E1    -8.190605656822406E1     1.442741966064609E2    -9.272831337688682E-1   -1.449952489070447E1    -8.414688366700227E1    -4.282127764938920
                        -8.283601021986473E1    -5.166870787906164E1    -9.027881004964306E1    -1.342350308052887E2    -8.935887762490887E1    -1.771051467910069E2    -9.372487665032242E-1   -1.959206933399338E1

 3.027500000000000E7    -2.310556284477338E-1    9.832509105569878E1    -6.807850544149099E1     3.321377185221417      -8.682953069704587E1    -1.586533310330675E2    -9.189734780759613E1    -8.693852421503333E1
                        -6.860771283650294E1     2.725103227462533      -1.801377411902521E-1    8.618341498718758E1    -8.316936532490928E1    -8.059191565649820E1    -8.059403766251288E1     1.729626890241737E2
                        -9.715943089991542E1    -6.669977479496174E1    -8.739594903522570E1    -1.445690048626007E1    -9.265931053814467E-1   -1.477116690220403E1    -8.846391141252772E1     6.317532521664786E1
                        -8.722431555435847E1    -5.387912949179717E1    -8.785601012146708E1    -1.389518314511059E2    -8.281605019095530E1     7.536521458730371E1    -9.402066760555032E-1   -1.991628248727750E1

 3.030000000000000E7    -2.386482522982844E-1    9.807167443280102E1    -6.847663875795121E1     4.278513565534840      -8.818039769133097E1    -1.572871087462828E2    -8.630956991878547E1    -6.599763623079907E1
                        -6.812340456861769E1     1.535342372180294E1    -1.955681329361289E-1    8.583628814699235E1    -9.194272337376246E1     1.645083585943410E2    -1.052894711425240E2     1.454332619758411E2
                        -9.148029446097488E1    -1.549038952529248E2    -1.033447481380334E2    -1.392430640636029E2    -9.247331757314190E-1   -1.510365883318149E1    -8.168138820574200E1     2.873515095639959E1
                        -8.890901439515264E1     1.249171208900590E2    -8.504736208754808E1    -5.029825576995954E1    -9.163266181484197E1    -1.096352711966172E2    -9.397150378753401E-1   -2.021401076342012E1

 3.032500000000000E7    -2.378916080113854E-1    9.776113866917525E1    -6.736615881510029E1    -5.884005225390870      -8.621808622849846E1    -1.289034530272456E2    -7.903690204319717E1     8.360254302975399E1
                        -6.784051656352457E1    -1.912800302680846      -1.876865931785722E-1    8.543246138560934E1    -9.511983890336546E1     1.687999828434670E2    -8.235076752441877E1     7.799819803079770E1
                        -8.855092053560482E1     1.563826851248963E2    -9.605874729114021E1    -6.289330642583425E1    -9.276915976493132E-1   -1.548280369840954E1    -8.945592009791866E1     6.272435165029903E1
                        -8.785800449040511E1    -8.746708598435905E1    -8.559571591075749E1    -2.697356509781503      -8.725191670795724E1     7.297447489929432E1    -9.396983952523390E-1   -2.055415943420040E1

 3.035000000000000E7    -2.296316197345487E-1    9.750095966692670E1    -6.695735416453195E1     3.374311429915472      -8.517441339853642E1    -3.009007788852129E1    -8.269370620888725E1    -1.138918489765466E2
                        -6.797249929095658E1    -7.690917312390997E-1   -1.857419269702082E-1    8.510316972698728E1    -8.729477977980744E1     1.541835793339029E2    -8.067029604565632E1    -3.935583191147012E1
                        -8.503988603200143E1    -6.077205930657712      -9.089545985371558E1     1.392342694855650E2    -9.267917524625903E-1   -1.575095720467713E1    -8.875824956185122E1    -3.509087925502670E1
                        -9.068775078175968E1    -8.853754274548128E1    -9.617273797245210E1     8.215729852512699E1    -9.025056178189699E1     1.254652077456319E2    -9.346006809970344E-1   -2.084350072353545E1

 3.037500000000000E7    -2.261186328424389E-1    9.718684731292143E1    -6.886048693883429E1     6.518151171917029      -8.445410899555164E1    -1.299703970901176E2    -9.098571239479907E1     8.542734924092318E1
                        -6.680216866164138E1     8.965401985518232      -1.895058775801678E-1    8.465438680881769E1    -8.536974392864656E1     1.191579422163562E2    -1.024236028265823E2    -1.075627509485161E2
                        -7.953995778848511E1    -1.778131788863142E2    -8.333275150322388E1     2.283256328889748E1    -9.182987460414428E-1   -1.601304108988479E1    -8.421848574748361E1    -8.614925712902421E1
                        -1.023739441069779E2     2.276048138249992E1    -8.023668065203978E1    -1.552490939713016E2    -9.614274219899004E1     6.751156313992188E1    -9.369627285560845E-1   -2.114775605539304E1

 3.040000000000000E7    -2.298177880939051E-1    9.688489369642898E1    -6.601105010114550E1     1.247231678701215      -8.511484583479560E1     1.200592183722490E1    -8.090547315389875E1     1.804425868704118E1
                        -6.767242633073926E1     8.286313824159768      -1.996592602819198E-1    8.435687981206426E1    -1.000408259366275E2    -3.721158636656681E1    -9.503705296665427E1    -8.531799499109461E1
                        -1.023400630703154E2    -1.443286973108964E2    -8.441005649533855E1    -1.672842282370924E2    -9.230811603678997E-1   -1.628101252477795E1    -9.145481357171332E1     4.010138175010760E1
                        -8.895918876410147E1     2.346951259122212E1    -8.510604474295704E1    -1.371600183554370E2    -8.211058424708665E1    -6.958977903270323E1    -9.433223172778683E-1   -2.146730440402757E1

 3.042500000000000E7    -2.296555038126545E-1    9.656528500540244E1    -6.737613198932534E1     4.115538276084163      -8.445832764911754E1     2.846151088336890E1    -8.535427971243533E1     1.513583524904153E2
                        -6.703674309330920E1     2.371645480990466      -1.875378808528328E-1    8.397682565932847E1    -8.588535618619984E1    -1.277572271464569E2    -8.533265704572314E1    -1.150874413450277E2
                        -7.942050347804516E1     3.564051684764033E1    -9.589374894531940E1     1.792492706512516E2    -9.260294120145373E-1   -1.669714164582103E1    -8.645001112935154E1     1.078990223398379E2
                        -8.175552222891427E1     8.275670187575632E1    -8.959678940230785E1     6.846320940643297E1    -9.753149613832531E1    -7.187676443794963E1    -9.366496288607324E-1   -2.178770145199071E1

 3.045000000000000E7    -2.323067045244374E-1    9.626165703512842E1    -6.673300529735359E1    -2.525633402623555      -8.726599478324098E1    -3.269753733416259E1    -8.833884247041338E1     1.115713374137272E2
                        -6.728767304383615E1     8.427496132669877      -1.850641239851675E-1    8.353344002153183E1    -8.156880221317969E1     5.161679383604849E1    -8.896056185292130E1    -1.377641595646698E2
                        -9.715514362015851E1     1.111206557227101E2    -9.401448224327729E1     8.460825801682660E1    -9.229361210141969E-1   -1.693019659644066E1    -9.394763028094451E1    -5.805873468580412E1
                        -9.333215621069861E1    -1.458788377081544E2    -8.394730788390291E1    -1.664215628306642E2    -8.345691535276090E1     6.793209321067123E1    -9.377912704420267E-1   -2.212262589442082E1

 3.047500000000000E7    -2.375019987777607E-1    9.598362049695828E1    -6.681310033080868E1     9.028974781337867      -8.191584353541329E1    -1.721876677619020E1    -8.841516808972136E1    -5.671551692776490E1
                        -6.722318323533773E1    -3.087140007896488      -1.860688766932248E-1    8.321052029581877E1    -1.035239341414280E2    -2.381607706797293E1    -9.190717680669765E1    -6.356691573551289E1
                        -8.261291228118583E1    -7.194678147763021E1    -8.765301530369742E1    -7.454107338535553E1    -9.246527156749479E-1   -1.726872702532265E1    -9.052628271816701E1    -9.274741414662753E1
                        -1.030641258256445E2    -3.982259345780339E1    -8.852815798631595E1    -4.414970440824884E1    -8.246439787234729E1    -6.198979858689513E1    -9.412906464871329E-1   -2.242490894986342E1

 3.050000000000000E7    -2.352574245429907E-1    9.572053789663129E1    -6.651552834607946E1     1.902388506059133      -8.579997088312085E1    -1.769021905234304E2    -8.266133768479847E1    -1.401519718489983E2
                        -6.661870038402195E1    -3.427436306273822E-1   -1.830995741197857E-1    8.281206971357307E1    -7.876118216857613E1     5.682984055352363E-1   -8.804224273580245E1    -8.228328215524451E1
                        -8.952854621393590E1     6.532170498483264E1    -1.080634693023436E2    -1.226899311051355E2    -9.237683231163423E-1   -1.754122404054654E1    -8.680977228985012E1    -1.037660628664912E2
                        -8.750570385569463E1     7.666706220993898E1    -9.543917854031137E1    -1.047180356577256E2    -9.852251455803433E1     3.171462721590069E1    -9.367359922405729E-1   -2.272922975373394E1

 3.052500000000000E7    -2.330630420043004E-1    9.541591454960036E1    -6.756922008820820E1     9.484278802928580      -8.589087107567467E1     6.772656092537659E1    -8.408893153637543E1    -7.230735776946338E1
                        -6.784514169556748E1     1.654015800497588      -1.815206903500415E-1    8.249939633913687E1    -8.953492757621231E1     1.773564131716020E2    -8.865399747047393E1     5.576939990859771E1
                        -9.298758436716986E1     3.742953264605692E1    -8.110197548462108E1    -7.486609961438391      -9.248330166744788E-1   -1.786609092882772E1    -8.382035315322987E1    -1.197396713191968E2
                        -8.528792211462678E1     1.709025842870205E2    -8.306389649014029E1     6.033057412475169E1    -9.150140099808419E1     1.446401903892174E2    -9.389068007862211E-1   -2.304497475524157E1

 3.055000000000000E7    -2.287808734734404E-1    9.513246487876587E1    -6.552016173599139E1     1.280621907202678      -9.231139741172369E1    -1.495318365683957E1    -8.597606018944066E1     1.098009521884465E2
