#  HZ   S   DB   R     50.00 
! Rohde & Schwarz Vector Network Analyzer 
! Rohde-Schwarz,ZNB8-4Port,1311601044102961,2.82
! Created: UTC 2/12/2019, 12:11:47 PM
! freq[Hz]                db:S11                  ang:S11                 db:S12                  ang:S12                 db:S13                  ang:S13                 db:S14                  ang:S14
!                         db:S21                  ang:S21                 db:S22                  ang:S22                 db:S23                  ang:S23                 db:S24                  ang:S24
!                         db:S31                  ang:S31                 db:S32                  ang:S32                 db:S33                  ang:S33                 db:S34                  ang:S34
!                         db:S41                  ang:S41                 db:S42                  ang:S42                 db:S43                  ang:S43                 db:S44                  ang:S44
! 
 3.000000000000000E7    -2.768565478283645E-1    1.052459519132647E2    -6.825464137236926E1     2.492474620562944E1    -8.765546159478521E1     1.210055833605339E2    -8.128664307351146E1    -3.306630622663790E1
                        -6.858856803956319E1     1.377920157650877E1    -2.357347757833234E-1    9.377634176824591E1    -7.877383689533207E1     2.707313014374258E1    -1.033039604954767E2    -8.180489663235657E1
                        -9.975630950609981E1    -4.371346454584467E1    -9.192123496163616E1     1.389778837868916E2    -9.216534788467228E-1   -7.602465871945849      -9.286445450025505E1     1.352751353601598E2
                        -9.349997819681313E1     1.253452274688712E2    -9.388253251322990E1    -1.748573206626971E2    -8.132950610119733E1    -1.690712764177783E2    -9.252706697763268E-1   -1.256212828269318E1

 3.002500000000000E7    -2.791743210326888E-1    1.049799688256892E2    -6.752951753427797E1     6.920611613680848      -9.291571311142825E1     1.131890850879864E2    -8.903980817235015E1    -1.240125933891545E1
                        -6.824494563458993E1     7.420076699840664      -2.452518590394442E-1    9.338968276919744E1    -7.860056046356246E1    -1.332371183422546E2    -9.095364183075417E1     4.866320824030125E1
                        -8.122748086064840E1    -6.482873324387136      -8.473589980469667E1     1.124250970764185E2    -9.227844413827775E-1   -7.872310551849483      -8.402236672622342E1     4.538548956726369E1
                        -8.817247733643964E1    -4.899295834272699E1    -8.720230719697568E1     6.484392613295407E1    -8.650597409373886E1     4.590121779588758E1    -9.286490570247803E-1   -1.287882178975391E1

 3.005000000000000E7    -2.779999341552617E-1    1.046769423213448E2    -6.906083771143844E1     3.965334272530118      -9.021740556002777E1     5.705027870725038E1    -8.248473074672526E1    -1.176855169798294E2
                        -6.809566439949580E1     1.160659099033514E1    -2.356288088949970E-1    9.309625178941300E1    -8.178810876131061E1     8.032915840437788E1    -8.506311164660528E1     5.569201450094443E1
                        -8.497392153107285E1    -1.087247804713962E2    -8.167501271562001E1    -1.597900720485982E2    -9.208223309845686E-1   -8.142443264086413      -9.645364337057868E1     1.184568231803428E2
                        -8.817086241449673E1     6.699983563363050E1    -8.751674307096806E1    -1.468263384513528E2    -1.003968703021945E2    -7.552478223784601E1    -9.284452454590062E-1   -1.318023188243694E1

 3.007500000000000E7    -2.762963220617465E-1    1.043734514850268E2    -6.841651534897248E1     6.142559450084263      -8.840658053121689E1    -6.191562028935045E1    -8.385248528734331E1    -1.010547727796100E1
                        -6.932926538984691E1     1.694126577598752E1    -2.411375610966721E-1    9.267524691672845E1    -8.591053384377709E1     1.468889190995047E2    -8.704042590851884E1    -8.744984058202323E1
                        -8.685846377428516E1     5.925793605227364E1    -8.842715064478446E1    -8.306287775689270E1    -9.277533208987328E-1   -8.488809524026111      -8.782763970253967E1    -9.397495813628915E1
                        -8.182980812641409E1     1.247649508865454E2    -8.176699146424802E1     8.007362675965268E1    -8.236781110507459E1    -1.774525424097326E2    -9.287376268815288E-1   -1.343992899450126E1

 3.010000000000000E7    -2.794204282251959E-1    1.040965852139232E2    -6.708355090059830E1     2.799529811274772      -7.878717326007001E1     3.720965339035742E1    -8.366435473312569E1    -1.407228937748611E2
                        -6.554684053408789E1     1.019543021098438E1    -2.421432600950668E-1    9.230492766095856E1    -1.017710351091309E2    -4.276194992530032E1    -9.494425706587197E1     7.971469491780910E1
                        -8.797574166678950E1    -7.530318154316966E1    -8.914809983494850E1     8.789675122539366E1    -9.176720722651671E-1   -8.790081586458276      -9.030743397437198E1     1.152863344631960E2
                        -8.459477806344302E1     1.058989487008975E2    -8.464061521015559E1    -2.201209526876871E1    -8.583941415948848E1    -1.763019940671914E2    -9.315898673452271E-1   -1.378200367424527E1

 3.012500000000000E7    -2.749134593434165E-1    1.038085781490193E2    -6.798897083434561E1     1.088900263008354E1    -8.808436733097818E1    -6.533012984016922E1    -8.292228664293866E1     1.550459624267294E2
                        -6.843621217979506E1     1.728739044684285E1    -2.406523061612524E-1    9.196569323849823E1    -9.870154454034717E1    -8.879698101306285E1    -8.172931373755468E1     4.315025149487441E1
                        -8.701357714673750E1     1.221959346598745      -8.716158886637658E1    -3.509547308290223E1    -9.193927524255928E-1   -9.090073674438591      -8.347422592245087E1     5.180978179275950E1
                        -8.955962298669024E1    -7.564002252723265E1    -8.430833451908589E1     1.599251088092541E2    -8.779228062284867E1    -1.674164219895324E2    -9.280686547835491E-1   -1.412744597367323E1

 3.015000000000000E7    -2.674211567409016E-1    1.034968081182301E2    -6.901325470192751E1     5.655476214019186      -8.440415145238003E1    -5.720327806684386      -8.782523690356317E1    -1.133556173835691E2
                        -6.794423241057031E1     1.088224706800112E1    -2.396035364826833E-1    9.155642817044065E1    -9.101619371374093E1     4.549415405969781E1    -9.180276434995031E1    -8.707665238251359E-1
                        -8.254933961527497E1     1.740937323277255E2    -8.339202529587021E1     1.347455282987138E2    -9.259510769214572E-1   -9.405942517645194      -8.120431865171253E1    -1.096271614308596E2
                        -9.829454155187682E1    -9.963051766809815E1    -9.431069127086226E1    -1.069700738777786E2    -8.590442374469072E1    -1.200520290223774E2    -9.348601047146483E-1   -1.438874709404945E1

 3.017500000000000E7    -2.692004829727540E-1    1.031776647437749E2    -6.898508357396189E1     9.775707249317462      -8.212468796192142E1    -1.672114274563806E2    -8.681908801069503E1     3.965491177639123E1
                        -6.932266042092722E1     1.241749106024636E1    -2.359483530319962E-1    9.118539627662901E1    -8.836820395974108E1    -1.632343609860147E2    -8.811249989065277E1     5.607126529796515E1
                        -8.619055043443366E1    -7.368776452048391E1    -9.038814935037208E1    -1.523590371094163E2    -9.237092619984121E-1   -9.695700530286088      -9.323682541906146E1     2.347859586734716E1
                        -8.948823974563041E1    -1.765272919329444E1    -8.706431574499740E1    -1.818997190504931E1    -8.978579407186646E1     5.443944554230100E1    -9.294870884342017E-1   -1.471810809329890E1

 3.020000000000000E7    -2.683199500233523E-1    1.029277809384096E2    -6.858352156636423E1     7.592174629910290      -8.077640853538986E1     8.942439045896029E1    -8.922951459006208E1     1.321775295140882E2
                        -6.975071812918840E1     1.782972938113160E1    -2.388326427678508E-1    9.081370039088493E1    -8.743358368508675E1    -1.583227306825051E2    -8.420220284258454E1    -2.959283425409506E1
                        -8.313786765968777E1    -8.522135155571033E1    -8.276509184807620E1    -1.644903720713020E2    -9.224237217551716E-1   -9.974464946183121      -8.548898336457383E1    -8.918452556553592E1
                        -8.210239871247057E1     1.772875956164456E2    -9.025460525835959E1    -1.707756626036381E2    -8.897488244147468E1     1.643793327520791E2    -9.273914645784618E-1   -1.505375789815832E1

 3.022500000000000E7    -2.822956309728659E-1    1.026356210947293E2    -6.906988221219746E1     1.817944828401420      -8.255247550614440E1    -1.071458520812690E1    -8.468711572907841E1    -9.750518214692835E1
                        -6.805926674010377E1     2.890011879649937      -2.403745271455573E-1    9.045386970017047E1    -9.840431657149269E1    -1.347643002641457E2    -8.550172395466225E1     1.653220048373019E2
                        -9.941025403371926E1     1.531529490671288E2    -8.571825595372184E1    -4.881950405266511E1    -9.225903078970378E-1   -1.032076171637336E1    -8.304782501717210E1     1.669929695243175E2
                        -9.039075384606051E1     7.757587037084614      -8.290974634106286E1    -1.728804815485768E2    -8.962082148371547E1    -1.067165891795923E2    -9.305759720942264E-1   -1.534715820408259E1

 3.025000000000000E7    -2.724898799738874E-1    1.023408994049488E2    -6.692117778486509E1    -3.507400558261206      -8.956550084759155E1     1.223261132353428E2    -8.760883711394762E1    -7.723152513248091E1
                        -7.019398326745055E1     5.850097191729901      -2.482153839107771E-1    9.010532028475507E1    -8.957167414492594E1     3.685637369023894E1    -8.971773479136913E1     1.605418205757806E2
                        -9.115958782694725E1     1.292465251248069E2    -9.841075646696777E1     5.904734466065189E1    -9.204901187208947E-1   -1.060240185830411E1    -8.409799535034620E1    -9.519698081486685E1
                        -8.157055213445591E1     8.297893688595445E1    -9.374904594759740E1     2.898409825366293E1    -8.403512456938654E1    -2.545066857182501E1    -9.333479258802309E-1   -1.562536396659548E1

 3.027500000000000E7    -2.713568256387910E-1    1.020204412791601E2    -6.768101094154962E1     9.293738629610880      -9.088925014037260E1    -1.031106156261657E1    -9.512365850919329E1     2.874967654669293E1
                        -6.902494943416967E1     1.557057599546527E1    -2.284946767848428E-1    8.968256625830983E1    -8.450687171912142E1    -3.927956656117161E1    -7.840937250982114E1     1.474875967447213E2
                        -9.068075726837435E1     6.083189123894591E1    -9.187469843837185E1     1.546627647931194E2    -9.168768121283764E-1   -1.086803567893547E1    -8.960628311080392E1    -1.456271579269735E2
                        -9.972917368775467E1     7.462392992047195E1    -8.675826343995668E1    -7.477674300782054E1    -8.941417085379449E1    -1.067899605914973E2    -9.261764624415405E-1   -1.596304983643998E1

 3.030000000000000E7    -2.755883011874966E-1    1.018041010657310E2    -6.754421905169528E1     1.026939629988824E1    -8.669490646295942E1    -3.808460437379024E1    -8.668527307619115E1     1.511262722217261E2
                        -6.922227534809201E1     6.419134140294734E-1   -2.402977575561252E-1    8.930235342838452E1    -8.946446471719037E1    -1.638954180935467E2    -9.063049470511770E1    -1.516714303243044E2
                        -8.518051481176507E1    -1.541235925489240E2    -8.079368120087054E1     1.459561194302457E2    -9.202892411474734E-1   -1.121262762061733E1    -8.078615525379645E1     1.743265992595824E2
                        -8.673549119485890E1     1.161221004006815E2    -8.678792973664686E1    -1.028552152163552E2    -8.662327959597423E1    -7.759052008740672E1    -9.287166366937820E-1   -1.626652001037951E1

 3.032500000000000E7    -2.753891523226444E-1    1.014342370758067E2    -6.909754682455331E1     9.611930172088558      -8.756108199552293E1    -3.851493881826633E1    -8.704665969372819E1    -1.670687416108377E2
                        -6.895424783311479E1     1.129738643181750E1    -2.314433459421725E-1    8.893505786143722E1    -8.509459733821640E1     8.126943169556077E1    -8.641502809145283E1     9.182940594646910E1
                        -9.481211925419274E1     1.767025741904790E2    -8.341160355697031E1     1.523905312171392E2    -9.207300584786364E-1   -1.151512543519501E1    -8.165406560090818E1    -1.232460570245090E2
                        -8.693942502160292E1     9.223414308595960E1    -8.405394531868913E1     1.003354896705531E2    -8.361864874173399E1    -1.349231875262883E2    -9.278168220598081E-1   -1.654599088718740E1

 3.035000000000000E7    -2.660230908332194E-1    1.011807142783575E2    -6.794766207500078E1     9.707705726617673      -9.075648469097436E1    -1.510084567408069E2    -8.367840721946556E1     1.331245584039640E2
                        -6.949503593647496E1     7.031696028430163      -2.338830197684451E-1    8.858881738941939E1    -1.320732956098103E2     1.091690184686963E2    -8.464613585719015E1     1.224773338977196E2
                        -7.980591567499522E1     4.753120644500253E1    -9.986959719591575E1    -1.681940040142824E2    -9.202972082468435E-1   -1.177922342132140E1    -8.439333308202390E1     2.372804995162260E1
                        -8.195120115916340E1     1.294091083316821E2    -8.608569641457754E1     1.754580519969957E2    -8.702407850160029E1     7.307772152871534E1    -9.323453530469170E-1   -1.688216401017542E1

 3.037500000000000E7    -2.694893156183742E-1    1.008736247944739E2    -6.733576706033136E1     9.053741713056914      -8.056049775138763E1    -1.290218004322451E2    -8.656976664874264E1     5.057013113881220
                        -6.760580961255036E1     5.063265075749310      -2.339778323110932E-1    8.816041729828869E1    -8.400175619148862E1     4.567936662685056E1    -9.317004323585694E1    -1.729139743161413E2
                        -9.235057726132715E1     1.730914998448679E2    -1.062416323319506E2    -3.597194468435360E1    -9.179271242347662E-1   -1.211265482961730E1    -8.648424886624120E1     1.351033538572631E2
                        -8.772224943775085E1     3.228603716786530E1    -8.218174474046475E1     7.775996065540308E1    -8.553773957349982E1    -1.726404068147913E2    -9.259542039072404E-1   -1.716260529042226E1

 3.040000000000000E7    -2.634739557311444E-1    1.005882961672483E2    -6.737883139754896E1     3.797481547975492      -8.827789246746461E1     1.453648624863138E2    -8.686905664818187E1    -2.033699526795036E1
                        -6.925616221544935E1     1.082314705700769E1    -2.309169846756673E-1    8.783738677124542E1    -8.467687691382692E1    -2.403590649218410E1    -9.098317405975060E1    -3.452309456121216E1
                        -1.076765599386220E2     9.814873535555076E1    -8.949788338951754E1    -3.039626575684047E1    -9.183155495065242E-1   -1.236246112529313E1    -8.269696525348869E1    -1.561308729430581E2
                        -8.874325069337471E1     1.028443777893643E2    -9.714956316274176E1     1.096027114935046E2    -9.580848371029302E1    -7.620393400766932E1    -9.280597931530500E-1   -1.748040232935682E1

 3.042500000000000E7    -2.644045024985614E-1    1.003130844914303E2    -6.604232390453160E1     8.565678326463866      -8.527526320428807E1     1.264724677653088E2    -8.475390545483063E1     1.370329967628197E2
                        -6.869426848303246E1    -6.952582913739828E-1   -2.362611509762434E-1    8.748864283264321E1    -8.335674711427400E1     6.505533693354396E1    -8.765339557234447E1     1.143261474476417E2
                        -8.868135860482224E1    -9.415543825113282E1    -8.517213129378487E1    -1.761704930261191E2    -9.181893764138126E-1   -1.268103669499469E1    -9.562200101204688E1     7.166525254777513E1
                        -8.647447852235359E1     1.720335538700406E2    -7.891392822860699E1     9.233359687348840E1    -8.835127124367659E1    -1.261140081363977E2    -9.281200253371018E-1   -1.780880833613776E1

 3.045000000000000E7    -2.722052457976218E-1    9.998338312240240E1    -6.784088679229546E1     7.973155494994360      -8.311086738477729E1    -9.586738540458191E1    -8.244370515484319E1     6.611609625470882E1
                        -6.767944623737533E1     9.029797643522407      -2.324363074726563E-1    8.708612018012308E1    -8.829348703934544E1    -1.090074627736848E2    -8.428842298491539E1     1.781237317441211E2
                        -9.203634959020525E1     5.986327669163569      -8.719363380805667E1    -5.901222722594627E1    -9.188730286307432E-1   -1.306951849100339E1    -8.319632548715939E1     1.162122205483945E2
                        -8.090960147634151E1     1.507834069998259E2    -8.732437326390333E1    -8.534098211902929E1    -8.960574880810586E1    -5.482842833120891E1    -9.298576931162422E-1   -1.810456894096561E1

 3.047500000000000E7    -2.668038608577859E-1    9.971803534817927E1    -6.630649052892055E1     4.752569117122626E-3   -9.978328857475107E1    -1.104527118594086E2    -8.787469584057550E1    -1.723917571675131E2
                        -6.815562116951105E1     7.247203429719439      -2.293283641328325E-1    8.672067868381828E1    -1.107461783554906E2     1.590493642223046E2    -8.517170321968197E1    -1.605693556856724E2
                        -8.627359348862720E1    -1.332393959570321E2    -8.974362748229019E1    -1.474535881314636E2    -9.306475548638249E-1   -1.327820721666550E1    -8.844703993448766E1     1.660435292487699E2
                        -8.367663287192771E1    -1.452041666035475E2    -8.471207960620752E1     9.545065860542690E1    -8.654230916815614E1    -2.604121893597960E1    -9.260519284315227E-1   -1.839540504226188E1

 3.050000000000000E7    -2.706125684327704E-1    9.939551545569748E1    -6.637438512332909E1     3.552256629369506      -8.147279312880939E1     7.060042101735961E1    -8.787171830310234E1     6.097816462838576E1
                        -6.798247885536117E1     6.553210688522208      -2.282765138903478E-1    8.635764019284956E1    -9.518229244227662E1    -1.263346675838706E2    -8.448699996192923E1    -3.206957211868249E1
                        -9.090377484729922E1    -1.101573584713677E2    -9.134460221275303E1    -1.699493554818438E2    -9.245668104785372E-1   -1.358043401599807E1    -8.700282092471170E1    -1.638194861543616E2
                        -8.892082069842252E1    -1.655063186160997E2    -8.839827440483687E1     1.450334740446653E2    -8.130930576277477E1    -7.115586975942946E1    -9.282347601515666E-1   -1.874153324822563E1

 3.052500000000000E7    -2.590454565028325E-1    9.910352051689088E1    -6.702018450651626E1    -5.869153181496093      -8.149296164506951E1     1.139081176422142E2    -8.391408389578493E1     6.554391618848736E1
                        -6.771488423122646E1     1.043914957034233E1    -2.338189455629164E-1    8.596894653780032E1    -7.782128556858720E1    -1.315314444169144E2    -9.495929792554919E1     8.349222204557543E1
                        -8.854367484252234E1     1.507292009488150E2    -9.515491394367939E1     1.371976310845261E2    -9.193833905635852E-1   -1.387550846203827E1    -8.439879081830853E1    -1.653088330236647E2
                        -9.300919909335514E1     2.866889474631455E1    -7.870454046911263E1     1.567461482364079E2    -8.615101519961769E1     1.469653391848073E1    -9.307347984285164E-1   -1.903098311849040E1

 3.055000000000000E7    -2.622489039173451E-1    9.882323789454530E1    -6.808642242271544E1     2.849802997802553      -8.703667610503196E1     6.990574421832430E1    -8.898303733861262E1    -1.260439466947581E2
