#  HZ   S   DB   R     50.00 
! Rohde & Schwarz Vector Network Analyzer 
! Rohde-Schwarz,ZNB8-4Port,1311601044102961,2.82
! Created: UTC 2/13/2019, 9:18:34 AM
! freq[Hz]                db:S11                  ang:S11                 db:S12                  ang:S12                 db:S13                  ang:S13                 db:S14                  ang:S14
!                         db:S21                  ang:S21                 db:S22                  ang:S22                 db:S23                  ang:S23                 db:S24                  ang:S24
!                         db:S31                  ang:S31                 db:S32                  ang:S32                 db:S33                  ang:S33                 db:S34                  ang:S34
!                         db:S41                  ang:S41                 db:S42                  ang:S42                 db:S43                  ang:S43                 db:S44                  ang:S44
! 
 3.000000000000000E7    -2.610166366643250E-1    1.015547114380629E2    -6.876836421704465E1     1.552257568607351E1    -8.270497614677224E1    -1.127402158887205E2    -8.437327130672085E1    -6.772543865248709E1
                        -7.036829475845441E1     1.337843263194429E1    -2.628081441910052E-1    8.991660327236389E1    -8.072655317554273E1    -1.245911670418932E1    -9.177671522249590E1    -1.861305791395375E1
                        -8.138565567197846E1    -1.365454924252645E2    -8.662506176838770E1    -2.593900120120683E1    -9.288609802909931E-1   -1.144874517015783E1    -8.919386973306385E1    -2.586399963766592E1
                        -8.150612167479207E1     1.266590385169504E2    -8.478312458134617E1    -1.693023106906477E2    -8.754774187394924E1    -2.136215623440787E1    -9.377265335495956E-1   -1.642265080674863E1

 3.002500000000000E7    -2.614617056748548E-1    1.012659832259243E2    -6.786887436199302E1     1.653736492147479E-1   -8.520382126917396E1    -1.751616098788087E2    -8.342259850156567E1     4.150491429251415E1
                        -6.855231883535217E1     9.354012238715059      -2.675376990330605E-1    8.953211422724290E1    -8.161244004406433E1     1.560793730765471E1    -7.867213756616388E1     1.346720495141225E2
                        -7.769447988029776E1    -5.315224990198230E1    -8.087196727973804E1    -6.406339865818579E1    -9.286724923720007E-1   -1.174320479986461E1    -8.628325312251459E1     1.707374368306415E2
                        -8.511713313767361E1    -8.620498528221388E1    -8.393448275653233E1     1.151762006521158E2    -9.979316950376813E1     1.738174055978032E1    -9.389713215890128E-1   -1.675731577192024E1

 3.005000000000000E7    -2.565756826344663E-1    1.009786415804026E2    -6.821971055289177E1     1.097805544474628E1    -7.875238956761400E1    -3.260812063683969E1    -9.099171565343667E1    -1.067239285279293E2
                        -6.861586144719961E1     1.356182121169856E1    -2.576058930567994E-1    8.923258276851401E1    -8.181633985874396E1     8.146048044505537E1    -8.954577672068140E1    -4.155182935088504E1
                        -8.919730208623399E1     1.119188128709378E2    -8.557221102370903E1    -1.314864679528504E2    -9.295577451950509E-1   -1.202828843866675E1    -8.831051354206170E1     8.195834111770463E1
                        -9.095751170933917E1    -7.511862478133509E1    -9.128586061802778E1    -1.419509917957961E2    -8.161284833008159E1    -1.627216806121743E2    -9.343513590364663E-1   -1.710539691041747E1

 3.007500000000000E7    -2.578685192792548E-1    1.006987169113755E2    -6.892865979516418E1     1.232326823290488E1    -9.065683047621620E1    -6.371463899841811E1    -8.143470283720339E1    -1.133005837759921E2
                        -6.950935213269301E1     1.090960649020210E1    -2.625163454621483E-1    8.880808518548179E1    -8.085743674099874E1    -1.247858760952561E2    -8.536566644371550E1     8.830275585522982E1
                        -9.119301928193468E1     2.732119963874763E1    -8.050048563662655E1    -1.303388401608925E2    -9.309405285014089E-1   -1.234202290796301E1    -9.217721422222999E1    -9.310469832286040E1
                        -8.001356633533456E1     6.327103798717480E1    -8.446856502740582E1    -1.408164273760786E1    -8.718199612442760E1    -3.866547659889479      -9.421146979955699E-1   -1.737419407992520E1

 3.010000000000000E7    -2.555528341202769E-1    1.004194132126137E2    -7.030102050444511E1     2.688820898365100      -8.348106703384373E1     7.645278272752643E1    -8.890211295948562E1     2.149365056840242
                        -6.808161071848689E1     1.106471835698387E1    -2.645433662962196E-1    8.840575932931951E1    -8.649367252898854E1     1.680732536205167E2    -8.909656976766065E1    -1.655498733458902E2
                        -8.790802452163318E1     1.350510704692064E2    -9.407444563097641E1    -6.524851024192073E1    -9.261068025443208E-1   -1.267019921622046E1    -8.886986059550469E1     1.522226028910097E2
                        -1.004645962437047E2    -1.582560730893567E2    -9.025419477253797E1     1.139899031453522E2    -9.333491826135946E1    -1.049827483028118E2    -9.423218437908963E-1   -1.769135203675582E1

 3.012500000000000E7    -2.541280311333762E-1    1.000590416709555E2    -6.787319437280817E1     2.370483111791133      -1.070387903095414E2    -1.481653516165239E1    -8.584820600642821E1     1.087427460002938E2
                        -7.029109628853961E1     7.991213955483089      -2.541926078465906E-1    8.806540684061352E1    -8.754094394484486E1     1.581263988309868E2    -8.605024195074549E1     1.205488488732140E2
                        -8.552271536218449E1    -9.904613060403197E1    -8.175843694929628E1    -6.884032202173580E1    -9.281043401467682E-1   -1.297082549013279E1    -8.883727516987213E1    -5.164434737372979E1
                        -9.293343651513105E1     1.161955019855596E2    -7.999101887431439E1    -1.303483359264107E2    -8.828742660320725E1     5.944060417726019      -9.378955153082038E-1   -1.803910588544335E1

 3.015000000000000E7    -2.616115394063550E-1    9.976299326307610E1    -6.913618493924420E1    -3.496059707830455      -7.814380689894256E1     1.632450167362878E2    -9.237811166829451E1     6.786125408509183E1
                        -6.938458580728286E1     3.519686053485812      -2.610856643800972E-1    8.767671944511393E1    -8.527610887964283E1     2.227161429282359E1    -8.590472014367182E1    -1.433978966971826E2
                        -8.180926018274919E1    -2.581544750793991E1    -8.823655662856451E1     1.206670722785276E2    -9.318357749978747E-1   -1.328924031722922E1    -8.056453194819727E1    -1.384477983161808E2
                        -7.999063086854994E1     2.362173497297766E1    -9.017641582755726E1    -4.210727091990908E1    -8.675943933214901E1    -1.140355220489712E2    -9.371586634967655E-1   -1.829199397962806E1

 3.017500000000000E7    -2.509947590004831E-1    9.949940182356544E1    -6.854143169544238E1     1.681141972498679      -8.576530592321673E1     4.525298279393961E1    -9.469437852922252E1     1.542905575889018E2
                        -6.753277230180518E1     4.473907866872682E-1   -2.517182550468854E-1    8.731770412111203E1    -8.807867249678994E1    -1.290829384438172E2    -9.461097996236303E1    -5.281449188438616E1
                        -8.163703488761428E1    -1.564179725161797E2    -8.765442058545540E1    -4.193504035650857E1    -9.257461333253663E-1   -1.356997055803599E1    -9.233318052320998E1    -1.195266932661514E2
                        -8.337584173555690E1     1.429219378388192E2    -8.448468405770845E1     1.653731751781093E2    -8.759014885763038E1    -3.354162920138738E1    -9.397713717358324E-1   -1.865041795965047E1

 3.020000000000000E7    -2.510267824175464E-1    9.919133764961703E1    -6.845595335827650E1     1.452384579948642E1    -8.330476566442015E1    -4.125258340206826E1    -1.088219775809720E2    -1.702696271365315E2
                        -6.963073928015189E1     1.254812226430057E1    -2.592346374137276E-1    8.689875223016264E1    -8.643883715856943E1     1.029625764254381E2    -8.321229507637396E1     1.747151278489318E2
                        -9.056261440074051E1    -2.690005407085124E1    -8.832475460830239E1    -1.721168747857618E2    -9.213512308897752E-1   -1.389182120321622E1    -8.792733656178228E1     5.865026784111267E1
                        -8.845284085574059E1    -6.136386032849354E1    -9.635031381572610E1     7.207372885120620E1    -9.839985959145000E1     6.108974931831107E1    -9.417094778155295E-1   -1.896722858775481E1

 3.022500000000000E7    -2.579773856182300E-1    9.891990180505621E1    -6.743170659236013E1     8.063165927477035      -8.782019094331240E1    -1.430644862473708E2    -7.982209565785182E1    -5.884648000146522E1
                        -6.809486346310693E1     1.172813797955217E1    -2.603724344592400E-1    8.658315722078180E1    -8.372110344774298E1     8.183184740069196E1    -1.067570825199877E2     6.926378185553159E1
                        -9.992837403513646E1    -6.682645079857844E1    -8.914332590216259E1    -1.304044101411745E2    -9.292321152729871E-1   -1.421841462105298E1    -8.060209907049671E1     7.283952741065951E1
                        -8.255307348315868E1    -1.665044766241539E1    -8.869943459004719E1    -1.749469514907943E2    -9.758412875566714E1    -1.742388136281103E2    -9.382861583177329E-1   -1.925707753922791E1

 3.025000000000000E7    -2.588492400645494E-1    9.861471245276321E1    -6.930059167712896E1     5.767275833354759E-1   -8.728065143736927E1     8.666044829272998E1    -9.493670808895573E1    -1.018618210976924E2
                        -6.852009994260504E1     1.232055044870301E1    -2.702033440853688E-1    8.623782441176692E1    -8.777987097386091E1    -1.642879076552073E2    -8.856314230732289E1     7.944284213343214E1
                        -8.911399198221014E1    -8.225211551160746E1    -8.797762322192003E1     1.410214259015692E2    -9.266362380557476E-1   -1.447503528511888E1    -8.798389317435984E1    -1.136258424391625E2
                        -8.377230875126450E1    -1.247841736850230E1    -8.826794574859635E1     7.129147640376684E1    -9.072919897431645E1    -7.718596644890809E1    -9.456521229692452E-1   -1.960539098876340E1

 3.027500000000000E7    -2.520294458112922E-1    9.830596998136628E1    -6.771047078663455E1     1.829373908419067E1    -9.168013720327922E1     1.934032375478783      -8.654141576454292E1    -1.146100644898238E2
                        -6.879299039431628E1     3.178557609439639      -2.457630114001492E-1    8.580705158790599E1    -9.249578402845205E1    -1.073936575264079E2    -8.683420952130243E1    -4.592151341019343E1
                        -7.881360931095607E1    -1.338520098747352E2    -8.066146963865073E1    -1.150493489525263E1    -9.236953836476016E-1   -1.475498318736801E1    -9.229430929251956E1    -3.017564967065586E1
                        -9.827285381846509E1    -1.349742747692645E2    -9.174578883824681E1    -1.698600072830913E2    -8.569237672526626E1     5.851402122302365E1    -9.410722102289002E-1   -1.987156019993207E1

 3.030000000000000E7    -2.506835965675931E-1    9.806130872673543E1    -6.878640005933983E1     1.013322727184058E1    -9.967952144972031E1    -1.063019211969181E2    -8.829787515953274E1     5.648816616040022E1
                        -6.777436416881722E1     5.572766345785693      -2.616181003652052E-1    8.546452076332193E1    -8.649527905892084E1    -8.278111534398450E1    -9.586334537501612E1     8.138581627466398E1
                        -7.992934113899860E1    -1.351624436381845E2    -8.236226462353677E1     8.654264534757473E1    -9.323607950662038E-1   -1.514361452220514E1    -1.103481345008621E2     1.157494515598790E2
                        -8.728174914361014E1    -2.020059167340753E1    -8.087115484108401E1    -5.011901419559259E1    -8.950663052158041E1     1.225239684795130E2    -9.405769012935784E-1   -2.022438677139070E1

 3.032500000000000E7    -2.548595463019565E-1    9.772395272658577E1    -6.804368767910307E1    -1.048254387686402      -7.880819622775280E1    -9.387803780687864E1    -8.509890607735542E1     7.338068718827057E1
                        -6.953768345237623E1     5.837980314205884      -2.607998697738195E-1    8.499945701958775E1    -8.444511249110391E1     1.689133550632163E2    -9.765632110898898E1    -3.404976949609068E1
                        -8.593789346491350E1    -8.878500887715647E1    -8.734774484845245E1    -7.893764468662572E1    -9.322111733055899E-1   -1.543670721987166E1    -8.464221888766562E1     5.034210576061359E1
                        -8.680791084225790E1     4.128233984405303E1    -8.303109770865703E1    -1.261073197210659E2    -8.639980596768213E1     1.170538269069512      -9.427670988206729E-1   -2.050045260624592E1

 3.035000000000000E7    -2.505103122120366E-1    9.744877036930966E1    -6.818969106132126E1    -4.503036420239162      -7.708301754253378E1     9.042554758638448E1    -8.437724679587282E1    -7.002769258996025E1
                        -6.823190063720499E1    -2.468389680802839      -2.526099851472444E-1    8.464824432875777E1    -8.562356733635980E1     1.564010687958760E2    -9.338521931003393E1    -9.083504934637931E1
                        -8.869715983558172E1    -1.601012901731711E2    -9.142378131475823E1    -5.063183447733653E1    -9.243967514851772E-1   -1.573499483324369E1    -8.817848778921365E1     7.494592678914370E1
                        -8.506896330076447E1    -1.519207567727618E2    -8.444125277153860E1    -9.351786105544329      -8.781542577824916E1    -2.226358263360362E1    -9.378281289856784E-1   -2.084889535887340E1

 3.037500000000000E7    -2.517278417017300E-1    9.715609631056492E1    -6.840283739070058E1     2.030751593576234      -8.199899524154439E1    -1.347484567595002E2    -8.735337014662733E1     1.364870701027606E2
                        -6.898518666013734E1     2.227939085663248E1    -2.557423834522274E-1    8.428816385274011E1    -9.202336144804497E1    -1.068666298670534E2    -8.774631229822984E1    -8.720606462525603E1
                        -1.006767111338304E2    -1.214044279026739E2    -9.090623446731175E1     1.541126736653091E2    -9.277105845953972E-1   -1.600284715034665E1    -8.205209055342465E1     1.523474362720781E2
                        -9.928801840960108E1    -1.048920396608816E2    -9.170017067443538E1     1.754676395942941E2    -8.825525058723856E1    -8.030769517800376E1    -9.378332172738019E-1   -2.112971520289722E1

 3.040000000000000E7    -2.410156144585804E-1    9.684615618478415E1    -6.870990091267815E1     5.385263288958373E-1   -8.457379731733651E1     9.402384703101086E1    -8.587511313779176E1     1.759514446455714E2
                        -6.854435286537184E1    -7.686257250691360      -2.564657079128443E-1    8.392041534601584E1    -8.613932904809442E1    -9.004973814689343      -7.731985982247008E1     4.554761775341951E1
                        -9.139793954417729E1     1.067010467632039E2    -8.404548989200217E1     4.484188620144510E1    -9.288194318978637E-1   -1.631209281406834E1    -8.401501949901801E1     5.458414069594991E1
                        -8.805757477874657E1     1.606847240273885E2    -8.707640059077393E1    -9.523465963732755E-1   -8.688255489671303E1    -1.768825693921279E2    -9.362763095667515E-1   -2.147100722585003E1

 3.042500000000000E7    -2.490140202858207E-1    9.656802593829168E1    -6.781000280769042E1     2.110161272612995      -8.193131330968227E1    -1.462327955577453E2    -8.937780582058723E1     1.526930250705889E2
                        -6.914805484890565E1     6.116790970882034      -2.524623782713454E-1    8.359703987691438E1    -9.031023047680735E1     8.054294022910577E1    -8.919878967601404E1     3.001024930506509
                        -8.243543320552038E1     4.572812271935813E1    -8.427976851307037E1    -4.368014101301648E1    -9.254048312370597E-1   -1.666523765563410E1    -8.900010909212641E1    -7.213934061029322E1
                        -8.845125363466529E1    -1.502144113669929E2    -9.573128702275470E1     5.709912803339571E1    -9.260454520593235E1    -3.612992931573120E1    -9.409918554337939E-1   -2.177537947452055E1

 3.045000000000000E7    -2.489397737874836E-1    9.624728150982081E1    -6.769624324499335E1     7.244241828937435      -9.309668273703966E1    -1.476082722318035E2    -8.689909123549866E1    -1.940683593896862E1
                        -6.592263663572449E1     2.073420420865954      -2.563199716964025E-1    8.312960154522743E1    -9.350407293893301E1    -1.500917338730028E2    -9.346958748506543E1    -8.103098147354668
                        -8.648558387943029E1    -1.005997970976428E2    -8.293281409676879E1    -1.764020947423702E2    -9.344516645741843E-1   -1.694258896188126E1    -8.672069662878810E1    -6.454137828574855
                        -8.959829774628331E1     6.526115222172447E1    -8.618314686747968E1    -1.111214548662374E2    -8.495080552688981E1    -8.731287351442370E1    -9.421450002005227E-1   -2.208316353662480E1

 3.047500000000000E7    -2.480744998339837E-1    9.595226256783124E1    -6.827124911165113E1     5.642754172555632      -8.838500791504258E1     1.379591331143403E1    -9.625971900760796E1     5.636981436386279E1
                        -6.689966511905320E1    -1.154482815735341      -2.520052011244430E-1    8.281234989198009E1    -8.145995666969854E1    -7.181637109694610E1    -9.015314967461561E1    -1.730831821762932E2
                        -8.243922973199375E1     1.257519879652203E2    -8.877868121323566E1     7.967932048431521E1    -9.306357446616421E-1   -1.724043072327289E1    -9.534041603839044E1    -1.624682787382604E2
                        -8.742445178498045E1    -1.708525960428360E2    -7.558257863935113E1    -1.504423368780635E2    -9.324988245036090E1     1.524033982349481E2    -9.406438118586007E-1   -2.240238983405648E1

 3.050000000000000E7    -2.513590575617826E-1    9.570079328784343E1    -6.831632850644502E1     3.487474685075184      -8.864440097604762E1     1.958388644718877      -7.824395030638495E1     4.040183484209111E1
                        -6.656769111526123E1    -6.906015434299768      -2.504323683018939E-1    8.237382066934411E1    -8.252260123277912E1     1.562165039022186E2    -8.740259719809095E1     7.113197336518354E1
                        -8.654264484808046E1    -1.060599159027030E2    -1.064125784675716E2    -5.476060583911400E1    -9.313181382119731E-1   -1.755928711269012E1    -9.483802228120781E1     4.605910303780691E1
                        -8.548225523018417E1     9.991944266422831E1    -8.325584866004945E1    -1.479857061782102E2    -9.800209003714939E1    -1.478072159283346E2    -9.416292220692470E-1   -2.273094441431880E1

 3.052500000000000E7    -2.457780022774661E-1    9.536596769413018E1    -6.714835076274375E1    -5.966413572105381      -9.436225486022619E1    -1.259357602137368E2    -8.249055355144373E1     2.222579848769961E1
                        -6.922618876420953E1    -9.806236045464039E-1   -2.555866534730610E-1    8.205512162396632E1    -8.756033936196685E1     1.117405984122086E2    -8.226748042332760E1    -8.291278068707585E1
                        -9.116540943824928E1     3.303890713454870      -8.291729096472184E1    -1.913191000580790E1    -9.302407611922750E-1   -1.784028401370350E1    -8.666834049853406E1     6.896627564321058E1
                        -9.624170977584359E1     1.327144833943312E2    -8.380014835434170E1     1.126587390692254E2    -8.612912759946687E1    -2.538733029761274E1    -9.441342069249854E-1   -2.307497423618720E1

 3.055000000000000E7    -2.434180486701881E-1    9.508790716988635E1    -6.760302932414211E1    -5.334894077296025      -8.538866532463590E1    -3.858182454751054E1    -1.001037302292272E2    -9.642215447609404E1
