#  HZ   S   DB   R     50.00 
! Rohde & Schwarz Vector Network Analyzer 
! Rohde-Schwarz,ZNB8-4Port,1311601044102961,2.82
! Created: UTC 2/12/2019, 11:42:36 AM
! freq[Hz]                db:S11                  ang:S11                 db:S12                  ang:S12                 db:S13                  ang:S13                 db:S14                  ang:S14
!                         db:S21                  ang:S21                 db:S22                  ang:S22                 db:S23                  ang:S23                 db:S24                  ang:S24
!                         db:S31                  ang:S31                 db:S32                  ang:S32                 db:S33                  ang:S33                 db:S34                  ang:S34
!                         db:S41                  ang:S41                 db:S42                  ang:S42                 db:S43                  ang:S43                 db:S44                  ang:S44
! 
 5.275000000000000E7    -2.464470920642240E-1   -6.695876126134475E1    -2.995648511160594E1     1.316594159401261E2    -6.750369812966623E1    -8.093632710962739E1    -8.350817458227215E1    -4.791018877018507E1
                        -2.996618142098242E1     1.313483818074118E2    -3.316114450146496E-1    1.492731695341967E2    -8.480224087247798E1     1.484940481397991E2    -8.582221563912533E1    -2.307523321825754E1
                        -6.819970918211010E1    -9.386085900588707E1    -8.735095349851056E1     1.553684010047685E2    -1.422013256674581       7.118868005862791E1    -8.609025009726027E1    -8.926802689407055E1
                        -8.916199615364886E1    -1.160177503784831E1    -8.700088843237845E1     3.277665843280416E1    -1.018921151744969E2     2.069321186561310E1    -1.383456311339813       6.551656859136190E1

 5.275025000000000E7    -2.452487478573280E-1   -6.701375552404505E1    -2.997628637302932E1     1.311503514278499E2    -6.897635740582436E1    -8.407223104472470E1    -8.258990363769169E1    -6.640333800092834E1
                        -3.003028662856774E1     1.317671013083894E2    -3.332793618561206E-1    1.492222244540377E2    -8.477664107179524E1     7.548622514658285E1    -8.569211833559486E1    -1.139128894891081E2
                        -6.863941358133019E1    -9.945864788170783E1    -7.987735035395465E1     2.024228684417061E1    -1.420325085745541       7.119058634974144E1    -8.601901371064714E1     1.576305573073469E2
                        -8.573421249145115E1    -5.515364821420229E1    -8.755842348350302E1     5.892202679841147E1    -8.874117474421874E1     1.061022168794101E2    -1.380951533193428       6.549554789453390E1

 5.275050000000000E7    -2.454096879410374E-1   -6.699855051738253E1    -2.995024605332198E1     1.312024798673146E2    -7.042164186919446E1    -7.602080496779831E1    -8.977226192641069E1    -1.091461805253478E2
                        -3.008414060399160E1     1.309425458316578E2    -3.331762944855256E-1    1.492688085428618E2    -9.131679841841425E1     1.164968449952663E2    -1.003698727145852E2    -5.883759460332779E1
                        -6.974463059561600E1    -9.555453830452944E1    -9.703971113622234E1     8.337440674760093E1    -1.420828297318629       7.120888473042977E1    -8.379275660677561E1     3.874246713639464E1
                        -9.512278383722764E1     1.108962726784638E2    -8.916073013246856E1     1.133686817599947E2    -8.513635731531856E1     2.476164015647482E1    -1.382640331269731       6.551134542658362E1

 5.275075000000000E7    -2.465693574969170E-1   -6.703684834039817E1    -2.993358629343485E1     1.311145766595814E2    -6.857375941723218E1    -9.022069319250892E1    -9.539662719812723E1    -1.536600430642762E2
                        -2.984169832644694E1     1.311122749824922E2    -3.327939910628189E-1    1.492923778942167E2    -8.085723101119625E1    -1.200714789260685E2    -9.119049263694728E1    -1.445426097873774E2
                        -6.859681010984757E1    -8.339856611824602E1    -8.756913248723748E1    -1.343884358685416E2    -1.416019081291632       7.119605918096161E1    -8.931418976285244E1     8.416281401315875E1
                        -8.526543196708749E1     4.133470407864159E1    -8.563266158025611E1     1.145381059691078E1    -8.469027497305839E1    -5.342640125162629E1    -1.376237740859694       6.548546529984239E1

 5.275100000000000E7    -2.464419186815464E-1   -6.705146634353987E1    -3.001057834852657E1     1.310236858373441E2    -7.002433235229761E1    -9.799961336802792E1    -8.476662208605475E1    -1.290934344264111E2
                        -3.002416763038567E1     1.315034079372406E2    -3.309575763372349E-1    1.493004607278521E2    -8.297253356164235E1    -1.689107970051421E2    -8.197946752453504E1    -1.690463983440913E2
                        -7.012649090937381E1    -9.586838819876122E1    -9.086456330621462E1    -3.537515039616389E1    -1.421624509253862       7.121499064428230E1    -8.164273447469518E1     8.534156630489525E1
                        -8.340711822541479E1    -8.269348437759872E1    -8.917271304482713E1     1.878181661699707E1    -8.731056532116510E1    -1.076163287704470E2    -1.381509151751139       6.547880909801749E1

 5.275125000000000E7    -2.433194467893317E-1   -6.711148741317599E1    -2.995255784745495E1     1.304908483143822E2    -7.070673995537970E1    -8.718270666929011E1    -8.797187443698545E1    -7.775106916764807E1
                        -2.996560672749764E1     1.306066662023169E2    -3.337957352189546E-1    1.492236290794672E2    -8.267659909097461E1     1.237803642056902E2    -8.729985047925054E1     3.779816689710442E1
                        -6.881720135617654E1    -8.713305799765196E1    -9.207332330363700E1     9.035649273299944E1    -1.417945100042807       7.116118662227883E1    -8.580877593762089E1    -7.464871515419119E1
                        -1.012775288906963E2     3.204978903910775E1    -9.195013547814332E1    -7.697780407417541E1    -8.692356674159015E1    -1.344260092641028E1    -1.382790911649195       6.550751461574771E1

 5.275150000000000E7    -2.476394226002312E-1   -6.710007000889557E1    -2.999193239251410E1     1.310888914529787E2    -7.175557753002354E1    -8.699539637228099E1    -9.051023667536259E1    -1.663020940781532E2
                        -3.002596742963174E1     1.312899997882698E2    -3.336761555208082E-1    1.492642180745112E2    -9.642127057367429E1     1.505317494151850E2    -7.846214062784787E1     9.723480578767934E1
                        -6.929574707626334E1    -9.034630792047032E1    -8.313785221876417E1     8.806603965388695E1    -1.421509651632152       7.118045653918311E1    -9.174660101660803E1     1.045267736459125E2
                        -9.517171339786790E1     7.504824070423345E1    -8.705227847015031E1    -5.426040265640719E1    -8.610423819229101E1     1.710730184506321E2    -1.383493737452952       6.552292742659736E1

 5.275175000000000E7    -2.436069609833268E-1   -6.712178829632619E1    -3.003665487493695E1     1.313492577609401E2    -6.901623844901909E1    -8.998555991444751E1    -9.072026858034697E1    -3.332625044264373E1
                        -2.995874877789324E1     1.314310993093113E2    -3.320950352120100E-1    1.492372577592272E2    -8.559153480582658E1     1.069194843433668E2    -8.505985883855672E1    -2.767781230938270E1
                        -7.032651430618796E1    -1.012864914848374E2    -8.756101244713271E1    -6.440624705361876E1    -1.417514343488487       7.118613041692785E1    -9.086226011949121E1     3.813766529600732E1
                        -9.787105000793699E1    -1.433912981247589E2    -7.870531335735478E1     1.747316510719877E2    -9.193539497701850E1    -6.444757382469228E1    -1.384009530455701       6.549160740330329E1

 5.275200000000000E7    -2.415157000752945E-1   -6.712267683490124E1    -2.992128269440622E1     1.309981758183515E2    -6.847054093629906E1    -9.941189708726712E1    -8.683848058355738E1    -6.378719508149168E-1
                        -2.988578589651699E1     1.314973687652007E2    -3.331656425443455E-1    1.492475985185812E2    -8.808731553065975E1    -7.531947793479485E1    -8.915624863290719E1     1.698680106935357E2
                        -6.754071378901872E1    -8.831377386551453E1    -8.272116646516290E1     5.704909065331042E1    -1.422265802981988       7.118552102552371E1    -8.508964557527079E1    -1.003464007698084E2
                        -8.654331671601551E1     1.710096362529285E2    -9.039497563580477E1     1.181265041646398E2    -8.279390867224240E1    -1.417281150748879E2    -1.384311182372583       6.547734528354582E1

 5.275225000000000E7    -2.444973036809718E-1   -6.712766177495179E1    -2.995190187397193E1     1.310305898326159E2    -7.061570153613933E1    -8.321980168868615E1    -8.456620191270633E1    -1.504489102095912
                        -2.996030312152186E1     1.312118879633783E2    -3.280638827794912E-1    1.492283988789171E2    -8.787763028228987E1    -2.503056515847400E1    -8.215716150540166E1     5.189336473770326E1
                        -6.864289771013876E1    -9.143536343414387E1    -8.659122795562024E1     1.066018700487722E2    -1.422697755017613       7.116526804568096E1    -8.498151872989072E1    -6.961323490257526E1
                        -8.446037780025213E1    -8.029945560321438E1    -8.558458290219124E1     8.868374554755862      -8.554272468959823E1     1.286267477914358E2    -1.378373233946898       6.549550669184175E1

 5.275250000000000E7    -2.426323409559512E-1   -6.718204631366952E1    -2.992007356346991E1     1.311528392330530E2    -6.880779556417539E1    -8.006463696108595E1    -7.975845212547142E1     1.511956698035815E2
                        -2.999923672635469E1     1.310031781395552E2    -3.314971139614043E-1    1.492128496910307E2    -9.501805699400352E1     1.153512293655119E2    -9.206689887231801E1    -1.120324495082718E1
                        -7.014205483719634E1    -9.045309078223222E1    -8.530300248253187E1     1.563829984514132E1    -1.418989055907918       7.118047934500075E1    -8.344554653854738E1    -1.628378947526265E2
                        -8.174332745680107E1     8.338604328633959E1    -8.659279011132817E1     7.617868403746479E1    -9.239200237685634E1     1.613066834245985E2    -1.380196803061509       6.546913709506566E1

 5.275275000000000E7    -2.403063097196254E-1   -6.719670336667191E1    -2.997827565332733E1     1.309728945938762E2    -6.731624857471176E1    -1.040871699312678E2    -8.668737693019970E1    -1.741990665254655E2
                        -3.009742380567582E1     1.310701737058584E2    -3.330809934769011E-1    1.492225967695522E2    -1.000928247975298E2    -4.414076945558684E1    -8.748709748914931E1     6.795147945724190E1
                        -6.911764659683760E1    -9.209567250809930E1    -8.337828895834015E1     1.092178583654626E2    -1.419619373880175       7.116413288986966E1    -8.828222396326430E1    -9.037334921099109E1
                        -9.513508405132301E1    -1.772509806022696E2    -9.243606530868725E1    -1.119040692325576E2    -9.210558055121929E1     1.432399467331604E2    -1.379692697821914       6.547226802160171E1

 5.275300000000000E7    -2.397708326145466E-1   -6.720601860604276E1    -2.990942323544213E1     1.312560971302478E2    -6.724365194998498E1    -8.782574141876343E1    -8.450909689312026E1    -9.742705017161566E1
                        -2.994343243272487E1     1.311333655586555E2    -3.266517518913534E-1    1.492216639249588E2    -8.953736211014559E1     1.197499671627478E2    -8.703462699187503E1    -6.734986045320403E1
                        -6.949303255069731E1    -1.032953185568085E2    -9.731183995137178E1    -1.756857951838117E2    -1.424890881984830       7.117309033001682E1    -8.621804944586627E1    -1.574508872113352E2
                        -9.460587553790091E1    -1.554382022206436E2    -8.826300924550321E1    -1.798540568500645E2    -8.987859837548542E1    -5.018443260488041E1    -1.382297313862541       6.549208684880546E1

 5.275325000000000E7    -2.447346930132340E-1   -6.720989854697683E1    -2.992365841178323E1     1.313277576557823E2    -6.868114030250744E1    -8.120845019697573E1    -1.045556474431855E2     1.288336758992055E2
                        -3.000459067811868E1     1.311422279887453E2    -3.293587974694883E-1    1.491907359086903E2    -7.867817865595265E1     6.378363459284216E1    -8.378901515243766E1     8.892397463575995E1
                        -7.014523069196984E1    -8.772214951861214E1    -1.011990791289424E2     9.994201967570966E1    -1.419791666951890       7.115155339666310E1    -9.200794808275454E1    -4.487066922610919E1
                        -9.463130465362268E1     1.225353993104712E2    -9.874754749181753E1    -1.398426745134643E2    -8.222423231955646E1    -5.880257654081935E1    -1.382315221637048       6.547418913586667E1

 5.275350000000000E7    -2.420886018262558E-1   -6.725341021044217E1    -3.001878899677367E1     1.310004364759936E2    -6.828417608478742E1    -9.264454902470958E1    -8.756187435456184E1     6.706236528540346E1
                        -2.996861189812667E1     1.311341773988056E2    -3.302539200162135E-1    1.492253257196932E2    -8.546583550773052E1     1.957209960303122E1    -8.493118443220627E1    -1.619733029749228E2
                        -6.861031785111533E1    -8.994116168861399E1    -9.514106960096292E1    -1.205378535330888E2    -1.417216595855237       7.117267179307741E1    -8.809517495310604E1     6.557620613939325E1
                        -8.331848527928509E1    -6.481108496721841E1    -9.311618522917961E1    -8.855416901216283E1    -9.435004706529955E1    -1.582608149327502E2    -1.381071037907116       6.546013563853944E1

 5.275375000000000E7    -2.393495744160070E-1   -6.727400550982731E1    -2.988834954439123E1     1.312649262552840E2    -6.782710784639471E1    -9.739336320040331E1    -8.930876645741211E1     1.128130254300574E2
                        -3.004577783493523E1     1.312899133809607E2    -3.272339725983787E-1    1.492320389812385E2    -9.871359532402663E1     1.617575785901183E2    -8.931191345324784E1     7.371572582271263E1
                        -6.894509589282822E1    -9.151693655888960E1    -8.648351235090343E1     2.877415501967196E1    -1.425184249440224       7.115617695894409E1    -8.551240377545028E1    -1.339697637175048E2
                        -8.012039784083441E1    -5.253160921505538      -7.995813147754065E1     4.275519858995714E1    -8.090696795373809E1     6.472041050393978E1    -1.380942734589891       6.545899051467529E1

 5.275400000000000E7    -2.410176397463121E-1   -6.727222241299400E1    -3.003072634816738E1     1.304420664125658E2    -6.970681896366425E1    -8.979380449002203E1    -9.450926270816123E1     9.208579566470726E1
                        -2.989006123073654E1     1.309596608704452E2    -3.307579976154799E-1    1.491862563731734E2    -8.713770855384708E1     1.191486731166078E2    -8.713320521627784E1    -1.606600631184544E2
                        -6.859396747863224E1    -8.964014812926300E1    -8.838757508236188E1     8.076586856745784      -1.418647343470468       7.113210686740311E1    -9.415618688108660E1    -1.150232118667918E2
                        -9.137320808723003E1    -7.926953623139251E1    -9.281642477455461E1     3.890430923540612E1    -8.790078606681146E1    -3.615312275977878E1    -1.379899066378687       6.545036677454671E1

 5.275425000000000E7    -2.420897778495681E-1   -6.727693544194800E1    -2.994114494826302E1     1.310533602500095E2    -6.905489761573362E1    -9.591365551578710E1    -8.196118326923744E1    -1.989018312789951E1
                        -2.993988339280057E1     1.310845544075669E2    -3.359081589790883E-1    1.491758807150325E2    -9.042477278739840E1     3.935546121692342E1    -8.286923516487090E1    -2.108439663422437E1
                        -6.994356842192353E1    -8.889075555811311E1    -9.415476095026507E1    -9.938207508768961E1    -1.420580350482272       7.115975194781294E1    -9.274635058985058E1     5.328183143691529E1
                        -9.251289076929196E1     1.250411053116533E2    -8.645102848032933E1    -1.370967085921783E2    -8.411385529217904E1    -8.167256447720661E1    -1.377900473143842       6.544283776001501E1

 5.275450000000000E7    -2.448849984461396E-1   -6.728557519309939E1    -2.994037905489650E1     1.310508213824704E2    -6.868617268976074E1    -9.935998406753573E1    -9.571166573649073E1     6.924534809993231
                        -3.008435423593399E1     1.310138156552819E2    -3.339894122543303E-1    1.492175600926495E2    -8.715201317014406E1     1.003045504461807E2    -9.340211746338470E1    -7.919928588864254E1
                        -6.881466719250068E1    -8.192657459392929E1    -9.247960357204644E1     1.188704118306403E2    -1.420282948209788       7.115739326198076E1    -8.443799908138509E1    -6.362076343125286E1
                        -8.919181795907826E1    -2.529457954298243E1    -8.936854556271619E1    -6.813974621034696E1    -8.645513891468107E1    -1.200609813659701E2    -1.383046194459870       6.546038545956469E1

 5.275475000000000E7    -2.458537663008787E-1   -6.733862936127900E1    -3.003701249988100E1     1.309995854725111E2    -6.977965459549172E1    -7.397838157312117E1    -9.265953296820311E1     1.063438322898354E2
                        -2.998788661268837E1     1.309685231977355E2    -3.290431634585946E-1    1.491896221305718E2    -8.186766347593670E1    -1.747826185064582E2    -8.681068149998052E1     8.310266821795209E1
                        -6.969264274210553E1    -8.162197883638325E1    -8.127544808087741E1    -2.598184060644701E1    -1.419220658927175       7.113124470472472E1    -9.092006242407443E1     1.258323262838986E2
                        -9.683342027532402E1    -9.108506597217058E1    -7.936783122624176E1     1.030147735035358E1    -1.160257418040873E2    -1.417947265307860E2    -1.379640835457800       6.540928257067505E1

 5.275500000000000E7    -2.440017611482707E-1   -6.737879813785347E1    -2.994907912428823E1     1.305733430316362E2    -6.982780167610032E1    -1.004933212625948E2    -8.751459267713629E1    -4.523220591718504E1
                        -3.003357762176940E1     1.308360639785772E2    -3.330335438951625E-1    1.491723935972482E2    -9.205097731062317E1     1.386671576747689E2    -8.149528732463179E1     2.765226781758874E1
                        -6.881257336078888E1    -8.778637373789071E1    -8.365420181762548E1     5.565524302348856E1    -1.417589849283532       7.113507506383118E1    -9.189438544262978E1    -3.753808649883539E1
                        -8.316692607044541E1    -1.296210143302106E2    -8.321961737939581E1     5.167959711237200E1    -8.807041895377117E1    -1.116279627504142E2    -1.379995349618111       6.542482841833611E1

 5.275525000000000E7    -2.434886056003176E-1   -6.738840063117046E1    -2.997863109213693E1     1.307965284780620E2    -7.053230424150117E1    -8.239991698987822E1    -8.851409877818760E1    -1.596689760623190E2
                        -2.997152891990124E1     1.307031343774843E2    -3.290743271132649E-1    1.491504193371629E2    -7.931544301535956E1     8.220672942590376E1    -8.897588387669843E1    -1.249885133408848E2
                        -7.142582014810520E1    -8.900160562418466E1    -8.796550435487961E1     1.347616934608499E2    -1.415008815990722       7.112736569960677E1    -8.548227398129487E1    -1.738539679608455E2
                        -9.190732208256617E1     1.318201025202932E2    -9.040247331775854E1     8.029943388601724E1    -8.420225607288465E1    -1.350966844763371E2    -1.381585645928476       6.542701743167703E1

 5.275550000000000E7    -2.453714236897268E-1   -6.740285188199547E1    -2.996492638457655E1     1.307859981837087E2    -6.937925307768833E1    -8.925226597100620E1    -8.518710327679605E1    -9.283943880162751E1
