#  HZ   S   DB   R     50.00 
! Rohde & Schwarz Vector Network Analyzer 
! Rohde-Schwarz,ZNB8-4Port,1311601044102961,2.82
! Created: UTC 2/13/2019, 9:27:12 AM
! freq[Hz]                db:S11                  ang:S11                 db:S12                  ang:S12                 db:S13                  ang:S13                 db:S14                  ang:S14
!                         db:S21                  ang:S21                 db:S22                  ang:S22                 db:S23                  ang:S23                 db:S24                  ang:S24
!                         db:S31                  ang:S31                 db:S32                  ang:S32                 db:S33                  ang:S33                 db:S34                  ang:S34
!                         db:S41                  ang:S41                 db:S42                  ang:S42                 db:S43                  ang:S43                 db:S44                  ang:S44
! 
 5.525000000000000E7    -1.889713858303260      -1.388433385746212E2    -3.086202517583011E1     7.031884645815171E1    -6.525872593741646E1    -1.486187722751314E2    -7.716792490387560E1    -2.877792175887703
                        -3.105116286154178E1     7.088379600338557E1    -3.368007265107883E-1    9.413775624015023E1    -8.318117749574685E1     9.022414401226054E1    -7.978371519408645E1    -1.780880213573674E2
                        -6.405042965962818E1    -1.585940374431726E2    -8.952420869762636E1     1.647384349329451E2    -1.395167429754931       3.489354831052755E1    -8.543973923455067E1     4.419239389964103E1
                        -7.536390463343216E1    -1.435066227211123E1    -8.531542526117383E1     4.425520679204631E1    -8.432699618284651E1    -8.102359845909973E1    -1.381370432100495       2.846285449195528E1

 5.525025000000000E7    -1.890120464995948      -1.389000748603994E2    -3.094568864278273E1     7.055980024964411E1    -6.481994662198673E1    -1.479030678653374E2    -7.392486236804453E1    -1.616918645926699E1
                        -3.102598658633842E1     7.064071111061223E1    -3.274175078288280E-1    9.414430879836964E1    -8.103416950286172E1    -1.196564067488730E2    -8.148876556618060E1    -6.866641006300324E1
                        -6.638498631727271E1    -1.488607664129117E2    -9.100170906165319E1     1.672556270932336E2    -1.392403719831631       3.486683829504841E1    -9.016092367986120E1     7.878875557237671
                        -7.500967577690157E1     1.465729674029918E1    -9.589249631910786E1    -1.804762926557523E1    -8.939542838882149E1    -1.019516784764997E2    -1.383455970395331       2.848183591569148E1

 5.525050000000000E7    -1.894501672792422      -1.389405270275720E2    -3.082155352632211E1     7.088324124612475E1    -6.587656381556110E1    -1.445310720517916E2    -7.263833922319365E1    -4.583736984409001
                        -3.102948756052161E1     7.071789206712727E1    -3.327541703422279E-1    9.414351944164709E1    -8.175205549433743E1     2.907090826140721E1    -8.532018357120536E1     1.308233812302205E2
                        -6.461936811686122E1    -1.535673469630971E2    -9.336757042792327E1     6.624306914125140E1    -1.389606796828309       3.488194115589248E1    -9.309353124824986E1     1.123185230568643E2
                        -7.874215560505438E1    -6.735242030123398      -9.472631695615476E1     6.684666969341825E1    -8.491385601707887E1    -4.268970336001239      -1.382492315499637       2.845885113540781E1

 5.525075000000000E7    -1.893720937496993      -1.389862129082434E2    -3.104763279771042E1     7.027917978633715E1    -6.547844443975150E1    -1.477517858880241E2    -8.035849039904393E1     9.139317704107345E-1
                        -3.090322793767770E1     7.037808451741284E1    -3.365664305202335E-1    9.409172174588156E1    -9.337244877690426E1     1.675150278384626E2    -8.619904864887300E1     1.182647411514966E2
                        -6.550448757425076E1    -1.537811432694243E2    -8.689537308927656E1     1.638783374077756E1    -1.389191847468029       3.489472611018741E1    -8.122494402984086E1     1.495893157120239E2
                        -7.598378880683080E1     1.263738963014909E1    -8.857663000189049E1     9.560928251213782E1    -8.959905240075031E1     2.110360792350987E1    -1.385912017253145       2.847536633353285E1

 5.525100000000000E7    -1.897898643705589      -1.390030092940396E2    -3.089999489477774E1     7.019982741178191E1    -6.475305575028686E1    -1.491337152687480E2    -7.796739509006449E1     8.599633170733325
                        -3.098673232307135E1     6.974939652409100E1    -3.362399473260012E-1    9.410280310135602E1    -9.162180849075588E1     9.492374550142738E1    -8.311835735433901E1     2.653677065686063E1
                        -6.576663367009871E1    -1.533653723831098E2    -8.750471738384626E1     6.997649455631070E1    -1.393829181112556       3.490931922468016E1    -9.264960225288421E1    -1.427936150467596E2
                        -7.783536888747699E1    -4.250782674019005      -9.200725544529902E1    -1.887136630943260E1    -8.946129225244874E1    -1.640842842080411E2    -1.380797972284646       2.845776052850057E1

 5.525125000000000E7    -1.901820718251594      -1.390429977821775E2    -3.091428924465905E1     7.089836271401103E1    -6.583751527151999E1    -1.570567072383909E2    -7.288994842381905E1    -1.701049979912454E1
                        -3.090263638580000E1     7.114572191971801E1    -3.313120428626976E-1    9.411030201864269E1    -8.351038010093478E1     1.318725896408920E2    -8.157161793642723E1    -1.288316559656118E2
                        -6.551386872733283E1    -1.556305826913062E2    -8.550893400603187E1     1.595429291429666E2    -1.390487784242449       3.487661406547345E1    -8.469733624790705E1     1.422389502794143E2
                        -7.442614479822595E1     8.090860907563613      -8.555721499127688E1     6.052838415737436E1    -9.809596507699028E1     1.456645123113283E2    -1.380322367272845       2.844911913897034E1

 5.525150000000000E7    -1.900225306706365      -1.391080422709894E2    -3.099673387805121E1     7.070190348193624E1    -6.654217776145738E1    -1.483570627211994E2    -7.713044735920225E1     1.263032484722392
                        -3.107307646289673E1     7.058854279685301E1    -3.290441626856887E-1    9.411595324301017E1    -8.264536609393190E1     4.745435307641829E1    -8.795880131232181E1    -1.192648248504589E2
                        -6.471621981571869E1    -1.505374974292189E2    -8.781709715730682E1    -8.266822395554597      -1.389144421761938       3.489475298148253E1    -8.408191452179341E1    -1.633205776435677E2
                        -7.461666702836625E1     1.653022482390765E1    -8.864942860541765E1     5.339826278914659E1    -7.892205080317332E1    -1.102702824039688E2    -1.381417106825120       2.843578403099204E1

 5.525175000000000E7    -1.905805975749107      -1.391174234700878E2    -3.091785520020704E1     7.055190147583751E1    -6.646691387903969E1    -1.450108601800402E2    -7.521774353181424E1    -1.122719920025115E1
                        -3.103704256929591E1     7.094225247267082E1    -3.327215764593620E-1    9.408639510125700E1    -8.544320517066393E1     1.443530518279968E2    -8.663815362715101E1    -2.035551798251020E1
                        -6.490435921733061E1    -1.492773789600737E2    -9.202511016089063E1     3.329562559524923      -1.390587554834497       3.485827543410677E1    -9.579543749608361E1     1.792709887035978E2
                        -7.692395663129420E1    -1.324107181276068E1    -9.084261110399559E1    -3.918427859010598E1    -8.746523826271707E1     1.274624966205772E2    -1.378554365693804       2.843981206106265E1

 5.525200000000000E7    -1.903037011055614      -1.391924377463441E2    -3.092900417358738E1     7.138365396700073E1    -6.545136202113797E1    -1.520630625338961E2    -7.834587617022027E1     1.237769561952281E1
                        -3.102701566582809E1     7.079216251133056E1    -3.383717862761785E-1    9.408627351252333E1    -7.861885805257258E1     1.370374703503094E2    -8.215326920859340E1     1.249243502216301E2
                        -6.526555490446980E1    -1.617014604138292E2    -9.854872400422963E1    -1.728894264618610E2    -1.391705155948744       3.487148091808793E1    -8.300637846269815E1     1.456762501323530E2
                        -7.727080480707554E1    -1.796685841004727E1    -8.547448541663454E1     4.894772472729488E1    -8.978682367532963E1    -7.505818072673105E1    -1.382166796936475       2.844353843537638E1

 5.525225000000000E7    -1.911651684911548      -1.392239705020064E2    -3.092732824657987E1     7.066516116590135E1    -6.332186464206278E1    -1.594356299112455E2    -7.950273338495221E1    -2.047133875659989E1
                        -3.091560404336310E1     7.089001617182149E1    -3.325799470316886E-1    9.408053362589848E1    -7.843813571676930E1    -8.096940001546568E1    -9.596029693987937E1     5.735990340274880E1
                        -6.496982077923002E1    -1.478102549077580E2    -8.963480507311367E1    -1.025331675476942E2    -1.389611072008385       3.484661161492647E1    -8.870798245942166E1     8.745123904296248E1
                        -7.251870701545585E1    -5.662874049084564      -8.311045588315808E1     1.322332986570888E2    -8.961353711747492E1    -8.286617841960396E1    -1.377653572262579       2.843413607320721E1

 5.525250000000000E7    -1.911531881605327      -1.392310805376393E2    -3.088629406679614E1     7.023388114319324E1    -6.491039822110429E1    -1.523525692130917E2    -7.769125494287398E1    -1.291767160697932E1
                        -3.105540406802511E1     7.046749408313720E1    -3.308683505733526E-1    9.403869633114553E1    -8.021443014387026E1     1.543985280264708E2    -8.226839896946784E1    -1.462664896605657E2
                        -6.456341816612094E1    -1.497097841339138E2    -8.450721797683990E1     4.889538802438970E1    -1.393824812345442       3.484802941723766E1    -8.871842988482464E1     4.162595867944511E1
                        -7.467084180521874E1     1.061917770503713      -8.608302176794311E1    -1.595497350291390E2    -1.000303805799265E2    -8.776200623809233      -1.381083481740184       2.845852415079511E1

 5.525275000000000E7    -1.914913275009553      -1.392934949551503E2    -3.084655458741695E1     7.070260887415708E1    -6.529674894627888E1    -1.540877108789588E2    -7.406048167094006E1    -1.541816006541560E1
                        -3.095120162937399E1     7.080093908300835E1    -3.312105563094672E-1    9.409329183664603E1    -8.190713277699116E1     1.423861322733086E2    -8.469707365255360E1    -1.450649012658990E1
                        -6.516350619290763E1    -1.586259254381959E2    -8.489434689816933E1     1.306348676810349E2    -1.387911788587400       3.485748488552594E1    -8.849821926731515E1     1.405428053942586E2
                        -7.392310034842528E1     6.786349555253261      -8.586937190587375E1    -2.033830609568753E1    -8.818746318261970E1    -3.449856705171568E1    -1.384312661755823       2.843057366284556E1

 5.525300000000000E7    -1.916247878755791      -1.393321766881235E2    -3.102142968910105E1     7.088494458714018E1    -6.515806128043100E1    -1.535116934658605E2    -7.745257995519478E1    -4.138444267739098
                        -3.102040791216317E1     7.108761654423397E1    -3.346071358714005E-1    9.406972343138011E1    -8.148810363162579E1     1.056393018115073E2    -8.165885474687977E1     1.705139950120309E2
                        -6.465471514697856E1    -1.531791142020124E2    -8.741054491672361E1    -7.539882656033085E1    -1.389269731900388       3.486806828738148E1    -8.717001514544464E1     2.867909631873499E1
                        -7.505383927234158E1     6.952437532918965      -8.592051245719210E1    -6.794616167820095E1    -1.018583522716840E2    -1.457852686970916E2    -1.379463112222135       2.845227564327661E1

 5.525325000000000E7    -1.921465853458769      -1.393786466610908E2    -3.095280496101871E1     7.084314832626731E1    -6.727832098773544E1    -1.543289675998259E2    -7.927303989173785E1    -9.483579815402129
                        -3.099658940186014E1     7.056335651191623E1    -3.327744192546808E-1    9.409906587824271E1    -8.439738787077674E1    -3.191738630705308E1    -8.435108660052561E1     4.834315581190866E1
                        -6.551482992999851E1    -1.501988546935531E2    -7.943655673833361E1    -2.990582520115610E1    -1.391310556943439       3.486278159421810E1    -8.994954203402331E1     1.448730496112427E2
                        -7.793895393675381E1    -2.878946201729610E1    -8.878479681653855E1     1.227745746074166E2    -9.834559405931543E1     4.957847204712687E1    -1.383388364353058       2.842249910577614E1

 5.525350000000000E7    -1.921178747019849      -1.394516633309851E2    -3.100238801344256E1     7.085689164245005E1    -6.508863824256945E1    -1.528993902801686E2    -7.572443123889258E1     6.219425263663110
                        -3.104239970633948E1     7.009472517521617E1    -3.320659873214084E-1    9.408317946806632E1    -8.067338464022440E1     9.116973005858746E1    -8.447110725533011E1    -2.374415117967888E1
                        -6.430312532200264E1    -1.531525674909553E2    -9.026431463640066E1    -7.577742505639930E1    -1.388034692997603       3.486596026997239E1    -8.869504596494160E1     1.441075425326615E2
                        -7.579121127687763E1    -1.844570789046164E1    -1.023081206258725E2     1.553139547009953E2    -9.640940306141923E1     5.495846246408953E1    -1.381608176024196       2.842839139224729E1

 5.525375000000000E7    -1.926539356812561      -1.394465822943512E2    -3.099137982858495E1     7.064634414849240E1    -6.430731352705161E1    -1.538647105757493E2    -8.194321235606327E1    -3.389122173574682E1
                        -3.098415781380525E1     7.049937809208882E1    -3.254309231410962E-1    9.403378986445860E1    -1.071701961971232E2    -7.787268675867406E1    -8.520634788718272E1     1.547613641924168E2
                        -6.507898239246826E1    -1.447783322505902E2    -8.450635906712176E1     2.850321633927180E1    -1.393075815570025       3.487565300971370E1    -8.091817091730113E1    -1.099745704854689E2
                        -7.422146502276161E1     1.798720211362560      -8.632667736888837E1    -1.145306699776501E2    -1.020227794092823E2     1.366239600090490E2    -1.383099147410633       2.841022476435056E1

 5.525400000000000E7    -1.926488392393661      -1.395208902052264E2    -3.099421000783434E1     7.082011579786064E1    -6.562557559290900E1    -1.577166056262250E2    -7.518566422218954E1    -8.214128186033021
                        -3.106719340508889E1     7.057337554597359E1    -3.313666178117115E-1    9.401782040799498E1    -9.591188549172408E1    -1.675510262089285E2    -9.466397811177691E1    -4.483416403019411E1
                        -6.499234867034676E1    -1.509387179964999E2    -8.369477925063339E1     1.556247491185507E2    -1.388874351006610       3.486178494458963E1    -9.337701951581809E1    -1.371106035521863E2
                        -7.538055162306706E1    -2.466737603901412      -8.284640109073925E1    -6.164815659177774E1    -8.167347063533642E1     1.603523381305285E2    -1.381705773585782       2.841844214217248E1

 5.525425000000000E7    -1.928774156919822      -1.395363548427965E2    -3.089697674797918E1     7.051970122963553E1    -6.601977057769990E1    -1.472524567135370E2    -7.429290844797798E1    -7.716811003329993
                        -3.097022330662819E1     7.045257588764076E1    -3.317571449211742E-1    9.403290755600369E1    -9.469499819684927E1    -7.377532024554427E1    -9.121646178794802E1     6.752593946846605E1
                        -6.538790504167801E1    -1.544508935869033E2    -9.786581872773483E1     2.066756863249709E1    -1.391287865300888       3.482107408480963E1    -9.018990363247056E1    -7.656139059385716E1
                        -7.796357479938945E1     1.739916007493843E1    -8.868833506925988E1    -1.086756929339410E2    -8.707620501781443E1    -9.449285615222303E1    -1.385206249111920       2.840946780346617E1

 5.525450000000000E7    -1.933349814796901      -1.395904257006313E2    -3.094172880941753E1     7.082862259991167E1    -6.535089261358078E1    -1.571565991612170E2    -7.390908745284800E1    -4.727798674972552E-1
                        -3.101169998811279E1     7.052556771281502E1    -3.347485468079027E-1    9.405894458956107E1    -8.982955941835677E1    -6.532987647724039E1    -8.650423045415215E1     1.494530469203584E2
                        -6.497567905350876E1    -1.523117313090670E2    -9.576666434701835E1    -1.487849989809395E2    -1.388942744271367       3.485558154188325E1    -8.123660130834108E1     2.482196995641256E1
                        -7.756665909184757E1     4.964803391269494      -8.982247532725509E1     1.193035933560060E2    -9.016037947975617E1    -1.573881122144191E2    -1.382872306018240       2.838967761125208E1

 5.525475000000000E7    -1.935354144691958      -1.396444714247905E2    -3.095621848112342E1     7.024087828749505E1    -6.539916793464246E1    -1.490686409485996E2    -7.411323219807754E1     1.215570341863949
                        -3.090171854065979E1     7.067657241699725E1    -3.336386334575275E-1    9.404469358382842E1    -8.425584344839234E1     1.322055259280455E2    -8.317061058103521E1    -7.460090965809746E1
                        -6.476728539045767E1    -1.553081980245913E2    -1.047779668810120E2     1.493331330889669E2    -1.388704809894940       3.483685629363971E1    -9.029903670752037E1     1.499046610932613E2
                        -7.455776129819941E1    -1.360603654817895E1    -9.199837359105017E1     1.651666406044539E2    -9.833966595978664E1    -2.437112545120384E1    -1.379650289592739       2.840210197173268E1

 5.525500000000000E7    -1.937171438699250      -1.396792767537215E2    -3.094952932215510E1     7.077181545363288E1    -6.598324406652935E1    -1.487962647190812E2    -7.705154544702830E1    -1.387185976891538E1
                        -3.103926436813747E1     6.987764954032754E1    -3.301321501443594E-1    9.399741228618382E1    -8.263037938644223E1    -1.254060955137640E2    -8.796231630672463E1    -2.101932376961431E1
                        -6.544489525147760E1    -1.507692394042339E2    -8.503341035467328E1     3.510367496483158E1    -1.395314495358400       3.483862949473946E1    -9.135191016384090E1     1.730050137583525E2
                        -7.698704306877065E1    -1.717129232121054E1    -8.727034913224280E1    -1.542415055163602E2    -8.872943882274927E1    -1.799243034438778E2    -1.380338834010320       2.838978699013359E1

 5.525525000000000E7    -1.940466048421382      -1.396971005764869E2    -3.101579937457718E1     7.103241041973229E1    -6.628354683798520E1    -1.518316099309380E2    -7.453459278101119E1     1.654611257538002
                        -3.102631782623588E1     7.065888063299479E1    -3.311159610367824E-1    9.403182988951244E1    -9.237158028696351E1     9.814860880315646E1    -8.135292485016331E1    -1.386244328814363E2
                        -6.579496967209614E1    -1.525320548358554E2    -9.390935548535353E1    -1.067195824676447E2    -1.392084158252626       3.482067104891160E1    -8.928536655432512E1    -6.966607546798453E1
                        -7.326641568191424E1    -1.240931497340818E1    -8.329979559029695E1    -1.206765295290698E2    -8.698753896142341E1     1.714217774050317E2    -1.377841787648979       2.840555248537530E1

 5.525550000000000E7    -1.941377417692516      -1.397803833066463E2    -3.096259426257697E1     6.981344162289078E1    -6.513201792112155E1    -1.495928396756108E2    -7.673086303286704E1     7.372438814577425
