#  HZ   S   DB   R     50.00 
! Rohde & Schwarz Vector Network Analyzer 
! Rohde-Schwarz,ZNB8-4Port,1311601044102961,2.82
! Created: UTC 2/13/2019, 9:24:02 AM
! freq[Hz]                db:S11                  ang:S11                 db:S12                  ang:S12                 db:S13                  ang:S13                 db:S14                  ang:S14
!                         db:S21                  ang:S21                 db:S22                  ang:S22                 db:S23                  ang:S23                 db:S24                  ang:S24
!                         db:S31                  ang:S31                 db:S32                  ang:S32                 db:S33                  ang:S33                 db:S34                  ang:S34
!                         db:S41                  ang:S41                 db:S42                  ang:S42                 db:S43                  ang:S43                 db:S44                  ang:S44
! 
 3.000000000000000E7    -2.853151333550592E-1    1.014599641118963E2    -6.975547100623926E1     4.885348408313403      -8.824048513483669E1     6.668324160274342      -8.682195005828513E1    -2.578126627847864E1
                        -6.815028414213423E1     1.623542106136959E1    -2.584497980625202E-1    8.988646887168412E1    -9.627515979681920E1    -1.706084648928621E2    -8.402051251007117E1    -9.791930020708251E1
                        -9.251214624039328E1    -5.170941001150375E1    -1.038465869448613E2     4.527860812277437      -9.214122019337422E-1   -1.144226581932897E1    -8.639331245867480E1    -1.191658386084194E2
                        -9.059990782433033E1    -7.599151507529074E1    -9.067094516498739E1     1.393727039945069E2    -8.672495841598597E1    -1.174001516935214E2    -9.377350003535111E-1   -1.644750211891289E1

 3.002500000000000E7    -2.881322994491323E-1    1.011172150218006E2    -6.869678921315534E1     5.423489608723348      -8.471017852333957E1     1.679556309820516E2    -8.681417014642241E1     1.479631261721784E2
                        -6.923840360920518E1     1.310849528435244E1    -2.650792733824297E-1    8.949362461988369E1    -8.580340210019239E1     1.835471159632504E1    -8.829193734974957E1     4.745546655566011
                        -9.917064316568185E1     9.257214896372260E1    -9.514677207185521E1    -1.181531060232784E2    -9.262964734275280E-1   -1.172951280157484E1    -1.114558911160168E2    -9.395566810312026E1
                        -8.345651896694284E1    -7.550939877992176      -8.504537779947297E1    -1.570902504404783E2    -8.039684904216378E1     1.354122036006681E2    -9.380897059659215E-1   -1.675553498533906E1

 3.005000000000000E7    -2.875664928415975E-1    1.008986285919731E2    -7.032541968846198E1     4.794144129306362      -9.183493416927412E1     1.213544944479886E2    -8.203990543352899E1     9.221565528678619E1
                        -6.924243511336633E1     1.196800472526883E1    -2.629707495166663E-1    8.920870426006117E1    -8.303675331953085E1    -1.032582339519643E2    -1.039309212518002E2     1.785685101780425E2
                        -8.674218753519853E1     8.967247266745264E1    -8.841331497697290E1    -1.628058057409493E2    -9.288709014664854E-1   -1.202299107788083E1    -8.911708682094613E1     1.792591221965356E2
                        -9.098547207270667E1     1.150789371188634E2    -8.683821204856359E1    -1.257619449080964E2    -8.688122359825880E1    -6.191099397711853E1    -9.365753553346843E-1   -1.706213630263828E1

 3.007500000000000E7    -2.882518181465957E-1    1.005439462520280E2    -6.789621084353854E1    -4.586134552822068      -8.867390556732977E1     1.123009441883946E2    -8.337878307664042E1    -5.998720606196439E1
                        -6.897004766403586E1     7.972610107897070      -2.545053415037834E-1    8.879679596892433E1    -9.581437960074749E1     3.246506502812900E1    -8.208070339896041E1     1.098925362012496E2
                        -9.149427247587356E1     1.418249010352036E2    -9.121385639922673E1     1.498015324462722E2    -9.290573083287496E-1   -1.234654301069852E1    -8.551008220505800E1     1.469665358116793E2
                        -8.709640402582174E1    -1.137379911257636E2    -8.466392980214334E1     1.696802679968109E2    -8.720688461912064E1    -1.572741183263917E2    -9.406972245469945E-1   -1.737335359607248E1

 3.010000000000000E7    -2.817812491246610E-1    1.002442471580080E2    -6.696746500107562E1     4.027966685181227      -8.173025073026437E1     2.816071888591127E1    -8.448459092426637E1     3.405263969928149E1
                        -7.000176040895484E1     1.422108468677032E1    -2.635279100973958E-1    8.841534888479639E1    -7.785308712038383E1    -1.619096339474554E1    -8.946264530416508E1     1.135986344898127E2
                        -8.191396804950607E1     1.870640296527810E1    -8.914228901025783E1     1.281737726190035E2    -9.229056744059062E-1   -1.267447692045199E1    -8.589121703215079E1     1.673158368954119E2
                        -7.709003111581565E1    -1.324758046005253E2    -8.777464671656625E1    -1.257610007354500E1    -9.934050267740851E1     1.849186465009675E1    -9.376367554043928E-1   -1.768262302802626E1

 3.012500000000000E7    -2.821179580530077E-1    9.996660140912924E1    -6.832642250501871E1    -4.161470264160467      -8.611467846945916E1     9.758957896935297E1    -8.155148243424782E1     1.483485349501337E2
                        -6.891179797326895E1     4.147719902605125      -2.655708166713470E-1    8.806553718406644E1    -8.370244830228290E1    -1.018807968637984E2    -9.395808433700924E1     2.807359981090749E-1
                        -8.013530983071240E1    -5.289847741901399E1    -9.830405984651307E1    -7.675600181347289E1    -9.259040809754204E-1   -1.297663828040531E1    -8.467929168558879E1    -8.752982959715814E1
                        -8.882123602291124E1     5.247048966614314E-1   -8.926914109495328E1    -3.059990328726721E1    -8.812879259594688E1     1.316177858380588E2    -9.376397427736201E-1   -1.803584216015478E1

 3.015000000000000E7    -2.767924217730944E-1    9.968248351412478E1    -6.753480744749582E1    -9.161042429325983      -8.473994961723005E1    -1.664784986824871E2    -8.609750094873121E1    -7.304409292116476E1
                        -7.063350988391420E1     2.510652945730776      -2.679122209592981E-1    8.765917144270472E1    -8.544924310253367E1    -1.782795350368309E2    -7.954346553115182E1     1.650750533342740E2
                        -8.522202943198543E1    -1.040304104115803E2    -8.915277741982450E1    -4.347247929153090E1    -9.283381965170400E-1   -1.326940720034515E1    -8.187652468566245E1    -4.212214032604743
                        -8.983764790546617E1     1.069360201990299E2    -8.683457640401505E1     3.115483895812680E1    -8.512179866963011E1    -4.565374683954067E1    -9.367979624123830E-1   -1.832411078193656E1

 3.017500000000000E7    -2.793836334366024E-1    9.933611350715880E1    -6.981684052508864E1    -6.871064460914587      -8.402136564736166E1     1.950708562422113E1    -8.631722044188419E1     1.556535808662777E2
                        -6.882102119853224E1     2.136190782880274E1    -2.614505310377572E-1    8.733536100391240E1    -8.429576490252083E1     6.772211270160862E1    -8.066322390678585E1    -1.356138205532170E2
                        -8.913719411506722E1    -6.624997345710983E1    -9.131078077134661E1     9.186858083027281E1    -9.256353571365882E-1   -1.357201078584250E1    -9.312198724814115E1    -1.184553151605009E2
                        -9.361699652182794E1    -1.704582855892839E2    -8.202876933949212E1    -4.613592574466300E1    -8.538410299952830E1     1.581581094223217E2    -9.402606684670993E-1   -1.864597381117502E1

 3.020000000000000E7    -2.735063445451137E-1    9.911903014691018E1    -6.834301053366826E1     7.927739151360846E-1   -9.322188487847585E1     9.264774138650259E1    -8.804202965909499E1     1.149728153246413E2
                        -6.779894666140305E1    -1.663287114130715      -2.618118931145433E-1    8.691852707442256E1    -1.073524295493836E2     8.915012929720221E1    -8.201750257519949E1     1.426654123427100E2
                        -9.001777081239550E1     6.966310279602618E1    -8.738202556211731E1    -1.364021757039118E2    -9.235219061036438E-1   -1.386667577633655E1    -9.007810332702654E1     3.522838883229723E1
                        -8.233686674484102E1     1.533992318465926E2    -8.700216204465910E1    -1.116555324548529E2    -9.272876729647553E1     3.104513285781184E1    -9.426892804341778E-1   -1.897588063952275E1

 3.022500000000000E7    -2.855390502734315E-1    9.878293281335918E1    -6.940469164152495E1    -5.592193819366234      -7.987224637136066E1     3.516591624756663E1    -8.721470891833647E1     1.007842179816988E2
                        -6.845279645322486E1    -1.468907793529865      -2.620722165356529E-1    8.659020766691272E1    -8.571768448580824E1     1.415734987457103E2    -9.157760489119434E1     6.924401393838112E1
                        -8.535360398897890E1     3.231112603252631E1    -8.726886267286120E1     2.901853920551948E1    -9.311648984596209E-1   -1.419029594106739E1    -8.795337990848444E1     1.155781809516778E2
                        -8.613769943199458E1     2.801928284683631E1    -8.715873433074438E1    -4.723194212720065E1    -8.925183073124180E1    -9.138747447405939E1    -9.355027060078087E-1   -1.926737777570211E1

 3.025000000000000E7    -2.853367593519234E-1    9.852132542923346E1    -6.771274861632845E1     6.123246430246180      -8.296299509014615E1    -1.571569410711037E2    -8.718477172450859E1    -8.036374456681037E1
                        -6.869693812743205E1     8.574531944781157      -2.694795003592153E-1    8.617908050971535E1    -9.169900790970935E1    -1.020023836213970E1    -8.647038600326073E1     5.280378825544725E1
                        -8.930802655749785E1    -7.983174026898371E1    -8.783910042890727E1     1.112906598327262E2    -9.299508031397342E-1   -1.447740038840601E1    -8.377710303876648E1     6.037738588433701E1
                        -8.591090024430380E1    -1.276920866383222E2    -8.391346413871287E1    -1.195938848455275E2    -8.296793638588873E1    -1.558798397935465E2    -9.453702754770254E-1   -1.958608434711269E1

 3.027500000000000E7    -2.764655571059739E-1    9.819661860536959E1    -6.838871882259296E1     9.042041212720555      -8.963379364687518E1    -8.410699534549214E1    -8.589368299186100E1     1.710540238507995E2
                        -6.882286050986787E1     1.152969968142467E1    -2.535214735409304E-1    8.582463646426510E1    -8.516349774394706E1     1.097099820173655E2    -9.064987404195193E1    -1.584536944639078E2
                        -9.398554966464076E1     8.716084887325104      -8.300596584604973E1    -1.526615989307678E2    -9.277562054888551E-1   -1.482230493620700E1    -8.483655756806229E1     1.626365202268700E2
                        -8.145445321576244E1     8.137481392332261E1    -8.580061226141525E1     6.598204956281697E1    -8.700014497814679E1    -1.102626478170459E2    -9.380432947600826E-1   -1.990487314481781E1

 3.030000000000000E7    -2.804184633265307E-1    9.792032499442186E1    -6.767055697642216E1     1.218801641720726E1    -9.359053123016278E1    -2.414610975726723E1    -8.547871515426671E1     1.720754510570261E1
                        -6.809604590726225E1     1.414670319564735      -2.625696152272455E-1    8.541076236083829E1    -8.244268702062647E1     9.371716387686807E1    -7.700654895214687E1     4.673797772436060E1
                        -9.189304283611557E1    -1.604074629956132E2    -8.230753649929926E1    -1.797724763741396E2    -9.310363628294788E-1   -1.511120147768142E1    -9.007368756725472E1    -6.989612977584456E1
                        -1.095227306441057E2    -8.382622167107446E1    -9.189942891176233E1     4.049915181354545E1    -8.951012211834241E1     9.960510839909459E1    -9.419236547463972E-1   -2.021871790235572E1

 3.032500000000000E7    -2.772740782922757E-1    9.760889974307544E1    -6.819912704152652E1     3.493619023936056      -8.054777069582208E1     9.091659102380653E1    -8.744170944175318E1     8.100018278717197E1
                        -6.675839088254126E1    -2.668528389492775      -2.522171026587094E-1    8.504666903752255E1    -8.799024314083741E1     1.333959901266922E2    -9.690408639071123E1     1.482102445275608E2
                        -9.187741690296599E1    -9.781419267932128E1    -9.145926425361833E1     1.288624403736975E2    -9.323540953883370E-1   -1.540813374365579E1    -8.588151404321036E1     1.062076108932391E2
                        -8.430233627018440E1     2.870852258809122E1    -8.354103637682439E1     1.486432656480176E2    -1.000822985282117E2    -1.780868745902516E2    -9.379543586795898E-1   -2.054057575767048E1

 3.035000000000000E7    -2.712139964585415E-1    9.734117552361852E1    -7.037429514151181E1    -1.905873120278956      -9.195403663703588E1    -3.248390378699502E1    -8.672357839410866E1    -8.788048058329090E1
                        -6.892175539667892E1    -1.592461736475625      -2.622186127547729E-1    8.466638971851056E1    -7.995258088091939E1     5.894876124488410E1    -9.101983035973015E1    -5.740613381446658E1
                        -8.827721611858965E1     1.057504821261290E2    -8.328289165198017E1    -8.344365910553732      -9.265642707269888E-1   -1.575573934736076E1    -9.052414072180575E1     7.372325964676041E1
                        -9.152046917113441E1     6.723200654059835E1    -9.803895134816416E1    -1.647994621578438E2    -9.469025174773954E1    -2.304282824936733E1    -9.447198505397902E-1   -2.084313401032934E1

 3.037500000000000E7    -2.711151371219756E-1    9.701822358979699E1    -6.805368377962095E1     4.958130924262042      -9.096617901342572E1    -1.088963097284722E2    -8.615386507005752E1     1.020561547244201E2
                        -6.775410253233460E1    -8.233729000036313      -2.611009290510424E-1    8.426792778829926E1    -8.302040150798574E1     7.757205335022840E1    -8.432786051333756E1    -1.239356539124538E2
                        -9.001806499645043E1     6.804047732322488E1    -8.494795712916384E1    -1.757563235612375E2    -9.321476617727607E-1   -1.599241855452222E1    -8.155493691187481E1    -1.158174538907108E1
                        -8.106748161652804E1    -8.968620137981667E1    -7.920901756337089E1    -1.205571389573549E2    -9.232489650524663E1    -4.913727969756441E1    -9.398744538881297E-1   -2.112008499982066E1

 3.040000000000000E7    -2.705801687552630E-1    9.670981267472216E1    -6.696001126894936E1     3.149392105275306      -8.358403755258055E1    -1.025151303644020E2    -8.209895723401178E1     1.073698143161321E2
                        -6.719365169782945E1    -3.922755002946798      -2.627306688747828E-1    8.392219053547379E1    -8.161609445343628E1    -6.298998214988746E1    -8.540972184301928E1    -6.620792207501371E1
                        -9.432504061589143E1     9.928167378832578E1    -8.701214301566010E1     1.541533438519506E2    -9.290174968205078E-1   -1.628814232151982E1    -9.018502327967140E1    -1.868187521859862E1
                        -9.339389844538286E1     2.174287339640914      -1.005030766966783E2    -9.052679691924854E1    -9.039395953166236E1     5.824479409489386E1    -9.432422768931645E-1   -2.148661079080366E1

 3.042500000000000E7    -2.756905669339824E-1    9.643237427535664E1    -6.956335774677440E1     2.318227401789648      -9.653378148250656E1     3.664176528723478E1    -8.347235481752739E1     9.983494906104718E1
                        -6.807975234565372E1     1.641825635963051      -2.571935005202957E-1    8.355118939894504E1    -8.453500864290942E1    -7.089435486356037E1    -8.235036337754323E1    -9.821699764007406
                        -8.515716814619796E1    -3.834647177907492E1    -9.212035886545647E1     9.125541716500572E1    -9.316527307202800E-1   -1.662755294083372E1    -8.564814811916034E1    -9.730119232255552E1
                        -8.985864713619029E1    -1.210538302498673E2    -8.382564487086101E1    -1.434541195655913E2    -8.215432076095465E1     5.209734912278035E1    -9.318817323762572E-1   -2.181043507761601E1

 3.045000000000000E7    -2.751311869699535E-1    9.610371267218579E1    -6.809388919506101E1    -2.968913638140413      -8.610090395347719E1    -5.003985461017846      -9.073946315970795E1    -1.656421735505928E2
                        -6.815825673136106E1    -1.195022830386338E-1   -2.563914024484630E-1    8.313849155546976E1    -9.310381928666382E1    -6.924673072889225E1    -9.395447988560740E1     5.662029311925233
                        -8.777172519202301E1     1.145582272388210E2    -8.567612064145035E1     9.131429241397663E1    -9.257003020261709E-1   -1.694205679382975E1    -9.279477181125635E1    -8.498501169260409E1
                        -8.397252581243265E1     1.390745533211051E2    -9.402952014218444E1    -4.624582057897932E1    -9.300201167447079E1    -3.108672902335202E1    -9.409455288571705E-1   -2.208230120549175E1

 3.047500000000000E7    -2.758290483846814E-1    9.583894666849301E1    -6.698081004891205E1    -2.453140864509090      -8.791080218076088E1     1.696435984641917E2    -8.689015901866017E1    -1.747035701934795E1
                        -6.663558932025995E1    -2.692358583192552      -2.553296395530107E-1    8.275883448577092E1    -8.070445396300782E1    -6.812408971777100E1    -8.907896061105774E1    -1.793576736185337E2
                        -1.014090126098439E2     1.308804321687866E2    -1.044684511356429E2    -2.429651208121774E1    -9.324909249472526E-1   -1.724638098789102E1    -1.012863363747557E2     2.476668750823428
                        -9.364194728421347E1     1.194175100307717E2    -9.755030711574327E1    -4.845798738491858E1    -8.207106103851299E1     9.264829250892774E1    -9.403682769483507E-1   -2.241072121356092E1

 3.050000000000000E7    -2.790386932249407E-1    9.553378804555396E1    -6.692094379323339E1    -7.970340029610147      -8.379093287810059E1    -9.094323861708088E1    -8.595179793461959E1     3.245976886329405E1
                        -6.859653932942682E1     1.613849695274811E-1   -2.558695477454853E-1    8.241271265468458E1    -9.053193719563578E1    -2.728787897903109E-1   -9.196703993739035E1     2.847506907818616E1
                        -9.212437990266928E1     7.916263962420180E1    -8.397554085862564E1    -1.063256414334030E2    -9.290693502432059E-1   -1.753277000189280E1    -9.831409726294328E1    -2.105776067141598E1
                        -8.519885129041789E1     3.729333160668402E1    -8.416010452683349E1     1.453335688619320E2    -1.043523635589607E2    -1.020229705404111E2    -9.423429090174458E-1   -2.273677036910262E1

 3.052500000000000E7    -2.742833757862753E-1    9.527517613161037E1    -6.735048603528917E1     4.674470760059688      -8.637280996476156E1     1.138422576753105E2    -8.299477745380676E1     1.523573382784167E2
                        -6.772120107893093E1    -3.250318447698910      -2.566927246204003E-1    8.199572155197336E1    -8.606489502790772E1     1.617678116404447E1    -8.278028174799879E1     3.658726382244443E1
                        -9.220781287632210E1     2.629640817199941E1    -8.684526036005028E1     1.217263785440879E2    -9.266898169499870E-1   -1.783154592951312E1    -8.689039034609340E1    -1.732434163645880E2
                        -8.436354155802840E1    -3.039253411623801E1    -8.368475244752270E1     2.902502746224717E1    -8.270630892878087E1     1.290135838172566E2    -9.445328251329166E-1   -2.303976025311202E1

 3.055000000000000E7    -2.698841895810766E-1    9.498804336351331E1    -6.713463265773919E1    -6.885177802339979      -8.519201030863562E1    -1.558864555587104E2    -8.356734278352752E1     1.640080916309996E2
