#  HZ   S   DB   R     50.00 
! Rohde & Schwarz Vector Network Analyzer 
! Rohde-Schwarz,ZNB8-4Port,1311601044102961,2.82
! Created: UTC 2/13/2019, 9:08:35 AM
! freq[Hz]                db:S11                  ang:S11                 db:S12                  ang:S12                 db:S13                  ang:S13                 db:S14                  ang:S14
!                         db:S21                  ang:S21                 db:S22                  ang:S22                 db:S23                  ang:S23                 db:S24                  ang:S24
!                         db:S31                  ang:S31                 db:S32                  ang:S32                 db:S33                  ang:S33                 db:S34                  ang:S34
!                         db:S41                  ang:S41                 db:S42                  ang:S42                 db:S43                  ang:S43                 db:S44                  ang:S44
! 
 3.000000000000000E7    -2.466906168799650E-1    1.015950356253488E2    -7.010661192908006E1     1.269331234401301E1    -9.479040836639018E1     9.452624022778957E1    -8.881780867412708E1    -7.261710648012416E1
                        -6.768370845023910E1     7.183676146143155      -2.966913334654441E-1    8.964513744015321E1    -7.920513218079107E1    -3.945067891981687E1    -8.475140696040795E1    -1.244933868425025E2
                        -8.185458799337960E1     2.730568788796163E1    -8.256609019243965E1     1.488905498122355E2    -9.274779017179364E-1   -1.140901436200904E1    -8.085379518329560E1    -7.126394291360889E1
                        -8.514757473203227E1     1.731304707273349E2    -8.710063232978877E1    -1.467617397609372E2    -8.868003067950508E1     4.644600382386993      -9.437460764466221E-1   -1.644775663004721E1

 3.002500000000000E7    -2.478599582027399E-1    1.013089400948079E2    -7.011390807032727E1     6.892026203105033      -9.238563627180419E1    -2.922837686042393E1    -9.543619686116658E1    -2.918218726897520E1
                        -6.838993989262679E1     1.645038777922407      -2.973992196585089E-1    8.929827671737812E1    -8.726590076157996E1     1.634906862354379E2    -8.306510030222987E1    -4.072165437435922E1
                        -8.755497828212131E1    -1.576273842438169E2    -8.078872798025613E1    -1.733936847716248E2    -9.326579258195471E-1   -1.177460630979883E1    -8.081449357372107E1     1.342807716774667E2
                        -8.681812301634969E1    -1.300193503929870E2    -9.210025455106468E1     9.298709880069283E1    -9.597403762483953E1    -1.026420048932235E2    -9.381778795834361E-1   -1.674299364548496E1

 3.005000000000000E7    -2.497069109976344E-1    1.010126518395622E2    -6.974492543993583E1     1.551825505933750E1    -7.725758618760708E1     1.097530760215220E2    -8.642569162619631E1     8.435011936358755E1
                        -6.837894217892503E1     1.996443611261545      -2.934240027477895E-1    8.888782121742645E1    -9.258868441802669E1    -1.901224915306277E1    -9.528159330933062E1    -1.291028455383505E2
                        -8.024615419405932E1    -3.295161481491570E1    -8.920026820113881E1     4.169567302650916E1    -9.277772081835940E-1   -1.202458110346216E1    -8.946884328842782E1    -1.667776986116520E2
                        -8.495783001550757E1    -9.988803717614108E1    -9.573842688663783E1     1.247725335103096E1    -9.129580985951557E1     7.845744965889666E1    -9.386459654789148E-1   -1.705449629028838E1

 3.007500000000000E7    -2.437957545107862E-1    1.006700935119050E2    -6.931320001509847E1     9.548243117525951      -8.056222676418963E1    -8.180098415253112E1    -9.554108671672105E1     2.660969341736200E1
                        -6.786038366580512E1     1.271352994117506      -2.987496244897476E-1    8.850979419246008E1    -8.444050001723957E1     1.069961258178411E2    -9.318948585502641E1    -1.759478575408776E2
                        -8.673444225905607E1     1.457899044187936E2    -8.199905396471955E1    -1.424397332623302E2    -9.257903300598637E-1   -1.235717101134488E1    -8.375471031003876E1     5.239320867390105
                        -8.432078940266790E1     1.159712807133225E2    -8.691303508830566E1     2.569011619426352E1    -9.131764805301245E1     1.353173154445742E2    -9.395342809676797E-1   -1.738783529702938E1

 3.010000000000000E7    -2.461724334595879E-1    1.004175882520909E2    -6.792990008351829E1     5.704886754761977      -8.824072711894047E1    -1.138465059777473E2    -8.716916473953017E1    -1.698642555078942E2
                        -6.816350036874698E1     3.931281911512774      -3.011284486681804E-1    8.814445204686994E1    -9.223704674450218E1     1.158204490166195E2    -8.189776385582114E1    -1.506790699563121E2
                        -8.837430205436880E1    -1.119353604890913E2    -8.140320569542276E1    -1.790845879868514E2    -9.233808885420214E-1   -1.265150333859572E1    -9.651334973027664E1    -7.993053869577007E1
                        -8.628485965124851E1    -8.860986168641114E1    -8.232515315796167E1     3.882015938006379E1    -8.230709741798512E1    -2.404911331043008      -9.381775676802711E-1   -1.771343845870774E1

 3.012500000000000E7    -2.378302799193365E-1    1.001102750754185E2    -6.937763880063392E1     1.201863889799274E1    -1.065411523306354E2    -1.359015283515682E2    -8.687839723766673E1    -1.481030303563971E2
                        -6.890510652127622E1     5.467245699137925      -2.917272746827923E-1    8.778567453122106E1    -9.421757281922848E1     3.119775344566794E1    -9.481022908647950E1    -1.254671239486067E2
                        -9.409743257703579E1    -3.340010427210957E1    -8.236650299499053E1    -1.111852292386706E2    -9.249241938859266E-1   -1.295451690938301E1    -8.617336291220626E1     1.125457327870844E2
                        -8.113078287467641E1     4.768721536011022      -9.528870625156628E1     7.713967527423662E1    -8.909547484590186E1     5.018651497096081E1    -9.380207125890788E-1   -1.798866038357533E1

 3.015000000000000E7    -2.398878525467735E-1    9.983380564269926E1    -6.663555691727848E1     1.991914671236204E-1   -8.613378397863517E1    -7.474794734798290E1    -8.180147928853063E1     6.392258134563123E1
                        -6.659896981325282E1    -3.732307370536500      -3.025980060156270E-1    8.739495113281507E1    -8.840762047475481E1    -7.039111554553250      -8.172993524137189E1    -8.030564636927038E1
                        -8.546873357078741E1     8.602494203344899E1    -8.748428111239127E1    -9.133331324528971E-2   -9.259354579308441E-1   -1.327911344715308E1    -8.731496139023196E1     2.730149779311750E1
                        -9.511714486598818E1    -3.952246510976378      -8.214563765154455E1    -4.334250478487461E1    -8.425177801409143E1    -2.284155628422903E1    -9.354358138581691E-1   -1.831840994649511E1

 3.017500000000000E7    -2.381797107242903E-1    9.950616634341640E1    -6.758537015457884E1     5.797765589101473      -9.445951646023480E1    -1.639806301584014E2    -8.111363032499801E1    -8.113373849520345E1
                        -6.964309511737368E1    -1.331000554200195E-1   -2.995748161465947E-1    8.703451964597261E1    -9.696002210666444E1     1.615454190338667E2    -8.958632909337834E1     6.024530561634265
                        -8.878337638090244E1    -6.594306018909909E1    -9.152193706560348E1    -7.372186087093029E1    -9.302117846287549E-1   -1.354426094257533E1    -8.246852134863674E1    -2.312863218163803E1
                        -8.621232146751568E1    -8.274797001677700E1    -9.503970960385726E1    -2.179846401309797E1    -9.121118938814897E1    -1.251979784614417E2    -9.402801642500718E-1   -1.864298916823888E1

 3.020000000000000E7    -2.398932683452445E-1    9.925567499619542E1    -6.718379430845799E1     4.106763816004247      -8.498220998833315E1     4.362523343225988E1    -9.137030055268650E1    -1.254782478838270E2
                        -6.861894574636146E1    -3.921877968573293      -2.978334146349163E-1    8.667257320921475E1    -8.525479611129582E1    -8.183963930861413E1    -8.951180203389369E1    -1.697908713736978E2
                        -8.762074351054025E1     1.099149512714939E2    -1.123047544619141E2    -1.307638724256113E1    -9.299359358514043E-1   -1.388607426912133E1    -9.504943055203734E1    -1.480519624830423E2
                        -8.818043243352697E1    -4.295077129626898E1    -8.602464456126056E1     3.036540476002108E1    -8.273601568101302E1    -2.501641409836376E1    -9.418401165946113E-1   -1.900072156399074E1

 3.022500000000000E7    -2.496429698915050E-1    9.895706284634480E1    -7.067297663039179E1     6.610400987700850      -8.125114097694386E1    -1.541123918770642E2    -1.134592189677021E2     1.775524662754022E2
                        -6.915606720768692E1     3.513695637776054      -2.976953652548661E-1    8.630486502527496E1    -9.418621046519844E1    -6.622551412650464E1    -8.617192362130470E1     1.606166348376539E1
                        -9.107285380177495E1     1.520021215299778E2    -8.530241942078264E1    -1.591120089495021E2    -9.223735300355238E-1   -1.417012941283196E1    -8.056432282054074E1    -4.558259614273613E1
                        -9.439938460141573E1     5.898993070152076E1    -8.782400361225193E1    -5.282120614751747E1    -9.378660453177518E1    -1.103923387095610E2    -9.367511383283876E-1   -1.927024545025945E1

 3.025000000000000E7    -2.399903457831095E-1    9.862991743392708E1    -6.996377738414292E1     7.316517950630969E-1   -9.264328404131788E1     1.311038936915812E2    -8.783712743972025E1    -1.080213051538055E2
                        -6.933809133031544E1    -1.975577260483181      -3.047929862092457E-1    8.592082236046549E1    -1.069397356978961E2    -1.241674859432643E2    -9.948297377594628E1    -1.791379223562281E2
                        -9.378252481834213E1     1.487109726719102E2    -9.754001450839604E1    -8.829117986383386E1    -9.250762904997476E-1   -1.453932111438118E1    -8.452467535241047E1     9.365854328448647E1
                        -8.021644090906770E1     1.416136375875971E2    -9.109994492195553E1    -3.285146982144878      -8.072437563058602E1    -1.365971988178984E2    -9.389108143058940E-1   -1.955147508342432E1

 3.027500000000000E7    -2.402329295447008E-1    9.836211467412203E1    -6.730179203096031E1     1.510902029854774      -8.584729924255458E1    -1.064793064405649E2    -8.698205752412594E1     1.464291014230295E1
                        -6.799898130671861E1     3.700063978281512      -2.897471588224047E-1    8.548792404963530E1    -9.133195452063339E1     1.633935441581827E2    -9.029061659184153E1    -2.162436208129656E1
                        -9.357410752759270E1    -6.403399550026010E1    -1.106290986635169E2     1.365799477600717E2    -9.247125694994974E-1   -1.479565641458945E1    -9.248969794983094E1     1.074967400559379E2
                        -8.443489977098759E1    -8.490078210732901E1    -8.752810312776660E1     9.184172585623287E1    -8.610470230461070E1    -1.770200249699519E1    -9.395559114661369E-1   -1.990809413122457E1

 3.030000000000000E7    -2.438716602975733E-1    9.807314440891642E1    -6.692816821423602E1     1.097217738784736E1    -9.212891903922780E1     7.173734243509709E1    -8.052540431825291E1     1.670467573023370E2
                        -6.917097760181261E1     1.431421917447667E1    -2.997147735659541E-1    8.514426653275362E1    -1.017550120982835E2    -3.622109069104508E1    -8.942708807417985E1     9.783043176109894E1
                        -9.440957492241626E1    -1.121621672456978E2    -9.277854099356979E1     1.296204900232536E2    -9.307685366208811E-1   -1.511706228552882E1    -8.936850696654780E1    -1.515810838299316E2
                        -8.753976325404368E1     8.581534637619461E1    -8.371355335678970E1     6.360639646108897E1    -8.650465634329296E1     1.978900872503763E1    -9.407090427506204E-1   -2.022095830712804E1

 3.032500000000000E7    -2.402689551734417E-1    9.776891201421519E1    -6.893848685889432E1    -4.296923579187439      -8.886357038008291E1    -9.174596560668451E1    -8.933641478758871E1     3.717198184972357E1
                        -6.903550436290084E1    -3.106920854568372      -2.879722773987115E-1    8.474921236944086E1    -9.160558838290790E1    -1.361013781432241E2    -8.522574901141235E1    -6.451220690130161E1
                        -8.225672442322431E1    -1.158970233331192E1    -8.767623489273973E1     6.069150499163220E1    -9.261089511156315E-1   -1.546742029350023E1    -9.269484908559015E1     9.835743848846546E1
                        -9.011967667903389E1    -1.180037840935410E1    -9.218357202623622E1    -1.674787219137904E2    -8.433565634062182E1    -8.777433194610765E1    -9.385079368525484E-1   -2.052030151508480E1

 3.035000000000000E7    -2.323105022366212E-1    9.747236481353198E1    -6.727090617389277E1     7.692463969418709      -8.417653010865566E1    -1.507572695622837E1    -7.795201982008270E1     3.292160107602429E1
                        -6.729852658697122E1     1.497373301562665      -2.929405770932165E-1    8.436529524662589E1    -9.013124895677939E1    -6.986039029525711      -8.215029516209604E1     1.137118980614794E1
                        -8.416576360157727E1     5.731187345241509E1    -9.041812434819062E1     1.762504308836138E1    -9.244446875987361E-1   -1.576360202918738E1    -9.397431006686858E1     1.001862852119162E2
                        -9.024996043755751E1     7.907457140806059E1    -9.280437880420089E1     1.403234752861309E2    -8.834689647196633E1    -1.747351703904330E2    -9.423470616283280E-1   -2.082040469966831E1

 3.037500000000000E7    -2.388964622499074E-1    9.718830661782545E1    -6.723238696883071E1    -1.184593988988563E-1   -8.337728832055818E1    -2.860951117066228E1    -8.520033841367396E1    -3.658244619543912E1
                        -6.745453523003840E1    -1.758689272027376      -2.908130850855034E-1    8.398618364538928E1    -8.779886618151690E1    -1.477170801485299E1    -8.494931406041638E1     9.931204843183890E1
                        -8.368397047818530E1     6.408432357130870E1    -8.185227155481003E1     8.345537889091972      -9.291669899287240E-1   -1.598173632193401E1    -9.247908369111568E1    -5.105146281590823E1
                        -9.099801774311675E1     6.296238065387744E1    -9.387930738274540E1     1.227272517108973E2    -8.219474246899787E1     1.219468887434052E2    -9.374685495294763E-1   -2.115243731422194E1

 3.040000000000000E7    -2.336068779821851E-1    9.685967486667930E1    -6.756502418400906E1     1.091052644474378E1    -8.893981900532069E1    -4.247111814129694E1    -8.440292372627498E1    -1.009718007812646E1
                        -6.717518245292060E1     6.322764534614320      -2.895866667361177E-1    8.366296293295468E1    -8.077764850307780E1     6.232574055744752E1    -8.577295241744203E1    -6.996318994455336E1
                        -9.773394308779567E1    -2.979719311135441E1    -9.412937204167589E1     4.831537894281563E1    -9.314783426263011E-1   -1.632205585320426E1    -8.717059301947654E1     1.584966371077695E2
                        -8.967715835657464E1    -4.782405435384015E1    -8.408794150389861E1    -3.964737755618113E1    -8.272932819703549E1     1.169864591638223E2    -9.402419353785732E-1   -2.146870860274128E1

 3.042500000000000E7    -2.336476436196037E-1    9.659711923552707E1    -6.796236086377471E1    -2.195896759212426      -8.931231600631706E1     1.056107601744937E1    -8.724003317053573E1    -8.976034313159731E1
                        -6.823272974259199E1    -3.115576582636387      -2.946782373039436E-1    8.329608262091551E1    -9.195303342358591E1     2.559953525288158E1    -8.667378747272097E1     1.797161186388103E2
                        -8.211172270973954E1    -1.484589023948448E2    -8.269409586058831E1     1.621836054592511E2    -9.299200529371200E-1   -1.664500453517499E1    -8.537805177441973E1     5.292201791105516E1
                        -8.205939137553511E1     8.368439146988413E1    -8.332464309850110E1    -1.051348585779696E2    -9.248410208889123E1    -1.202901512714042E2    -9.392250623257439E-1   -2.179328051324638E1

 3.045000000000000E7    -2.336286705555570E-1    9.627977850660830E1    -6.679585517855900E1    -5.684271368754081      -8.266239190435927E1     1.451054833497798E2    -9.261889952652456E1    -6.998975420028067E1
                        -6.793179921613795E1     8.436521139365995      -2.933152723874851E-1    8.288651544679824E1    -8.601705690278685E1    -1.156805890864135E2    -9.806941363284818E1     2.485577045698746E1
                        -9.014482487047447E1     1.194164356050224E2    -9.211670063902317E1     1.223025610045881E2    -9.266618816283554E-1   -1.695289162452922E1    -9.451037718783049E1     1.024834595076211E2
                        -8.463088838497214E1    -1.412204834738442E2    -9.081629760140216E1     8.635536837101981      -8.631578685087715E1    -1.773367816082745E2    -9.367900769589115E-1   -2.208998907337619E1

 3.047500000000000E7    -2.353613836100801E-1    9.596883700728269E1    -6.679304574358358E1    -2.491236217240125      -8.412911747104332E1    -7.648579931829688E1    -8.115829455616964E1    -1.179938936065276E2
                        -6.865382011415673E1     1.051708334959571E1    -2.925189872255263E-1    8.253768798071349E1    -9.245897116524333E1     1.403898322581894E2    -9.394159672954494E1    -1.358505625776500E2
                        -8.697147194371723E1     1.871780594521905E-1   -8.212870093388906E1     1.490583947374248E1    -9.276254383844705E-1   -1.726063947046592E1    -8.106207399493648E1     4.517399624632565E1
                        -8.216520334528916E1    -3.606684863241694E1    -8.504732782784572E1    -1.317475646666079E2    -8.976616465694106E1     1.732989943605217E2    -9.419167787934453E-1   -2.243727408251537E1

 3.050000000000000E7    -2.444405263497790E-1    9.567318672691664E1    -6.840912327334924E1     1.079704724677680E1    -8.855184615356613E1    -8.512459473707395E1    -8.851881085035531E1    -1.173248192704057E2
                        -6.798851035482224E1     5.254686064630186E-1   -2.922490694833771E-1    8.209003912507824E1    -8.380296909733049E1     6.519530029692467E1    -8.779473550808160E1    -1.345292746971157E2
                        -8.978798199915191E1     5.445797501353966E-1   -1.002359576728329E2     1.060699358968279E2    -9.282940485609772E-1   -1.758312971471263E1    -9.076621956505551E1    -1.155009520439441E2
                        -8.667456828066045E1    -5.269033118404742      -8.305476662018671E1     7.232538579949275      -9.040377917212831E1     1.333103633452251E2    -9.420768181863368E-1   -2.271678298428946E1

 3.052500000000000E7    -2.312254173624256E-1    9.545587782186431E1    -6.811146625796295E1    -5.143393730082550      -8.457766636678743E1    -9.274654334758199E1    -9.005122193655600E1     1.079440485890001E2
                        -6.741869877289987E1    -5.443737053912470      -2.918374399084218E-1    8.172923837514476E1    -9.217853000595225E1     2.034734848901027E1    -8.147035889939701E1    -4.702558997142468
                        -1.030058531675897E2    -3.015272741407870E1    -9.995360200401046E1    -2.350076754909022E1    -9.209151290699337E-1   -1.784971614209154E1    -9.699164975353267E1     1.732858132564381E2
                        -8.697690601259298E1     1.940533629732150E1    -9.384961751955618E1     1.692099735346734E2    -8.279265218609687E1     1.690113165248745E1    -9.391558317131922E-1   -2.305634738005253E1

 3.055000000000000E7    -2.315587512026391E-1    9.510456742738091E1    -6.968245703141474E1     9.688404542514515      -8.933643157205250E1     7.356367989337905E1    -8.915061547480575E1     1.280959705450613E2
