#  HZ   S   DB   R     50.00 
! Rohde & Schwarz Vector Network Analyzer 
! Rohde-Schwarz,ZNB8-4Port,1311601044102961,2.82
! Created: UTC 2/12/2019, 1:29:54 PM
! freq[Hz]                db:S11                  ang:S11                 db:S12                  ang:S12                 db:S13                  ang:S13                 db:S14                  ang:S14
!                         db:S21                  ang:S21                 db:S22                  ang:S22                 db:S23                  ang:S23                 db:S24                  ang:S24
!                         db:S31                  ang:S31                 db:S32                  ang:S32                 db:S33                  ang:S33                 db:S34                  ang:S34
!                         db:S41                  ang:S41                 db:S42                  ang:S42                 db:S43                  ang:S43                 db:S44                  ang:S44
! 
 5.675000000000000E7    -4.358316508521222E-1   -1.335880119861387E2    -2.925493091742030E1     6.047796113399369E1    -6.784620683116383E1    -1.436881061260489E2    -7.524967682367819E1    -1.528396735844892E2
                        -2.929706593066739E1     6.029256408297398E1    -2.418064211923973E-1    7.519950119506908E1    -8.370553915591907E1     1.118578852956408E2    -8.163559861394762E1    -4.915698311260990E1
                        -6.703816722098951E1    -1.574474579280470E2    -1.024615858393673E2     1.607110983116583E2    -1.369594144622065       2.427471932216046E1    -8.887427376488475E1    -6.367552851909311E1
                        -1.020788792331988E2    -1.897833958549303E1    -9.618677603838812E1     1.041102933426531E2    -8.149940199840745E1     1.379451636316135E2    -1.366752040505685       1.731339424830007E1

 5.675025000000000E7    -4.331342939431995E-1   -1.336168957108935E2    -2.917789740391884E1     6.042113816554290E1    -6.680936131395474E1    -1.541951361431353E2    -9.773920246113961E1     1.231170742901277E2
                        -2.925664317380658E1     6.098312392214955E1    -2.376901518844126E-1    7.520462840949365E1    -8.753146855774267E1    -7.289254261601596      -8.347953391425509E1     8.579397427410481E1
                        -6.608699796503517E1    -1.462885897812386E2    -8.958368597375414E1    -5.942722822144462      -1.365866597695296       2.423053187302607E1    -8.481958017512183E1     4.913287570618188E1
                        -8.171027518580901E1    -1.713083422764909E2    -8.846547119734667E1     1.786406502591589E2    -8.087054708635716E1     2.897579241892481E1    -1.368212528138303       1.732557999707687E1

 5.675050000000000E7    -4.339962241823256E-1   -1.336479676669859E2    -2.923251815779577E1     6.128935181740248E1    -6.743864332329125E1    -1.452818781430972E2    -9.238273069422931E1    -2.072128598596269E1
                        -2.918961127779999E1     6.090740642129283E1    -2.417241301829315E-1    7.518764354023720E1    -9.033757941509958E1     1.282420444807305E1    -8.534206395246142E1     1.794902946788294E2
                        -6.689584770389813E1    -1.411192985520507E2    -9.393493852295960E1     3.615303293391199E1    -1.368951355153708       2.424051097693095E1    -8.080074470525447E1     1.189505704367713E1
                        -9.728188096714231E1    -7.955053475157649E1    -9.115570497472970E1     4.508106075254871      -9.216725866843996E1     1.536750955246464E2    -1.372949047212455       1.730657406804063E1

 5.675075000000000E7    -4.314435973034776E-1   -1.336489265510569E2    -2.922584768717254E1     6.051524001665745E1    -6.677144256931649E1    -1.438870527470638E2    -8.023655129238776E1    -1.620561090619395E2
                        -2.926432193282404E1     6.019445457623537E1    -2.422995712696795E-1    7.521016184249761E1    -8.618926474158033E1    -5.975812534135315E1    -8.942836427517992E1     7.498486859954333E1
                        -6.778275663248446E1    -1.567490005567952E2    -8.733096498239794E1    -8.542840820404967E1    -1.361482001273593       2.425380822717352E1    -8.993465922147045E1     1.670151335554165E2
                        -9.965224265845249E1     3.546299103350255E1    -9.898339504214853E1    -1.196767527397312E2    -9.006191004607943E1     1.766459280260519      -1.367529952556273       1.730206831213868E1

 5.675100000000000E7    -4.310261921759389E-1   -1.337081513788797E2    -2.925278435899854E1     6.056764181942167E1    -6.788857627922783E1    -1.395621369530841E2    -9.126979356219201E1    -2.995225232422425
                        -2.924920094338785E1     6.086064779270912E1    -2.434435454841944E-1    7.516767770795424E1    -9.252001690658405E1     2.024278169408045      -8.703890782774431E1     1.763612032099026E2
                        -6.645595218699546E1    -1.357061251662437E2    -7.831024526789130E1     6.334029575207232E1    -1.361767020179655       2.422489471823761E1    -8.967328856859592E1     8.079500653579659
                        -8.602840108994874E1    -1.562363182067116E2    -9.454487847321127E1    -1.055167058446613E2    -8.973222198270149E1    -7.740571093995767E1    -1.369939404054586       1.731897314015793E1

 5.675125000000000E7    -4.326762199233368E-1   -1.337079906130538E2    -2.930526780706713E1     6.048809499939573E1    -6.610637794373993E1    -1.437853735043377E2    -8.869083144176172E1    -1.014570432846125E2
                        -2.932081496405356E1     6.031829326865350E1    -2.390257971035196E-1    7.518901072813246E1    -7.891147697297035E1    -2.604725861436338      -8.435860334105335E1     9.996140269364797E1
                        -6.667501312002204E1    -1.504461728233375E2    -8.708232938008689E1     1.606011836032924E2    -1.363666038343634       2.423007228525080E1    -9.375538068687986E1    -2.284684589636058E1
                        -8.701655639390273E1    -7.315987545106219E1    -8.907951201497774E1     5.383413300002040E1    -1.165788387772281E2    -4.718968681583227E1    -1.368038621215138       1.730324565219335E1

 5.675150000000000E7    -4.361833851591327E-1   -1.337305372761966E2    -2.929506170714715E1     6.054853024591323E1    -6.568862944289167E1    -1.480655455839248E2    -7.719613696142645E1    -1.590602057378602E2
                        -2.929287289629022E1     6.096313572544040E1    -2.375104749441060E-1    7.516223328035002E1    -8.375755167950983E1    -3.604462943305255E1    -8.965509853461101E1    -3.436509956472818E1
                        -6.659409777849751E1    -1.395966239620406E2    -1.074129439903975E2     1.798849266229855E2    -1.367449074243373       2.421189907692320E1    -8.236202541720297E1     2.445618252009657E1
                        -8.353079146535116E1    -1.520888265099509E2    -8.800156779747680E1    -1.745397246431531E2    -9.555118665603523E1     2.997403947355767E1    -1.371535182034413       1.732973251754573E1

 5.675175000000000E7    -4.301224405943499E-1   -1.337515183164562E2    -2.922360669348533E1     6.046960478738772E1    -6.795828428478274E1    -1.494708323453818E2    -9.063420655035843E1    -1.384150955146671E2
                        -2.926019097258547E1     6.106762455091542E1    -2.395540210771761E-1    7.516387720324546E1    -8.473973474715537E1    -1.264921195080244E2    -8.508691158475622E1    -6.345042079173880
                        -6.720004313612945E1    -1.457276425531030E2    -8.526538986477911E1    -1.655048952746126E2    -1.365846685497620       2.422349679721128E1    -8.765426838484495E1    -1.515859530840887E2
                        -8.434040421399180E1    -6.115294563564678E1    -8.661763544315409E1     3.927546653039465E1    -8.261093217875356E1    -2.749167403378435E1    -1.372188877312546       1.729910673537018E1

 5.675200000000000E7    -4.318359879233638E-1   -1.337907139133368E2    -2.925950754356416E1     6.055476614152720E1    -6.649589271502029E1    -1.396112631336131E2    -7.897271566727119E1    -1.654161539116026E2
                        -2.933052709445293E1     6.049357203202100E1    -2.370259676081089E-1    7.512921197618633E1    -8.546348808436122E1    -9.752751525726040E1    -8.572808453565317E1     4.524919047486182E1
                        -6.660878328780709E1    -1.449483952609366E2    -8.734048697426073E1    -8.420329777543165E1    -1.362694086246426       2.421544359983427E1    -8.615482560300987E1     1.687581656663009E2
                        -8.720055844855254E1    -1.261973255465172E2    -8.810731453974599E1    -6.197835072426641E1    -9.061201954584084E1    -7.001716838523936E1    -1.369019147006151       1.727788119982489E1

 5.675225000000000E7    -4.332149577554174E-1   -1.337659469668176E2    -2.923533049042961E1     6.101696834073690E1    -6.647036569410210E1    -1.452440248141335E2    -8.455621941062367E1     1.635343352588618E2
                        -2.932523781369528E1     6.075353212923872E1    -2.378037441421121E-1    7.517879670350531E1    -8.274272864300787E1     8.603996936342924E1    -9.674358241061518E1     5.126383750294444E1
                        -6.662200196839692E1    -1.522671518275982E2    -8.995709120231032E1    -7.759636412571963E1    -1.361899078819469       2.421281453167456E1    -9.442906945146682E1    -9.901382392990045E1
                        -1.079047134028054E2    -4.679855039841659E1    -8.390551313286770E1    -1.456887160751422E2    -8.339718887129092E1     1.480531939084080E2    -1.372067905617131       1.733155261596625E1

 5.675250000000000E7    -4.326084200281756E-1   -1.338283667328788E2    -2.933125105488599E1     6.073700423882004E1    -6.651109321205949E1    -1.527799562139909E2    -9.344604873878724E1    -8.578980970994702E1
                        -2.931307647860218E1     6.096314923982163E1    -2.393222689855921E-1    7.516925309779548E1    -9.080174235888546E1    -9.919224508321773E1    -1.006894842788288E2     1.780896613794560E2
                        -6.720345430987472E1    -1.491736834981080E2    -8.556615857769586E1     9.231146296201848E1    -1.367950846480057       2.420422505170758E1    -8.045647087463297E1     3.817776766979529E1
                        -8.222939414445604E1    -5.874699237856900E1    -8.038947760378488E1    -1.384122310672999E2    -8.504206650857947E1     1.249770141838095E1    -1.370222910070755       1.730417195270466E1

 5.675275000000000E7    -4.355102301652348E-1   -1.338293378192934E2    -2.923714498367127E1     6.061199072118285E1    -6.786120612275477E1    -1.468663746189943E2    -8.655657966067936E1    -1.215547413292348E2
                        -2.932293485355947E1     6.105282310847215E1    -2.444018768718349E-1    7.516008713856125E1    -8.849925696885481E1     7.413802395493016      -8.602333206582219E1     6.760810684839954E1
                        -6.673776384249364E1    -1.467791086893337E2    -8.686031128958490E1    -1.214809560385696E2    -1.367524011531076       2.422540374442333E1    -8.356492428846312E1     4.287500958250667E1
                        -9.071431172078164E1    -1.673420565757857E2    -8.834211171130013E1     1.683956087767241E2    -9.006833946798123E1    -3.844657880708992      -1.368622584463146       1.732023482337752E1

 5.675300000000000E7    -4.375972558976712E-1   -1.338571802543522E2    -2.930995613291163E1     6.042175243497075E1    -6.730508733019101E1    -1.400694505260493E2    -8.621646016500915E1    -1.058388818734190E2
                        -2.939635151555446E1     6.065150178836217E1    -2.383002125907409E-1    7.513359877646879E1    -8.357473083611427E1     3.369138160249354E1    -8.979691083406905E1     1.653052573553902E2
                        -6.695865030091434E1    -1.552888942761300E2    -8.499717473540243E1     7.859631096946616E1    -1.368966590023004       2.420545193083185E1    -8.364167737481054E1     7.485490038981405E1
                        -8.828572938110349E1    -9.923968524658291E1    -8.302864040045067E1     9.635771119545824E1    -8.714342667248161E1     1.720453910431587E2    -1.370546316456959       1.724711503696700E1

 5.675325000000000E7    -4.374025726867708E-1   -1.338984029790499E2    -2.923173410688707E1     6.068574935012067E1    -6.536390914411997E1    -1.428283829131894E2    -8.181186534155144E1    -1.050380347021062E2
                        -2.924049465015595E1     6.117775751908903E1    -2.421798332565671E-1    7.511320204089469E1    -8.844177416545205E1    -1.625747327542837E2    -1.041229887801966E2    -1.415354814076225E2
                        -6.736236576384245E1    -1.449115828424356E2    -9.952983408174936E1     4.465595489999833E1    -1.360994381638133       2.422086515624929E1    -8.630154168541966E1     3.081079558755599E1
                        -7.929896428717746E1    -1.270163371027298E2    -8.233479571543055E1     8.843488894740671E1    -8.542382200767872E1     1.353410955310987E2    -1.369740470100891       1.728622032493357E1

 5.675350000000000E7    -4.360892879925207E-1   -1.339274956247754E2    -2.926719756120615E1     6.057570719295774E1    -6.567694029474718E1    -1.516953912515885E2    -7.787866778252089E1    -1.550201915013652E2
                        -2.925365044600992E1     6.054974811016358E1    -2.407573904726902E-1    7.514825922279805E1    -8.908262338989694E1    -1.046364904267480E2    -1.085512964738450E2     1.787237049566302E1
                        -6.660496195923554E1    -1.494473744433006E2    -8.160393475207474E1     1.730410696808167E2    -1.363853333496749       2.421607543595476E1    -9.113863950880057E1    -1.201386531230847E2
                        -8.674520290342434E1    -1.388179904150960E2    -8.414690348490206E1     1.201781268680240E2    -1.017841447168088E2     6.779978320881703E1    -1.370526630590005       1.729480226684204E1

 5.675375000000000E7    -4.375711137861622E-1   -1.339652175311069E2    -2.924334160598455E1     6.067253623827730E1    -6.574649470626947E1    -1.481474244644136E2    -8.230266659448893E1    -1.449094580709497E2
                        -2.928546147281948E1     6.076783979521449E1    -2.409672282386587E-1    7.514053621337098E1    -9.886518190902996E1     1.102042500868157E2    -8.206219828037524E1     1.239036102641486E2
                        -6.729768931764116E1    -1.437159873507158E2    -9.161995735181472E1     3.416394992116411E1    -1.365667137892784       2.418547787184578E1    -8.655950977564186E1     1.664526480084725E2
                        -8.768199723857249E1    -5.072403073460920E1    -8.547771931682506E1     7.784288132244969E1    -9.736435630278903E1    -1.310548639148469E2    -1.368341471984822       1.726560836163506E1

 5.675400000000000E7    -4.378867504394248E-1   -1.339714840484714E2    -2.926726104067432E1     5.999793111866983E1    -6.640219361539801E1    -1.471304882610050E2    -9.254384854151817E1     1.041423603272172E2
                        -2.937759741259385E1     6.015279491602474E1    -2.442096840382076E-1    7.514258671344504E1    -8.716946119407660E1    -3.900848006157472E1    -8.469024837628582E1     1.392931552211135E2
                        -6.607820740876414E1    -1.403492692495483E2    -9.490466507712529E1     4.621733169250074E1    -1.363472730282077       2.419017296499119E1    -8.343723688203511E1    -1.495458690565921E2
                        -8.424162657591037E1    -1.416501068018983E2    -8.781498708463361E1     8.768013056423970E1    -8.286882321942369E1     9.247660504922224E-1   -1.366637258307733       1.729440370714559E1

 5.675425000000000E7    -4.363996721850300E-1   -1.339943699917782E2    -2.932720952704837E1     6.044494910369055E1    -6.610982151503579E1    -1.470900705063577E2    -8.782010695198335E1     1.787227508493789E2
                        -2.924575936592120E1     6.019476030733286E1    -2.431876821012860E-1    7.511866431670373E1    -8.999461924607780E1    -3.597568734157812E1    -8.858691049172381E1     9.292717526111936E1
                        -6.648143714884333E1    -1.433904585331040E2    -9.105808840739755E1    -2.922308160417481E1    -1.364560026809497       2.419783375197532E1    -8.377478105790286E1    -1.315072190727621E2
                        -9.170780608903539E1    -3.180969645497217E1    -8.592105104002931E1     3.159197617236494E1    -9.175326560580798E1     6.749699430799637E1    -1.372536694555193       1.726859714481893E1

 5.675450000000000E7    -4.365602180916275E-1   -1.340301706997278E2    -2.925180135960391E1     6.036611018143188E1    -6.580689882448988E1    -1.508194907925245E2    -8.092037660940125E1    -1.547188074401538E2
                        -2.924314497196576E1     6.026095173141217E1    -2.365708059718630E-1    7.515005993369988E1    -9.741224748580366E1    -5.383764465046995E1    -9.128414472762522E1    -1.648831785019291E2
                        -6.639040428789288E1    -1.485077434454008E2    -8.903119306948105E1     4.527447436706490E1    -1.361564569590854       2.419984734454843E1    -8.247831313336037E1    -2.134887960899751E1
                        -8.514603046957079E1    -2.830415119861006      -9.761735287069669E1     2.972330976350432E1    -8.458115779593368E1     1.058968794843302E2    -1.363937268422445       1.727529225990183E1

 5.675475000000000E7    -4.340508208700801E-1   -1.340313453978949E2    -2.936068377788009E1     6.053855576686616E1    -6.852133622540546E1    -1.421151471945406E2    -7.888140297326200E1    -1.407593593905754E2
                        -2.927305130087390E1     6.096578266590427E1    -2.428704291182435E-1    7.510044295019979E1    -1.031217327105420E2    -7.072351425659103E1    -9.233411864257759E1     2.144922189966404
                        -6.602122261729215E1    -1.431742393150182E2    -8.265922932977519E1     1.288917801301964E1    -1.368347229979115       2.419827159768249E1    -9.339391408287492E1     1.387194751671007E2
                        -8.640685519920170E1     9.151403185836763E1    -8.264569768796427E1     7.865195509790516E1    -8.125425797699342E1    -7.610286938074068      -1.367472478213309       1.728034672859150E1

 5.675500000000000E7    -4.374920403567215E-1   -1.340663850398923E2    -2.925553154688711E1     6.063264659745491E1    -6.713718168830353E1    -1.516350121102784E2    -8.863609212867519E1    -1.407369358279172E2
                        -2.938652927664066E1     6.046680256141643E1    -2.412352055260147E-1    7.508601810221472E1    -8.261163472517809E1    -2.906300494608341E1    -8.981388116376314E1     7.556993762365609E1
                        -6.600442152268792E1    -1.516039005564075E2    -8.703959915908784E1    -1.192725282750202E2    -1.363294292869669       2.418735177357486E1    -9.086300331478770E1     4.563689013927006E1
                        -9.066268672203334E1    -1.947587392302333      -8.568095809816860E1    -3.903127027587654E1    -8.600374421795115E1     2.340124401782814E1    -1.365092240136637       1.725375990777739E1

 5.675525000000000E7    -4.370579465593134E-1   -1.341076692656171E2    -2.927678594028047E1     6.039667499202388E1    -6.737607283254437E1    -1.421104012956598E2    -8.124061663665077E1    -5.764295603522099E1
                        -2.937626070820330E1     6.066010960208629E1    -2.363032560269693E-1    7.512618539227938E1    -9.104403319086229E1     7.246981899358522      -8.429236501480443E1    -5.032181760398512E1
                        -6.665142402059648E1    -1.468258645096928E2    -8.126031650153300E1     1.555129036369509E2    -1.362061275741574       2.416348086786673E1    -7.976114098647179E1    -1.015311340059529E2
                        -8.471118074097564E1    -1.342140501950055E2    -8.598004696865048E1    -7.051338271900737E1    -8.336885321957558E1     3.845447584982490E1    -1.367952547928052       1.723019147000746E1

 5.675550000000000E7    -4.356593876145032E-1   -1.341141668815814E2    -2.924270654627179E1     6.011463164085127E1    -6.749967437829076E1    -1.414603533261053E2    -7.809506959632925E1    -1.443035362459165E2
