#  HZ   S   DB   R     50.00 
! Rohde & Schwarz Vector Network Analyzer 
! Rohde-Schwarz,ZNB8-4Port,1311601044102961,2.82
! Created: UTC 2/12/2019, 11:43:12 AM
! freq[Hz]                db:S11                  ang:S11                 db:S12                  ang:S12                 db:S13                  ang:S13                 db:S14                  ang:S14
!                         db:S21                  ang:S21                 db:S22                  ang:S22                 db:S23                  ang:S23                 db:S24                  ang:S24
!                         db:S31                  ang:S31                 db:S32                  ang:S32                 db:S33                  ang:S33                 db:S34                  ang:S34
!                         db:S41                  ang:S41                 db:S42                  ang:S42                 db:S43                  ang:S43                 db:S44                  ang:S44
! 
 3.000000000000000E7    -2.612252788574249E-1    1.048885404575044E2    -6.973494962149894E1     8.080620182368090      -7.889116592360810E1    -4.845250218374450E1    -8.459024565932128E1    -1.007882875637163E2
                        -6.695207366047738E1     7.583930908275529      -2.438789368584820E-1    9.382359382215583E1    -7.852619027812209E1    -2.562650631566077E1    -8.757575875240255E1     1.397448558091875E2
                        -9.297189085389309E1     3.681304032979669      -9.216337495460559E1     3.144000964295757E1    -9.226219027437578E-1   -7.567399705086809      -8.866454520607684E1    -7.759653148103489E1
                        -8.119861594711517E1    -1.357408390488126E2    -8.935705455918834E1     1.211587247175098E2    -1.019187620950566E2     2.008310378759308E1    -9.237374739190907E-1   -1.253726189440140E1

 3.002500000000000E7    -2.603900204867375E-1    1.046150005898642E2    -6.815990656039551E1     1.082434201852746E1    -9.068492221026945E1     1.552015236543340E2    -8.567813262033329E1     7.060954417987952E1
                        -6.678097232922974E1     1.380831397759897E1    -2.610055155613542E-1    9.342522894005390E1    -8.788062913358841E1     6.419852813037223      -8.332108856940805E1    -1.640405852641655E2
                        -8.236764198173950E1    -1.102321330870835E2    -8.805370351350744E1     1.339305716688745E2    -9.227739401138075E-1   -7.861585700247532      -9.131387021849605E1    -1.985901225124347E1
                        -8.318379671717040E1    -6.622059202873901E1    -8.432979469053920E1     1.145448007478436E2    -9.892502508695223E1    -7.965221397182285E1    -9.275737110840933E-1   -1.285059571073812E1

 3.005000000000000E7    -2.592537341196689E-1    1.043367086742573E2    -6.709399246487374E1     8.683670373631925      -8.668668720149734E1    -5.655748543274531E1    -8.204230632528709E1     1.120864237032863E2
                        -6.752683440983307E1     1.579365660775434E1    -2.401652554325212E-1    9.310190319420292E1    -8.984447887616025E1     1.220597014223110E2    -8.113757645414842E1     1.143656489319083E2
                        -9.089774205918434E1    -9.882208578169328E1    -8.303303126517412E1     3.642742325475225E1    -9.209601056311394E-1   -8.145978227596253      -9.268849445572670E1     1.763116037795748E2
                        -8.954283748731905E1     1.668275113893717E2    -8.946849890463626E1    -7.744314240183005E1    -8.710305122077726E1    -1.123938747172071E2    -9.253894300255571E-1   -1.316673636648335E1

 3.007500000000000E7    -2.560028807729486E-1    1.040125060307758E2    -6.933973044199342E1     1.085397369281643E1    -8.984497252787725E1    -1.486150233674077E2    -8.792681179377694E1    -1.139527166982466E2
                        -6.750437308032048E1     1.366137682380940E1    -2.454083746087261E-1    9.269641581002580E1    -8.202548658802533E1     1.300470565603586E-1   -8.859395086947778E1    -2.631195726256377E1
                        -8.515984442804920E1    -4.992444909068679E1    -9.110036878738998E1     8.993127364195723E1    -9.234528144190545E-1   -8.450941672015347      -9.515349037256127E1     8.930194534808750E1
                        -8.505402750189531E1    -3.821530638742377E1    -8.614328679401055E1     1.263184822877390E1    -9.744946532864418E1     1.160140448540475E2    -9.342808668080159E-1   -1.346892505533900E1

 3.010000000000000E7    -2.627651052099654E-1    1.037393899007721E2    -6.676378942827274E1     1.022041616253082E1    -8.548274218992488E1     1.317393051429142E2    -8.289972206194651E1    -9.119849639327659E1
                        -6.669606858896758E1     1.607726541260618E1    -2.484186671819455E-1    9.234240955064958E1    -9.621467650139530E1    -1.688467775533081E2    -9.110244156533675E1    -9.277745887564123E1
                        -8.012137963021927E1    -1.079623101936251E2    -8.195036654014366E1    -6.247014855720389E1    -9.189711310260877E-1   -8.741864446076447      -9.576399782516248E1    -4.511425370084172E1
                        -8.018573256359126E1     1.615593383985015E1    -8.733844366444302E1    -8.664783226218106      -8.643208511373466E1    -1.515817886010999E2    -9.283199948899639E-1   -1.372475820842719E1

 3.012500000000000E7    -2.527922304678674E-1    1.033827532807476E2    -6.636355880383084E1     1.927647883212097      -8.691296281801218E1    -7.272072842360713E1    -1.059604726064614E2    -2.576146696742488E1
                        -6.716038362205185E1     1.132483707811679E1    -2.485831375362798E-1    9.199576484473914E1    -9.044089279356278E1    -2.226159677160954E1    -8.748098325597694E1     1.113337765868156E2
                        -8.608215209732842E1    -2.264383806960645E1    -9.093283051198714E1     6.467647739693499E1    -9.268638004108799E-1   -9.060406639490900      -9.790647472897619E1    -3.870970436376233E1
                        -9.206881884921289E1    -3.356472593094423E1    -8.610218353293419E1     1.691339607653905E2    -8.796902299955011E1     1.756846086368253E2    -9.308054602309257E-1   -1.407622545145284E1

 3.015000000000000E7    -2.559543074018856E-1    1.031310956313694E2    -6.716426958737952E1     4.915477237468656      -8.596523136955271E1     7.391025521900916E1    -8.688015806583827E1    -6.378911030332364E1
                        -6.753978123935718E1     7.026256454432732      -2.464059359150668E-1    9.157377932284688E1    -8.067582984951599E1    -2.872203820115937      -8.444274704074704E1    -3.867130265662938E1
                        -1.001919790616419E2    -8.514902834167273E1    -8.383938473662781E1    -5.122154105352649E1    -9.227106365613513E-1   -9.388071037728015      -9.450373270897474E1     2.054367425851804E1
                        -9.193889560013994E1     1.682128757066907E2    -9.131413421919288E1    -9.966581732145644E1    -8.981774881167266E1    -7.383805736910577E1    -9.256449795951821E-1   -1.435555167974219E1

 3.017500000000000E7    -2.540676391995536E-1    1.028030688189760E2    -6.820387878548398E1     7.709797242161105      -9.165239891969135E1    -1.461718858147075E2    -9.535749638947060E1    -8.972815588732797E1
                        -6.637271976160784E1     7.617762094318383      -2.446746627446731E-1    9.126022950067369E1    -9.430973949699461E1     1.276319740548851E2    -8.781709722903341E1    -1.229341311558418E2
                        -9.884791451483693E1    -1.689723158562004E2    -8.448498168852161E1     6.494425906103976E1    -9.210244081911172E-1   -9.687545303835336      -9.088803760484807E1    -1.249666543943885E2
                        -8.216808552003776E1    -6.560176252216043E1    -8.259451901697616E1     1.054236235580343E2    -8.383351956233321E1     2.483176274104633E1    -9.298576469607585E-1   -1.468141608881703E1

 3.020000000000000E7    -2.534244114349952E-1    1.025197845558558E2    -6.674309798251390E1     2.790847148268594      -8.209424500565996E1     1.308388354342752E2    -8.952002525909623E1    -7.046984983017898E-1
                        -6.635625295836326E1     1.196889394574125E1    -2.425199505229733E-1    9.089319700720873E1    -9.716528489194124E1    -1.336414159179953E2    -8.699518101222245E1     7.093661475374881E1
                        -1.006014271817514E2    -3.766873418431531E1    -9.245689995678100E1     1.560981544512624E2    -9.213065909771383E-1   -9.982767990675967      -9.844361105272824E1     1.988339686072802E1
                        -9.014803731075867E1    -1.508286506404032E2    -8.338469728938435E1    -1.385250974032444E2    -8.829152816806712E1     9.292200062430801E1    -9.305584623472776E-1   -1.499431586698243E1

 3.022500000000000E7    -2.536225345580018E-1    1.022518504589287E2    -6.666712937941712E1     3.233257738831963      -8.480508071419946E1    -3.520098798808927E1    -9.642396087710787E1    -1.331509493892172E2
                        -6.726811436427505E1     2.558698434479778      -2.527983564862079E-1    9.050476015193544E1    -8.600543591301913E1    -1.557408437758449E2    -8.403914023705268E1    -1.437334245180620E2
                        -8.940915840749270E1    -6.139579486380448E1    -8.895630192361820E1    -4.669163827638126E1    -9.198969201811489E-1   -1.027594632630619E1    -8.909231066765565E1    -2.890280801558623E1
                        -8.830215676023511E1    -1.741859431661039E2    -9.102352784177322E1    -1.686545348619456E2    -8.164837259799501E1     4.677737544977176E1    -9.225769935837505E-1   -1.526778244400692E1

 3.025000000000000E7    -2.619087530240992E-1    1.019825940326463E2    -6.796365868156460E1     3.320795804623229      -8.842392886307452E1     1.187104486773405E2    -9.893975778977583E1     1.701920264942217E2
                        -6.578655956377160E1     9.400075397556089      -2.519414226557541E-1    9.004566454269128E1    -8.305308763059151E1     2.490619891983504E1    -8.730575214628244E1    -9.141486242023106
                        -9.350380990530347E1    -1.533876361479305E2    -8.452576279437568E1    -1.262679256774567E1    -9.234239381782379E-1   -1.058745835884514E1    -9.011847721709106E1     5.470650843879100E1
                        -9.050386145400708E1    -4.593945081998381      -8.365350607767874E1    -1.985679162377251E1    -9.497680000742190E1     5.386371009619251E1    -9.379294493854138E-1   -1.558379210753362E1

 3.027500000000000E7    -2.540539728560002E-1    1.016769446078829E2    -6.568320955426805E1     8.441241803574881      -7.741959388018005E1     1.643689022425318E2    -8.108148484386291E1     5.411996036555061E1
                        -6.660412844414508E1     4.058494154806160E-1   -2.362054090455851E-1    8.974461644536683E1    -8.225597441029848E1    -7.258998695907904E1    -8.571446507404690E1    -5.142241231767806E1
                        -8.379384248295183E1    -7.967873206298813E1    -8.585769036544039E1     1.576446300089618      -9.155678665872788E-1   -1.089971544862042E1    -9.101503680885165E1     6.238027720292228E1
                        -8.079604876690455E1     1.165603799030087E2    -8.801042502187653E1     3.584912816689882E1    -8.062870202226578E1     1.285552900509138E1    -9.280818001156355E-1   -1.589396303325330E1

 3.030000000000000E7    -2.602497520517083E-1    1.013869572330096E2    -6.658574956939519E1     4.431899392097324      -7.901013138411618E1    -3.217362506738672      -8.667159063045884E1     1.722791110092336E2
                        -6.709365617373297E1     2.606543008408853      -2.495795785318092E-1    8.935508883588702E1    -8.528606335245804E1     1.717215291688301E2    -8.569181329368716E1     1.135055263633999E2
                        -8.442752655317614E1    -4.331831092154172E1    -8.308967220142660E1    -1.797070600982448E1    -9.250830326511619E-1   -1.120475253181887E1    -8.497344978207519E1    -4.738561688489924E1
                        -8.779578182548792E1    -1.225071211023006E2    -8.088142563448579E1    -1.486186385049981E2    -8.570222586705100E1     9.643028860931901E1    -9.239773297048971E-1   -1.624358922191564E1

 3.032500000000000E7    -2.601165291059484E-1    1.011014526532862E2    -6.612930761562116E1     3.672116842898487      -8.853970376614014E1     1.588731695996970E2    -9.456027209114905E1    -1.028829257695375E2
                        -6.630111832163628E1    -2.490492434096401E-2   -2.381390371571321E-1    8.893523134935748E1    -9.708766606457245E1    -1.298044595156773E2    -8.502454055269982E1     5.317902522536144E1
                        -8.399366582321734E1    -1.009821059513549E2    -9.029737239772297E1    -1.427192154324633E2    -9.225045513952707E-1   -1.147147140626801E1    -9.160435777871987E1    -1.412252564427554E2
                        -1.011322588530843E2     1.950834899537644E1    -8.231341307538881E1     8.986703956895371E1    -9.046188982186791E1     1.775030222725988E2    -9.250266155255362E-1   -1.654909085426647E1

 3.035000000000000E7    -2.535000393408414E-1    1.007798137141623E2    -6.645893537826581E1     1.301074346845810E1    -8.934719749581100E1     1.200079225965973E2    -8.753013948773349E1     8.227250766035633E1
                        -6.803676998593205E1     7.568500906608859      -2.393534833617028E-1    8.859259541392115E1    -8.488346734635658E1    -1.204983999272160E2    -9.312775348150814E1    -1.642541206394347E2
                        -8.700133575555591E1    -1.016596224714520E2    -8.693493365276190E1     1.347440084255628E2    -9.183434299753865E-1   -1.181540525799421E1    -9.929118923837221E1     5.118264068930718E1
                        -9.187570495076179E1    -4.013379820482056E1    -9.685664785202967E1     8.548262305014040      -9.606280886664166E1    -1.512843733145967E2    -9.284243204831316E-1   -1.685047250374009E1

 3.037500000000000E7    -2.515227160323171E-1    1.005103155553291E2    -6.571916173375699E1     3.781976506616116      -9.137947115102237E1     2.469652527616202E1    -8.689172675470140E1     9.894042247737369E1
                        -6.697040360665039E1    -2.251636039529649      -2.450034375902933E-1    8.822998113632603E1    -1.024733871346039E2    -1.451980535373915E2    -8.634214751980858E1     1.379879515842923E2
                        -1.012963333911563E2    -5.170257916427360E1    -8.304850139165252E1     1.439363416280203E2    -9.265628167832751E-1   -1.202073687652395E1    -8.826289114028870E1     1.696681628091583E2
                        -9.653954966532641E1    -1.988847946502627E1    -9.361214622339405E1     5.689465867532304E1    -1.076845847212941E2    -1.432504041765842E2    -9.284090811640410E-1   -1.713333796368659E1

 3.040000000000000E7    -2.552406717772193E-1    1.001559867284309E2    -6.620219289342531E1     6.189630298122537      -8.271714745751075E1    -1.109452277902916E2    -8.147013891065870E1     8.929440154178406E1
                        -6.645557749697235E1     2.242261693029538      -2.409418321145432E-1    8.784038019426305E1    -8.910108266738313E1     1.694934535832149E2    -9.054094841734130E1    -5.851626998570683E1
                        -8.211011703259395E1     2.005073648673563E1    -8.777697257813398E1    -1.146457613387867E2    -9.213522688960749E-1   -1.239051728362952E1    -9.014829529679707E1     1.141180477358346E2
                        -8.201850699504549E1    -1.580940786693103E2    -8.513443443055667E1     1.531402813764442E2    -8.529980583634719E1    -6.604900145188560E1    -9.274067086680256E-1   -1.747844253927203E1

 3.042500000000000E7    -2.533450114128997E-1    9.992656239507753E1    -6.834270391300150E1     5.949706621415691      -8.643130198646334E1     1.901855309954775E1    -1.094791520082152E2    -9.648220351332668E1
                        -6.544794937375093E1     5.098614220337204      -2.443098391504972E-1    8.751316262806814E1    -9.559453410901027E1    -1.051548502620698E2    -8.516654610647009E1    -7.561923827752024E1
                        -8.464423846418242E1     1.262048058286164E2    -8.451721999386082E1    -7.840861851506821E1    -9.225488613506436E-1   -1.267792037684128E1    -1.068707579661706E2    -1.538120841416103E2
                        -8.496272464026914E1    -1.324841183290882E1    -1.027137342720337E2    -1.176233691348808E2    -9.526484429197916E1     4.737778715218636E1    -9.302917331772875E-1   -1.772329577175098E1

 3.045000000000000E7    -2.499458409573164E-1    9.959524621809990E1    -6.675453365196140E1     6.805921053578572      -8.216570641471280E1    -7.043299448617990      -8.630291975977814E1    -4.317830047837632E1
                        -6.697940372720140E1    -1.094324577864172E1    -2.356813531743380E-1    8.708713785525454E1    -9.434042289490249E1    -3.152582576191798E1    -8.606958823443614E1    -1.050688160555860E2
                        -8.645790416046899E1     1.520794843378479E2    -8.846741666093058E1     8.663113348113245E1    -9.234601718208526E-1   -1.295996331495158E1    -8.479145937003523E1    -2.401104403219097
                        -8.330372490956216E1    -1.647197448975430E2    -8.816572784562034E1     1.683485142104911E2    -8.574100306921073E1     1.417101613574920E2    -9.323328674778096E-1   -1.807705651379949E1

 3.047500000000000E7    -2.584373687474011E-1    9.931864454915529E1    -6.556127349148051E1     8.113224893679201      -8.494706539017690E1     1.774291688948867E2    -1.013631403948322E2    -3.199686978031503E1
                        -6.666474731364662E1     2.878283680864521      -2.371949521432955E-1    8.674908429085572E1    -9.572867591562391E1     2.809859632746461      -8.051569577589515E1     1.467840742087550E2
                        -8.509741497995789E1    -3.937405427012210E1    -8.535150924332682E1     5.898930374258765E1    -9.150437162706546E-1   -1.323809173877338E1    -9.627953120494641E1     5.590925177797664E1
                        -8.345572165163793E1    -6.804543088550787      -9.097303357833604E1     1.375282625286947E2    -8.326297454488257E1     1.001697415428699E2    -9.294208688707626E-1   -1.838055495799859E1

 3.050000000000000E7    -2.531290233957374E-1    9.902300645034168E1    -6.704539445925197E1     4.147880787354213      -8.211685855666217E1    -1.581355332532380E2    -8.756248459485391E1    -8.781395022298571E1
                        -6.708349983030421E1     8.357005674045851      -2.374951223820144E-1    8.635891284519347E1    -8.645161097873111E1     1.712637952853089E1    -8.376996525730293E1     1.433127461912080E1
                        -8.899998456225393E1     1.375743289608183E2    -8.750382470920513E1    -1.097042329661883E2    -9.196185749920596E-1   -1.355526766219108E1    -8.426789367950504E1     5.095852464787918E1
                        -8.515452872401454E1    -3.612089377933195E1    -8.575350016780402E1    -1.671800751820145E2    -9.548004926718744E1    -3.348219642621212E1    -9.319606513539673E-1   -1.870055685122979E1

 3.052500000000000E7    -2.460560634354037E-1    9.871638182950154E1    -6.674927636183482E1    -2.730590382158715      -8.438450359769418E1     5.140589418794753      -8.193037634107041E1     1.673876376976598E2
                        -6.584011856710318E1     6.712417273941056      -2.374002872452419E-1    8.597643777363086E1    -8.715698427584435E1     4.496696763478364E1    -7.730693917692480E1    -3.831708648314776E1
                        -8.649762287064311E1    -3.261115573134639E1    -8.696136108825081E1    -1.746552565611932E2    -9.193288530899599E-1   -1.389525470027435E1    -9.361859109792947E1    -1.247051353777008E1
                        -8.541980441774780E1     1.281684376627527E2    -9.725984780235032E1     3.820195117699938E1    -8.444143302596673E1     1.058368588058575E2    -9.278887728879148E-1   -1.899825445062332E1

 3.055000000000000E7    -2.428148777756850E-1    9.841217294291063E1    -6.490967208932153E1     1.379514844552732E1    -8.761297364832758E1    -2.936814841630195E1    -8.532515972538506E1     5.108014066227094E1
