#  HZ   S   DB   R     50.00 
! Rohde & Schwarz Vector Network Analyzer 
! Rohde-Schwarz,ZNB8-4Port,1311601044102961,2.82
! Created: UTC 2/13/2019, 9:52:55 AM
! freq[Hz]                db:S11                  ang:S11                 db:S12                  ang:S12                 db:S13                  ang:S13                 db:S14                  ang:S14
!                         db:S21                  ang:S21                 db:S22                  ang:S22                 db:S23                  ang:S23                 db:S24                  ang:S24
!                         db:S31                  ang:S31                 db:S32                  ang:S32                 db:S33                  ang:S33                 db:S34                  ang:S34
!                         db:S41                  ang:S41                 db:S42                  ang:S42                 db:S43                  ang:S43                 db:S44                  ang:S44
! 
 3.000000000000000E7    -2.796766992769488E-1    1.015251156607873E2    -6.891887709340648E1     7.703521695883052      -8.586257330034266E1    -8.046594799920592E1    -8.405382028178880E1     9.163050954322427
                        -6.931439641643591E1     2.450067276826930      -2.728127740948630E-1    8.992476200782548E1    -8.093930012501468E1     9.452163023716319E1    -8.116111850178714E1    -6.709186752499695
                        -9.279463911482823E1     1.182718493258686E2    -9.685688065351778E1     8.452868021322780E1    -9.295615014456470E-1   -1.143293861988329E1    -8.593707893759380E1     1.249464083108372E2
                        -8.640155634664816E1     2.504854122843301E1    -8.183568828818156E1    -1.605495609352766E2    -9.205463974407991E1    -7.628851530237454E1    -9.406610024055083E-1   -1.645796623511745E1

 3.002500000000000E7    -2.791604827102117E-1    1.012529221029754E2    -6.908194027919072E1     4.253963285232844      -8.890036350256571E1     2.023059497757476E1    -9.553363797880880E1     4.225909759647292E1
                        -6.879796153823820E1     1.565189696205250E1    -2.763850886732546E-1    8.945617729146470E1    -8.760709911821263E1     1.382400255806184E2    -9.185832438121634E1    -8.122845923624163E1
                        -8.295062679985423E1    -1.066968397332618E2    -9.526402821031441E1    -3.677380524274774E1    -9.289694754554544E-1   -1.173899548539531E1    -8.216028562082691E1     1.070372997210860E1
                        -9.190835193042315E1    -1.130857089126229E2    -8.072356587751797E1     8.159089649205004E1    -8.316656177797927E1     4.038755535036584      -9.364487290500534E-1   -1.673689494295783E1

 3.005000000000000E7    -2.815569428616856E-1    1.009190120199109E2    -6.903545379470475E1     1.701096914443642E1    -8.798356824951250E1     1.007588033544971E1    -9.571403483730211E1    -1.800663543642398E1
                        -6.978819314987820E1     1.401412388883280E1    -2.720665743060493E-1    8.913084566595090E1    -8.318814705274592E1     1.702342408884941      -8.750060882231990E1     4.613556666679306E1
                        -8.513179281840866E1    -1.242181075394053E2    -8.341670674143498E1     5.105692826463233      -9.310382084043410E-1   -1.202876604035719E1    -8.885026625062359E1    -1.482457487258595E2
                        -8.783846824006841E1     1.257203831489965E2    -8.458341987884522E1    -1.799758965597675E2    -9.049887845356558E1     1.310657039701378E2    -9.383717188822573E-1   -1.707076751641830E1

 3.007500000000000E7    -2.819138005042053E-1    1.006392079601767E2    -6.837321765437169E1    -8.092995325618718E-1   -9.256818319110410E1    -6.256644402725220E1    -9.022053728821081E1     1.179441615869537E2
                        -6.876086976705180E1     9.764415019765218      -2.752320440823455E-1    8.873720891539593E1    -9.325409015209603E1    -6.101884468735483E1    -9.302451300001931E1    -6.241945121799826E1
                        -8.781787720840158E1    -1.676174016883313E1    -8.695282262170417E1    -1.588141346802807E2    -9.352822376479328E-1   -1.235590624567506E1    -8.556825950649639E1     6.613816721282515E1
                        -8.360558689274620E1     5.061638567007499E1    -8.135561956078203E1    -1.130905548666264E2    -8.386252939550255E1     3.932800038824688E-1   -9.401551805588438E-1   -1.741197682769480E1

 3.010000000000000E7    -2.768956544384926E-1    1.003593446018658E2    -6.790759238176393E1     3.612319188683703E-1   -8.904635824502215E1    -1.542390547974996E2    -8.987818746678283E1    -1.629618501822191E2
                        -6.857997800343472E1     2.991257952286090      -2.758897080733187E-1    8.837218858155968E1    -8.191853063650774E1     6.277032074301706E1    -8.813933216800334E1    -1.094936658330129E2
                        -7.968628913715465E1     3.073955500111093      -8.748188458614547E1     2.500856836836668E1    -9.220093913335825E-1   -1.266269757767185E1    -8.818586174596119E1    -1.612685766305262E2
                        -1.017430242939012E2     4.328587705326839E1    -8.473534993335134E1    -1.192523565262247E2    -8.038131893986987E1     1.052570354255815E2    -9.459002894212332E-1   -1.771156529171877E1

 3.012500000000000E7    -2.706609986722932E-1    1.000580865100170E2    -6.814449843964431E1    -2.186138542851276      -9.935208229768864E1    -7.733203366407047E1    -8.903929826726630E1     6.006401322628319E1
                        -7.093021302404986E1     1.249458328670006      -2.776254862856496E-1    8.805928374832229E1    -9.945583753678613E1     1.045465980445718E2    -9.142077667990330E1    -1.077172870081974E2
                        -8.527508589330587E1    -1.553085020067040E2    -8.455981128761003E1    -1.540439831747024E2    -9.336364258819320E-1   -1.297541065509038E1    -8.319259386605117E1     1.205647613886546E1
                        -8.310844138402931E1    -1.305473079264248E1    -8.454006262615899E1    -1.117945868566810E2    -8.790552043991006E1     1.094001906358023E1    -9.382612098035316E-1   -1.803125986932633E1

 3.015000000000000E7    -2.732863851753485E-1    9.969729497429802E1    -6.734906315464828E1     7.963534727227725      -8.186084309950736E1    -1.750875357687656E2    -8.626739211909185E1    -1.451301966097176E2
                        -6.925165950996710E1     6.349238741318128      -2.686872457783201E-1    8.760898466905438E1    -8.414101802265100E1    -9.576945122723267E1    -7.920538583674112E1     2.894117318497728E1
                        -8.431799658012453E1    -8.245600698572054E1    -8.756980881755325E1    -1.286428026504608E2    -9.333083593743276E-1   -1.327610329335401E1    -8.545667008640912E1     4.278848664302409E1
                        -9.803745883468289E1     3.284256760490694E1    -9.191458303758628E1    -2.008763912927811E1    -8.901811797729168E1    -1.383089516976749E2    -9.409759022257679E-1   -1.830795606884644E1

 3.017500000000000E7    -2.694445105876461E-1    9.947558891479002E1    -6.769808037344927E1     2.027446308222911      -9.941291770338981E1     1.696014317299215E2    -8.824167415852702E1    -8.839020301359611E1
                        -6.935934051917025E1     2.747945212395337      -2.698328264232013E-1    8.727964290631464E1    -8.291034446596918E1    -2.065879929305204E1    -8.333125122848475E1    -1.517067379862242E2
                        -8.948947753250657E1    -1.520539451650949E2    -8.672137087125961E1     3.725480759419934E1    -9.299530592046317E-1   -1.353976127040970E1    -8.856536415499886E1     8.555753219027025E1
                        -8.708153006572169E1    -1.806976077010250E1    -8.221361078876633E1     3.834170313169592E1    -8.813125322038644E1     9.742575141910787E1    -9.404070567441668E-1   -1.862947948117616E1

 3.020000000000000E7    -2.689547179073957E-1    9.915235401471229E1    -6.969770994682887E1    -1.315519146976790E1    -8.573129834640380E1     4.027599173793608E1    -9.239127570753297E1    -9.612375933676155E1
                        -6.653406820262917E1     5.162972281384388      -2.708171624620006E-1    8.691746153527984E1    -8.556935173760026E1    -3.037105172197359E1    -8.359186194942444E1     1.316318710864905E2
                        -8.653321650116489E1    -1.650373134050271E2    -8.174414078940723E1     5.925468990780348E1    -9.289255205049306E-1   -1.389211382416515E1    -8.693885175001788E1    -1.233769992791085E2
                        -9.392158156922727E1     6.331669352994698E1    -9.004561300755864E1    -8.959332538328496E1    -9.111499382698335E1    -1.531954559052326E2    -9.430260322636475E-1   -1.896195956897904E1

 3.022500000000000E7    -2.777872986406645E-1    9.883990588699648E1    -6.759838714130397E1     1.302892476865519E1    -8.990155314629106E1     9.770094353470736E1    -8.472151604461450E1    -4.273007926286893E1
                        -6.821515069311107E1     1.905295726421275E-1   -2.727206561540621E-1    8.655357182178096E1    -7.983056981755323E1    -1.452398504755533E2    -8.913757169377340E1    -4.140850315891118E1
                        -8.755488654063032E1     2.447017682329688E1    -9.368837275534263E1     6.819437578902337E1    -9.322053600109128E-1   -1.418100488774008E1    -9.232908060325454E1    -5.110646085028436E1
                        -9.038809703384806E1    -5.327266868914603E1    -9.289214051324177E1    -1.307267360282416E2    -8.512065851523320E1     1.223290078295028E2    -9.437157312099664E-1   -1.927042730310325E1

 3.025000000000000E7    -2.747464084341774E-1    9.858916073819646E1    -6.922901691851627E1     5.651064349507269      -9.585210191687449E1     9.788764418256001E1    -8.569835186798090E1    -1.601755089709509E2
                        -6.770063059709980E1     3.428865271062741      -2.800707636522017E-1    8.616406090165766E1    -8.996721102576372E1     1.450876516488591E2    -8.137994180244077E1     6.524255615245083E1
                        -9.456899758245244E1     1.698198505043823E2    -8.865232110625914E1    -8.710269224664960E1    -9.248626242204067E-1   -1.447065717796675E1    -1.015949282981230E2    -1.262857995408714E2
                        -8.646182291401615E1    -9.653182453878779E1    -9.097288510747282E1    -1.453917810979678E2    -8.494693396763637E1     1.788522991110684E1    -9.416726287558423E-1   -1.955972171163035E1

 3.027500000000000E7    -2.697457455567832E-1    9.828358831738294E1    -6.768855379755777E1    -2.163657428585674      -9.183962112138156E1     1.098918820390951E2    -8.438238402967508E1    -1.683010941671615E2
                        -6.800068382705818E1    -7.282395854684185E-1   -2.653328029590006E-1    8.575921248462305E1    -8.323406412221077E1    -1.165697077806577E2    -9.122119157178051E1     1.405908816857964E2
                        -8.492803838481555E1    -1.514778389646988E2    -8.637426682909373E1    -3.767050061040089E1    -9.270652585746773E-1   -1.476841661603368E1    -8.244459655405272E1    -9.812936648751696E1
                        -8.635546654912459E1     1.075158587708313E2    -8.693328716999139E1    -3.133451719665608E1    -8.608140526851116E1    -1.418852118726032E2    -9.409380006092412E-1   -1.989647023666201E1

 3.030000000000000E7    -2.735126041964837E-1    9.799869804091760E1    -7.037180457293046E1     1.838550673119850E1    -8.222152901475636E1    -2.307379737650183E1    -1.008014481624245E2    -1.502143047845743E2
                        -6.766566163866752E1    -1.960221998462299E-1   -2.743211084059847E-1    8.539218233479549E1    -9.631862176009138E1    -9.519894559998187      -8.216362843385618E1     1.305230119721979E2
                        -8.578511808151596E1    -1.640943747904936E2    -8.383983922028854E1     1.113780130512732E2    -9.327309291568319E-1   -1.513257612487434E1    -8.779643570014761E1    -3.938141922982409
                        -9.052995764057128E1    -7.631935229364045E1    -8.132189461266901E1     2.119772056338099E1    -8.563657263623799E1     1.267201407152359E2    -9.387655108896564E-1   -2.020276978873527E1

 3.032500000000000E7    -2.704127694327000E-1    9.767937782822213E1    -6.812357525086846E1     3.351301809806750      -9.220225874187626E1    -4.899098799098818E1    -8.789151906992971E1    -9.094582969511265E1
                        -6.791998874137090E1     6.629867588895841      -2.703349012900205E-1    8.498839904850985E1    -8.233479030107866E1    -7.269806270598335E1    -8.979620516953828E1    -1.267784697389956E2
                        -8.930304617875825E1     1.646008250437298E2    -9.010582304916559E1     1.196059205645420E2    -9.295013481181353E-1   -1.543676542109589E1    -8.945370800909137E1     1.654211350701360E1
                        -8.616766250884368E1    -1.355422650304197E2    -8.243228365862618E1     1.105520971133883E2    -9.170422503371724E1    -1.243660297261026E2    -9.386401161472242E-1   -2.054454517899017E1

 3.035000000000000E7    -2.672459724901181E-1    9.741340207127438E1    -6.725002104077946E1     5.993807712405834      -8.760849119413004E1    -1.219305670444343E2    -8.492776343658068E1     3.623794497913646E1
                        -6.670369871586387E1     7.742930174327869      -2.665359539473312E-1    8.461827024242356E1    -8.295856672263000E1     2.867108047962446E1    -8.445447646644040E1    -7.476957004597554E1
                        -8.765683523903613E1     4.449164575353307E1    -8.485377918959726E1    -8.463103642318201E1    -9.233599723069099E-1   -1.572599575954739E1    -9.041199374657525E1     6.531605085998167
                        -9.179781454690672E1     3.439172721513373E1    -9.159108921102109E1     4.645393906070458E1    -8.988865712951264E1    -1.462731350306985E1    -9.426081347730010E-1   -2.083413093101961E1

 3.037500000000000E7    -2.697170691049209E-1    9.710866633578000E1    -6.880406667326780E1    -2.939148621206256      -8.462103005483998E1     1.619926771529501E2    -8.037049753335666E1    -4.244262129966503E1
                        -6.842764011464725E1    -1.049331065447918E1    -2.741723768598299E-1    8.422592817893435E1    -8.927472543031429E1    -2.514162793180806E1    -9.197022422144315E1    -1.432047909415423
                        -8.185289657339561E1     1.776569117842613E1    -9.332116148943453E1    -1.139369775618423E2    -9.315659950986212E-1   -1.600645078131287E1    -8.383655061078223E1    -5.504425689651229E1
                        -7.991615330204853E1    -1.238128045091256E2    -8.232911702344464E1    -6.701911147694014E1    -8.060533270105782E1    -1.270392285525704E2    -9.408548514126748E-1   -2.114842563995122E1

 3.040000000000000E7    -2.678560075681899E-1    9.677990383375960E1    -6.839361963636517E1     2.377324691995668      -1.017401651847450E2     4.172787498658791E1    -8.840344921637752E1     6.860219103317746E1
                        -6.791682569621437E1    -3.048365751575400E-2   -2.756198188763661E-1    8.387526598314237E1    -7.629034305957050E1    -1.992428876160069E1    -8.688282154172583E1    -4.834449972705429E1
                        -8.637478548582473E1    -8.698808852204341E1    -8.928996837393245E1    -9.799908137099452E1    -9.272201801450780E-1   -1.632164136649937E1    -8.521624528444309E1    -1.563840839115759E2
                        -9.185539015070603E1     8.455691806309091E1    -9.474911779070609E1     1.560046114852015E2    -8.312031501425429E1    -1.676974433988054E1    -9.414557371409592E-1   -2.148819982873367E1

 3.042500000000000E7    -2.664003895650901E-1    9.652016032314369E1    -6.755061982139411E1    -3.561455273234057      -8.840793269232958E1     7.969303272786989E1    -1.052808003997270E2    -1.256569982876560E2
                        -6.789960119809638E1    -5.359552480445776      -2.684204565076928E-1    8.351822782047130E1    -8.529160930794534E1     7.776848592753600      -8.503633889192790E1    -1.319961064972377E2
                        -9.774877225788225E1    -9.170508743009874E1    -1.018268144240546E2     1.344148966442091E2    -9.287021505470301E-1   -1.668125668722329E1    -8.510652728227719E1    -8.240482121227061E1
                        -8.328151519787556E1     3.795223237352292      -9.871057413025073E1     1.671263316483721E2    -8.483626772381331E1     1.454587321036544E2    -9.390024353069160E-1   -2.180277628207697E1

 3.045000000000000E7    -2.702242212622377E-1    9.621088437374577E1    -6.848439088807459E1     5.369152049146221      -9.118552409961089E1    -4.026271409531460E1    -8.230122718782624E1     1.216020485085385E2
                        -6.930558314358294E1     1.221162480991053E1    -2.662026127959936E-1    8.309457536015857E1    -8.679488909312136E1     6.846351669658610E1    -9.799319530535695E1    -1.438891781601763E2
                        -9.624210233372841E1     1.297360873505922E2    -8.115060411444790E1     1.031082431732931E2    -9.338361615951564E-1   -1.694055529536918E1    -8.659509665027015E1     4.445256769542037E1
                        -9.108489921492988E1    -9.567149047581440      -1.023768016431254E2     2.695737160147377E1    -8.611509269683550E1     1.086710431300555E2    -9.464032361533319E-1   -2.207662809407689E1

 3.047500000000000E7    -2.672668164626224E-1    9.591869941547540E1    -6.821267250516350E1    -4.322068778443093      -9.339359832525830E1    -4.831487479568758E1    -8.890627885760380E1    -3.407810846544514E1
                        -6.983076359624279E1    -8.432901162109827      -2.680002662122410E-1    8.273710524623002E1    -8.311226517583873E1     5.092135366464213E1    -8.078537591241636E1    -1.676630893785221E2
                        -8.310233616422350E1    -1.710794667462478E2    -8.062124463854360E1     6.258991661717553E1    -9.237605744143527E-1   -1.725456070664913E1    -9.414108820524753E1    -2.924545859235445E1
                        -8.449594414773020E1    -6.127663091603065E1    -8.439165483554284E1     1.711236600920398E2    -8.628476280230382E1     3.910033084852415E1    -9.464251420995696E-1   -2.238465241418236E1

 3.050000000000000E7    -2.735399753173833E-1    9.565424206214986E1    -7.003677177119813E1    -4.113715073943273      -8.732232481360978E1     3.366394803195486E1    -8.391225961725907E1    -5.438542665285785E1
                        -6.769755735778321E1    -7.643373716972703      -2.705829669524222E-1    8.234089776730919E1    -8.459080016222339E1    -2.175952853896301E1    -8.161047582052356E1    -9.662881865791712E1
                        -8.886002754137913E1    -1.573770328271682E2    -9.473487436142901E1    -4.643777706030277      -9.307675056518310E-1   -1.754767807899047E1    -1.030137124057738E2    -1.347297375469505E2
                        -8.261144520915499E1     1.680474632190211E2    -8.162802936874610E1     1.749042159831675E2    -8.586455063872847E1    -4.570465085785006E1    -9.366081220673506E-1   -2.274521886172773E1

 3.052500000000000E7    -2.675042435019910E-1    9.535014758426725E1    -6.721807186408179E1     2.135627503544398      -9.000623190304569E1     1.631553240076930E2    -1.021888804858619E2     2.977786202300743E1
                        -6.847889331224954E1     8.872373792161115      -2.730647443265555E-1    8.196050662562831E1    -8.584560980114910E1    -2.928940987059584E1    -8.722309859809229E1     4.142296096466300E1
                        -8.474474220325875E1    -1.172120938418392E2    -9.081544821782180E1     9.874235641346057E1    -9.291800383239852E-1   -1.784792105073939E1    -9.983096066715717E1     5.373175939321698E1
                        -8.486249928894816E1     1.755412295031747E1    -8.921461970077324E1    -9.741489268540938E1    -9.597825275666347E1    -1.092912074211047E2    -9.448716756735920E-1   -2.304187018219655E1

 3.055000000000000E7    -2.658680576697415E-1    9.501699426467550E1    -6.760011908135292E1     6.721661356145978      -9.270393954280145E1     1.172777724381454E1    -8.809626785396397E1    -5.197615525119791E1
