#  HZ   S   DB   R     50.00 
! Rohde & Schwarz Vector Network Analyzer 
! Rohde-Schwarz,ZNB8-4Port,1311601044102961,2.82
! Created: UTC 2/13/2019, 9:05:07 AM
! freq[Hz]                db:S11                  ang:S11                 db:S12                  ang:S12                 db:S13                  ang:S13                 db:S14                  ang:S14
!                         db:S21                  ang:S21                 db:S22                  ang:S22                 db:S23                  ang:S23                 db:S24                  ang:S24
!                         db:S31                  ang:S31                 db:S32                  ang:S32                 db:S33                  ang:S33                 db:S34                  ang:S34
!                         db:S41                  ang:S41                 db:S42                  ang:S42                 db:S43                  ang:S43                 db:S44                  ang:S44
! 
 5.525000000000000E7    -3.845709211354820      -1.528340225487873E2    -2.998229931295129E1     6.656676319485966E1    -7.164481570983757E1    -1.370055101415724E1    -6.663534076659059E1    -1.614218267920533E2
                        -3.007073607068341E1     6.597945929541594E1    -3.111249857118716E-1    9.432769574575238E1    -8.464544549206633E1    -8.293448486305249E1    -8.830567013741815E1    -2.102420061365197E1
                        -7.641372124476797E1    -1.742282886606278E1    -8.293143213906848E1     1.099312592033561E2    -1.389704730435886       3.487696667993326E1    -8.277099357938045E1    -1.255579007580007E1
                        -6.577407554672614E1    -1.658558567351924E2    -8.932655366698556E1     9.671308657657694E1    -8.465551899864721E1     6.116799577446761      -1.383313361108153       2.846674341842909E1

 5.525025000000000E7    -3.851525753793847      -1.529201594992804E2    -3.009815240228433E1     6.604554305275846E1    -7.606049914022324E1    -3.245559982478331E1    -6.743199056632686E1    -1.723535999293044E2
                        -3.019738035615429E1     6.658929414385518E1    -3.099435275328131E-1    9.434023216539534E1    -9.619926645177054E1     1.582593057655556E2    -8.519149284606192E1    -1.109691162539223E2
                        -7.079940840731780E1    -1.293120921494393E1    -8.834310528875190E1     1.787579148502103E2    -1.389293310080482       3.486506116361206E1    -8.565114064049780E1     1.302819723097971E2
                        -6.610863130333280E1    -1.705536060381393E2    -8.451364510875254E1    -1.217217693160590E2    -9.310044431234860E1     1.198154581276175E2    -1.385707126481290       2.846783278918843E1

 5.525050000000000E7    -3.856061546427477      -1.529254101962807E2    -3.003580737650927E1     6.646178580236438E1    -7.306619094125934E1    -9.413660791435943      -6.683475045662398E1    -1.650809739521841E2
                        -3.021779271761067E1     6.587479227092992E1    -3.092360127437027E-1    9.435744571074909E1    -9.087808947396651E1    -8.194971646481359E1    -8.999666502499022E1    -1.474271397338052E2
                        -7.179417983220455E1    -2.575669231815958E1    -8.612940257376779E1    -1.493513969851925E2    -1.396394717147007       3.490324109755940E1    -8.439980835902647E1    -1.148558779629027E2
                        -6.565289774656492E1    -1.720422904091497E2    -8.342833395061720E1    -2.498021020036595E1    -8.447449307242334E1    -1.145477689386992E2    -1.381139269557616       2.848061754473693E1

 5.525075000000000E7    -3.854336454938289      -1.529934319698524E2    -3.000919541043134E1     6.629353037403178E1    -7.290721177020318E1    -6.025998797020767      -6.670318651186246E1    -1.669080172912080E2
                        -3.007730811483238E1     6.681423844465525E1    -3.084793503652163E-1    9.434923210520142E1    -8.925625717145050E1     1.618279554071260E2    -8.389592450164940E1    -4.045977486858677E1
                        -7.219402107804235E1    -5.520826627219647      -8.647215689455379E1     1.464037516065618E2    -1.389590674755914       3.488630450860838E1    -8.937844258727056E1     1.223812474054804E2
                        -6.552171102612898E1    -1.658856931235999E2    -8.894008352052768E1     4.476416272710392E1    -8.737842144249171E1     6.335207931851518E1    -1.378958457031896       2.845370569211917E1

 5.525100000000000E7    -3.862492244024087      -1.529903723777128E2    -3.006362379919064E1     6.661653791397376E1    -7.355286184558702E1    -1.422470403021736E1    -6.556087243001939E1    -1.654741294128032E2
                        -3.010915448324882E1     6.581764819905501E1    -3.119170498084355E-1    9.434594877721699E1    -8.422397299761634E1     9.758159097224774E1    -9.600478406937501E1    -1.793090805955196E2
                        -7.212451695487201E1    -2.618707489982432E1    -8.413108673415388E1    -1.250593880056635E2    -1.392643111739544       3.486949555499020E1    -1.031998444111296E2     1.290355342617255E2
                        -6.655362772081874E1    -1.598142784905352E2    -9.694786423157339E1     1.556754131882030E2    -8.663336706583267E1     1.669509119179754E2    -1.381972830049239       2.843250878125728E1

 5.525125000000000E7    -3.862669049227781      -1.530532099641757E2    -3.004222383714949E1     6.629500287206761E1    -7.452564863545588E1    -3.235055541123077E1    -6.665140925432173E1    -1.715632570395435E2
                        -3.013331996067659E1     6.617664566618981E1    -3.115592195009374E-1    9.436411443428784E1    -8.448532236552360E1     9.623984114360472E1    -8.795217224751849E1    -1.458787646360235E2
                        -7.249635683440468E1    -4.335106079184790      -9.168761627815351E1    -1.483038742971583E2    -1.390017248224533       3.485969225899006E1    -8.567635216149682E1    -1.773895176523652E2
                        -6.652534476338953E1    -1.675792267399109E2    -8.413413984634067E1     3.034647862047400E1    -8.165761575084670E1     1.249507078186126E2    -1.384544974696539       2.844055185270089E1

 5.525150000000000E7    -3.871943942871157      -1.531118120720394E2    -3.009961485423874E1     6.587871238469700E1    -7.252547682995134E1    -5.646311367558337      -6.713934697620560E1    -1.655558216137572E2
                        -3.015571236030679E1     6.599120765532089E1    -3.119294518347447E-1    9.430252010230845E1    -8.929231288887094E1     1.444894893262379E2    -8.346462328803432E1     1.343368004414187E2
                        -7.274864745170417E1    -1.118245235436995      -9.501248603383942E1     1.173441940897628E2    -1.389242091241147       3.486537420111445E1    -9.480560621690549E1     1.408652875349493E2
                        -6.642003320919264E1    -1.665277479819175E2    -9.356939466536730E1     9.421077155663768E1    -9.314171193992928E1     5.879918929044345E1    -1.381701003011961       2.844914990552389E1

 5.525175000000000E7    -3.876904876802223      -1.531464704773168E2    -3.007837509488834E1     6.581970076906210E1    -7.531928374697887E1     3.671294717910155      -6.629048605843322E1    -1.742793617888413E2
                        -3.014033745470209E1     6.628922507640452E1    -3.115716798745534E-1    9.432238331653338E1    -1.058408086396411E2    -7.323029369518341E1    -8.393920496595197E1     1.037708187641062E2
                        -7.184936672991307E1    -1.453746640993156E1    -8.964444953049325E1    -1.279103595716103E2    -1.387977811024991       3.487066645782836E1    -8.733412863584411E1    -1.608435526380178E2
                        -6.473432034720459E1    -1.675537123822004E2    -9.315743383957570E1     8.216052177178888E1    -8.941087292181648E1     4.503331520611903E1    -1.381145813902575       2.842847945933266E1

 5.525200000000000E7    -3.876897858153078      -1.531622279614677E2    -3.015427537410307E1     6.678173671429869E1    -7.153772819911337E1    -4.838523126455963      -6.537817791197773E1    -1.664885876219310E2
                        -3.010639554367304E1     6.624373963518625E1    -3.129667832663631E-1    9.429896895264530E1    -9.780547789047830E1     1.298884522310105E2    -8.435202882179654E1     1.719372694471799E2
                        -7.537252837015232E1    -2.470694555249659E1    -8.289206325655832E1     6.179789545718126E1    -1.390244262355870       3.486524329531562E1    -8.819237634862122E1     1.555513470643575E2
                        -6.791970484860754E1    -1.569541403673419E2    -8.240111050230588E1     1.250021412772296E2    -8.412460867163453E1    -1.049570339504897E2    -1.380941538639381       2.844590184864500E1

 5.525225000000000E7    -3.883498516129849      -1.532200766477883E2    -3.007288434582786E1     6.630631173555207E1    -7.260192534869685E1    -1.675135818562678E1    -6.716595723247215E1    -1.703425149823002E2
                        -3.015350427858747E1     6.585208316378289E1    -3.147736709422088E-1    9.431437430317176E1    -8.430269101969390E1     1.177554264713869E2    -8.927403875282629E1    -4.365074433374058
                        -7.086939243453799E1     4.589655565457923      -8.865065455428001E1     1.355465202390886E2    -1.390451550968585       3.487694424736291E1    -9.528935173615810E1     1.684635028518922E2
                        -6.601777536090219E1    -1.692622270294784E2    -9.274673776058273E1     2.756954393515369E1    -8.136953127097289E1    -6.641611581845343E1    -1.378621426960682       2.844575421089308E1

 5.525250000000000E7    -3.889395848400108      -1.532713154098410E2    -3.006479638191943E1     6.651006181991859E1    -7.018756619964177E1    -8.842565364094774      -6.708810633434840E1    -1.633040361135017E2
                        -3.017179087765052E1     6.628750419187274E1    -3.108683875304403E-1    9.434160113307105E1    -8.374949257132622E1    -2.881651892263827E1    -8.428980134391692E1    -4.230108892767671E1
                        -7.291474416000141E1    -1.114445401378202E1    -8.729386464235289E1    -5.845095809344252E1    -1.388946210635561       3.483510246061664E1    -8.813638524499214E1    -1.314100090914522E2
                        -6.622568413846602E1    -1.662459166366819E2    -1.042277830592176E2    -1.767646230001488E2    -9.407511187569278E1    -8.025764789134861E1    -1.382870544512443       2.846649772337737E1

 5.525275000000000E7    -3.897240518168220      -1.533062743768423E2    -3.003282524702006E1     6.580106584912859E1    -7.397166367690538E1    -1.063482464184712E1    -6.660815171832189E1    -1.725129680465238E2
                        -3.011639154266205E1     6.697292594342092E1    -3.151691457275249E-1    9.427687277010163E1    -8.209043346263255E1     2.382392324139504E1    -9.047621199258602E1     1.105511603987525E2
                        -7.327598640628783E1    -7.221421620068585      -9.211607202257534E1    -3.696205517311582E1    -1.392459025186560       3.484509222365314E1    -9.116687515256351E1     9.345497741705164E1
                        -6.621092027567774E1    -1.638432387275106E2    -9.245935552483603E1    -1.470400938182780E2    -8.239381795643226E1     3.286724617205857E1    -1.378506622094104       2.843779964786750E1

 5.525300000000000E7    -3.900586936110233      -1.533349045732354E2    -3.007375752864467E1     6.624419144837256E1    -7.339843971036852E1    -1.439907929694086E1    -6.648941465613007E1    -1.591217094988405E2
                        -3.016981945515265E1     6.609007036441633E1    -3.107108296319321E-1    9.431130360123274E1    -8.737834481520464E1    -1.615788087627775E2    -7.948511610816519E1    -7.931942605015898E1
                        -7.312786159045450E1    -2.357521850460539E1    -9.772671412819557E1    -2.394046492676150E1    -1.395356921931569       3.485692277214636E1    -8.258194182358481E1    -2.688899188660098
                        -6.646711633825035E1    -1.669099052328168E2    -8.322987763010104E1     8.520392214863358E1    -7.785131550089530E1    -1.356067274595117E2    -1.379542293577166       2.845374182488911E1

 5.525325000000000E7    -3.899342172200663      -1.533926825123078E2    -3.014052442523397E1     6.614201639131883E1    -7.554403847582451E1     2.586589688599072E-1   -6.606177887615596E1    -1.704806173839766E2
                        -3.010546510761499E1     6.555217713491069E1    -3.091291269120542E-1    9.433073438804468E1    -8.246491179405368E1    -2.760794014612811E1    -8.005762482050247E1    -1.475588995065407E2
                        -7.158599870617424E1    -1.631017030635100E1    -8.549511862158468E1    -5.574657476353765E1    -1.390522085079366       3.485772843759224E1    -8.729399356758421E1     1.014413670206307E2
                        -6.589452494390675E1    -1.672568558904715E2    -8.518852246946751E1     1.762273842356931E1    -8.715272933022389E1    -1.647486303855227E2    -1.380868513718716       2.843169324576221E1

 5.525350000000000E7    -3.908682367184183      -1.534031538093660E2    -3.007325724620640E1     6.541984764997471E1    -7.422322339344264E1    -6.716428905240274E-1   -6.606231235264887E1    -1.726881904715244E2
                        -3.011593124970123E1     6.606081886866480E1    -3.142864860840322E-1    9.424737434335593E1    -9.104053157977900E1     1.096503482072970E2    -8.921324748048568E1     1.249216725952943E2
                        -7.327822171691982E1    -8.536068852489494      -8.068108185435575E1    -1.480141962127561E2    -1.390827514087483       3.482701574427252E1    -9.847127401360345E1     9.063639063697332E1
                        -6.582612984611744E1    -1.595957100631727E2    -1.008745350083238E2    -1.099169964912532E2    -8.582791999891319E1     1.224398056792756E2    -1.385317408204273       2.843382961546156E1

 5.525375000000000E7    -3.914166561302650      -1.534829297354042E2    -3.008485351816416E1     6.577488504958664E1    -7.233157047155054E1    -2.712643456773920E1    -6.623733042965978E1    -1.725863094973943E2
                        -3.011303736998561E1     6.617113461845418E1    -3.109392436417378E-1    9.429034614788472E1    -8.095436238698939E1    -7.125478200298262E1    -8.807007524830001E1     4.613694516575409E1
                        -7.383553400432088E1    -2.299422744112142E1    -8.550808776088330E1     1.439932618294808E2    -1.387080714603032       3.485698007019511E1    -9.531684626036095E1    -8.406346081349463E1
                        -6.542033894045935E1    -1.675808130780686E2    -8.834923675053398E1    -5.810510955600780E1    -8.783909471822418E1     6.499699403086429      -1.379520690842575       2.839837493894225E1

 5.525400000000000E7    -3.920882477014138      -1.535450400741908E2    -3.007039612894323E1     6.562342482979354E1    -7.379381321947818E1    -2.041349727654278E1    -6.603120684270370E1    -1.695986219126158E2
                        -3.008590182825147E1     6.564937789482944E1    -3.093647980046236E-1    9.426284986227789E1    -8.364119191405419E1    -7.452208812844783E1    -8.122161380793516E1     1.334404473108676E1
                        -7.219363224328204E1    -1.388404661340631E1    -8.815821879407942E1     1.267730410084001E2    -1.391205475229669       3.487149101199603E1    -9.081245924032812E1    -1.564507989248882E2
                        -6.689980465279668E1    -1.764678104782513E2    -8.375615128571201E1     1.753382271176205E2    -8.940943817461049E1    -1.482221424084654E2    -1.381946941295480       2.838913650141090E1

 5.525425000000000E7    -3.921264852297477      -1.535205494865060E2    -3.009451712739332E1     6.598723660916167E1    -7.200030923833303E1    -2.043257095426948      -6.568981674382852E1    -1.670892867238746E2
                        -3.018378336992349E1     6.628834413322295E1    -3.140411570036445E-1    9.428059318763299E1    -8.384807548696531E1    -1.789090940091502E2    -8.238055056775690E1     5.846151120580866E1
                        -7.333802446550556E1    -1.445897766584266E1    -8.267787762514462E1     2.419149445810514E1    -1.385936086024308       3.485465192773647E1    -8.729739952466686E1     1.027991634587866E1
                        -6.601769631030844E1    -1.725747863815194E2    -8.496070043889714E1    -9.018183910390962E1    -8.370138271923197E1     7.096189815215818E1    -1.378838002637246       2.838307544383106E1

 5.525450000000000E7    -3.925532956684568      -1.535821303470588E2    -3.009949814726259E1     6.620852917205940E1    -7.299249613534758E1    -2.358896784983498E1    -6.583552464969239E1    -1.763544224657132E2
                        -3.010624444958749E1     6.573070647770305E1    -3.135591071611550E-1    9.424896917508734E1    -7.834584657000909E1    -1.703608142091706E2    -9.142050975198983E1     5.705808675716484
                        -7.377803495549020E1     5.710192800497900      -8.768999706152313E1    -1.075505055892704E2    -1.390115361415453       3.483237125833285E1    -8.810316651080130E1     2.764337614981857E1
                        -6.582066368257864E1    -1.680308546669059E2    -9.367073325774899E1    -1.420553494949782E2    -9.330927662685858E1     3.474707733029978E1    -1.378472211619411       2.840400796167634E1

 5.525475000000000E7    -3.936941634799442      -1.536664416265447E2    -3.010781037060111E1     6.608117161944027E1    -7.037975105611920E1    -7.027774965880874      -6.594457216369518E1    -1.675007954451452E2
                        -3.016519026842312E1     6.662964059826264E1    -3.082265824804032E-1    9.427407975767645E1    -8.676624648646546E1    -2.737108203698096E1    -9.447704359984982E1     1.170992586374615E2
                        -7.272430369590072E1    -1.167598133734864E1    -8.406692119962374E1     1.058114096561795E2    -1.389824091670995       3.483637005106716E1    -8.815070770093533E1    -1.248536929643022E2
                        -6.616467400506562E1    -1.673401012123343E2    -8.292120544947110E1    -1.666476821235471E2    -9.479824416608696E1     9.435561385827730E1    -1.374885275383016       2.840042848852102E1

 5.525500000000000E7    -3.938778628110621      -1.536937990854503E2    -3.016966456242710E1     6.602892284201991E1    -7.243566932649974E1    -1.713071151174940E1    -6.624577960743683E1    -1.631078540346771E2
                        -3.014823931526903E1     6.530717394423596E1    -3.097405486726774E-1    9.423498581552730E1    -8.867190252120373E1     2.065752637386577E1    -8.077271305630535E1     6.514174919212140E1
                        -7.244141119392639E1    -9.373805996276916      -8.960354126651809E1    -9.133308170818484E1    -1.392025019226477       3.483639504993535E1    -8.750752393731553E1     1.364005785985318E2
                        -6.763416748642553E1    -1.596644759776721E2    -8.349283590831900E1    -8.365834466765868      -9.106970112160299E1     4.816312844467406E1    -1.386896632962341       2.837738093720714E1

 5.525525000000000E7    -3.940868228576738      -1.537454874823690E2    -3.010399791064111E1     6.566054827779466E1    -7.090916246194922E1    -3.047386671622201E1    -6.668247591645232E1    -1.646858070238545E2
                        -3.016436421894290E1     6.582277632877384E1    -3.109465307132904E-1    9.421005755497032E1    -8.357822762504534E1    -3.472744712736915E1    -8.453114423749582E1    -1.624759105627873E2
                        -7.563974719600341E1    -1.499643796592254E1    -8.354639151951807E1     1.353031761633312E2    -1.384927767861638       3.481413752329852E1    -9.955561657672782E1     1.486842128089826E2
                        -6.649317212956186E1    -1.650155815753572E2    -8.695582734584626E1     1.683940285344658E2    -8.356147508654220E1     1.310423462586286E2    -1.382078309327703       2.837939434022432E1

 5.525550000000000E7    -3.945404589167576      -1.537479271823880E2    -3.012197206252636E1     6.587445045694089E1    -7.137973684130120E1    -5.125063028455126      -6.537718219998030E1    -1.662438414597378E2
