#  HZ   S   DB   R     50.00 
! Rohde & Schwarz Vector Network Analyzer 
! Rohde-Schwarz,ZNB8-4Port,1311601044102961,2.82
! Created: UTC 2/13/2019, 9:41:44 AM
! freq[Hz]                db:S11                  ang:S11                 db:S12                  ang:S12                 db:S13                  ang:S13                 db:S14                  ang:S14
!                         db:S21                  ang:S21                 db:S22                  ang:S22                 db:S23                  ang:S23                 db:S24                  ang:S24
!                         db:S31                  ang:S31                 db:S32                  ang:S32                 db:S33                  ang:S33                 db:S34                  ang:S34
!                         db:S41                  ang:S41                 db:S42                  ang:S42                 db:S43                  ang:S43                 db:S44                  ang:S44
! 
 5.525000000000000E7    -1.309085689224402      -1.326853039071961E2    -3.045625667428148E1     7.213060058592669E1    -6.543521566214780E1    -1.493920377503425E2    -8.127062440870407E1    -1.065942169410811E1
                        -3.045448704698956E1     7.261199512577176E1    -3.284862465581862E-1    9.414693113474753E1    -8.585152464556043E1     6.489027445497122E1    -8.368915677910282E1    -9.032540554416515E1
                        -6.446769936628573E1    -1.472717934670411E2    -8.603944304737809E1    -3.862034188486926E-1   -1.395235948482629       3.489061183511983E1    -9.276343889779419E1     6.474857110490477E1
                        -7.981049356694301E1    -1.194605681339818E1    -8.572938767097178E1     4.898774722679799E1    -8.453678753076410E1     9.031581568475835E1    -1.382453007371050       2.845305254180721E1

 5.525025000000000E7    -1.310263171385854      -1.327247683745947E2    -3.049383473226475E1     7.228704661092640E1    -6.547790628352990E1    -1.440108647657996E2    -7.404248188976952E1    -1.182421206508988E1
                        -3.045067207220661E1     7.255731955726633E1    -3.274512593188151E-1    9.415421225693530E1    -8.640164769524054E1     1.681700541750649E1    -8.575660368635823E1     1.233638319860439E2
                        -6.565228817734605E1    -1.457574282600677E2    -9.389775190723037E1     1.553028863762071E2    -1.388705398072411       3.486603602306737E1    -8.107250181323630E1    -7.472042514375924E1
                        -7.689315379232463E1     1.131210477315726      -8.525393352207010E1    -2.152674460967699E1    -9.381423355726977E1     8.850277934857550E1    -1.383550786950829       2.846643907229278E1

 5.525050000000000E7    -1.308116620702835      -1.327796954670040E2    -3.048274718811280E1     7.248447208235999E1    -6.641850339862621E1    -1.428196515573402E2    -7.995938509035712E1     1.216632126708520E1
                        -3.040491842362739E1     7.187113952155535E1    -3.321383785198124E-1    9.414408653548138E1    -8.547395825889180E1    -1.306477216684759E1    -9.126935515751725E1    -1.769668747102912E1
                        -6.598306074259449E1    -1.494331264207457E2    -8.558401628561646E1    -1.388561131070214E2    -1.393971224300571       3.488986061495603E1    -8.265456129930199E1     1.444731444856154E2
                        -7.644862784474321E1     7.070461060446554      -8.689823862321477E1    -1.101341771057915E2    -9.701140822260001E1     4.825335971618496E1    -1.383399663831630       2.843209013299474E1

 5.525075000000000E7    -1.310882818852716      -1.328070382114412E2    -3.049013861997766E1     7.283984706801546E1    -6.546508144760884E1    -1.468657231760196E2    -7.671734872123884E1    -2.992090513803293
                        -3.050556547873082E1     7.206483549775921E1    -3.311481263022284E-1    9.412182184580287E1    -8.639066449397623E1     9.059174091117579E1    -8.138259906766578E1     1.239749609136433E2
                        -6.566057914902541E1    -1.547253370924274E2    -8.554793171204142E1    -1.719921789903233E1    -1.397383544633300       3.489682394143298E1    -9.022117409634993E1    -1.471405813025663E2
                        -7.933941783503811E1     1.082939338129098E1    -8.408847617207394E1    -4.059570619883572E1    -8.173591888164162E1     3.227054273849377E1    -1.384175778232574       2.846813220962732E1

 5.525100000000000E7    -1.311269815702113      -1.328513670119716E2    -3.042562861082620E1     7.158361381980171E1    -6.419360790048518E1    -1.471146194691300E2    -8.172352585478197E1     1.940932332311047E1
                        -3.051553887027287E1     7.237360452745791E1    -3.268745089811761E-1    9.412863973885888E1    -1.003386819623022E2    -1.040955752548156E2    -9.199752730232460E1     2.063382895864491E1
                        -6.544269632239350E1    -1.475806464355185E2    -8.806246461132375E1     1.229263530216763E2    -1.391639203596899       3.487966246824505E1    -8.766333050936308E1     1.300405128675613E2
                        -7.673189529272466E1     4.673100374710594      -8.808301165032253E1     7.936065763236802E1    -8.187695927709123E1     8.810871687471935E1    -1.385106060927626       2.846811519346046E1

 5.525125000000000E7    -1.311805435335947      -1.328920526973804E2    -3.038656838675333E1     7.255954089071275E1    -6.512127789089870E1    -1.515089493084016E2    -8.019401880913210E1     1.080687978800238E1
                        -3.045289612160081E1     7.164293800988941E1    -3.280206104121059E-1    9.416098602209647E1    -9.466401787748978E1    -1.427205167096803E2    -8.613229697229048E1    -1.753640739426699E2
                        -6.548772358988389E1    -1.471334875996038E2    -8.573730643399455E1    -3.374210198196320E1    -1.391151066898044       3.488193937748465E1    -8.596777839970446E1     9.248287789338448E1
                        -7.614462024008685E1    -7.475952721380017      -8.986020339286256E1    -1.858565807649548E1    -9.573076794662453E1     1.020975319249386E2    -1.382188523300846       2.842082144456603E1

 5.525150000000000E7    -1.314870129067448      -1.329226842032400E2    -3.036660368791157E1     7.178577936488672E1    -6.575838953303750E1    -1.389288964780210E2    -7.623327050287612E1    -2.321325226738142
                        -3.054029702659805E1     7.157710176224748E1    -3.318251423462492E-1    9.411445706945335E1    -8.057776090364703E1    -1.687272366424257E1    -8.105454065356204E1    -3.407514271666971E1
                        -6.597985376343206E1    -1.413808525853719E2    -8.678233647736441E1     1.719164509421441E2    -1.386673520813041       3.485718549587410E1    -8.552182552877213E1     1.427772495735081E2
                        -7.498444357989713E1     1.320048018096245E1    -8.959948072423174E1    -3.518562662688501E1    -8.707189024552338E1    -1.362413849252170E2    -1.378487965098337       2.843379569326893E1

 5.525175000000000E7    -1.320020670464619      -1.329478257294995E2    -3.046543473779305E1     7.202205085354015E1    -6.595723669872329E1    -1.437360735210378E2    -7.459512829729449E1     4.217288384519776
                        -3.058781231541535E1     7.178788282900317E1    -3.252545563347423E-1    9.412903009056971E1    -8.180581917285024E1    -3.341332564779299E1    -8.203289504744804E1     7.357924819323870E1
                        -6.667603934015583E1    -1.510654825916878E2    -8.744454171638733E1     2.655426223486107E1    -1.391583701065434       3.487451864536686E1    -8.685526883270556E1    -1.151809476089349E2
                        -8.133467610470831E1     9.413459013800445      -8.125001582189016E1    -1.341541635751727E2    -8.139194476092803E1    -1.116322327924534E2    -1.380373497676189       2.845824349025700E1

 5.525200000000000E7    -1.322915965038835      -1.329697679122218E2    -3.042925666541353E1     7.260302505393176E1    -6.556201962853987E1    -1.459771369625532E2    -7.705441568670803E1     8.770608904363494
                        -3.046341321364661E1     7.258631441224649E1    -3.332637213432734E-1    9.411343994842288E1    -1.027618107934644E2     2.952633362274398E1    -8.571601590524145E1     1.007965461367160E2
                        -6.527801158262135E1    -1.532692535705184E2    -8.781177210474418E1    -1.279969855866826      -1.388098684602887       3.486374158735692E1    -8.570743522182383E1     1.477650019777593E2
                        -7.698448841549750E1    -2.903561170149768      -9.032762403661505E1     9.539399131149631      -8.908193810558352E1    -1.569697788729401E2    -1.383778969807271       2.842213614162104E1

 5.525225000000000E7    -1.322470464361399      -1.330659875453889E2    -3.053304043830242E1     7.255113639585875E1    -6.574190947081317E1    -1.496822647762598E2    -8.069628032463029E1     3.504122100572820E1
                        -3.047146727631483E1     7.191508223136108E1    -3.334082440451663E-1    9.413641266957930E1    -8.746188776989609E1     4.171175139047279E1    -8.164821184133778E1    -1.440269976270602E2
                        -6.576313861686245E1    -1.518551269732812E2    -9.358973725022119E1     9.437767736678724E1    -1.390035499754585       3.488032247338194E1    -8.796037403773708E1     1.790389910471000E2
                        -7.742348230665861E1     2.061706613874549E1    -9.230606010685484E1     4.226308745300148E1    -9.077108394967495E1    -6.220787343326013E1    -1.387889352114724       2.842426468524134E1

 5.525250000000000E7    -1.325596755414969      -1.330518313544570E2    -3.054808266076082E1     7.313261447105047E1    -6.542005411237223E1    -1.471427539751509E2    -7.355168484931721E1    -4.924026562342653
                        -3.052821604576927E1     7.166266842221295E1    -3.293405564834887E-1    9.409314994436052E1    -8.490833362565780E1     3.942221950938010E1    -9.267559773237920E1     6.458309010626805E1
                        -6.629144783056871E1    -1.559889572764037E2    -8.422398139762302E1    -4.798720216031096E1    -1.393249460238266       3.485807902746039E1    -9.018156339804156E1    -1.177402701393853E2
                        -7.533665737784232E1     5.287457949607408      -9.624443309646743E1    -1.562927826200196E2    -8.870275348057993E1     1.252974024140203E2    -1.381492947414669       2.841583387507390E1

 5.525275000000000E7    -1.325229626310932      -1.331227254506271E2    -3.050533609318006E1     7.208753474371653E1    -6.473083826748571E1    -1.544273421405882E2    -7.984219875049782E1    -1.067490574492922E1
                        -3.054151604908831E1     7.218716182716072E1    -3.286686219461087E-1    9.409380424123344E1    -9.430094126898999E1     1.370565246523242E2    -8.939504702373671E1     1.175183050100660E2
                        -6.516088828960545E1    -1.387290848827611E2    -9.561968282487555E1     5.899495049423417E1    -1.393956353176587       3.486623625109414E1    -8.344306505600693E1    -1.024726914978165E2
                        -7.647281259344302E1     5.117268966212074      -8.623717619300572E1    -1.310267018212409E2    -9.058812713684993E1    -1.768937700663613E2    -1.383164667553058       2.843149382634229E1

 5.525300000000000E7    -1.328285892348603      -1.331397976548092E2    -3.049551069986153E1     7.203454731496768E1    -6.557921338680238E1    -1.425913987326001E2    -8.115442128758755E1     1.891832966828213E1
                        -3.055057493962408E1     7.210160561654031E1    -3.312978941182273E-1    9.410879243932979E1    -9.568104829587219E1    -1.425225290874464E2    -8.272489075732494E1     4.272332211170878E1
                        -6.564458691473233E1    -1.428264780189843E2    -8.241855147555283E1     3.061581339075618E1    -1.385908430553034       3.483639474793190E1    -9.541755573588105E1     9.504784600131593E1
                        -7.769223213735226E1     4.266360661749555      -8.138666533393251E1    -3.259176832852864E1    -8.611415504456070E1     8.818836525982094E1    -1.383335061135846       2.842044279002872E1

 5.525325000000000E7    -1.332891050984857      -1.331887621109214E2    -3.053136621911058E1     7.170082069330148E1    -6.637902219133311E1    -1.390619942269939E2    -8.157334110808964E1    -1.292814036043377E1
                        -3.061271240389367E1     7.233014765366472E1    -3.349071029558832E-1    9.410277668213168E1    -7.834221518250301E1     1.139284795173615E1    -8.864963949939892E1     1.268779160311079E2
                        -6.510967195014729E1    -1.472163163190292E2    -8.910994999005474E1     1.225060647074752E2    -1.392014507775784       3.486331952723643E1    -9.347152951234789E1     9.151096045453303E1
                        -7.781891342345570E1    -3.493631571734363      -9.838677606119788E1     1.699930059927464E2    -9.142064037799972E1     8.864422591957957E1    -1.380332920590527       2.843369363011023E1

 5.525350000000000E7    -1.327139223325375      -1.332273919944282E2    -3.050715645946148E1     7.195192040170770E1    -6.420546678758436E1    -1.499036285568805E2    -7.560794272458145E1    -2.495468869148094E1
                        -3.069875480467829E1     7.199940965204830E1    -3.273501819536732E-1    9.408593587731173E1    -8.760494690216866E1    -3.804221029655657E1    -8.314699879502952E1    -1.131610052146614E2
                        -6.480304165910937E1    -1.466221866100923E2    -8.103812759943084E1     1.092067613687321E1    -1.391599706041726       3.485314478493506E1    -8.662700102799077E1    -5.502757467857854E1
                        -7.653723927087255E1     2.767458142718422      -9.453031325198020E1    -4.793980365597529E1    -8.867742660880845E1    -1.173174544299408E2    -1.385218669844242       2.840439000228806E1

 5.525375000000000E7    -1.332486622206180      -1.332535201894352E2    -3.048838411225431E1     7.188168900332943E1    -6.396041665729256E1    -1.504802155188434E2    -8.229050913623433E1     1.874128381592259E1
                        -3.052503889753001E1     7.158454146296381E1    -3.257435378027412E-1    9.408338460576864E1    -9.020516279673231E1     4.581122989918308E1    -8.258718008754394E1     1.305904852451215E2
                        -6.645302550174353E1    -1.514922163185516E2    -8.652226414071794E1     6.216126020421306E1    -1.388931327463208       3.483606241123295E1    -8.894858159554363E1     1.705556586842851E2
                        -7.825092668513534E1     6.975897357024528      -8.716254668574335E1     7.319540152518830E1    -8.404483160149462E1     1.686626864746503E2    -1.383196574794119       2.840476222233785E1

 5.525400000000000E7    -1.330905271022921      -1.332686816277403E2    -3.044146750790019E1     7.219894789589573E1    -6.504830323089732E1    -1.535969590181971E2    -8.055351021006102E1     2.891698336625275E1
                        -3.053464850863282E1     7.242873837820788E1    -3.295721842514640E-1    9.409575802918816E1    -8.566105072626228E1     7.486118274930814E1    -8.650816637203252E1     4.000555384349002E1
                        -6.594053743324400E1    -1.448998720301362E2    -8.675934805753089E1    -1.731516853438646E2    -1.392279362762761       3.485388313818552E1    -8.499335949505964E1    -1.749775342492676E1
                        -7.595488010990255E1    -5.212727818778770      -9.641711580552745E1     4.645442392146687E1    -9.058750649805076E1     1.558054379052337E2    -1.379399745930688       2.836826291810726E1

 5.525425000000000E7    -1.335175740142810      -1.333541648129144E2    -3.050475113132063E1     7.202529290917535E1    -6.513697571460200E1    -1.458608978229347E2    -8.088043715312581E1     9.051796485869371
                        -3.047661917374552E1     7.188175376627805E1    -3.271447727107823E-1    9.411827707942216E1    -8.154986574685894E1     1.193592568579634E2    -8.785074643481519E1    -1.529593778369489E2
                        -6.457139143900926E1    -1.461686879362466E2    -9.499019957891194E1     8.151972319097534E1    -1.391816638378888       3.486096933872680E1    -8.367975107386222E1     1.486879402670691E2
                        -7.821873030717127E1     3.184524562304652E1    -8.534039146637895E1     3.595005980309153E1    -8.543465439564972E1     1.789872354561298E1    -1.381028605134741       2.844479116262769E1

 5.525450000000000E7    -1.340787102782529      -1.333842225024941E2    -3.058874513623152E1     7.148258250267865E1    -6.523007812441603E1    -1.452071280426267E2    -7.785883385264799E1     1.363051047858693E1
                        -3.051030070178183E1     7.199172195934419E1    -3.285456460950528E-1    9.408081679609218E1    -8.333068898370996E1     1.378024880949484E2    -8.552663506183473E1    -1.727075013643660E2
                        -6.594453740414306E1    -1.469859116837231E2    -9.088417751029732E1    -1.114937062268827E2    -1.388584817160121       3.482269435728969E1    -8.273206588096089E1    -9.583404312052764E1
                        -7.812493788470158E1     3.348215954394843E1    -8.618386228069551E1     1.120749823643832E2    -9.765055518882592E1     4.519017833761393E1    -1.381714121505019       2.838070994862621E1

 5.525475000000000E7    -1.337916438017110      -1.334369829142908E2    -3.050171161819957E1     7.132937450892089E1    -6.593370892267289E1    -1.458333656077833E2    -7.596473897866348E1    -1.868241738519906E1
                        -3.055539390843590E1     7.158466748074432E1    -3.328639310421733E-1    9.400960476119438E1    -8.710461261346961E1     1.640559399711119E2    -8.421745855549210E1    -2.500041580705309E1
                        -6.599048960344344E1    -1.485968159680125E2    -8.149779968881836E1    -8.447956481224384E1    -1.391993432137041       3.485998746291528E1    -8.712738651849801E1    -2.523456946039471E1
                        -7.629007290087675E1     8.703528631212064      -9.364850266448642E1     1.807463191921751      -9.304465303325185E1     8.350618334485101E1    -1.384234430873225       2.841150420412576E1

 5.525500000000000E7    -1.341279958613831      -1.334542100316617E2    -3.048156568010759E1     7.233410085672148E1    -6.606440419527227E1    -1.478966194445367E2    -7.583842776009261E1     7.742913086974910
                        -3.053036833653973E1     7.162085182574000E1    -3.295241278089261E-1    9.403569936212783E1    -8.682682801658372E1    -7.032132570009938E1    -9.550525151989493E1     1.340532776140557E2
                        -6.572247593746543E1    -1.505750250879742E2    -8.602019940039551E1    -6.213299626951049E1    -1.385397531854673       3.484799329480838E1    -8.315166087932326E1     1.264054044489826E2
                        -7.804483545377742E1     1.133501753329907E1    -8.433108254076471E1     1.286754127855623E2    -9.032775013993602E1     1.449406415859914E2    -1.381233504723470       2.840659983536681E1

 5.525525000000000E7    -1.341687147710692      -1.334843033499244E2    -3.043550184634134E1     7.206934751517274E1    -6.586785706080805E1    -1.481559925250054E2    -7.696569851559438E1     1.921418014592471E1
                        -3.063980789831667E1     7.168738331395572E1    -3.298268891084938E-1    9.403800259974697E1    -9.305782552347252E1    -1.464352791763851E2    -8.023081846668748E1    -6.596986649781078E1
                        -6.598872260872076E1    -1.477061804564241E2    -8.512114684206809E1     5.579887615069136E1    -1.389758996020946       3.483984645129506E1    -8.663280032587332E1     2.883827366721015E1
                        -8.043630869017137E1     1.930012083211389E1    -8.990070013429903E1    -7.925613669000407E1    -8.659367300034604E1     5.767567876910498E1    -1.381422816049582       2.839875281710162E1

 5.525550000000000E7    -1.342827016692858      -1.335220774480250E2    -3.050837204033858E1     7.139286082960292E1    -6.523055288909943E1    -1.439087100400516E2    -7.913797580317538E1     1.921952959143496
