#  HZ   S   DB   R     50.00 
! Rohde & Schwarz Vector Network Analyzer 
! Rohde-Schwarz,ZNB8-4Port,1311601044102961,2.82
! Created: UTC 2/12/2019, 11:56:21 AM
! freq[Hz]                db:S11                  ang:S11                 db:S12                  ang:S12                 db:S13                  ang:S13                 db:S14                  ang:S14
!                         db:S21                  ang:S21                 db:S22                  ang:S22                 db:S23                  ang:S23                 db:S24                  ang:S24
!                         db:S31                  ang:S31                 db:S32                  ang:S32                 db:S33                  ang:S33                 db:S34                  ang:S34
!                         db:S41                  ang:S41                 db:S42                  ang:S42                 db:S43                  ang:S43                 db:S44                  ang:S44
! 
 5.525000000000000E7    -3.558432538824027E-1   -1.070003611842419E2    -2.958588981709339E1     8.747801854617298E1    -6.924069657666942E1    -1.289804655036712E2    -9.370505146408456E1     2.734711703663542
                        -2.955390739431953E1     8.771155404331192E1    -2.743805096412135E-1    1.015162780867387E2    -8.355857578252055E1    -3.220594207991563E1    -8.505976974321339E1    -7.592235314242426E1
                        -6.594320661603648E1    -1.260196724776698E2    -8.369500921299269E1     1.332276963112847E2    -1.375482038448847       4.182818649325322E1    -8.780766138741114E1     1.256178868118153E2
                        -9.718066172175116E1     9.043420442641302E1    -9.448571642797251E1    -1.370850957642516E2    -7.999156551545268E1    -1.501497898974164E2    -1.370528059261289       3.547410242317147E1

 5.525025000000000E7    -3.517814752560749E-1   -1.070624785527623E2    -2.952992910294348E1     8.705835666439893E1    -6.710983915413601E1    -1.267471069678083E2    -8.335955048589312E1    -2.791783493951239E1
                        -2.952885938292272E1     8.708859080083286E1    -2.799470641864001E-1    1.014919017475374E2    -9.060815037587000E1    -1.288170943156652E2    -8.592598378260396E1    -3.416033513640431E1
                        -6.709523430130463E1    -1.279189697932570E2    -8.093765621415739E1    -6.799398284164069E1    -1.379651533548405       4.179059248961566E1    -9.495150653893430E1     1.374703374354388E2
                        -8.809341607015324E1     7.944479284190561E1    -9.082804128598268E1     1.124211057256059      -8.794412591821472E1    -1.591277935282775E2    -1.374315678125764       3.544305492831281E1

 5.525050000000000E7    -3.501398063289900E-1   -1.070369017572646E2    -2.954943960785867E1     8.751682521233899E1    -6.661882083995911E1    -1.186628880012708E2    -8.435677679322455E1    -9.884790574764929E1
                        -2.947722459010940E1     8.719243392905213E1    -2.747700953348540E-1    1.014835998120146E2    -9.118178451666752E1    -4.543371872606399E1    -8.714782225195947E1     1.242002260472204E2
                        -6.719237756596705E1    -1.352917730653788E2    -8.926427854681080E1    -8.533259541004142      -1.381972937444219       4.182959840075819E1    -8.836016279363926E1    -1.598156213591518E2
                        -9.313115403051809E1    -1.387445639330740E2    -1.042531805163322E2     1.371954919968169E2    -8.462573565217514E1    -4.919850556413530E1    -1.371850362855512       3.543451151525791E1

 5.525075000000000E7    -3.529932664534031E-1   -1.070807001095082E2    -2.950624980263614E1     8.733174256311952E1    -6.820591256100724E1    -1.101647899408115E2    -8.435769921741276E1     1.732230503451359E2
                        -2.949929593047984E1     8.687436543092366E1    -2.746830556046993E-1    1.014752585675344E2    -8.582246861638070E1     1.868829053683964E-2   -8.605841189896822E1    -1.652430372477200E2
                        -6.753200804049327E1    -1.308883134357552E2    -8.619854020893052E1     4.887104727653362E1    -1.382260436092734       4.178958259313299E1    -8.936201738908423E1    -4.698593392763636E1
                        -9.080271536216242E1    -1.554126371616595E2    -9.054243491313061E1     1.259115872424051E2    -9.333340943414441E1    -1.049932449845631E2    -1.374005664414777       3.545774243149127E1

 5.525100000000000E7    -3.536377569242097E-1   -1.071260482541974E2    -2.952932070974004E1     8.690987678113554E1    -6.800375641708644E1    -1.199289636483483E2    -8.845784087964653E1    -5.925922593771227E1
                        -2.948789907913304E1     8.740378507287650E1    -2.770125120618144E-1    1.014907024353462E2    -8.156769836007922E1     6.349257802238611E1    -8.238666714519158E1     4.960966927594906E1
                        -6.868159192302814E1    -1.195109294054435E2    -8.764952613003190E1    -1.150753107438554E2    -1.383692323507200       4.180483916396302E1    -8.528911870684128E1     2.207706796604058E1
                        -7.638550968058411E1    -5.583221768770526E1    -8.754618129396806E1    -1.684980373625430E2    -8.436633978693922E1    -1.402279172520989E2    -1.370986693817657       3.542079088967834E1

 5.525125000000000E7    -3.544367349209665E-1   -1.071349156072667E2    -2.948735084887943E1     8.713263233396359E1    -6.748921845007179E1    -1.290915036091358E2    -8.569013605060347E1    -1.231325574865261E2
                        -2.946250126291543E1     8.735566379164104E1    -2.769320869872036E-1    1.014987700583030E2    -8.897658405957101E1     4.090231921788978E1    -1.075068119163632E2    -4.666736921215676E1
                        -6.799462252682106E1    -1.255392030349819E2    -8.185188546272811E1    -1.750007593631511E1    -1.384495860263910       4.181407113154605E1    -8.702588260958117E1    -1.104756268169527E2
                        -8.238183325336074E1    -1.326600614912865E2    -9.241863462708463E1    -8.541542265663259E1    -8.357577847490974E1    -1.464766158860864E2    -1.372261559229467       3.546993972415029E1

 5.525150000000000E7    -3.511565422248426E-1   -1.071527326666632E2    -2.938599596342477E1     8.712407543425924E1    -6.682565741062992E1    -1.277279641780657E2    -8.175213111811529E1    -1.546420251914621E2
                        -2.956974110195103E1     8.678522704660901E1    -2.768557898872797E-1    1.014703483775789E2    -1.040212710277729E2     1.337737087650881E2    -9.840835833823755E1    -5.426122484695411E1
                        -6.688990303720709E1    -1.210345134809445E2    -8.223037925830292E1     6.839524862658868E-1   -1.380773072516861       4.181624652337487E1    -8.269694942822906E1    -3.435433217656266
                        -8.147692656091567E1    -1.367620683373173E2    -9.297167929697659E1     1.264788473743631E2    -8.201181487735879E1    -7.363023399733649E1    -1.374811356015909       3.543700567447726E1

 5.525175000000000E7    -3.507729467885250E-1   -1.071723188440806E2    -2.948796222760345E1     8.750260928437061E1    -6.696471910100338E1    -1.210135751514518E2    -9.116007197197975E1     7.577705913717016E1
                        -2.956801512741487E1     8.758818688474430E1    -2.741155617766774E-1    1.014545002249976E2    -8.825882250029687E1     6.717101608481062E1    -9.204604356199710E1    -5.490469678831535E1
                        -6.792764031291323E1    -1.202688480510753E2    -8.297658847708405E1     9.688981034383434E1    -1.384475530426444       4.178937329753131E1    -1.168500634249136E2    -2.938258940797738E1
                        -9.345550935372104E1    -1.001736535361223E1    -8.320339796112876E1    -1.587402731978608E2    -9.006099821253061E1    -1.213259027155613E2    -1.372251628426645       3.544778723288882E1

 5.525200000000000E7    -3.522084975299706E-1   -1.071762882751581E2    -2.952830540823077E1     8.751876032798286E1    -6.746583816951369E1    -1.287129273845494E2    -9.994089439753105E1     9.047098169717904E1
                        -2.950589529743217E1     8.739827339601169E1    -2.857004907418546E-1    1.014665798235383E2    -8.269318523898826E1    -5.031851793350803E1    -7.899600530021056E1    -1.171374512667172E2
                        -6.728837504163003E1    -1.303099077038220E2    -8.504792028738494E1    -6.418188292352697E1    -1.382690467201180       4.183361425140726E1    -8.602813991961534E1     8.969247349669344E1
                        -8.086726125811535E1    -8.354846744825294E1    -8.784467844578836E1     1.688303021678415E2    -8.434256549634040E1     1.622431330806743E2    -1.371676889727155       3.545742060323633E1

 5.525225000000000E7    -3.543743377551072E-1   -1.072513539510926E2    -2.950557118722889E1     8.668691003233370E1    -6.910663353955556E1    -1.225427775110160E2    -9.481015075616068E1     1.843738080604730E1
                        -2.955724377012326E1     8.669721458801286E1    -2.756253100898846E-1    1.014424730213511E2    -9.077676476884815E1     6.714898461570972E1    -9.697550466512844E1    -6.133881962725612E1
                        -6.767022116270630E1    -1.354036279717685E2    -8.176322921366062E1     1.560045708483476E1    -1.384124436003386       4.177811924614911E1    -9.904001285575218E1     7.448333116986679E1
                        -8.787027609833908E1    -6.579813979057060E1    -8.494238549479817E1     2.444386052022086E1    -8.243461298337623E1    -4.999411863848953E1    -1.370490549773157       3.541893317592983E1

 5.525250000000000E7    -3.511001134779632E-1   -1.072243498243870E2    -2.942621475483574E1     8.724265887985382E1    -6.695681475189383E1    -1.248120326937563E2    -9.557116902434981E1     4.443125694010448E1
                        -2.955498051132196E1     8.711346900640338E1    -2.755677878672784E-1    1.014098460059051E2    -1.110836306965277E2     5.320189520974662E1    -8.553176187528429E1     5.574580741175018E1
                        -6.795418785834612E1    -1.306942795431141E2    -8.682702531152843E1     3.370903068329507E1    -1.389023028279528       4.184484837753414E1    -8.452964210387978E1    -8.697422055658772E1
                        -9.319449056579954E1    -3.930142911092335      -9.783976948430774E1     4.900073969623298E1    -8.686218078016674E1     1.107480880373666E2    -1.372980364340096       3.542539463142630E1

 5.525275000000000E7    -3.544051591662176E-1   -1.072636126604506E2    -2.944476112201893E1     8.715399019397015E1    -6.754191193330981E1    -1.307205998943379E2    -8.484449250743587E1    -8.691611375193625E1
                        -2.949837417405203E1     8.752765069378016E1    -2.781709503366238E-1    1.014335590341239E2    -8.953860283353249E1    -1.468990308618689E2    -8.141115609425457E1    -3.792661058940561E1
                        -6.829651018201551E1    -1.254898402376278E2    -8.957855625109332E1     5.052464592859080      -1.381254836456708       4.178511947072322E1    -9.498371780425777E1    -1.295458118077422E2
                        -8.111909458223387E1    -1.317041738875781E2    -9.944703502377779E1    -1.483537119364404E2    -8.750189264127155E1    -6.205402918230965      -1.371395070154985       3.540801642122437E1

 5.525300000000000E7    -3.556742393653785E-1   -1.072455559689867E2    -2.947652521986904E1     8.698856586901984E1    -6.727066699007440E1    -1.294740383327278E2    -7.843458746550617E1    -1.043805327441243E2
                        -2.953333772556109E1     8.729532310544872E1    -2.778693308152229E-1    1.014423851145617E2    -9.360114970259093E1     1.700947302479865E2    -8.628983006676359E1    -1.073998320246038E2
                        -6.696975737011520E1    -1.278694604295997E2    -8.927196929685022E1     1.593998849106035E2    -1.380927699151531       4.183030950075129E1    -1.069530513825195E2    -5.389657272201442
                        -8.907208706485513E1    -1.042103205275098E2    -9.634837932371156E1    -9.329670890507579E1    -1.018425674199459E2     1.010026247843361E2    -1.373158523350030       3.542359680772054E1

 5.525325000000000E7    -3.522809626526356E-1   -1.073243614601644E2    -2.945896223352355E1     8.615320805068498E1    -6.727726777508461E1    -1.348228764148707E2    -8.654186922501516E1    -1.599326710286821E2
                        -2.944981065757012E1     8.756195511851682E1    -2.775629967633504E-1    1.014721981326988E2    -8.327853333279597E1    -1.740133602202722E2    -9.928987824128272E1    -8.188173591878488E1
                        -6.778324832314648E1    -1.333776601956596E2    -8.922999805554377E1     2.889486904299363E1    -1.383613245634381       4.178742473396326E1    -9.277541282946393E1    -1.018203615585231E2
                        -8.251590580819914E1    -1.711248441135922E2    -8.659765415858601E1     1.643804313446581E2    -8.744556580711638E1     1.596176790579881E2    -1.374033128463278       3.541424056963346E1

 5.525350000000000E7    -3.568058826731688E-1   -1.073137839338591E2    -2.952575353089191E1     8.680336364409331E1    -6.705768413001123E1    -1.241515373948755E2    -7.846855332315047E1     1.793599130389617E2
                        -2.962681511604041E1     8.719302327250581E1    -2.726806827317386E-1    1.014306426981551E2    -9.682599289239144E1    -5.244399540260606E1    -8.077226701979626E1    -1.118915632441110E2
                        -6.692308401516127E1    -1.216180609100621E2    -9.400320886613464E1     1.593494196600118E2    -1.381073532628018       4.178858728755262E1    -9.353907940680645E1     1.146024506664283E2
                        -8.487981013394543E1    -1.525900386421573E2    -9.011908203839019E1    -1.704310053437495E2    -9.420182843585198E1     1.353293046353201E2    -1.376539160980145       3.539067513938925E1

 5.525375000000000E7    -3.516009198616039E-1   -1.073550422169813E2    -2.948074030788131E1     8.717336219054609E1    -6.755939881234914E1    -1.167791493954611E2    -8.667833916117750E1    -1.418150629728215E2
                        -2.945596805060215E1     8.795387660607493E1    -2.795818293635191E-1    1.014607474813494E2    -7.648369994719309E1     2.100652003850312E1    -9.496211136017877E1    -5.427411361061596E1
                        -6.819299406648415E1    -1.265898481690820E2    -8.814602540974867E1    -5.365000579199156      -1.384396906340399       4.178393357923800E1    -8.646033992086993E1     9.292266438763943E1
                        -8.585065059666498E1    -1.266089115145675E2    -8.885296023728063E1    -1.447368247369107E2    -9.499999365676347E1     1.227484668130247E2    -1.366304360978097       3.541651880480281E1

 5.525400000000000E7    -3.550430635253391E-1   -1.073865910000721E2    -2.954425395549294E1     8.699740228133967E1    -6.772576582567339E1    -1.321396874810204E2    -8.718218712608831E1    -1.346069991789606E2
                        -2.951485978785179E1     8.699501261047057E1    -2.728318921330992E-1    1.014268128464916E2    -8.210774323295570E1    -2.317023851423119E1    -8.355419827709794E1     3.664675024855411E1
                        -6.812914767074075E1    -1.207333426636822E2    -9.161682705047147E1     4.502097748967564      -1.380563542578248       4.180549484583403E1    -1.000224969011409E2     4.647895109272706E1
                        -8.826616962313018E1    -1.484220631672327E2    -9.239379903895514E1    -9.187453976939518E1    -1.004527402390527E2     1.192557821987938E2    -1.373785841291499       3.541650306028365E1

 5.525425000000000E7    -3.558253992686574E-1   -1.073914371956743E2    -2.948138927894393E1     8.737838358471824E1    -6.813913125392999E1    -1.329521711465410E2    -8.898509224226638E1     1.720744234897678E2
                        -2.944590984674144E1     8.678453387550833E1    -2.716281665806852E-1    1.014217290499426E2    -8.671497324697405E1     1.296511642675675E2    -8.927528113397375E1    -1.069812792313957E2
                        -6.664648235383339E1    -1.243879911879574E2    -9.261139842189169E1    -9.479577346994348E1    -1.381673267821844       4.175456352672814E1    -8.498151526577173E1     1.231869604947252E2
                        -8.926291193386554E1     1.403048774095056E2    -8.257075247970165E1     7.941549777804450      -8.059414805659301E1    -1.530208927040861E2    -1.370588644586491       3.541657676115678E1

 5.525450000000000E7    -3.545334104276268E-1   -1.074384668892764E2    -2.950690004042250E1     8.745926696165824E1    -6.742600876831588E1    -1.218490690491021E2    -8.331238087806808E1    -1.224917508421387E2
                        -2.951272284329318E1     8.695075949793470E1    -2.770806398731070E-1    1.014412062270887E2    -8.385309605806418E1     4.998942508141206E1    -8.880861630546914E1     5.371109219472412E1
                        -6.630826671125345E1    -1.237894700524232E2    -8.014101739939164E1    -1.444007786120557E2    -1.383954517317417       4.178864704656877E1    -8.364298892705365E1     7.948707169151101E1
                        -8.539392255338797E1    -1.589817487934156E2    -8.980518251344917E1     1.107729443142385E2    -8.156491420158901E1     3.195971370689003E1    -1.371145359950635       3.541540500943484E1

 5.525475000000000E7    -3.573593657339909E-1   -1.074169504011346E2    -2.944944304130152E1     8.677364315489719E1    -6.804580879977281E1    -1.146321151273382E2    -8.220195892621094E1    -1.402197428548876E2
                        -2.951334262030800E1     8.743872136378435E1    -2.783457279570446E-1    1.013930739978154E2    -8.431282182539427E1    -1.001386846960001E2    -9.043604696646372E1    -3.356590463058902
                        -6.891678927279918E1    -1.233555949657069E2    -8.678923383498463E1    -1.446990342664255E2    -1.382422980909993       4.175610561973482E1    -9.312461058269548E1     1.279860778349398E2
                        -8.578358447080848E1    -7.618531215695528E1    -8.353539346905214E1    -1.374246341671434E2    -1.045552765936583E2     1.101233442983735E2    -1.374100059432275       3.542020558697233E1

 5.525500000000000E7    -3.560308128735576E-1   -1.074716465863356E2    -2.946597609516070E1     8.733180323380424E1    -6.788936085700128E1    -1.112777536611422E2    -8.814698885234185E1     5.397245398842366E1
                        -2.955942235035982E1     8.743243600902466E1    -2.689135867698809E-1    1.014061046389018E2    -8.860010511678783E1    -1.232343074981328E2    -8.416373485131385E1     1.716677122447568E2
                        -6.763291299418050E1    -1.208205521954377E2    -8.886727421244527E1     1.086514343241805E2    -1.384627694270823       4.179076197278283E1    -8.848483680523788E1    -2.302683145670275E1
                        -8.313209984208956E1    -1.302719452941728E2    -8.657424688877804E1    -7.252643989594152      -8.239603509563244E1     7.708851191146434E1    -1.372129781266203       3.540358238614897E1

 5.525525000000000E7    -3.569055314676667E-1   -1.074865134276316E2    -2.945294448711202E1     8.730874750937680E1    -6.705159958980414E1    -1.399640423399358E2    -9.790134721507229E1     1.056975365667452E2
                        -2.944462496311063E1     8.733616955630193E1    -2.785967964740925E-1    1.013957077208985E2    -9.778992794438568E1     1.105707772366792E2    -8.540738244319792E1     1.395714357707496E2
                        -6.842556808596369E1    -1.264607894778145E2    -9.380388553361435E1    -1.104806017868767E2    -1.380432762584974       4.179141096645109E1    -8.558312451591570E1    -1.097143580000299E2
                        -9.013491763985351E1     3.757959639924631E1    -9.020573111147078E1     3.101766589892769E1    -8.394990066893131E1     4.572007679061689E1    -1.370853890746300       3.537786164077802E1

 5.525550000000000E7    -3.591943628067721E-1   -1.074909723652652E2    -2.944919742679586E1     8.695246357626577E1    -6.818436892357858E1    -1.290744022831062E2    -8.749389422607612E1    -1.448242617248298E2
