#  HZ   S   DB   R     50.00 
! Rohde & Schwarz Vector Network Analyzer 
! Rohde-Schwarz,ZNB8-4Port,1311601044102961,2.82
! Created: UTC 2/13/2019, 9:29:13 AM
! freq[Hz]                db:S11                  ang:S11                 db:S12                  ang:S12                 db:S13                  ang:S13                 db:S14                  ang:S14
!                         db:S21                  ang:S21                 db:S22                  ang:S22                 db:S23                  ang:S23                 db:S24                  ang:S24
!                         db:S31                  ang:S31                 db:S32                  ang:S32                 db:S33                  ang:S33                 db:S34                  ang:S34
!                         db:S41                  ang:S41                 db:S42                  ang:S42                 db:S43                  ang:S43                 db:S44                  ang:S44
! 
 5.525000000000000E7    -1.968185360330560      -1.383731739278751E2    -2.931736937675927E1     6.851239670623943E1    -8.032748263368708E1     1.739535835034207E1    -6.503800905626007E1    -1.591490909639418E2
                        -2.956165404017954E1     6.936382056232858E1    -3.346562011146947E-1    9.413626217521851E1    -8.579847569848286E1    -1.320995414088013E1    -8.666448577248323E1     1.699788734219557E2
                        -7.327877438609433E1     1.097684360281886E1    -1.093154709911054E2     3.505167100060128E1    -1.388091710526367       3.489749050556256E1    -8.570698214206922E1    -1.350808401786631E2
                        -6.595752315339809E1    -1.581431673053452E2    -8.837708956936213E1     2.349703572101089E1    -8.879405940884097E1     5.054921426882134E1    -1.380904574621120       2.845755517839715E1

 5.525025000000000E7    -1.972794103142756      -1.384143638235902E2    -2.944203129705924E1     6.907992869990605E1    -7.396071249599000E1    -1.006081314179562E1    -6.617685882018111E1    -1.605922278683952E2
                        -2.946503131250541E1     6.928683876413874E1    -3.279288388595187E-1    9.411024004383273E1    -8.244744088842745E1     9.845139223039382E1    -8.214988087954291E1     1.321209256753576E2
                        -7.672316329814814E1     2.268932161248717E1    -9.500927205459271E1     3.511046778868417E1    -1.397192410414253       3.489727144518125E1    -8.014705613535347E1    -1.314454288619143E2
                        -6.552720647842840E1    -1.559629321904952E2    -9.616099681905766E1    -9.925140373841614E1    -8.697328599919514E1    -1.174206158862517E2    -1.383331158736700       2.847406944345116E1

 5.525050000000000E7    -1.973227199927456      -1.384632825487140E2    -2.944067599160911E1     6.885856968439840E1    -7.710405482330840E1     2.099223288964986E1    -6.548951690954669E1    -1.587273888623040E2
                        -2.943208724106031E1     6.870283924904943E1    -3.237544863353463E-1    9.414755633179060E1    -8.725566620111908E1    -1.355929376223196E2    -8.861442282477583E1     6.517525225465799E1
                        -7.686894010314175E1    -1.478780233326860E1    -8.442579897221458E1     1.304593414990320E2    -1.384991906690469       3.486942706399144E1    -9.722325599345828E1    -1.236801039751793E2
                        -6.679978377827067E1    -1.516718813409855E2    -9.192404113898392E1    -2.674798832103990E1    -8.264631376524409E1    -6.686855679527471E1    -1.382765355053189       2.843477280436340E1

 5.525075000000000E7    -1.979604485792995      -1.384940741797141E2    -2.942517246801862E1     6.871787744296186E1    -7.287587785329268E1     1.382940294887518E1    -6.633604800502329E1    -1.531127404242284E2
                        -2.949121712305879E1     6.891015541497946E1    -3.289938525829345E-1    9.411380243410429E1    -7.923749043722033E1    -5.934215404247600E1    -8.845231006277656E1     8.148178964410322E1
                        -7.580753494128339E1    -1.401014823367690E1    -8.959790975597662E1     1.725622763110074E2    -1.388658275420772       3.489875077048224E1    -8.956406455687188E1     6.306273439799318E1
                        -6.580629531338067E1    -1.485234193081582E2    -9.641197710500600E1    -4.322008310875444E1    -1.054782363164986E2    -1.992847666125476E1    -1.382922612680402       2.844009013793400E1

 5.525100000000000E7    -1.977837710114725      -1.385436253266003E2    -2.941977187849093E1     6.859464791858389E1    -7.485928197476048E1    -5.533541916010519      -6.603087322918454E1    -1.506053856004917E2
                        -2.947040088104966E1     6.871093822219828E1    -3.277337019274051E-1    9.413726173611532E1    -9.231425449783100E1     9.821376384039235E1    -8.554472342105444E1     2.364207162214053E1
                        -7.542680201563827E1     1.439738642544346      -8.573229719247179E1    -5.968792103612124      -1.387741899871460       3.487116838854193E1    -8.618083340885220E1     6.736621892601110E1
                        -6.580083207218740E1    -1.491900834803696E2    -1.010106280444322E2     6.357243988961373E1    -8.711109396029534E1     6.381515485154677E1    -1.380295467695392       2.844409438029967E1

 5.525125000000000E7    -1.982067482086939      -1.385508132966494E2    -2.941973737262704E1     6.879971192149466E1    -7.760214843257596E1    -1.023144659851264E1    -6.596487422254104E1    -1.565666447593364E2
                        -2.944730386223356E1     6.866280700401485E1    -3.309253217967559E-1    9.415582540688045E1    -8.464589776438919E1    -4.210840513300885E1    -8.085742340975016E1     5.768919135737266E1
                        -8.015328057016178E1    -2.304335344567301      -9.207097150303289E1    -4.596493780168532E1    -1.391174680097493       3.489407358134888E1    -8.634470423701862E1     1.099113326447569E2
                        -6.626543165815657E1    -1.590420766244706E2    -9.134295072954186E1     3.038998485553785E1    -8.440408982355586E1     8.965466227163988E1    -1.378812734459692       2.845334737313853E1

 5.525150000000000E7    -1.986876526988830      -1.385954775128209E2    -2.943201406684043E1     6.916953839783729E1    -7.610870606292725E1     1.380845633247689E1    -6.533212513335595E1    -1.555088272607797E2
                        -2.942753035455374E1     6.913121724059025E1    -3.272411761101787E-1    9.412402099470899E1    -9.111657652716986E1    -1.743374243650614E2    -8.521257044481968E1    -1.419563502683864E2
                        -7.558199920330343E1    -4.258710309250400      -9.793856061848567E1    -1.186387360937460E2    -1.393079894511957       3.487735560449119E1    -8.662023701198486E1    -1.000154432726954E2
                        -6.681308029076432E1    -1.565049869234730E2    -8.592670986790674E1     9.724531807676320E1    -8.723619453906767E1     1.386929924545814E2    -1.381563676849900       2.846456898472949E1

 5.525175000000000E7    -1.984087967057057      -1.386463888259499E2    -2.943409328607051E1     6.900864004458985E1    -7.647835470431483E1    -2.800615332282929      -6.630119130767595E1    -1.569258980327322E2
                        -2.943915809921929E1     6.899512082568391E1    -3.298636481061402E-1    9.411820203082105E1    -8.677034105286298E1     8.983339528841158      -9.181588049397385E1    -5.501589801691188E1
                        -7.652532416194829E1    -3.130663389068986E1    -9.945402820172868E1    -1.419065064547620E2    -1.389733742361238       3.489392129690440E1    -8.247531897719162E1    -9.619800040140289E1
                        -6.557875195404336E1    -1.595921016635207E2    -8.487439605399645E1    -2.641734960698759E1    -9.598173094964830E1    -1.412746755736804E2    -1.380995759711986       2.846965744028557E1

 5.525200000000000E7    -1.989409987690152      -1.386921366081234E2    -2.941206158770449E1     6.885746547209563E1    -7.393911624657919E1     5.832958520916438      -6.537400612545982E1    -1.592660308713101E2
                        -2.940965253860792E1     6.930283906595010E1    -3.307306937805432E-1    9.409944048240864E1    -9.097349879231447E1    -5.146183247433007E1    -9.041550695359474E1    -1.186720127513136E2
                        -7.602088885146040E1     6.517288989000072      -8.785785985390022E1     7.695887310427787E1    -1.389747295535289       3.487487279178229E1    -8.944781269739795E1    -4.277882967214103E1
                        -6.591891339289846E1    -1.580488371444869E2    -8.438879843128454E1     1.355090789059951E2    -8.990193050074581E1    -3.530345688965333E1    -1.379156974500577       2.845160503380131E1

 5.525225000000000E7    -1.989513550267610      -1.387119234666741E2    -2.940058605390509E1     6.924443832036576E1    -7.497127215114178E1     1.004062229661408E1    -6.553264710657025E1    -1.449285900140452E2
                        -2.952016798784058E1     6.852925397818703E1    -3.315645328910366E-1    9.408576890081980E1    -8.511262878274350E1    -4.290500836800262E1    -8.657215148540305E1    -1.392604549171786E2
                        -8.389753403206615E1     1.579177407095085E1    -8.593239859300323E1     5.138391363562950E1    -1.393009194731954       3.487051769785994E1    -8.700852731818058E1     1.160796310337924E2
                        -6.614046600782311E1    -1.609807229883895E2    -9.578675528415742E1    -5.413248020725485E1    -8.554272993267703E1     9.148088709241483E1    -1.380650472281343       2.843225943760581E1

 5.525250000000000E7    -1.991840236460230      -1.387533558498796E2    -2.937967435708092E1     6.869003811790158E1    -7.594161852130179E1     2.028137225734624E1    -6.593268802234594E1    -1.499979700196688E2
                        -2.950714990549791E1     6.885727209485330E1    -3.323533975210485E-1    9.409878613638655E1    -8.929387946167634E1    -1.629450929954310E2    -8.958047383623466E1    -7.255455925087550E1
                        -7.563111707130859E1    -4.278665845039513      -8.176789311253721E1     1.275316375627143E2    -1.388848481024141       3.486505264482342E1    -8.295834775472747E1     1.063955138923264E2
                        -6.610754159346500E1    -1.627947605260736E2    -9.456627138639084E1    -8.956292181726671E1    -8.545209186913310E1     2.047775135309122E1    -1.381388522100000       2.840899245862812E1

 5.525275000000000E7    -1.997174007415647      -1.388033963745130E2    -2.934872927867719E1     6.933895948125833E1    -7.729308561493599E1     1.129559334463936E1    -6.500125928972066E1    -1.555296249373990E2
                        -2.949402011748599E1     6.834385651436693E1    -3.272871929711076E-1    9.415896186313124E1    -9.187740296028412E1    -1.874380534357790E1    -9.015283367892367E1     1.483411806316281E2
                        -7.812830130535514E1     6.952637846045168      -8.711221259236582E1    -3.007168694320493E1    -1.392167147948926       3.485134386783273E1    -8.870697271003509E1     1.769972618450867E2
                        -6.611057602127939E1    -1.559228049212155E2    -8.554949103271056E1     8.640284143043060E1    -1.024380963881013E2    -1.007253634994556      -1.383240204083075       2.844695715995085E1

 5.525300000000000E7    -1.996635979736090      -1.388868257677853E2    -2.945033675439742E1     6.871550629399701E1    -7.659309690028442E1     1.435564404530567E1    -6.560870737256332E1    -1.601774366453863E2
                        -2.951142948172459E1     6.881121230835612E1    -3.275435043987808E-1    9.410651611264434E1    -8.187808869049061E1    -1.671695274365983E2    -8.147797534632788E1     1.451119655290468E2
                        -7.694683379611600E1    -4.997390755136737      -8.512254643988329E1    -6.611015154443938E1    -1.390297070779856       3.490188160142552E1    -8.440184593901479E1     4.360569710043854
                        -6.530945268683919E1    -1.525432088830141E2    -1.014493169443115E2    -1.365335888815930E2    -8.964074318318257E1    -4.842080242850481      -1.377849192923635       2.843148570778090E1

 5.525325000000000E7    -2.002452250639397      -1.388826002136118E2    -2.931503356943425E1     6.861740189270222E1    -7.370992930786598E1    -6.081666085172554      -6.590319040828105E1    -1.546145946218363E2
                        -2.946736777270949E1     6.835935376508736E1    -3.285347920751085E-1    9.405265436369142E1    -8.486458912140138E1     1.754554072000806E2    -8.383347819302594E1     3.449300216613916E1
                        -7.866637334396616E1    -5.579283857568626      -8.112580263657007E1     1.658364061774972E2    -1.391732290249664       3.483574917511055E1    -8.115771693924849E1     7.058665774063248E1
                        -6.588935848751856E1    -1.576090630636992E2    -8.812012781202586E1     4.896040730020913E1    -7.966090886450562E1     5.441105915589151E1    -1.379605790795973       2.843769261282023E1

 5.525350000000000E7    -2.004809393537292      -1.389355574202521E2    -2.941690068229648E1     6.846130191362489E1    -7.742196016763931E1    -1.227040783913578E1    -6.654432710901025E1    -1.615009910127927E2
                        -2.940609920023994E1     6.855470821966959E1    -3.282528393734085E-1    9.408187655705272E1    -8.038337583670116E1    -1.042991045241940E2    -8.638134941678528E1    -1.611839640901249E2
                        -7.211129439438631E1    -6.548418053418598      -8.616476731900980E1    -1.201220711217062E2    -1.390307224826182       3.485950757467684E1    -9.894817655460507E1    -8.310366729270422E1
                        -6.476096575519500E1    -1.629008701518922E2    -1.002793154621917E2    -1.364066109183666E2    -8.908181076870137E1     5.253212081660379E1    -1.380562540889133       2.841886627644241E1

 5.525375000000000E7    -2.009226733609492      -1.389464229250929E2    -2.940246408350030E1     6.860781524887281E1    -7.509907996312252E1     2.193729034599306E1    -6.585563539265519E1    -1.553670566376439E2
                        -2.953196146913549E1     6.900985502572455E1    -3.289398687209954E-1    9.409838913144561E1    -8.741357684892134E1     2.465662830303292E1    -9.115485689267143E1     9.499341137589892E1
                        -7.461757032520208E1     1.274224125350437E1    -8.381996920280517E1    -1.597162466795897E2    -1.384626086302383       3.484598758401297E1    -9.542400047265181E1    -1.032522848904545E2
                        -6.606333043417240E1    -1.493771211957646E2    -8.662012259680587E1     2.240561286324671E1    -8.602775606847585E1    -1.576637335274138E2    -1.384311403134517       2.842562555434895E1

 5.525400000000000E7    -2.011431212311994      -1.390260644844277E2    -2.940991275807501E1     6.881983104637774E1    -7.578811746507984E1    -6.509600427795979      -6.558302575618947E1    -1.638156892921353E2
                        -2.958089418604795E1     6.879882247859655E1    -3.315807908510031E-1    9.408164520445536E1    -8.483633585812706E1     9.205444922134424E1    -7.843374762078027E1    -1.751729558407961E1
                        -7.377574999511302E1    -1.208258316237543E1    -8.475489480434507E1     6.185516930938481E1    -1.390564828064488       3.486153915418149E1    -8.937452923874997E1     5.615413476880018E1
                        -6.703097168455484E1    -1.525993652375777E2    -9.050693031931971E1    -5.732084596474744E1    -8.520706580791710E1    -1.325392185674491E2    -1.381190366161767       2.839554912997356E1

 5.525425000000000E7    -2.016093816284480      -1.390519570878412E2    -2.938060319468707E1     6.882115083865841E1    -7.671484738431740E1     3.769404619922950      -6.620304845690266E1    -1.512230374438024E2
                        -2.952590601304238E1     6.892125386797389E1    -3.231591590000951E-1    9.406245130553261E1    -8.368710519883919E1     6.655004528148828E1    -8.498044145849997E1    -7.733689741722738E1
                        -7.223366471037684E1     1.565103570794258E1    -8.624938884218005E1    -1.565259755356584E2    -1.394342831963791       3.483492431887623E1    -9.015966465432470E1     1.384914940897455E2
                        -6.627488162020633E1    -1.489032061496434E2    -8.660724915512466E1    -6.103125416477170E1    -8.031149668337764E1    -1.232587902309689E2    -1.381395312240228       2.840162168563711E1

 5.525450000000000E7    -2.012891170072007      -1.390974695664528E2    -2.943561664022930E1     6.859816256504270E1    -7.208488168333022E1     8.322687852281816E-1   -6.503277273388763E1    -1.553368553103811E2
                        -2.949051883149609E1     6.903708310876451E1    -3.331790850663599E-1    9.402839977382969E1    -9.156688115021180E1    -1.059866932128227E2    -9.210271852767308E1     2.631030912831864E1
                        -7.783813795558351E1     3.185416780807615      -8.361258527477622E1    -1.799672686693799E2    -1.392263103066666       3.484208579215041E1    -8.812100386598479E1     7.640476566473434E1
                        -6.670515087439267E1    -1.635225738976139E2    -9.201284421219302E1    -2.862954148713481E-1   -8.317712362010413E1    -1.751333136125678E2    -1.379086732111305       2.841430015952173E1

 5.525475000000000E7    -2.015348877813735      -1.391272624811427E2    -2.940045583521960E1     6.832052166406292E1    -7.811772203337203E1    -9.417783855012756      -6.587307771228603E1    -1.602193951100522E2
                        -2.951408218203117E1     6.869456098894328E1    -3.327598974837831E-1    9.403376448410965E1    -8.259127560457897E1     1.632048607877798E2    -8.548525189894016E1     1.726235376380778E2
                        -7.448509061101463E1     1.417243636951803E1    -8.666093049426928E1     7.773870279079050E1    -1.391654959333095       3.484344797708878E1    -8.227656394889121E1     1.041883495882982E2
                        -6.644735369576281E1    -1.544772168676952E2    -9.467675155318386E1    -1.786912094553059E2    -9.049982541356269E1     1.606055435959222E2    -1.383594316299742       2.840348791860227E1

 5.525500000000000E7    -2.016325843858007      -1.391727065872925E2    -2.944482322124787E1     6.874605832985792E1    -7.392393106053504E1     8.788720335390376      -6.769590670953471E1    -1.525132490020526E2
                        -2.944725934878417E1     6.901796544465260E1    -3.284553496269002E-1    9.407034179223111E1    -8.750046087546330E1     4.421579999221179E1    -8.874460972803603E1    -3.816809594987459E1
                        -7.323752799397637E1     1.021213310371748E1    -9.050846457407275E1    -1.810644534388316E1    -1.386502495697318       3.483458522631351E1    -8.795673926156553E1     1.193751251616454E1
                        -6.639528567357674E1    -1.586701639520388E2    -9.034100382635687E1     4.158143386768414E1    -8.978832879886991E1    -8.253045637372111E1    -1.379804161606070       2.840025618605269E1

 5.525525000000000E7    -2.018777600044519      -1.392298773943525E2    -2.944539522466600E1     6.857523057598733E1    -7.377498048466427E1     1.140079418094038E1    -6.547308304101526E1    -1.510896624252903E2
                        -2.949522934033426E1     6.821357914163180E1    -3.262652172386511E-1    9.402819227111797E1    -1.032337010843459E2     4.138671847791247E1    -8.248247585954022E1     7.808989850721559E1
                        -7.641791952995460E1     4.475653239430305      -9.002025693525647E1     3.642869414520667E1    -1.394441064035946       3.481683523305354E1    -8.666693401700417E1     1.399657063275488E2
                        -6.676540583640056E1    -1.546968639895552E2    -9.608643486900621E1    -1.275633592285803E2    -9.148901159125958E1     6.390758038722593E1    -1.378347804931177       2.839117214923758E1

 5.525550000000000E7    -2.029285072221490      -1.392751150334965E2    -2.944105146320094E1     6.852151060172997E1    -7.672809031747545E1    -2.141151968753653      -6.586546688485345E1    -1.593638643370822E2
