#  HZ   S   DB   R     50.00 
! Rohde & Schwarz Vector Network Analyzer 
! Rohde-Schwarz,ZNB8-4Port,1311601044102961,2.82
! Created: UTC 2/12/2019, 11:08:15 AM
! freq[Hz]                db:S11                  ang:S11                 db:S12                  ang:S12                 db:S13                  ang:S13                 db:S14                  ang:S14
!                         db:S21                  ang:S21                 db:S22                  ang:S22                 db:S23                  ang:S23                 db:S24                  ang:S24
!                         db:S31                  ang:S31                 db:S32                  ang:S32                 db:S33                  ang:S33                 db:S34                  ang:S34
!                         db:S41                  ang:S41                 db:S42                  ang:S42                 db:S43                  ang:S43                 db:S44                  ang:S44
! 
 3.000000000000000E7    -2.815288838996239E-1    1.035902277412689E2    -6.393832347628476E1     6.259996010961863      -8.219086506915761E1    -1.387083747915212E2    -9.784015918523581E1    -1.231887989403605E2
                        -6.412333382866653E1     8.194340733962157      -2.715312471727948E-1    9.371051075384246E1    -8.427986111166067E1     3.506576158056691E1    -8.667370592984524E1     1.630724275104528E2
                        -8.669783120470794E1    -1.189956610170360E2    -9.013030013428403E1     7.817313017186589E1    -9.229033262926001E-1   -7.493490274006768      -9.169625166652052E1     1.761549706586683E2
                        -9.154576397829487E1     9.580779562469812E1    -9.216936552014448E1     1.647695331340455E2    -8.678881910765136E1    -8.645580699720756E1    -9.276258471213615E-1   -1.248777481364647E1

 3.002500000000000E7    -2.763620042719766E-1    1.032550134962955E2    -6.362791827312280E1     9.802204367921187      -1.057925748081357E2     3.389611984206609E1    -9.796548488807444E1    -1.192751167140803E2
                        -6.494750868098768E1     7.270902544402491      -2.672763353843096E-1    9.323766090231959E1    -8.482280780701287E1    -1.040806510769586E2    -8.665608722836922E1     1.245391645184021E2
                        -8.660771178043250E1    -8.294861105756903      -8.706360248440146E1    -1.688340593988642E2    -9.235354227342018E-1   -7.837548209263154      -8.879857042447911E1    -1.524423609250660E2
                        -8.557707161990587E1    -2.129387706561876E-1   -8.628134787534000E1    -1.665081286850245E2    -8.604866882263544E1     4.092939157303508E1    -9.295988514075519E-1   -1.282685327338060E1

 3.005000000000000E7    -2.823509277825107E-1    1.029931256295692E2    -6.413283922066407E1     6.682350373856052      -9.227419453419194E1     9.828803723297497E1    -8.093804445304373E1     5.621394069051268E1
                        -6.394368604773297E1     1.105900848512093E1    -2.683678670358488E-1    9.294987041901671E1    -8.119909937899712E1     1.238494359393150E2    -8.157703099036397E1     7.817537696055098E1
                        -9.204685389822670E1    -1.081041219730446E2    -8.321320272527748E1     1.288160695774630E2    -9.171192883890944E-1   -8.094245640956990      -8.264953905949051E1     1.462754518201287E2
                        -9.756555189723527E1    -1.589930023326261E2    -9.309977262010551E1     1.088834014674685E2    -8.186350972365969E1    -1.099194938888651E2    -9.262426750255903E-1   -1.312026881259955E1

 3.007500000000000E7    -2.759674517083471E-1    1.026672233097827E2    -6.380937958565524E1     1.190599993955800E1    -9.573171203257897E1     1.554973802743856E2    -9.057125733299097E1    -1.776471822170202E2
                        -6.448584864721683E1     8.355023870293666      -2.680010706902111E-1    9.254587182488895E1    -8.732791828818854E1    -1.138373656274483      -9.174225635468375E1    -5.006826545137572E1
                        -8.730377337997716E1    -8.950702023609161E1    -8.122206417360196E1    -1.177932391718606E2    -9.239521589072639E-1   -8.388196111790590      -8.403849822077444E1    -6.405068994626865E1
                        -8.682941878611467E1    -9.496615150874295E1    -8.554561623546857E1     8.644057272186245E1    -9.493522329197575E1    -8.108964977524761E1    -9.291492517636603E-1   -1.341450213459445E1

 3.010000000000000E7    -2.744255708139117E-1    1.024140778818688E2    -6.348420619555687E1     1.102599461143872E1    -7.994618020542599E1    -1.741176663736997E2    -8.943256247130655E1     4.956703771316125E1
                        -6.368553482050542E1     1.113083972936667E1    -2.741130802101098E-1    9.215640623593286E1    -8.464514065050834E1    -1.726288989340827E2    -8.074036289257734E1     1.397629112166717E2
                        -9.238265456110170E1     1.512044011241739E2    -8.569708036801572E1    -1.512717271080735E2    -9.151829300298431E-1   -8.679664442362130      -8.152701433080898E1    -1.191400264892631E2
                        -9.623118805979755E1    -1.553748666306695E2    -8.360167341829504E1     5.292444649240177E1    -9.525415175038999E1     7.057000631750881E1    -9.239528555196672E-1   -1.372651430671052E1

 3.012500000000000E7    -2.752136242253864E-1    1.020976327206019E2    -6.404214737169065E1     6.985474796212350      -9.176393654621907E1    -2.120274925944008E1    -9.020814190070021E1     1.306728972391171E1
                        -6.351585456647879E1     5.323503142687224      -2.659036630026552E-1    9.185801179561481E1    -8.402734585257068E1     4.193424709572179E1    -8.429884923128870E1    -1.002619449486153E2
                        -1.092069514786001E2     4.463267147336978      -8.772325194432874E1     1.103435150040865E2    -9.215105413063982E-1   -8.937529732245531      -8.637504559005984E1     1.162424017460741E2
                        -9.021739189317586E1     1.396626018931354E2    -8.911088161377889E1     4.217185886348026E1    -9.248064191547181E1    -5.025217490579014E1    -9.255940495422721E-1   -1.405406112661134E1

 3.015000000000000E7    -2.725112072283647E-1    1.018290121098384E2    -6.454296621962962E1     1.163315075926933E1    -8.535217599663278E1    -8.332917527246619E1    -7.642464804511880E1    -1.740072348197319E2
                        -6.365011131209705E1     6.748463948149063      -2.691088596709148E-1    9.141669774246628E1    -8.987794785883904E1    -1.376149409070992E2    -8.352191454847137E1    -7.843933859354156E1
                        -9.685925111412188E1     1.650762709142710E2    -9.870437148421466E1     7.958361272965230E1    -9.253369122596544E-1   -9.291799240384991      -8.171773763609109E1     4.411354696897240E1
                        -8.465118359116090E1    -4.011590114734258E1    -8.233217710461506E1    -7.304725906309530E1    -8.586095066668209E1     1.390566177743508E2    -9.240425538372419E-1   -1.429497181992639E1

 3.017500000000000E7    -2.745010912323154E-1    1.015209124248738E2    -6.401746600582362E1     1.125017838956371E1    -8.560344631121444E1     3.633905679097845      -9.489945886665589E1     1.607415509057295E2
                        -6.348264241332928E1     7.938353177365412      -2.671086644161148E-1    9.106801039038108E1    -8.284316643194357E1     9.766763749703829      -8.914986509416903E1     1.307572156978479E2
                        -8.909556603224328E1     1.481665082387744E2    -8.826158272913048E1     1.418822232301709E2    -9.203015934050056E-1   -9.590014536196170      -9.390920791289013E1    -1.508954241889618E2
                        -9.242020132975965E1     6.527882711831133E1    -8.612980776736183E1     1.512721571782672E2    -8.954162909106648E1    -9.510667465259621E1    -9.267155847323171E-1   -1.464619025595395E1

 3.020000000000000E7    -2.733252831544807E-1    1.012044078259741E2    -6.366332009017158E1     4.607069813721555      -8.802115592458249E1    -5.598192406908040E1    -8.828468794841172E1    -6.193594119833602E1
                        -6.427454135396192E1     5.986270671700035      -2.658544001270404E-1    9.068904892389433E1    -8.936228034925694E1     9.131144128491494E1    -9.207145628049970E1    -6.093626146743399
                        -9.723362149765131E1    -9.908432549874456E1    -8.856880906544254E1     8.679366818083531E1    -9.205176263884543E-1   -9.902097451757959      -8.858181696799242E1    -1.138860860854364E2
                        -1.008804340411035E2    -1.311238870749928E2    -8.612616154617365E1    -1.606733852436433E2    -8.519088232089780E1     2.403660956085958E1    -9.237941129899036E-1   -1.496668418026172E1

 3.022500000000000E7    -2.790642404327844E-1    1.008804331209285E2    -6.456399339025285E1     8.099047046504879      -8.351769675077371E1    -9.692137505577638E1    -8.906772771251674E1     6.940174956686852E1
                        -6.348266109258897E1     7.684633842962222      -2.726583108253307E-1    9.040179972694727E1    -8.974616336931274E1     5.584983313565745      -9.224435969200860E1     9.458931041377377E1
                        -8.647386785648146E1    -3.638371449008096E1    -8.361089367384469E1     1.180783568662591E2    -9.189565290633817E-1   -1.022050961979839E1    -8.896017679004467E1    -1.049427423694996E2
                        -8.911015337470371E1    -1.050434175542488E2    -9.297600657787311E1    -8.339022419154600E1    -9.124956075598459E1     1.021176680267112E2    -9.248839848598239E-1   -1.527949207496791E1

 3.025000000000000E7    -2.722875104237065E-1    1.006000570437467E2    -6.455546648500192E1     7.734592592746800      -8.425168271027181E1    -1.506522393289837E2    -8.406163196451978E1     1.105754688322792E2
                        -6.299724587585833E1     3.254760154859637      -2.848330234517684E-1    8.993258679216970E1    -8.950583817263197E1     2.997413039585576E1    -9.079445177539056E1     2.970320333009549
                        -9.496485541965504E1     1.306795437514874E2    -1.010931143502173E2     9.179924425535991E1    -9.206926016865451E-1   -1.048880425194907E1    -8.859339804262717E1     8.277326363148950E1
                        -8.609792144606614E1    -5.185738045117352E1    -9.544488823493444E1     6.916548256186246      -8.274226406650415E1    -1.496580714264909E2    -9.271533001310511E-1   -1.557736539762242E1

 3.027500000000000E7    -2.737675988274669E-1    1.003161011292421E2    -6.326971601275190E1    -4.425168215171213E-1   -8.914407539483082E1     8.850454580139824E1    -9.192492809713454E1    -1.380672052060329E2
                        -6.293489926009116E1     2.993984631501789E-1   -2.603675725133687E-1    8.960765465323043E1    -9.896647854668021E1    -3.760882756100014      -8.344663454275153E1    -9.490712912142742E1
                        -8.751867617174078E1    -1.681546759070810E2    -9.155399963598347E1     9.048737596686357E1    -9.184251797177206E-1   -1.078954492492867E1    -8.319934116838196E1    -6.970568329962831E1
                        -9.045685165135120E1     2.477789303685817E1    -8.388445281065202E1     1.010111067022005E2    -8.913003614966543E1    -1.573876840142387E2    -9.229111414221991E-1   -1.590486637833823E1

 3.030000000000000E7    -2.755934201651442E-1    1.000390549361192E2    -6.360748561358858E1     8.156231026933124      -8.232115042752713E1    -1.035505063367180E2    -9.250902614319833E1    -1.782076184967992E2
                        -6.348010946994910E1    -8.951302741372198E-1   -2.701176409370577E-1    8.920257173677506E1    -9.149990587595784E1     1.795232774194644E2    -1.041720554592563E2    -6.586433136884625E1
                        -8.850810369049150E1    -1.445257534981298E2    -8.300726030509539E1     8.434872856114284E1    -9.225348964831431E-1   -1.114922917677247E1    -8.152877023493220E1    -5.586162461521442E1
                        -8.572905827228775E1    -9.365057909743113E1    -8.892241696137582E1    -1.009555217302974E2    -7.876764669085760E1     8.529394591835316E1    -9.282822256151844E-1   -1.622668628743631E1

 3.032500000000000E7    -2.748683129989126E-1    9.972226655264798E1    -6.271218555517980E1     2.655761652477105      -9.596093541599755E1    -1.232044620885159E2    -8.653216322939512E1    -6.008974656900696E1
                        -6.388387111908975E1     3.140502942636916      -2.588547041734244E-1    8.881329627749739E1    -7.956156643309330E1     1.102891192976302E2    -8.411636363931444E1     1.000584146541313E2
                        -9.005961495370180E1     9.108686287898783E1    -9.229275978890053E1     2.354892333904978E1    -9.171310893945700E-1   -1.139529816891772E1    -9.070835032560109E1     3.268934154871265E1
                        -8.805043543102214E1    -1.508744790994317E2    -9.216710748218945E1     4.839424888566712E1    -8.389596735228108E1     1.299307841794468E1    -9.288835218899011E-1   -1.646980292378631E1

 3.035000000000000E7    -2.711991006298395E-1    9.941304153157560E1    -6.309963435940625E1     2.003808039072309      -8.712459491706697E1    -1.241079158881482E2    -8.893887361843417E1    -4.516359921229812E1
                        -6.339931436808801E1     6.247498463769173      -2.609174576675368E-1    8.848068206736532E1    -9.299665408771088E1    -9.349697929519900E1    -8.748215959988697E1    -1.086775225605586E1
                        -8.567762650459578E1    -1.764530589344260E2    -8.509329572165771E1    -3.078450331311642E1    -9.186822384330841E-1   -1.172731654010798E1    -9.180529240254879E1    -7.728124775262319E1
                        -9.291175842931496E1    -2.587346802228053E1    -8.544337546108451E1     1.303359590903866E2    -8.376925328274652E1    -5.554856897311774E1    -9.259457090466778E-1   -1.677245877028072E1

 3.037500000000000E7    -2.642334786218451E-1    9.910783374210415E1    -6.352710464228707E1     1.875869763791026      -8.582679042556693E1     2.928933560167249E1    -9.127996648216671E1    -1.746281133449915E2
                        -6.294573506088941E1    -1.109230223816541      -2.639352492012285E-1    8.804940335369497E1    -8.349805465879557E1    -7.999767660338964      -8.464528126741033E1     1.211140030654412E2
                        -8.779434260454863E1     1.091253295911377E2    -8.680510270702003E1    -5.663801932217333E1    -9.154530412083153E-1   -1.194023205846882E1    -7.984793884016409E1     7.569396382629097E1
                        -9.795316625327334E1    -1.335243111377028      -8.264573994885809E1    -9.879052704716095E1    -8.681625935513648E1     5.354492261298181E1    -9.280361332267516E-1   -1.710936981873998E1

 3.040000000000000E7    -2.664306077394812E-1    9.881901639459831E1    -6.298953325988323E1    -1.194854562429386      -9.140495351189952E1     1.268868766324086E2    -9.152271761301037E1     1.504825136183744E2
                        -6.269433780854467E1     6.336307056357085      -2.613582842096809E-1    8.773515429287249E1    -8.958214178495852E1     9.382484970913093E1    -9.019709465976733E1    -4.286999728717510E1
                        -8.520097991677673E1    -1.067453945205391E2    -9.065741055544279E1    -9.436539782152489E1    -9.178267799556537E-1   -1.231419509463113E1    -9.334986576453142E1    -1.331635156745935E2
                        -8.993028857855209E1     2.051201827667443E1    -7.955271632143487E1    -5.316039468031306E1    -8.689701589077698E1     1.647005486701530E2    -9.258469719049622E-1   -1.744290928348666E1

 3.042500000000000E7    -2.677030599563215E-1    9.851879827463458E1    -6.278355703648940E1     6.576712357678622      -8.425419934200551E1    -1.185363208724796E2    -8.574131735724163E1     1.293789462867439E2
                        -6.381688437186286E1     3.623584366666077      -2.609865902820215E-1    8.736197219669489E1    -8.793442486927427E1     1.304712139186905E2    -8.875782729961196E1     4.718221151370345E1
                        -8.598180236762373E1    -3.367737896906854E1    -8.247200485583792E1    -7.952591970918515E1    -9.189126266994029E-1   -1.264650774570597E1    -8.477469629607398E1     1.690119059438918E2
                        -9.437515461237000E1     7.634276135433069E1    -8.690702201195295E1     1.361108902598760E2    -8.955839702017507E1     3.526151841768494E1    -9.212782847017377E-1   -1.773508583154781E1

 3.045000000000000E7    -2.695818512703762E-1    9.818861572601901E1    -6.338204208240073E1     3.345546492688953      -8.949936788408741E1    -1.134492676873041E1    -9.061540245258649E1     1.328209058240740E2
                        -6.294868703579540E1     8.054981663968951      -2.642205680660326E-1    8.694440481009835E1    -8.849541800006030E1     1.151514659494819E2    -8.542867513427451E1    -5.664159150513088E1
                        -8.531449672842113E1     6.036548731793356E1    -8.852596245582951E1    -4.926539559529952E1    -9.178482394296583E-1   -1.289154658092966E1    -8.028240769670867E1     9.286443365179355E1
                        -8.060851033579365E1     6.084857671107347E1    -8.719375086780812E1    -8.078675541788623E1    -8.308508697393071E1     5.070486593141192E1    -9.270247304669405E-1   -1.802703803761214E1

 3.047500000000000E7    -2.658690547801864E-1    9.791272760337078E1    -6.279229289012194E1     7.520573769492929      -8.922440375879543E1    -8.518301900651744E1    -8.667404921514137E1     1.268724809210154
                        -6.331657794641798E1     7.262320313125402      -2.654891153827398E-1    8.656548795061499E1    -7.831261255058740E1     1.304697331044337E2    -8.520041062659344E1    -4.988198651165644E1
                        -8.145151849125313E1    -7.644279534394465E1    -8.785713857538116E1     9.155697256048616E1    -9.195357326502680E-1   -1.316115017963599E1    -8.041579377184378E1     5.038242937557595E1
                        -7.849551549089267E1    -1.723142623480876E2    -8.353146913530082E1    -1.535857062681478E2    -1.066124001738689E2    -1.689886859437098E2    -9.295227820510134E-1   -1.836033089637656E1

 3.050000000000000E7    -2.729593742267029E-1    9.760831994873284E1    -6.284121241467521E1     7.583229365478992      -9.311272508240865E1    -1.273936909708681E2    -8.568160780413379E1     6.803587207600606E1
                        -6.327246696312493E1     8.274342796979081      -2.546295372828373E-1    8.620667387740483E1    -8.144444800133402E1     3.261375409925567E1    -8.452428422944215E1     2.191432037683298E1
                        -8.602786097952145E1    -1.721747954719670E2    -9.810552357395515E1     5.764565962143190E1    -9.213330176169644E-1   -1.354846903665778E1    -8.330025220470738E1    -5.354003252676218E1
                        -8.263748488692991E1     7.366582144048911E1    -8.244598838560307E1    -3.352770203407147E1    -9.189251911628335E1     1.655030875957183E2    -9.260483406185820E-1   -1.865675227458356E1

 3.052500000000000E7    -2.669860542606908E-1    9.735435887125995E1    -6.319325000606351E1     9.879295612049855E-1   -7.899828888737456E1    -1.110219207031758E2    -8.528867663272899E1    -1.646920798991269E2
                        -6.261611542360000E1     4.731304028775984      -2.610853932264403E-1    8.586448503488704E1    -8.746942632286361E1    -6.242339015059843E1    -9.194132837487848E1     3.075578863706001E1
                        -8.992691392196380E1     6.530394040086648E1    -8.466399874393873E1    -1.316377258766144E2    -9.200582850869643E-1   -1.379960609140808E1    -8.289484647955757E1     1.009806380594506E2
                        -8.456817417303250E1     1.203108088424911E2    -8.638198046456596E1    -9.382584136445770E1    -9.358719922304564E1    -5.130629661228237E1    -9.324031471286978E-1   -1.895725678914088E1

 3.055000000000000E7    -2.621849998293150E-1    9.702568150261062E1    -6.171927701328858E1     3.304953359123663      -8.959426904173770E1     9.233225094119606      -8.599302130062480E1     6.368655833721776
