#  HZ   S   DB   R     50.00 
! Rohde & Schwarz Vector Network Analyzer 
! Rohde-Schwarz,ZNB8-4Port,1311601044102961,2.82
! Created: UTC 2/12/2019, 11:49:28 AM
! freq[Hz]                db:S11                  ang:S11                 db:S12                  ang:S12                 db:S13                  ang:S13                 db:S14                  ang:S14
!                         db:S21                  ang:S21                 db:S22                  ang:S22                 db:S23                  ang:S23                 db:S24                  ang:S24
!                         db:S31                  ang:S31                 db:S32                  ang:S32                 db:S33                  ang:S33                 db:S34                  ang:S34
!                         db:S41                  ang:S41                 db:S42                  ang:S42                 db:S43                  ang:S43                 db:S44                  ang:S44
! 
 5.275000000000000E7    -2.550216716428492E-1   -6.786670637525585E1    -2.930291692834411E1     1.309200825360279E2    -8.077732147516285E1     5.825467561949462      -6.969051050722267E1    -8.242482126662723E1
                        -2.933043713977128E1     1.306895594490973E2    -3.245623249720040E-1    1.493428358827728E2    -8.542611854059481E1    -1.273969440473124E2    -8.436574000402877E1     7.893526073851336E1
                        -8.334787686792220E1    -6.731032197480640E1    -8.518071011735498E1     2.398919406167267E1    -1.420457409572470       7.120127308436656E1    -1.060266737518610E2    -1.442418427439966E2
                        -6.905278304413108E1    -8.338104708696278E1    -8.955047637462360E1    -1.296880652071949E2    -8.449656075591342E1    -3.787195655198665E1    -1.380007283038321       6.551691348128969E1

 5.275025000000000E7    -2.603575788265615E-1   -6.784773153989714E1    -2.928021327099314E1     1.302271964402827E2    -8.913710697875679E1    -5.628796028378255E1    -6.992043303825699E1    -8.373490524651409E1
                        -2.939393420985371E1     1.306068687343106E2    -3.219384904400898E-1    1.492885885020543E2    -8.443800272282958E1     1.531742817250651E2    -7.953395067809863E1     1.475510360842875E2
                        -8.981078692828581E1    -1.735155150684559E2    -8.742722382882768E1     9.381453090329927E1    -1.420390350497427       7.119768996724764E1    -9.238983300016058E1     7.859918417010178E1
                        -6.916530514453362E1    -9.854618463249560E1    -8.969041396762015E1     1.757486842508160E2    -8.867348730866355E1     9.306758302636560E1    -1.381242921402207       6.551351756491459E1

 5.275050000000000E7    -2.569300935460669E-1   -6.788774120355220E1    -2.930339818364053E1     1.303735144948259E2    -8.181457606461473E1    -6.132896524859628E1    -6.990051882429499E1    -9.530052972974805E1
                        -2.937269611422994E1     1.304818733513190E2    -3.240574437589536E-1    1.493104085192111E2    -9.822707907224481E1    -1.834191351672961E1    -8.331264893861649E1     1.639583361811450E2
                        -8.779897319829559E1    -8.958734344715762      -8.172518233685615E1     1.316337691496341E1    -1.419220545521936       7.121875258723743E1    -8.380701012914287E1    -1.478707932042634E2
                        -6.865642866895988E1    -8.082932911844003E1    -9.013828933467431E1    -7.487913179885749E1    -8.788249255464920E1    -1.443447192686731E2    -1.380250467030062       6.549258057094014E1

 5.275075000000000E7    -2.597597800063289E-1   -6.788595887958707E1    -2.931428133727945E1     1.301659336600781E2    -8.304936933305335E1    -7.308211856130455E1    -6.814774951804432E1    -9.726850331986309E1
                        -2.930024509829419E1     1.299651197763125E2    -3.246783217869117E-1    1.493109706008916E2    -9.551901971781393E1    -1.617248468215505E2    -9.045812082802136E1     4.122226159529229E1
                        -8.986719802763346E1     1.096546223214818E1    -9.659231341012679E1     8.812721406956068E1    -1.417363450162489       7.119325272917885E1    -8.556269648167512E1    -9.308276508531283E1
                        -6.951734997764986E1    -8.722418211644593E1    -8.937443652985907E1    -1.030786482926270E2    -8.259053774833967E1    -1.778816243493401      -1.382684389107276       6.546276622424836E1

 5.275100000000000E7    -2.577733453058227E-1   -6.795649428321444E1    -2.937039128381201E1     1.299852868418519E2    -9.037674460264297E1     1.458405276525541E2    -6.801522005672989E1    -1.014862760806410E2
                        -2.941960572822361E1     1.306386910068852E2    -3.261132273033580E-1    1.493214978563939E2    -9.739043194493199E1     1.601230033096563E2    -8.822767867500852E1     7.023545916703607E1
                        -8.415640126285885E1    -7.551983309153465E1    -8.848615384661667E1    -4.565352915524220E1    -1.420123845751427       7.118817798538072E1    -1.018118049533518E2     3.475307016827411E1
                        -6.947190586586702E1    -8.347076682656012E1    -9.753645420909791E1     7.113137696142789E1    -8.673665278826356E1     1.561098636153548E2    -1.381638394404788       6.548682340108780E1

 5.275125000000000E7    -2.601980504581365E-1   -6.795623217016245E1    -2.932574380376100E1     1.303053666419501E2    -8.482864522166344E1     2.929120496487876E1    -6.883321841148019E1    -9.005277701129825E1
                        -2.932394124186246E1     1.307673314649039E2    -3.269716477168250E-1    1.492709135392956E2    -8.913928776047175E1    -1.540812517901221E2    -8.259626133063560E1    -1.575825331225985E2
                        -9.319869370190396E1     1.789505923406867E2    -8.557250522374466E1     4.672304235502374E1    -1.419854043112716       7.118288569320278E1    -8.338505218979805E1    -1.295578222812971E2
                        -6.864129247464425E1    -9.687759570552245E1    -8.446079766958063E1     7.351515071929357E1    -8.171891898596543E1    -1.045928601640081E2    -1.381905077374117       6.548269650828009E1

 5.275150000000000E7    -2.546439150199412E-1   -6.795386732662365E1    -2.937357287089356E1     1.301867498449946E2    -8.356180997819243E1     2.974490297830573E1    -6.884904538511293E1    -9.894269955886250E1
                        -2.932364496715806E1     1.307640736440126E2    -3.297479643278895E-1    1.492797703405158E2    -8.480389359872056E1    -5.589472454923674E1    -8.587517328191575E1     1.488940996356283E2
                        -8.222249798477037E1    -2.905009829349601E1    -9.987173894534409E1    -6.180960628495684E1    -1.419788360761483       7.116953170775327E1    -9.473694278846023E1    -5.332402085572375E1
                        -7.002151087479905E1    -9.297888202438332E1    -8.704201689827700E1     4.041567063184242E1    -8.641666427833133E1     1.397403094064718E2    -1.383182940790155       6.546709638789412E1

 5.275175000000000E7    -2.582024808154758E-1   -6.801707930034131E1    -2.941242428507295E1     1.301711984982447E2    -8.353103092739160E1    -2.257580724505702E1    -7.156618898105904E1    -8.449849041621904E1
                        -2.935826229254240E1     1.298970206142827E2    -3.309418178691828E-1    1.492706881840388E2    -7.944703089665764E1     1.358353103881763E2    -9.585685224060583E1    -4.115285488411402E1
                        -1.022549112412950E2     1.044928163835688E2    -8.689121396406763E1     8.526898891155189E1    -1.418520151746877       7.117644209795385E1    -9.585528434196938E1     1.796759744710129E2
                        -7.047928470710949E1    -8.801150284373902E1    -8.600203801701063E1    -8.466404605839484      -8.370787410065259E1     4.387191652408819E1    -1.380042335351077       6.546822226899022E1

 5.275200000000000E7    -2.559868501949679E-1   -6.799228397864043E1    -2.936045841410069E1     1.300040648211955E2    -8.286155834117315E1    -1.263671275253989E2    -7.101580553943181E1    -9.276050477957843E1
                        -2.929401642036026E1     1.304942374064260E2    -3.253204580363428E-1    1.492239905768225E2    -8.702041113112006E1     1.763943997560345E1    -8.677426632493558E1    -1.698563954585210E2
                        -8.639608386933844E1     9.973640267909404E1    -8.411458763442818E1     1.251799567124244E2    -1.421123052377964       7.116172658095239E1    -9.564297370317044E1     1.364650048548347E2
                        -6.866876016406751E1    -8.508536031886032E1    -8.621156743862122E1     1.605652748690021E2    -8.980774061131803E1     1.456681403488254E2    -1.378018806640061       6.549421145193644E1

 5.275225000000000E7    -2.610570429716483E-1   -6.803783848748098E1    -2.936626912847662E1     1.309995461206022E2    -9.314309564046197E1     1.785816015480993E2    -6.807254503669769E1    -9.397720132431495E1
                        -2.934717608991892E1     1.303892504871122E2    -3.241673146592960E-1    1.492814035721019E2    -8.327741251577777E1     7.977292947168987      -8.362462418426952E1     2.182477256415130E1
                        -8.341569490053600E1    -2.676360587194370E1    -8.242083709251443E1    -5.205669938084434E1    -1.420528872549522       7.115093590481082E1    -1.040893867308893E2     5.507771970121288E1
                        -6.924024336531512E1    -1.044559481429484E2    -9.196342242267656E1     2.423428816866100E1    -8.566801899293900E1    -1.297569072155071E2    -1.380444385002518       6.548568101369449E1

 5.275250000000000E7    -2.550019832974545E-1   -6.806364744749044E1    -2.936363900674713E1     1.304737417680324E2    -9.463302464244200E1    -5.954654550116255E1    -6.978592915700048E1    -9.607164668330087E1
                        -2.936939710797157E1     1.304588419404655E2    -3.261699468497969E-1    1.492363254471362E2    -8.683713272392106E1    -7.952440196946066E1    -8.524739942818019E1    -1.372071681986169E2
                        -9.448361992506597E1     1.129083519582226E2    -8.479903150213639E1    -4.371073200141500E1    -1.416420848776760       7.113553864255574E1    -8.835234440656942E1     8.725289133526837E1
                        -6.859462488537515E1    -9.624241170621291E1    -8.631358904745406E1    -1.690356680782571E2    -8.619468593832289E1    -1.160020305133111E2    -1.380640227978273       6.546812960638299E1

 5.275275000000000E7    -2.548564800594013E-1   -6.806624051601804E1    -2.933649934832715E1     1.309690629324699E2    -8.447941942705029E1    -3.735788909539970E1    -6.894695377266297E1    -8.297282267794870E1
                        -2.936746568627707E1     1.303023789990776E2    -3.258908672738071E-1    1.492772207506860E2    -1.025341477814488E2     9.639571800406981E1    -9.288024480208435E1     7.177129013326956E1
                        -8.811937216021134E1    -1.307600163315412E2    -9.256112002422982E1    -1.364466827702582E1    -1.417621456203269       7.115124832443709E1    -8.626255089279921E1    -1.001338436312393E2
                        -6.788422201442995E1    -8.237980772773702E1    -8.902334274209643E1     6.006935317134624E1    -8.610435445266590E1     1.372534792785561E2    -1.377981748415325       6.545764257038810E1

 5.275300000000000E7    -2.581319350462135E-1   -6.808134947738849E1    -2.925396614036087E1     1.303186737441883E2    -9.652234558155656E1     4.554851327780246E1    -7.154401518057813E1    -7.765480881197993E1
                        -2.939263752524497E1     1.310240328378310E2    -3.251827449285497E-1    1.492636627743585E2    -1.033923206626866E2     8.049798398176139E1    -9.452763825876333E1    -1.734432031814641E2
                        -8.248006450176150E1    -9.009167516148803E1    -8.504181519741756E1     4.503686505455330E1    -1.418701672346546       7.113939059621946E1    -9.571868205894658E1    -8.375718965332321E1
                        -6.900854439003027E1    -9.193257832754735E1    -9.362615916716193E1    -1.630313306564632E2    -8.648974067697347E1     1.479794875546664E2    -1.381881250330584       6.547787225335577E1

 5.275325000000000E7    -2.621512794043990E-1   -6.812366034554663E1    -2.922339623698750E1     1.300690285558403E2    -7.923544516316693E1     1.626317434735773E2    -6.960229753985503E1    -9.045378285154612E1
                        -2.927846338207206E1     1.302215100591503E2    -3.294976543524563E-1    1.492402113680744E2    -9.205326864309582E1    -1.036060950525796E2    -8.306290505341462E1     4.776349514713417E1
                        -9.692991897899290E1    -7.933229846950709E1    -9.803830910194237E1     1.701649040579856E1    -1.421235843922805       7.116865010402967E1    -9.665079110231329E1    -3.961879199946773E1
                        -6.817765044114904E1    -9.085467591831062E1    -9.052510801545100E1     1.392940424098549E2    -9.455711730089786E1    -1.192617230201694E2    -1.382217261139598       6.546777070811450E1

 5.275350000000000E7    -2.597352572303601E-1   -6.813223503087089E1    -2.936544178284510E1     1.307554262211039E2    -8.330495537314678E1    -7.559950208830796E1    -6.805278148485988E1    -7.920108971636654E1
                        -2.935730275856915E1     1.303423411050349E2    -3.278710152728870E-1    1.492082557770100E2    -8.689547729379243E1    -1.441413491769327E2    -9.477475566007298E1    -1.635631541227180E2
                        -8.400154348947866E1    -8.705613709909703E1    -8.909317936876613E1     1.475021032567330E2    -1.418003001785287       7.113493978427698E1    -8.390164429620127E1     9.163748100520068E1
                        -6.938193786685214E1    -8.886688632917212E1    -9.205288206651373E1    -1.111041999391489E2    -8.629397928687897E1    -4.829186474894731E1    -1.383390827560565       6.546561387233942E1

 5.275375000000000E7    -2.610115743050646E-1   -6.813979908100639E1    -2.933891068016879E1     1.300863936403426E2    -8.403477679438998E1    -1.112390685616455E2    -6.940352372728816E1    -1.041607919348937E2
                        -2.942438120157394E1     1.302627094985128E2    -3.266278901838246E-1    1.491981452250994E2    -8.420436937624010E1    -1.172031935389495E2    -8.474503941001858E1     2.840348151128361
                        -8.770057210297091E1    -8.466453976849127E1    -9.382684984647156E1    -1.648388090726472E2    -1.418143956035909       7.113745730550760E1    -9.063172970100396E1     1.799437763498304E2
                        -6.958654123264307E1    -9.967603278049634E1    -8.430105568113731E1     3.419884879529568E1    -8.159527727345636E1     5.770238061063806E1    -1.382226175339832       6.546175594565912E1

 5.275400000000000E7    -2.564190580686510E-1   -6.820055339817162E1    -2.931736516941868E1     1.300955212740088E2    -8.991980543287369E1    -7.695407165200376      -6.934263545875366E1    -7.388715449367513E1
                        -2.933219226511499E1     1.307386763580051E2    -3.229013763330543E-1    1.492443733782095E2    -8.591703638872932E1    -1.048667425902448E2    -8.568222434915320E1     1.448551511204617E2
                        -8.797992362154452E1    -4.892018568420265E1    -1.078175363024601E2    -1.742814524053541E2    -1.414683597681211       7.112330871791524E1    -8.398580508892320E1    -1.580098614975235E2
                        -6.941654811405867E1    -9.852785301874141E1    -9.036500205210243E1     1.794179814677876E2    -1.014263637739484E2    -9.829260098928199E1    -1.384864993382548       6.548220371649245E1

 5.275425000000000E7    -2.665671246601400E-1   -6.819451324309905E1    -2.939145444654652E1     1.301226167894566E2    -8.757789652068442E1     7.501436926564228      -6.891182805806970E1    -1.041039488736916E2
                        -2.937345091005962E1     1.295057749374815E2    -3.261447166750615E-1    1.492428030577721E2    -8.652118573218807E1     3.201483743196146E1    -9.596889762402142E1     5.526623542925841E1
                        -8.340579193279652E1    -5.770060927462440E1    -8.359437795428084E1     1.709977384492950E2    -1.413773827282279       7.111435582595749E1    -9.626668992408128E1    -1.170347803200893E2
                        -6.937224257478738E1    -9.797216891866813E1    -8.971360568188717E1    -1.589344194928964E2    -9.364303491244775E1    -1.594591366523712E2    -1.382905586443278       6.541528049518981E1

 5.275450000000000E7    -2.580107948885160E-1   -6.821494213248023E1    -2.922958802333486E1     1.301573971174863E2    -9.251408346718375E1    -5.936617672520291E1    -6.925698560252687E1    -1.080882692199796E2
                        -2.929814765630549E1     1.300585344259846E2    -3.267477220509560E-1    1.492029054382084E2    -7.693786295999806E1    -9.225431889640475E1    -8.155623877410127E1     1.465359980233674E2
                        -8.671671080947965E1    -6.833732876802164      -8.617173779625304E1    -1.502784709414032E2    -1.418996458303631       7.115000249632526E1    -8.582592727596720E1     5.677746507357806E1
                        -6.866907785220707E1    -9.492377511836723E1    -9.582107438229221E1    -8.420373821618165E1    -9.254512331422062E1     1.445571602601826E1    -1.381627491553654       6.546705405260514E1

 5.275475000000000E7    -2.545454669094796E-1   -6.821340139245751E1    -2.927662039257093E1     1.303950089985827E2    -8.869935641415070E1    -8.368168991727208E-2   -6.983127657272380E1    -9.668562577564516E1
                        -2.923419878553149E1     1.306692293445232E2    -3.269091427475946E-1    1.492303095626787E2    -9.794104028414483E1     1.507261594985336E2    -8.031554606921530E1    -1.577482943035823E2
                        -1.016534820029096E2     6.091691485452309E1    -9.148881779618242E1     1.358599556046555E2    -1.415920619626468       7.115991329581748E1    -9.040396204923530E1    -1.707126413023196E2
                        -6.956042561806102E1    -1.039715804752272E2    -8.772593385500039E1     1.249598910893855E2    -9.010919601305658E1    -1.359639548737371E2    -1.381993715575587       6.544166509255230E1

 5.275500000000000E7    -2.570062709728359E-1   -6.824835679667372E1    -2.933599435646103E1     1.304330714290709E2    -8.655878898913952E1     1.539750830941198E2    -6.893932965271424E1    -9.441812687735627E1
                        -2.943084481647834E1     1.306636500285426E2    -3.271521114811796E-1    1.492186084693015E2    -9.095610487201206E1     1.357569811892946E2    -9.070000295162350E1     1.115357941202399E2
                        -8.662062932733443E1    -7.514629567631691E1    -9.803460163570588E1    -1.271405882915146E2    -1.416513120988772       7.113103974173922E1    -8.943159707269243E1     1.411244835147651E2
                        -7.038323735964143E1    -1.029634615023371E2    -9.038343571697402E1    -1.486175646045284E1    -8.520339198993267E1     7.182469595632550E1    -1.379646344375519       6.542862769580168E1

 5.275525000000000E7    -2.579528460817162E-1   -6.826350109622874E1    -2.924536252640501E1     1.300146045271121E2    -1.016004993777087E2    -7.547313876779573E1    -7.008454587628891E1    -8.404074140624415E1
                        -2.939097250229203E1     1.296849606581114E2    -3.237458066215865E-1    1.492323044675837E2    -8.601064524770658E1    -3.733765700727754E1    -8.685377294386402E1    -1.759428888931113E2
                        -1.037731371367082E2     1.337428192345333E2    -8.445200642390853E1     7.481127494485035E1    -1.419198524115285       7.111222052349176E1    -8.663019807619834E1    -9.024576027589852E1
                        -6.925871500687620E1    -8.809094725301468E1    -8.310710411846350E1    -7.134306304208806E1    -9.400623511662728E1    -5.508077521795917E1    -1.381804105345142       6.545829280799860E1

 5.275550000000000E7    -2.589811700961077E-1   -6.828050082153115E1    -2.936279488753321E1     1.299827728790581E2    -8.532537432452429E1    -6.395400960127795E1    -7.169857763910719E1    -9.831619486222911E1
