#  HZ   S   DB   R     50.00 
! Rohde & Schwarz Vector Network Analyzer 
! Rohde-Schwarz,ZNB8-4Port,1311601044102961,2.82
! Created: UTC 2/13/2019, 9:47:07 AM
! freq[Hz]                db:S11                  ang:S11                 db:S12                  ang:S12                 db:S13                  ang:S13                 db:S14                  ang:S14
!                         db:S21                  ang:S21                 db:S22                  ang:S22                 db:S23                  ang:S23                 db:S24                  ang:S24
!                         db:S31                  ang:S31                 db:S32                  ang:S32                 db:S33                  ang:S33                 db:S34                  ang:S34
!                         db:S41                  ang:S41                 db:S42                  ang:S42                 db:S43                  ang:S43                 db:S44                  ang:S44
! 
 3.000000000000000E7    -2.789774595740669E-1    1.014604103632886E2    -6.881262743183135E1     1.038479668420100E1    -8.415101530123428E1     1.190422732408843E1    -8.623465852365959E1    -1.219126635699345E2
                        -6.934171838116812E1     8.662487378480471      -2.885427342010857E-1    8.979514088571058E1    -8.219467859759178E1     1.085490934434305E2    -8.192906669659429E1    -1.601638036499641E2
                        -7.882881837974509E1    -6.080765513719105E1    -9.127199654191051E1    -4.050651745596001E1    -9.323840771853448E-1   -1.146712612257437E1    -8.863240731797988E1    -1.743538243754840E2
                        -1.041220380245616E2    -4.213647905748005E1    -9.247525171974993E1    -1.073319028426758E2    -8.408273441597542E1    -1.544300497237070E2    -9.350032538396258E-1   -1.643806733321566E1

 3.002500000000000E7    -2.826167781592826E-1    1.011866772119775E2    -6.768670463618560E1     3.854202314290093      -8.428969217702829E1    -5.751786306300492E1    -9.241011196257429E1     8.174013010091294E1
                        -6.949980259515803E1     1.325847340386950E1    -2.948486608098808E-1    8.934851236516259E1    -8.229058411796532E1    -3.735978408476716E1    -9.779531581846383E1     6.721726818962503E1
                        -8.497765545103987E1     1.114594628185740E2    -8.582665507483898E1    -1.223598868442104E2    -9.309974018704860E-1   -1.172222507958723E1    -8.545254115967255E1     7.719376197870825E1
                        -9.239690144350752E1    -1.668989190857559E2    -8.585922619121007E1    -1.100814105778676E2    -8.750827339061770E1    -8.437775982752594      -9.408980572944892E-1   -1.674454844058860E1

 3.005000000000000E7    -2.864718513093971E-1    1.009165899384554E2    -6.820025218185512E1     8.933374033300364      -8.341950576609318E1    -5.451600260935899E1    -8.680964445075453E1     6.055079550458110E1
                        -6.897345849054875E1    -1.816918696438144      -2.909565151885137E-1    8.906325816014970E1    -8.570007722224290E1    -5.218135499258806E1    -8.125423050960100E1    -9.460569190629163E1
                        -9.186072792264669E1    -8.160005746447098E1    -9.235390211239555E1     1.089056273757574E2    -9.299396700836038E-1   -1.204624070708100E1    -8.117573055289186E1     1.254493827538683E2
                        -8.330163903254152E1     1.739867065709309E2    -8.501631061935321E1    -1.080176630909023E1    -8.698691265620603E1     3.132596198644812      -9.354687154705831E-1   -1.707385941116371E1

 3.007500000000000E7    -2.783267463247362E-1    1.005747613513675E2    -6.898300764889095E1     5.827373466971122      -8.144801134730587E1    -6.464679171165115E1    -9.082609670504152E1    -2.135509837822634E1
                        -6.874921265364777E1    -7.143238135771907      -2.883851310882265E-1    8.868493915924719E1    -8.595887810698818E1     9.697846667786570E1    -8.753325802346643E1    -1.952709793552161
                        -9.962083083381424E1    -1.635956959105601E2    -8.745239674555259E1    -3.762173905711983E1    -9.272650072480237E-1   -1.232737502216264E1    -9.736362126150679E1    -1.293611641532913E2
                        -8.489509281761190E1     1.570093131179721E2    -9.276969160558352E1     4.590428995943639E1    -9.519833774399203E1    -1.228031880870807E2    -9.368452532263627E-1   -1.738919335168985E1

 3.010000000000000E7    -2.783225516815540E-1    1.003442382273586E2    -6.970289708436370E1     7.862798017612133      -9.188219791181180E1     1.660953717910909E2    -8.998268307191009E1     1.049115336734896E2
                        -6.873882350908220E1     9.150292136463126      -2.856472773956310E-1    8.830063859887189E1    -9.492050340282179E1     1.388834865420248E2    -8.615160602842282E1    -1.192194345665429E2
                        -9.231956920789301E1    -1.592412915015317E2    -8.710682322526273E1     2.688061639492070E1    -9.282177421331308E-1   -1.263685638468218E1    -8.749864168369932E1    -3.740275266849558E1
                        -9.371975475907000E1    -1.815258097971459E1    -7.896491994961724E1     6.301324845374531E1    -8.368309322898907E1    -1.431818829416714E2    -9.473301915156362E-1   -1.769130896087425E1

 3.012500000000000E7    -2.764742872889439E-1    9.998480314060245E1    -6.799754160541374E1    -7.443340517042518      -8.908658933610086E1     8.569744033895745E1    -8.608699078921023E1    -1.376337955472240E1
                        -6.815484611651780E1     3.043869815543822      -2.897383554622611E-1    8.793554848833769E1    -8.712444250604449E1     1.265485778414788E2    -9.290001835658373E1     1.745368726462889E2
                        -8.711539445411999E1     1.211182132072708E2    -8.589770501255622E1    -1.267974781178907E2    -9.321421763931883E-1   -1.294886630891654E1    -8.524767387544955E1     1.326843521786767E2
                        -8.265997358997025E1    -1.397591486772544E2    -9.562126852388850E1     1.354120183578933E2    -8.631149560621500E1     3.118956023025445E1    -9.455328214066066E-1   -1.804348465516615E1

 3.015000000000000E7    -2.798134872001782E-1    9.971208082141136E1    -6.874621510823124E1     2.176672058317583E-1   -9.439290293618653E1     6.936106646052429E1    -9.587837430729107E1    -1.145671168006106E2
                        -6.922320693047612E1    -3.530118704823382      -2.821415976992434E-1    8.749832435135845E1    -9.834151440904761E1    -8.043591660516789E1    -8.077326203590033E1     7.102167050334997E1
                        -8.922441867544906E1     8.774098295246644E1    -8.144842925582015E1    -1.306204455381908E2    -9.310381148910281E-1   -1.323971242584533E1    -8.459553732821327E1    -2.001370513064623E1
                        -8.600851203653555E1     4.076041157861687E1    -8.910633674189874E1     2.899762384734769E1    -9.210419932967197E1    -1.073425673573255E2    -9.367126995377700E-1   -1.832762157577955E1

 3.017500000000000E7    -2.748432699388684E-1    9.940745256321857E1    -6.914020892658560E1     2.360096697195929      -9.264333767970639E1    -1.686086935917318E2    -8.852750694376428E1    -7.212023022845969E1
                        -6.786499371173122E1     3.191869259905920      -2.800294210534449E-1    8.714584504495045E1    -8.837076698748361E1    -1.558855558379463E2    -8.336405973009744E1     1.774662250446165E2
                        -8.853933557662593E1    -8.195875710342443E1    -9.415394431107208E1     9.564335997871959E1    -9.285958225592290E-1   -1.358444550166593E1    -8.508187419258829E1     6.528643000014324E1
                        -8.527751272806398E1    -2.288390930607567E1    -9.405718568855465E1    -8.042224140188544E1    -8.201174983045414E1    -1.709365438045445E2    -9.393135154257757E-1   -1.861764907473556E1

 3.020000000000000E7    -2.752587946387883E-1    9.915084360519161E1    -6.825318776009708E1     6.180142369935000      -8.959020825956557E1    -1.523853692051624E1    -8.491331808136951E1     1.723033940591439E2
                        -6.894448015615426E1     1.201804167878445E1    -2.819552211272470E-1    8.681723271850080E1    -8.079688706264663E1     2.851343179122909E1    -9.182497994339821E1     1.135209750710556E2
                        -9.129401585536202E1     1.452655289897227E2    -8.992124428816754E1    -6.624229200742160E1    -9.319743134039905E-1   -1.388219205767813E1    -8.262012428225228E1    -1.542758304396745E2
                        -8.869677095999641E1    -1.399876998031364E2    -8.507725357211413E1    -1.415298399177590E2    -9.053790453405959E1     7.210496890274429E1    -9.370374179347450E-1   -1.896993752037645E1

 3.022500000000000E7    -2.801583639436816E-1    9.882226097377176E1    -6.852912623755506E1    -7.127704183214868      -9.356399272060413E1     1.235815065022846E2    -9.498202719966507E1    -3.421666954775606E-2
                        -6.742601618918565E1     7.995067555354876E-1   -2.861496079618344E-1    8.645896205183503E1    -8.220708243686372E1     1.214927037288770E2    -8.562092372801273E1    -9.700182387598670E1
                        -8.763160071364452E1     2.613210787598291E1    -8.125277362793065E1    -7.481618879324769E1    -9.283820161182955E-1   -1.417702623431534E1    -8.561793235381275E1     7.428138814056752E1
                        -8.778886699677018E1    -1.250205121038462E2    -8.179342957658322E1    -1.531499918095689E2    -8.424042037666501E1    -1.272431481632410E2    -9.365253074195189E-1   -1.927343359773219E1

 3.025000000000000E7    -2.753017205033510E-1    9.853926299208527E1    -6.716920984517280E1     1.590281838051820      -9.072806033209088E1     8.607191911677595E1    -8.567058862650727E1    -1.318429933717032E2
                        -6.987429940675079E1     3.535218651375641      -2.914675871249604E-1    8.604340515750231E1    -8.481657367242062E1    -1.109175717574371E2    -9.641929669642502E1    -6.332354597904428E1
                        -9.506396157569293E1     3.266040038910882E1    -8.356805905154911E1    -5.613076026229266E1    -9.239791850365037E-1   -1.449614507382688E1    -8.643073883755280E1     1.480052558750352E2
                        -8.592740064383716E1    -7.184324955582291E1    -9.435756941255961E1     1.564896329648893E2    -7.806496607825574E1     6.319588228221390E1    -9.369631279704404E-1   -1.958422453712546E1

 3.027500000000000E7    -2.752341526522070E-1    9.822990342898784E1    -6.753344360860707E1    -1.085546987684036      -7.934647267460606E1    -1.453282834693854E2    -9.157518437090980E1    -8.419185760002067E1
                        -6.896067886531992E1     9.211483192525014      -2.761366712675664E-1    8.561089369441766E1    -8.071680423161909E1     1.524209345543900E2    -8.445913215416651E1    -4.297890661835812
                        -8.984463427061640E1     1.416803925735178E2    -8.325716457099503E1     4.236017257572480E1    -9.298357797056377E-1   -1.480106399991947E1    -8.304714587362250E1    -5.189988847144124E1
                        -8.734794251798724E1     8.432332501891246E1    -8.286069807620306E1     1.317352206846452E2    -9.243560787050060E1     1.666112580399331E2    -9.385090355683577E-1   -1.991280130882750E1

 3.030000000000000E7    -2.769206707120117E-1    9.794078703506575E1    -6.939370448100247E1    -4.524214389900397      -8.455682629390873E1    -1.626372259850180E2    -8.117757671231333E1    -8.294613301665886E1
                        -6.960509870734599E1     5.186354666007605      -2.844693968582519E-1    8.525800902654375E1    -9.002949863539705E1     1.539112078245628E2    -8.261679787913722E1    -1.756219832012327E2
                        -8.437268510884580E1    -1.218293499799814E2    -8.413930822302355E1     1.641610445787795E1    -9.356280840447702E-1   -1.510574534742742E1    -7.675604599237174E1     1.303899215274525E2
                        -8.980296438580659E1    -1.048483308872226E1    -8.549954412167682E1     8.312800280842802E1    -8.466045534220086E1    -6.610283001933837E1    -9.388267164820270E-1   -2.020191610274932E1

 3.032500000000000E7    -2.751208206966922E-1    9.767072457328848E1    -6.860838150715654E1     3.454344896558129      -8.410816295008121E1    -1.282273938049453E2    -8.244935839269218E1     4.672095566541587E1
                        -6.912238509702743E1    -4.606356098272134      -2.743557465866343E-1    8.486438741772003E1    -7.978715884487657E1    -1.424793499213261E2    -8.776411152553571E1     1.749652176764854E2
                        -1.034974838167805E2    -9.855404269902185E1    -7.954306929285296E1    -8.088458957658011E1    -9.291435400694379E-1   -1.550145805058948E1    -8.660536108709019E1    -1.857297998231988E1
                        -9.447186134876178E1     1.381155708694924E2    -9.276178950176983E1    -8.083784778785967E1    -9.759181495622109E1    -7.628108817381761E1    -9.418161029381466E-1   -2.050978804627437E1

 3.035000000000000E7    -2.680119835287576E-1    9.737433030933475E1    -6.726151561507062E1     9.567290852517647      -9.096460757970733E1     9.886425688705933E1    -8.846630647360171E1    -9.570336679422198E1
                        -6.954007026695733E1    -5.432439628791133      -2.810008037614818E-1    8.450893978504747E1    -8.367840825917723E1    -5.173065238949415E1    -8.852469214147989E1    -1.113888812013474E2
                        -8.305225728516091E1    -1.198904333070856E2    -8.444837425108557E1     1.446784184115799E2    -9.246123570255320E-1   -1.571147905000378E1    -9.063683440316041E1    -6.778876877340552E1
                        -8.785004995614473E1     6.793755229459086E1    -8.344230416743152E1     1.739348075676867E2    -1.149864803224713E2     1.013956171139454E1    -9.406477328183978E-1   -2.085646808677213E1

 3.037500000000000E7    -2.700493664357163E-1    9.705374701379431E1    -6.764728136793789E1    -4.341384853704695      -8.369734529515171E1    -6.562466577351619E1    -8.475932421742796E1    -1.610225218844154E2
                        -6.853982807567044E1     1.500420931882244      -2.897318184394029E-1    8.412506622080036E1    -8.936439298738375E1     8.642955138563488E1    -8.331716707973507E1     1.112567327490330E2
                        -9.057156051689036E1     1.429501144933217      -8.838706092180266E1    -1.055265853692813E2    -9.325312232274986E-1   -1.601126349632320E1    -8.745233963474698E1    -1.237208591530393E2
                        -8.952983776728797E1     2.404143753697762E1    -8.616433169211946E1     1.144058063552895E1    -8.559047976331421E1     1.468296014815519E2    -9.403089649529061E-1   -2.115849532430066E1

 3.040000000000000E7    -2.701967547264009E-1    9.678697353756067E1    -6.833686021356394E1     9.579243994097845E-1   -8.444450829403419E1    -1.425865325188607E2    -8.924318599308711E1     9.230966187327046E1
                        -6.744280556278206E1     2.249816216564344E-1   -2.840249008797264E-1    8.378044898177906E1    -9.778463446676886E1     5.479819080601720E1    -8.585103843654765E1     2.407071357812570E1
                        -8.759852654250454E1     1.335462661466096E2    -9.831150573984004E1    -5.434037991471671      -9.262105404191685E-1   -1.635291824141373E1    -9.982164786234263E1    -9.824368689880545E1
                        -9.218145449618797E1     5.196066377802498E1    -8.395605529095064E1     1.772138819258958E2    -8.336868273653832E1    -3.313240135466344E1    -9.424937299913406E-1   -2.146729670710593E1

 3.042500000000000E7    -2.744745774507942E-1    9.649641009322282E1    -6.773134133846715E1     1.316246044781610E1    -8.138485581300688E1     1.409965089201025E1    -8.143750084451625E1    -7.638954502190040E1
                        -6.785124712224143E1     3.304871775958876      -2.830530114998913E-1    8.345522987876956E1    -9.170682303878661E1    -1.706164486744879E1    -8.466425553102400E1    -1.739035326083636E2
                        -9.021553559946409E1    -8.795597219634824E1    -8.359017393474207E1     1.039280811384454E2    -9.356830007138175E-1   -1.660877940262200E1    -9.119069530375916E1     6.916461781260847E1
                        -9.057574182495101E1     4.858721500944837E1    -8.054877583563601E1     1.135943319631279E2    -8.647312114702527E1    -1.825213857218980E1    -9.365631639537324E-1   -2.178742743804442E1

 3.045000000000000E7    -2.721052959666219E-1    9.616050774464665E1    -6.790427924544812E1    -1.569898380618501      -8.134226796498427E1     2.292605539903530E1    -8.758302008129456E1     3.115192136385295E1
                        -6.772497910625900E1    -2.374136346858090      -2.787685038202850E-1    8.298545327432608E1    -8.621846296358817E1     5.068543457781358E1    -8.677407697091390E1     1.252198321641403E2
                        -8.688929184398069E1    -1.600153442426824E2    -8.510409323061862E1     1.798860126203990E2    -9.301743054699654E-1   -1.692043426726722E1    -8.765190356080012E1    -3.710132552869008E1
                        -8.483812843028093E1    -1.283658261451546E2    -9.396597508153295E1    -6.052968906241022E1    -8.372841859487059E1     8.281137095465115E1    -9.371093176015589E-1   -2.207687559856461E1

 3.047500000000000E7    -2.709334258122319E-1    9.587416982566539E1    -6.687847380558951E1    -3.509509225685981      -8.710507830240391E1     6.560266253168402E1    -8.108384495439427E1     1.504640676937611E2
                        -6.792209440395220E1     5.131365474585146      -2.723501752873370E-1    8.267624338120427E1    -8.387831671398425E1    -5.837386902899638      -8.971559753789215E1     7.358065548167828E1
                        -9.546953453866959E1     2.241142583154726E1    -8.638843576548899E1    -1.709666818953532E2    -9.237492057061720E-1   -1.724849443632065E1    -9.113455674533751E1    -1.071154620607680E2
                        -8.533803348370256E1     3.983541954385883E1    -8.441952173323513E1     1.324841448068896E2    -8.844288059741622E1     1.689816379112720E2    -9.469762110523866E-1   -2.241870292567096E1

 3.050000000000000E7    -2.677337707460041E-1    9.559859964054208E1    -6.801929838395451E1    -7.825461918358934E-1   -8.377969842899988E1    -8.029370838075882E1    -8.332915575343533E1     2.497520829984384E1
                        -6.860218403772582E1    -4.859141663110310      -2.793612240394001E-1    8.223363894748773E1    -9.385887542215853E1    -1.594117747905159E2    -8.575131553160681E1     1.052304398543267E1
                        -9.291619853056636E1    -1.622833893953718E2    -8.246610485596960E1    -1.346495455978551E2    -9.302929440111363E-1   -1.758434427063007E1    -9.040596935116543E1    -6.029233122151636E1
                        -9.180074513479732E1    -1.009683911035232E2    -8.900248672707312E1     8.568643311256103E1    -9.166228427829995E1     9.675675269582789E1    -9.418015882286891E-1   -2.274171204203610E1

 3.052500000000000E7    -2.701584871719449E-1    9.531613734113512E1    -6.714321864926507E1     6.568500394431283E-1   -8.307846830383878E1    -9.557160706280547E1    -8.513637741140673E1     4.628050059416076E1
                        -6.742029029125783E1     3.355168347121524      -2.812014946547896E-1    8.186549700193460E1    -8.974388186595411E1     5.678867167392052E1    -8.641879654764870E1    -4.928210066269187E1
                        -8.971171301608109E1    -1.112183220929316E1    -8.208257690737376E1     1.635092147326292E1    -9.306527044780478E-1   -1.787704435156517E1    -8.131778266269429E1    -1.162705909310758E2
                        -8.464858204483598E1     1.197594623438471E2    -9.312876109839847E1    -1.353668407170679E2    -9.240072188931008E1     7.887945552683563E1    -9.464372160699258E-1   -2.304189521974651E1

 3.055000000000000E7    -2.656537536388139E-1    9.499080799116375E1    -6.712848257026700E1    -2.906689973554115      -8.212313789545667E1     7.507351343235368E1    -9.101593984859855E1     5.107517995874920E1
