#  HZ   S   DB   R     50.00 
! Rohde & Schwarz Vector Network Analyzer 
! Rohde-Schwarz,ZNB8-4Port,1311601044102961,2.82
! Created: UTC 2/13/2019, 8:46:17 AM
! freq[Hz]                db:S11                  ang:S11                 db:S12                  ang:S12                 db:S13                  ang:S13                 db:S14                  ang:S14
!                         db:S21                  ang:S21                 db:S22                  ang:S22                 db:S23                  ang:S23                 db:S24                  ang:S24
!                         db:S31                  ang:S31                 db:S32                  ang:S32                 db:S33                  ang:S33                 db:S34                  ang:S34
!                         db:S41                  ang:S41                 db:S42                  ang:S42                 db:S43                  ang:S43                 db:S44                  ang:S44
! 
 3.000000000000000E7    -2.407041908188607E-1    1.015728175715990E2    -6.848762506662658E1     9.090703743204346      -8.188587480137181E1    -8.135812286328007E1    -8.742851728275161E1     4.499157779933562E1
                        -6.845026540285140E1     1.830349737676445E1    -1.926244853262074E-1    9.029853707094857E1    -8.627533225804598E1     7.987863353306851E1    -8.253324959567667E1    -6.646271171282614E1
                        -7.889064976478767E1     9.683827320645367      -8.219073637187394E1     3.555649870486767E1    -9.205635007193330E-1   -1.145611436618630E1    -8.960541820426188E1    -1.556801499147190E2
                        -8.270488099816606E1     4.437884692853844E1    -8.220859582302364E1    -1.020847867306306E2    -7.864052867764795E1    -1.565339007859483E2    -9.382614516745254E-1   -1.645321472096981E1

 3.002500000000000E7    -2.429549955913309E-1    1.012826324414428E2    -6.899151031901664E1     1.611040686558370E1    -9.018995981258244E1    -1.118666211440090E2    -8.367150246202559E1     7.835514781924996E1
                        -6.882946105524921E1     1.581635368673672E1    -1.941231569897756E-1    8.991121820669900E1    -8.702635809285980E1    -1.334595184163840E1    -8.241282480219758E1     8.758678021996448E1
                        -8.673937069422746E1     8.291720662648660E1    -8.764576456432378E1     2.643693755941711E1    -9.350747203294328E-1   -1.175159287463887E1    -9.306602828841830E1    -1.186501595751281E2
                        -8.419454122249528E1     5.273525049188110E1    -8.439067362869832E1     4.111016945434409E1    -9.023985439656713E1    -9.757355176861832E1    -9.396107758194408E-1   -1.672702575922754E1

 3.005000000000000E7    -2.534669328725875E-1    1.010328834805113E2    -6.842250846789956E1     7.017485490180285      -8.246687254659551E1     1.347576808217092E2    -8.494537242227037E1    -1.417218360097804E2
                        -6.817414501175303E1     4.428548763615086      -1.933591404990451E-1    8.954245481605891E1    -9.051930552364624E1     3.706922466996553E1    -8.246839881410571E1     1.309435889863132E2
                        -8.896854124749524E1    -1.325009944981025E1    -8.485567151235276E1    -6.097872612309784E1    -9.220715650358962E-1   -1.199527557757563E1    -9.615209926597991E1     1.634799842429916E2
                        -8.324207036681487E1     7.273915085256195E1    -8.105162458147655E1    -6.839292852155982E1    -8.768757128511972E1    -3.934577406581846E1    -9.317305808088514E-1   -1.710235895760399E1

 3.007500000000000E7    -2.443141453468610E-1    1.006945672879914E2    -7.085492474785099E1     4.904070957467392      -8.808491561660824E1     1.548843031201651E2    -9.638759113563214E1     2.156470936952020E1
                        -7.032593778092269E1     1.251812953394342E1    -1.948262164460535E-1    8.914969620489836E1    -8.645709322316365E1     1.244243870496188E2    -9.034456558109839E1    -1.247163185763737E2
                        -8.354292477792718E1    -1.198996056273523E2    -8.473462645942958E1     6.351605547734678E1    -9.336340181178586E-1   -1.237771710904523E1    -8.335428052093013E1    -1.386897607090553E2
                        -9.141636606041641E1     5.288570882858261E1    -8.533973848525523E1     1.316400803970219E2    -9.388051447567835E1     1.384966312447019E2    -9.370824633299759E-1   -1.739244838264796E1

 3.010000000000000E7    -2.403741069652059E-1    1.004361506587190E2    -6.971897969119755E1     3.353947508067687      -9.064483508053770E1     1.602600549142619E2    -9.217335115296713E1     1.835443628435335E1
                        -6.819410564158838E1     6.001958209378310      -1.932010487101566E-1    8.880145534358992E1    -8.293937316421683E1     1.030469165066450E2    -8.459582221294528E1    -1.723026922915139E2
                        -8.812968394995684E1    -1.710735242067724E2    -8.185962861408734E1    -1.474340691729352E2    -9.223599155011748E-1   -1.267791984381322E1    -9.349877775593599E1     4.153254235074093E1
                        -1.038572266421462E2     3.496704142268035E1    -8.665944224525765E1     9.136590069124483E1    -8.748310843574687E1    -9.102258451804613E1    -9.390494752347265E-1   -1.767052514652936E1

 3.012500000000000E7    -2.372970502219234E-1    1.001381889242955E2    -6.899857009502507E1     4.262211536218765      -9.268656760533841E1    -1.127771676241166E2    -8.225888401044327E1     1.079912091949136E2
                        -6.766508333246682E1     6.278176578979926      -1.966114008189638E-1    8.845111743364730E1    -9.544575250856664E1    -1.641459755313138E2    -8.675519409251670E1    -9.340802084988138E1
                        -9.462423743597151E1    -1.440672924023061E2    -8.647388772766475E1    -1.182394996746864E2    -9.259573980211415E-1   -1.299088969892938E1    -8.641401875260439E1     3.248750693852824E1
                        -7.986308815872455E1     3.774871318900642E1    -8.353225061483313E1     8.320716139147487E1    -8.647620815107740E1     1.263226872444623E2    -9.440847153817156E-1   -1.806053443404409E1

 3.015000000000000E7    -2.410819827054404E-1    9.979536502670430E1    -6.909659985932643E1     4.566037349211440      -8.639191972000029E1     6.415245340772417E1    -8.782312207059459E1    -8.785032656185716E1
                        -6.755950614581965E1    -2.994292605829932      -1.951664034276809E-1    8.801918687265976E1    -8.567214313631138E1     1.017087996821456E2    -8.609782931359787E1    -1.354603507402636E2
                        -8.341034277221323E1     8.524711001431221E1    -8.454203158200497E1    -1.550367163902731E1    -9.272269614308102E-1   -1.329585440224783E1    -8.745676325859466E1     1.560584677656310E2
                        -9.326349644081012E1    -1.360832902514515E2    -8.449483299367182E1    -1.285913193417861E2    -8.737751561625602E1     4.096032233955439E1    -9.353621406575418E-1   -1.829161896746860E1

 3.017500000000000E7    -2.396557355291553E-1    9.950788901730194E1    -6.935380320055722E1     1.714641538890606E1    -8.741632712130810E1     5.560658574870760      -8.185062686199822E1     9.970568995812437E1
                        -6.886767462468680E1     4.381248011834005      -1.875659172152357E-1    8.768237174960093E1    -8.909897839921700E1     2.644459750258065      -9.176104842630454E1     5.353303776086129E1
                        -8.851773331000722E1    -1.315314028755078E2    -8.261465062170701E1    -1.271812238349150E2    -9.238237196390137E-1   -1.358743489026185E1    -9.008921166575085E1     1.721703067592082E2
                        -9.598997672952193E1    -6.520455208212833E1    -8.317584362199733E1     1.013566844673772E2    -8.815808729617169E1     1.471893960802986E2    -9.357187639537139E-1   -1.863395687247883E1

 3.020000000000000E7    -2.354227212146152E-1    9.924174149689144E1    -6.683040746007413E1     2.711424865999621      -8.163046760630066E1    -7.224663648920665E1    -8.582689342568628E1     1.626435978724990E2
                        -6.722893782370902E1     8.735143897584472      -1.923365571915255E-1    8.732655183612127E1    -8.168450537748542E1    -1.098162547008021E2    -8.505352528684414E1     6.592849196302555E1
                        -8.523062705952168E1    -6.424600888463253E1    -9.549160152928420E1    -3.685756829508251E1    -9.245699354316683E-1   -1.392643412048466E1    -8.354813044223795E1     6.880809488477718E1
                        -9.823993936687286E1     1.378531502732732E1    -8.139588824824890E1    -1.605225091913804E2    -8.489973337908342E1     1.065882367019706E2    -9.427606982155313E-1   -1.900120923284711E1

 3.022500000000000E7    -2.418302244715672E-1    9.895668733994263E1    -6.786434143260354E1     1.524091767018953E1    -8.262201521290622E1    -1.150744241862116E2    -9.226849581288266E1    -6.615884589625802E1
                        -6.869225794999123E1     6.580255264408415E-1   -1.928954377332112E-1    8.696132425888611E1    -8.172373317228364E1    -1.237969432128611E2    -8.647366289651801E1     8.974057992268236E1
                        -8.570144972267683E1    -1.407785013557720E2    -8.922148895392650E1    -6.406548756766280E1    -9.222088783592890E-1   -1.419234001159913E1    -8.054100717061742E1     1.165053569205424E2
                        -8.805288942106174E1    -1.472970909784179E2    -8.295299805777353E1     1.499163983784693E2    -8.263340296984003E1    -1.529491915033622E2    -9.389675069362438E-1   -1.929560811797146E1

 3.025000000000000E7    -2.426367378081753E-1    9.862418623000772E1    -6.737461880770384E1     9.469101205493695      -8.548373245931678E1     2.252839532457328E1    -8.297990617374127E1     9.616015511938662E1
                        -6.758980383881807E1     4.568941647049924      -2.006133515909951E-1    8.655726574202043E1    -8.839847120232636E1    -1.077403320705207E2    -8.522560569511367E1    -1.568197216919730E2
                        -9.059120166584447E1    -9.812021281833917E1    -9.171543944301085E1    -1.669117784505785E2    -9.237625842202486E-1   -1.450937767469239E1    -8.336740944114251E1     3.247296355292314E1
                        -9.589512096401080E1    -1.403123905784247E2    -8.537158270164419E1     4.383327415048212E1    -8.510947811410547E1    -1.036521547669458E2    -9.413314608025123E-1   -1.958878248704025E1

 3.027500000000000E7    -2.333405527682386E-1    9.835936936959307E1    -6.854359966697376E1     3.745950197512733      -8.152015301874157E1     1.655631268291559E2    -8.624880739129125E1     1.103472463453051E2
                        -6.848363387667652E1     1.158220498449968E1    -1.863640539718519E-1    8.619253716599830E1    -9.831392843682616E1     1.290404949201261E2    -8.221218952073940E1    -1.119161446279424E2
                        -8.254406983955877E1     2.663272238694368E1    -8.592586201744470E1    -1.250601078155451E2    -9.206908404788130E-1   -1.478381373488170E1    -8.531827724443831E1     1.664070987298530E2
                        -9.283822414498641E1    -1.097079616138085E2    -9.094390602475852E1     1.087858023335552E2    -8.236343082930694E1     2.809001121153643E1    -9.374646090894905E-1   -1.990928956056472E1

 3.030000000000000E7    -2.386463537788491E-1    9.807515885768932E1    -7.076514944437702E1     7.242775358110166      -8.816430766436378E1    -3.319349367475942E1    -8.933169526881466E1    -4.644128278089369E1
                        -6.793518315913468E1     8.333219888879164      -1.858929444631983E-1    8.581683516548040E1    -8.816518839588808E1     1.436888818839558E2    -8.383359079586364E1    -1.682193045069967E2
                        -8.538598987117744E1     1.524989099837761E2    -9.394486526246081E1    -8.417177130225571E1    -9.310513788477014E-1   -1.514591993510254E1    -8.691763852824211E1     1.487284205632067E2
                        -9.002916969221585E1    -1.319217300141401E2    -8.599846327580400E1    -1.302780769208682E2    -8.076729373432728E1     9.681304090436889      -9.348295441706196E-1   -2.022221068529050E1

 3.032500000000000E7    -2.383590788620312E-1    9.776404465154167E1    -6.799963899391278E1     1.316893788076131      -8.477476912322422E1    -5.358902011729430      -8.207687969464493E1    -1.600811568871867E2
                        -6.801727218953573E1     7.412993973212143      -1.788058641471322E-1    8.543493424516042E1    -8.938182866702660E1    -4.158556283282993E1    -9.673560849957013E1     1.752186622623375E2
                        -9.134697140034953E1     1.948609506715908E1    -7.979707881895476E1     3.719961065959634E1    -9.327985066343205E-1   -1.543775665189144E1    -8.372279721491091E1     6.238934899237533E1
                        -8.802613340194981E1    -3.076419068702290E1    -8.945063649657728E1    -4.386791584960500E1    -9.679383362032087E1     1.425043415815603E1    -9.403072948327668E-1   -2.055378075831359E1

 3.035000000000000E7    -2.343168790215066E-1    9.750923383338628E1    -6.816078779138826E1    -2.101621098570298      -9.011192296869967E1     1.096119307856977E2    -8.067900464113910E1     6.741373959609433
                        -6.906122925263276E1    -3.077123479629314      -1.897605514028927E-1    8.509767725444998E1    -8.964289480980951E1    -1.710789053340107E2    -8.618807631264386E1    -1.171764957253249E2
                        -8.640076299958216E1    -1.707218951297311E2    -8.521955924894400E1     7.365258192509074E1    -9.291368194494052E-1   -1.573266744792689E1    -1.052932963290488E2    -5.484235637705414E1
                        -9.148955372501024E1    -1.604529410657482E2    -1.103265096135021E2     5.806389952280631E1    -9.587005925510441E1    -3.802012680273280E1    -9.357577288288516E-1   -2.086958542389610E1

 3.037500000000000E7    -2.308571863886476E-1    9.718386517938787E1    -6.792435117495069E1    -1.752161434844496      -8.669321190400899E1     1.084457430032440E2    -8.826443449917622E1    -1.443600223993963E2
                        -6.630370715613032E1     6.444577889134937      -1.949730695506068E-1    8.470569122121157E1    -8.475413196963999E1    -1.326830526698174E2    -8.660676983308329E1    -1.769490043727412E2
                        -9.076911335339585E1    -1.775573788370583E2    -8.773687958869761E1     1.626936420380485E2    -9.258953910541241E-1   -1.602927852498464E1    -9.109442039455087E1     4.949222549830991E1
                        -8.485708819104595E1     1.114398828919708E2    -8.552789708372677E1     7.835435761348043E1    -8.449859571324298E1     4.158797122149060E1    -9.385917189103489E-1   -2.114392940926729E1

 3.040000000000000E7    -2.316345042123448E-1    9.685922037649982E1    -6.655150918227578E1     2.340584026353634      -8.131565367136689E1    -6.768053995067994E1    -8.215621827394503E1    -1.087557067533939E2
                        -6.737751968192714E1     3.281760069454533      -1.893773339763543E-1    8.432110688892828E1    -8.412783789682656E1    -8.324790855510642E1    -9.256755769098093E1     1.190279707777002E2
                        -8.541199519044551E1     1.829506104026240E1    -8.757936289777634E1    -5.229713632571261E1    -9.346576010284600E-1   -1.630945488229014E1    -9.393986911009968E1     6.861251929309941E1
                        -8.594600127148533E1    -5.849686425335030E1    -9.649847673478379E1    -5.017963615549213E1    -9.561844238888533E1    -5.129383863960680E1    -9.365505092023316E-1   -2.150168777392486E1

 3.042500000000000E7    -2.312412384359825E-1    9.660135310718491E1    -6.768280295798516E1     1.111130763834463E1    -8.175933072790681E1    -6.909038973682598E1    -8.686135942697483E1    -5.534424456230004E1
                        -6.739215215705180E1     2.548036298007483      -1.909209877302475E-1    8.400123240295260E1    -9.615436394552125E1     9.074158820221997E1    -8.188739110894551E1    -1.679834631264562E1
                        -8.099228272682458E1    -1.061491253383812E2    -9.087680317006046E1    -1.764078906117483E2    -9.296320268262237E-1   -1.664357499898445E1    -8.282876813434746E1     4.814182304833238E1
                        -8.453323358659993E1     4.502205497887130      -8.710352559611793E1     1.155657453527193E2    -8.469053928068531E1     5.273621969263262E1    -9.385437086344750E-1   -2.179588317515068E1

 3.045000000000000E7    -2.304654761125943E-1    9.626454252981527E1    -6.775510498495439E1     6.196531606816329      -8.397314154728960E1     3.416719508055700      -8.337349006097510E1    -1.719083532968519E2
                        -6.716139370674097E1     6.433526343415026      -1.855330371359722E-1    8.355471941478749E1    -9.715143137611973E1     8.529095340727261      -8.526475523328330E1    -4.809724455874190E1
                        -8.781417443485550E1     1.434492215088919E2    -9.406645131209260E1    -1.675555234481568E2    -9.234476268683993E-1   -1.694864323343185E1    -8.456793465478285E1    -8.324777603915146
                        -8.812081095505560E1    -1.644568103799298E2    -9.819696675949494E1    -3.979542243878465E1    -8.496797762986516E1    -6.058411547117327E1    -9.374087495610682E-1   -2.209863061852756E1

 3.047500000000000E7    -2.299822411232323E-1    9.601487243632410E1    -6.711948136694021E1     9.258461933601492      -9.340521739679917E1     1.538042456200584E2    -8.489199619863427E1    -2.843066516222872E1
                        -6.675807947710194E1    -1.074887563698810      -1.859266198120256E-1    8.320208108738314E1    -8.106955055472125E1     1.371232659632132E2    -9.014633123289849E1     1.234317189226621E2
                        -8.032089967807477E1    -1.494799465616114E2    -9.392468633103169E1     7.976966933016288E1    -9.281038779938182E-1   -1.727831491116864E1    -8.591833771808499E1    -1.112871877600102E2
                        -8.109586940366326E1     1.753244578657321E2    -8.532673743464346E1    -2.082878073173822E1    -9.845476894968671E1    -1.110157477860742E2    -9.429804391406177E-1   -2.242229505777317E1

 3.050000000000000E7    -2.366195818718675E-1    9.571327337340796E1    -6.902728937458976E1     8.963917111412577      -8.854233523671267E1    -3.546378128640367E-1   -8.238229515770870E1     1.256084585275447E2
                        -6.796844469022560E1    -4.612663134147197      -1.855063915510525E-1    8.285170611422576E1    -8.433746322975709E1    -1.380587315720945E2    -8.501482844928287E1    -8.943010061571258E1
                        -8.635082187969877E1     5.879329769848892E1    -8.646817753298862E1     1.425363809175602E2    -9.264444024886104E-1   -1.759648713480036E1    -8.779991468889864E1    -1.552849917592277E2
                        -8.807253732362000E1     8.401756278510764E1    -8.799899021235873E1    -9.557910316758870E1    -7.825637878117787E1    -1.451536007245576E2    -9.359762976874341E-1   -2.269616237440024E1

 3.052500000000000E7    -2.326808370338597E-1    9.544332132554285E1    -6.654638070791714E1    -1.138187932346587E1    -8.384005821068848E1    -1.064514099265307E2    -8.278875508700538E1    -9.832456987798776E1
                        -6.812462446530277E1     2.207290731759333      -1.840290220662838E-1    8.244250358014854E1    -8.153675550994171E1    -8.493115154997229      -9.218847282204510E1    -1.945542664080682E1
                        -9.105669467827451E1    -1.647867230008586E2    -8.650342694092372E1     1.720149083335612E2    -9.280683052154317E-1   -1.782118055884035E1    -8.949802682394584E1     7.826698471755651E1
                        -8.779485127630814E1    -3.146199609833356E1    -8.301854828434001E1     1.122647623489358E2    -8.734952837257355E1    -6.527448749266053      -9.412577568666719E-1   -2.306845730260920E1

 3.055000000000000E7    -2.258836884832311E-1    9.511077416923493E1    -6.728239199137398E1    -1.037974311852708      -8.397676118008711E1     1.357777740488262E2    -8.646932889036191E1     4.392514259309053E1
