#  HZ   S   DB   R     50.00 
! Rohde & Schwarz Vector Network Analyzer 
! Rohde-Schwarz,ZNB8-4Port,1311601044102961,2.82
! Created: UTC 2/13/2019, 9:14:27 AM
! freq[Hz]                db:S11                  ang:S11                 db:S12                  ang:S12                 db:S13                  ang:S13                 db:S14                  ang:S14
!                         db:S21                  ang:S21                 db:S22                  ang:S22                 db:S23                  ang:S23                 db:S24                  ang:S24
!                         db:S31                  ang:S31                 db:S32                  ang:S32                 db:S33                  ang:S33                 db:S34                  ang:S34
!                         db:S41                  ang:S41                 db:S42                  ang:S42                 db:S43                  ang:S43                 db:S44                  ang:S44
! 
 3.000000000000000E7    -2.454934525417521E-1    1.016159736454527E2    -6.841837727318672E1     1.026042973896915E1    -8.517670319299354E1    -1.017307621089324E2    -8.985141206290173E1     1.161853880473448E2
                        -6.856730810272170E1     1.095865648859916E1    -2.720318293657941E-1    8.982765943985297E1    -9.097391031673701E1    -7.231295695194271E1    -7.832071059115704E1     1.352977259879270E2
                        -8.163553142234099E1    -8.865769064808568E1    -8.072879454664303E1     3.069051834837762E1    -9.247009386379624E-1   -1.140581514222730E1    -8.881191674203575E1    -1.433011830036951E2
                        -8.512206328205133E1     4.001019848897342E1    -8.392699937578038E1     8.940128370031137E1    -9.042297328787582E1     1.413485279135304E2    -9.389857133808477E-1   -1.645654246481444E1

 3.002500000000000E7    -2.516940412947968E-1    1.012888708354871E2    -6.891946123213653E1     1.147462224671483      -8.512935660184149E1    -5.035211599425731E1    -8.466763543716490E1     9.366794199483626E1
                        -6.766739913728122E1     2.255557330385372E1    -2.774368327025895E-1    8.943022164710109E1    -9.694883176881719E1    -1.194970464136014E2    -8.566525341493136E1    -1.230740140321438E2
                        -9.201637509614747E1    -1.307055235210351E2    -8.315969052343837E1    -3.438237167696561      -9.269568996707782E-1   -1.174546146210685E1    -8.606621120828845E1    -1.548315800714464E2
                        -8.898785453516796E1     1.204049608306131E2    -8.642449995075252E1    -1.173660395553895E2    -8.733034035550358E1     1.218908067163676E2    -9.369642280578241E-1   -1.673807750336279E1

 3.005000000000000E7    -2.490805831800230E-1    1.010368084140500E2    -6.812986946629064E1     6.926661963351738      -8.406817471737858E1    -5.689456572100635E1    -9.440629761804831E1    -1.197423242919613E2
                        -6.731965546209497E1     4.876456327522522      -2.645621052137738E-1    8.908345268212194E1    -8.683774962920928E1    -4.034546983261163E1    -8.624324049877158E1     7.164032412626632E1
                        -8.571428497398412E1     1.302924867528913E2    -8.188343959799452E1     1.142199976817736E2    -9.282541548781365E-1   -1.204257376331450E1    -8.884142191148862E1    -8.920881280891777E1
                        -8.121823756385535E1    -3.884582777780928E1    -8.667356739457318E1     1.674277653948404E2    -7.932247487672409E1    -1.250160486668080E1    -9.407904619969171E-1   -1.710816464489226E1

 3.007500000000000E7    -2.495473126697164E-1    1.006980674526743E2    -6.850396906591342E1    -5.821891997119160      -8.498351617700151E1    -1.536939186180577E2    -8.343900547940430E1     4.029832668011314E1
                        -6.876639459110535E1     1.437194132280891E1    -2.758083835994023E-1    8.870198512090229E1    -8.752334129231734E1     1.319216125906459E1    -8.245549115369011E1    -1.475668577918121E2
                        -8.423043650314882E1    -1.114748606712099E2    -8.014060461081606E1    -1.791585319735847E2    -9.236413699018188E-1   -1.239018338462000E1    -7.985972303969899E1    -1.084072242807042E2
                        -8.387180921852684E1     5.113306630955246E1    -8.162810222676472E1     5.861502410811979E1    -8.597279852456394E1     1.939164882374696E1    -9.428467874280205E-1   -1.739526482850483E1

 3.010000000000000E7    -2.462394950053525E-1    1.004421884495866E2    -6.793714553316492E1     1.143087065216716E1    -7.970725783114466E1    -8.824199774090639E1    -8.296453181189706E1     1.195503845092786E2
                        -6.989007792124473E1     8.385524083422471      -2.803923772721180E-1    8.831937058701841E1    -9.007808957747935E1    -1.407610351120121E1    -8.021247436855185E1    -8.991425995628677E1
                        -9.216608440894562E1     1.065563324667475E2    -1.019996555096402E2    -1.779896053274786E2    -9.234278278318765E-1   -1.265988994237889E1    -8.978324635928674E1     1.391189822452140E2
                        -8.838294157530342E1     4.678415823622441E1    -8.852427359023199E1    -1.580247617843781E2    -8.509665582285173E1    -1.390848822828287E2    -9.350167910519786E-1   -1.771856250647866E1

 3.012500000000000E7    -2.428446004051352E-1    1.001358051767543E2    -6.837933018251886E1     3.023886630800980      -8.616960860526122E1    -1.613815253951936E1    -8.497168679256274E1    -1.381051742099838E2
                        -6.790147148805954E1     2.403456034152992      -2.747079987844881E-1    8.795935224589324E1    -8.514396058599286E1    -4.980749636453104E1    -8.566578946141830E1     8.178369798768722
                        -1.035490747313269E2     6.762651487157866E1    -7.942429094467939E1    -1.182150649354954E2    -9.226591348091415E-1   -1.294568035422641E1    -8.270008271075048E1    -8.551350374002212E1
                        -8.969194673975716E1    -4.924945009657666      -8.609596088578047E1     5.785546583980089E1    -9.171803895005974E1     2.705095113075776E1    -9.358315124469583E-1   -1.802766304815701E1

 3.015000000000000E7    -2.407301810837789E-1    9.983346794159662E1    -6.889915408061505E1     6.825793442433538      -9.488522163665564E1    -1.551672098359967E2    -8.405174746296191E1     9.741996185892512
                        -6.759972204604054E1     3.535995191485547      -2.775975866667392E-1    8.755978069687882E1    -9.471101820012278E1     6.523454699112004E1    -8.495540290977779E1     8.503591136530115E1
                        -8.641764270698005E1    -1.188486995651863E2    -9.299377793220916E1     1.214214831424241E2    -9.272195436531210E-1   -1.326631796793369E1    -9.027002580577721E1    -8.385896383363262E1
                        -1.012750746028088E2    -1.340069665052057E2    -9.213742257830675E1    -1.576326071040055E2    -8.552111240308526E1     1.490809019430467E2    -9.351845765597999E-1   -1.829028361408922E1

 3.017500000000000E7    -2.390201213339596E-1    9.957641826397004E1    -6.913894395361416E1     3.475013723207441      -8.662138292750633E1    -4.468796165916120      -8.067847103888126E1     1.681475280038463E2
                        -6.765524286584245E1     6.813456005099504      -2.762577256933748E-1    8.717099554495495E1    -9.591453744080640E1     1.670269100373332E2    -8.447839350298725E1     1.094765191321919E2
                        -9.037210568397106E1    -1.445338436539671E2    -8.253619152427218E1     1.635398895752038E2    -9.254678711437685E-1   -1.358832320237038E1    -9.584557545028798E1    -1.137380300590326E2
                        -8.689214899236075E1     1.244783850812560E1    -8.237253683110417E1    -1.001004576811447E2    -8.346879510433922E1     1.634335464163640E2    -9.399073480749567E-1   -1.864018401848440E1

 3.020000000000000E7    -2.364055111929739E-1    9.926106578449358E1    -7.024467141330925E1     2.874166063724498E-1   -8.775545594785947E1     9.768327566064472E-1   -8.455142066280482E1     1.365548900355491E2
                        -6.810280787541784E1    -1.432991376497634      -2.692517849578074E-1    8.684186451028252E1    -9.233890922080157E1     6.500931414676498E1    -8.561665415269262E1     3.433930803331631E1
                        -9.158840992922953E1    -4.999502626402796E1    -8.478231114550781E1     1.557521525692672E2    -9.242316619093920E-1   -1.385629739579871E1    -8.561031459825527E1     2.397783278593783E1
                        -8.700600519397906E1    -6.255785605302835E1    -8.726509932206366E1    -3.135902603169014      -8.268469953839912E1    -4.750960802696805E1    -9.401278471326707E-1   -1.897027570842172E1

 3.022500000000000E7    -2.435856241993797E-1    9.895213763713910E1    -6.884582225413431E1     1.211305683747923E1    -9.308930851448180E1     1.621391872448895E2    -8.622225784801785E1     1.328470998495967E2
                        -6.796122300124515E1    -5.286896681365467      -2.769554404784493E-1    8.648859327586878E1    -8.368734917862589E1    -4.307855885449239      -8.598461627055868E1    -5.237526736353097E1
                        -8.793163977018014E1     9.302643162545755E1    -9.217761114972717E1    -1.126707961927476E2    -9.304352117039105E-1   -1.419899166255282E1    -9.134998867590062E1    -2.788718376769899
                        -9.699312246359310E1    -1.177328172936200E2    -8.656437587998536E1    -1.017607047917702E2    -8.804106216671403E1    -1.134443955091886E2    -9.435403140273606E-1   -1.926847920662776E1

 3.025000000000000E7    -2.438438367168704E-1    9.865256037514129E1    -6.652707084928559E1    -8.328295699491756      -8.537400459586871E1    -1.234652953374170E2    -8.746831718163536E1    -1.667279673968836E2
                        -6.848940802337323E1     3.593968607809251      -2.877601297025896E-1    8.603586538087546E1    -1.061701491124943E2     8.380054250571078E1    -8.313999687934438E1    -1.677793025409622E2
                        -9.435299943821370E1    -4.773834782713331E1    -9.361744988072891E1    -1.293521555974743E2    -9.265858229169254E-1   -1.451492723294342E1    -9.196519237598020E1     1.373884153659913E2
                        -8.203315228968741E1     4.057850406850552E1    -9.089499997569931E1     2.272233843529669E1    -8.037027735559323E1     5.786024856660933E1    -9.439466936716903E-1   -1.957332597522582E1

 3.027500000000000E7    -2.383284613561068E-1    9.838765857267669E1    -6.684847662793844E1     2.229571129105738      -9.232239711533687E1     3.104996727982416E1    -8.506814450160181E1    -1.346183745671116E2
                        -6.646327902354413E1     2.711229743353044      -2.682360470824017E-1    8.572732087062310E1    -7.887698198318103E1     1.116246675238678E2    -9.199116737286218E1     6.776001014240065E1
                        -8.588650688883868E1    -1.600495947529129E2    -8.302322118905707E1     1.402513032508711E2    -9.214186112087262E-1   -1.480269425192832E1    -9.554585437648362E1    -1.165130557856747E2
                        -9.056564599461005E1     2.367271074401172E1    -8.212774601765248E1    -1.365172167979756E2    -8.614987605851036E1     5.818880910139227E1    -9.369039832109036E-1   -1.990230697620694E1

 3.030000000000000E7    -2.377710165142790E-1    9.809255289315441E1    -6.671062334169879E1     8.001731488680576      -8.613888241374977E1    -1.237464473174788E2    -8.855425068135392E1     8.303429540614641E1
                        -6.691630638147522E1     5.814004094397231      -2.719058945364807E-1    8.533705439246420E1    -8.450349095836317E1     1.352015630959069E2    -8.297976273024216E1     1.531398962318667E2
                        -8.276110144755604E1    -3.934983225959599E1    -8.568488918862127E1     8.761545551426823E1    -9.333874139730235E-1   -1.511743459900197E1    -9.314807954544754E1     1.356718758444195E2
                        -8.510650355522358E1     1.072238399241072E2    -8.424122210655696E1     4.822282089585546E1    -9.072190495044778E1    -3.285996652107753E1    -9.411323765788614E-1   -2.021893682868956E1

 3.032500000000000E7    -2.406700181213415E-1    9.778339826136555E1    -6.772616789305177E1    -6.398009894313474      -9.120175586939050E1     1.013917882822749E1    -8.798492523837936E1    -1.244858439637411E2
                        -6.765996369726636E1     9.886001439590003E-1   -2.653395717797238E-1    8.495461113284959E1    -8.352647207807395E1    -4.405583053954167E1    -9.016022089600767E1    -3.505984413098260E1
                        -9.039036063185721E1     5.045168219986834E1    -8.318921584892549E1    -7.332705109932061E1    -9.356722017852841E-1   -1.537638819016002E1    -1.041802183290751E2    -6.146589345061824E1
                        -9.418170093016323E1    -1.653232290491654E2    -8.381039172342469E1    -1.526799819507848E2    -9.389476535711650E1    -4.791527635150846E1    -9.326531230820698E-1   -2.051669674120370E1

 3.035000000000000E7    -2.341838814537615E-1    9.748047825505488E1    -6.841288812182830E1    -1.178979072578992      -8.025631825977824E1    -6.091879623601461E1    -8.767938668827637E1     9.972483851434335E1
                        -6.806285022465212E1     4.236025698949330      -2.718055697278075E-1    8.454261231642349E1    -8.664728010759302E1     1.169547946833837E2    -8.515959196381472E1     2.077624768717400E1
                        -8.873375732759045E1     4.370146496979909      -8.976441695550722E1    -4.688218180898438E1    -9.247531507391311E-1   -1.575400032216341E1    -8.051130857248133E1     4.584715517251846E1
                        -9.602556089498211E1     1.252079001524320E2    -9.039142701431655E1    -2.056528486732254E1    -8.705803858042644E1     8.375792613541243E1    -9.400915502308993E-1   -2.079777088731967E1

 3.037500000000000E7    -2.343930066259800E-1    9.719527809948339E1    -6.834444349607152E1    -5.096962679793313      -8.387414273239138E1    -3.554552811327036E1    -8.704345558164692E1    -1.284048895970801E2
                        -6.747339034574657E1     3.221574575745397      -2.702464527262236E-1    8.415798826635232E1    -8.899489082625594E1    -1.129750982300866E2    -8.574943284800170E1    -1.201746377191290E2
                        -9.299941651186839E1     2.293715281984859E1    -8.955793244223557E1     1.716137960352415E2    -9.290589988622195E-1   -1.601869277652628E1    -7.908602206701617E1     1.032438824147533E2
                        -8.734893120287183E1     6.577253848806939E1    -8.512822660436952E1     4.847906658636389E1    -8.538700177998629E1     1.196085579564633E2    -9.405005996332261E-1   -2.114242828362370E1

 3.040000000000000E7    -2.370982034918484E-1    9.689582348165605E1    -7.097714798705569E1     2.593350703829611      -9.755058427116124E1    -1.650566926624490E2    -8.579448712970455E1     6.372919166167549
                        -6.850146249232824E1     9.110093356552765      -2.758979015749423E-1    8.378984593698856E1    -8.878458256788400E1    -1.508962180635631E2    -9.072453941261757E1     9.045170242855518E1
                        -8.521108005407498E1    -3.116683257572190E1    -8.642742636086793E1    -1.706076435804861E2    -9.311830699213580E-1   -1.633617837783968E1    -8.385955852263741E1    -1.783049221188162E2
                        -8.903172087783975E1     1.593363851570890E2    -1.028388438449149E2    -9.859884312206869E1    -9.462880700774346E1     1.658822716394672E2    -9.374794182149133E-1   -2.146782452032913E1

 3.042500000000000E7    -2.348650844539927E-1    9.662279662479554E1    -6.955852336873133E1     5.006520584530028      -8.401851731115607E1    -2.456960109652301E1    -8.695726783957205E1    -3.717893394253876E1
                        -6.781118652119984E1     9.934871411853845      -2.691497437768762E-1    8.346230431935220E1    -8.818117597764980E1     1.308173568997746E2    -7.973496682871335E1     6.201407730731578E1
                        -8.058114650380914E1    -7.083315909183823E1    -8.804196516627937E1    -5.217701748403093      -9.272798111600880E-1   -1.660916426687780E1    -8.775683692918115E1     8.514786128793116E1
                        -8.425439679108521E1     7.267986104863667E1    -8.316050684279007E1     2.224196843678157E1    -8.507085258196955E1    -1.243522965864519E2    -9.347071637169708E-1   -2.178517000546338E1

 3.045000000000000E7    -2.329193253656411E-1    9.628448470819588E1    -6.689854938601889E1    -2.390619351982660      -8.492813172834704E1    -7.487894689409855E1    -8.334732961605916E1     1.390492874401467E2
                        -6.973614553569098E1    -4.777603321712520      -2.736810035266346E-1    8.301859742715043E1    -1.039058024285644E2    -2.806409639846603E1    -8.954273293775003E1    -1.041609058752189E2
                        -8.710438334462148E1    -1.013954003715729E2    -8.535900408251111E1     8.948761267218946E1    -9.288351060392137E-1   -1.695170771528475E1    -8.639570203578626E1    -6.904217261227956E1
                        -9.103073003603818E1     7.608470109332107E1    -8.839793674435836E1    -1.485491751691365E2    -8.840845127242898E1    -4.430450922497219E1    -9.402824802531896E-1   -2.208989759107558E1

 3.047500000000000E7    -2.372992889312875E-1    9.598580855355145E1    -6.804161845295474E1     2.648720185288379      -8.386408727973289E1     1.544062132155578E2    -8.907064410813644E1     3.568298943404157
                        -6.729938764763359E1     1.270284668997786      -2.669974867969430E-1    8.265085178441093E1    -8.780235824624728E1     1.769832359994279E2    -8.515276105572653E1     1.491335940491570E2
                        -8.545311083096649E1     2.137306051129330E1    -9.319459767241099E1     1.699975159254800E2    -9.252885643690058E-1   -1.723941979236201E1    -8.898269516064542E1    -3.112265651828413E1
                        -8.741267744634442E1    -1.592801774520266E2    -8.519594518779786E1     6.578006956794771E1    -8.728275729606108E1     1.305841456155465E2    -9.435962605470798E-1   -2.243256655426077E1

 3.050000000000000E7    -2.351951605616578E-1    9.572912321251853E1    -6.967595482135161E1    -2.610826661694925      -8.800293848358902E1     1.490592060351596E2    -8.076244113078906E1     7.065919934211964E1
                        -6.797933597668710E1    -3.385010145021753      -2.664997455516198E-1    8.229543069363382E1    -8.296097536379570E1    -5.913682855855996E1    -8.788007372578792E1    -1.298647171957721E2
                        -8.221122311614704E1     1.715120501933954E2    -8.191565911352051E1     4.145700687899004E1    -9.365465395789517E-1   -1.759005897782751E1    -9.210380110139469E1     4.735769382643129E1
                        -8.582057738266549E1     1.632515993308780E2    -8.900279250436600E1     8.715236906615883E1    -8.236031866359852E1    -1.696898608873121E2    -9.404765884022938E-1   -2.274147387753628E1

 3.052500000000000E7    -2.313953617219947E-1    9.542084773615754E1    -6.781872781027624E1     2.895234372476332      -8.492072284844227E1    -3.550896944135614E1    -8.450930119621782E1    -1.177748925010395E2
                        -6.819972179972592E1    -2.583107298821907      -2.677133242812241E-1    8.196183563409252E1    -8.743250279946834E1    -1.095445940180454E2    -8.687249575054905E1     1.058912242310468E2
                        -8.142145144150521E1     4.463729299372341E1    -9.027196223415011E1    -8.763822679453976E1    -9.256652366984787E-1   -1.791143160168575E1    -8.887308347614466E1    -1.476992893193170E2
                        -8.208937940778282E1    -1.313474025159000E2    -8.582939883933048E1     9.589649329620249      -8.832918914385991E1    -1.112183638586589E2    -9.435386610242801E-1   -2.305363662406668E1

 3.055000000000000E7    -2.315879806388784E-1    9.512282444316277E1    -6.779508322201065E1    -2.419256676726743      -8.114112572603617E1    -1.478863692270462E1    -8.186132648297334E1     1.748531600469385E2
