#  HZ   S   DB   R     50.00 
! Rohde & Schwarz Vector Network Analyzer 
! Rohde-Schwarz,ZNB8-4Port,1311601044102961,2.82
! Created: UTC 2/13/2019, 9:01:28 AM
! freq[Hz]                db:S11                  ang:S11                 db:S12                  ang:S12                 db:S13                  ang:S13                 db:S14                  ang:S14
!                         db:S21                  ang:S21                 db:S22                  ang:S22                 db:S23                  ang:S23                 db:S24                  ang:S24
!                         db:S31                  ang:S31                 db:S32                  ang:S32                 db:S33                  ang:S33                 db:S34                  ang:S34
!                         db:S41                  ang:S41                 db:S42                  ang:S42                 db:S43                  ang:S43                 db:S44                  ang:S44
! 
 5.525000000000000E7    -4.877185063923538      -1.580824562084773E2    -3.038046285218201E1     6.673867986604620E1    -7.278034762421012E1    -1.346529680319097E1    -6.569996208825350E1    -1.721865456431262E2
                        -3.038486046647985E1     6.635038891182198E1    -3.235142494594258E-1    9.427559665033817E1    -8.997898221074421E1    -1.247692288673003E2    -8.039757082896094E1    -1.494157277103332E2
                        -7.387494567104869E1    -1.360554490542633E1    -9.048345465021819E1     8.978633163961847E1    -1.390017907434435       3.491613451392703E1    -9.485569203422152E1     6.324360293936635E1
                        -6.692416809273200E1    -1.736340794882318E2    -8.537555191304490E1     1.980853202625955      -8.298073564304710E1     8.960247845182147E1    -1.380595272048890       2.845051946021209E1

 5.525025000000000E7    -4.887516941107933      -1.581567885956608E2    -3.039165154440095E1     6.554333635095466E1    -7.262064775409934E1    -2.185855173350216E1    -6.670600437516721E1    -1.740641568807735E2
                        -3.050967457451746E1     6.618763787225817E1    -3.325399927627318E-1    9.428868607821259E1    -9.395444463665676E1    -4.828885804927690E1    -8.403792588629219E1     2.722573456539141E1
                        -7.319328892935099E1    -1.863933315195916E1    -9.272262145278090E1    -1.404078078862111E2    -1.387482292886261       3.491593495519820E1    -9.050605247541199E1     7.848218669393921E1
                        -6.670849138131817E1    -1.685249504206625E2    -8.879925481199939E1     4.169087556808085E1    -8.065812044040661E1     2.051854310481035E1    -1.382056672930937       2.845510949265084E1

 5.525050000000000E7    -4.889976554312253      -1.581661221416152E2    -3.032627833612308E1     6.599106405485149E1    -6.999316121258094E1    -3.336065870427704E1    -6.629350593948163E1    -1.731573459533135E2
                        -3.040734048702618E1     6.543108066118943E1    -3.324833896138216E-1    9.426657549726743E1    -1.081834524939650E2    -4.123614096584037E1    -8.328107843699983E1     1.210613246536201E2
                        -7.362449852147945E1    -1.771086508235171E1    -9.027264865060434E1     1.506222655702145E2    -1.387571563496389       3.487085959546679E1    -8.621238089725752E1     7.266409908829880E1
                        -6.689735677892392E1    -1.681104161202879E2    -8.437039445703636E1     1.595469000818909E2    -8.680698983149748E1    -4.078546013423193      -1.382441962928549       2.844469384878777E1

 5.525075000000000E7    -4.890755213819760      -1.582048866749007E2    -3.041125747176453E1     6.657307410719477E1    -7.194516255562853E1    -1.382416648455025E1    -6.685581595679808E1    -1.761191798021180E2
                        -3.037654004906088E1     6.666664206516295E1    -3.280941594322088E-1    9.425497855513817E1    -9.243682380846769E1     2.810317862457428E1    -9.306722968639423E1     3.245781765138904E1
                        -7.307299284361970E1    -3.597266088232757E1    -8.635384375648201E1     6.061649263479421E1    -1.393849173091190       3.486107440275839E1    -1.004532019844104E2    -4.629768173837883E1
                        -6.756161665595826E1    -1.746270857534501E2    -8.988616998672543E1     6.267653470515793E1    -9.505769273707935E1    -4.756776356624324      -1.385605698944366       2.845200737626451E1

 5.525100000000000E7    -4.894751188608349      -1.583117768182104E2    -3.036157586469532E1     6.620619574457687E1    -7.159498350005983E1    -1.106096365796200E1    -6.536719847383729E1    -1.736176833969313E2
                        -3.044014425535712E1     6.647922156726445E1    -3.294560501862640E-1    9.422379011333108E1    -9.143713252628615E1     3.261995296765487E1    -8.955347604047648E1     1.045595355970502E1
                        -7.501936027676813E1    -4.591332829204270E-1   -9.241222795173671E1    -3.650317122359356E1    -1.389787237547487       3.486673548276025E1    -8.795738279013028E1    -1.473361247155515E2
                        -6.648399942154407E1    -1.712650654730209E2    -9.699440119544263E1     6.662700887802612E1    -8.872009128195668E1    -6.115679000482207E1    -1.383585493033101       2.843902292840371E1

 5.525125000000000E7    -4.907284907623640      -1.583027100990275E2    -3.043302535023601E1     6.665381014894130E1    -6.996971401802077E1    -3.195706131712198E1    -6.699749937188027E1    -1.718969248440461E2
                        -3.044866358378044E1     6.650306836782626E1    -3.244350078968764E-1    9.422561855696458E1    -8.450398583549901E1     3.438215614991754E1    -8.144133120546117E1     7.378987374120987E1
                        -7.322463191680342E1    -1.931641985717267E1    -9.518241537116516E1     1.057580567684259E2    -1.389773287894283       3.485152046641333E1    -8.465727711753075E1    -1.588063919086799E2
                        -6.596278901877589E1    -1.726738957886662E2    -8.976032102963282E1     7.254234258181556E1    -8.336920652250450E1    -3.467553949490527E1    -1.381116988015837       2.842775013851093E1

 5.525150000000000E7    -4.903068996384274      -1.583936278362717E2    -3.046044445021847E1     6.599907255018020E1    -7.061357519871463E1    -2.267288927129844E1    -6.573974549451675E1    -1.665383406870419E2
                        -3.034595798718859E1     6.553220438862938E1    -3.295701799132989E-1    9.421943423489475E1    -8.417498976071742E1    -1.166423478183639E2    -9.380507607469357E1     8.415990367698034E1
                        -7.379006789937792E1    -1.986196977675049E1    -9.060154791069975E1    -1.635029091684115E2    -1.391250771391150       3.485274408214426E1    -8.215815875473822E1    -7.490642528525439E1
                        -6.540248595755966E1    -1.734307076220709E2    -9.258571702300971E1     1.379885815945771E2    -9.009350829642253E1    -5.308075381263620E1    -1.378928373816718       2.844604568071704E1

 5.525175000000000E7    -4.916374566486521      -1.584105024642992E2    -3.044066952492519E1     6.632817132022659E1    -7.492561158203193E1    -1.351920028172308E1    -6.549645649066454E1    -1.707392576873700E2
                        -3.038251894930694E1     6.617139682845945E1    -3.252641916833479E-1    9.422446993826934E1    -8.284980046474210E1    -1.758738959511961E2    -8.974621216749574E1     7.736664421607712E1
                        -7.186237296253849E1    -1.347268109859685E1    -8.636685086079270E1     3.662163433559113E1    -1.391455341669908       3.485614681851241E1    -8.787093282600273E1     3.804112399004192E1
                        -6.770087072967814E1    -1.694284682538916E2    -8.816167579927557E1     3.624354252486194E1    -8.425795788061065E1    -1.669132883484344E2    -1.381670881270830       2.843587131556202E1

 5.525200000000000E7    -4.916467496562368      -1.584664636432021E2    -3.035465467382525E1     6.661497353143797E1    -7.264188272732046E1    -1.339176439474927E1    -6.613284020187908E1    -1.747879321461261E2
                        -3.048864420856515E1     6.654638041821414E1    -3.347745502968314E-1    9.423189474918920E1    -8.659261697848392E1    -5.565011240382395E1    -1.020446779305913E2    -1.815229306471539E1
                        -7.029633877625771E1    -2.817768381281769E1    -8.357217219545483E1     3.059883304254829      -1.391317201109876       3.484249613757145E1    -9.749120382403162E1    -1.155693442507711E2
                        -6.809037980037320E1    -1.736287586902058E2    -8.756834991174999E1    -3.788052777503575E1    -8.088519646362784E1     1.655872717644295E2    -1.380082453711583       2.841958635368961E1

 5.525225000000000E7    -4.922695049505555      -1.584785458508468E2    -3.035163450164671E1     6.651464951461341E1    -7.288419520483176E1    -4.014183110139603E1    -6.693922312793971E1    -1.685302386340281E2
                        -3.044348747522868E1     6.581841411164926E1    -3.324421875356842E-1    9.423375472527613E1    -9.936118784334012E1    -4.528315870134318E1    -9.355690028552901E1    -7.257737234554635E1
                        -7.561315613186268E1    -2.553584715441560E1    -9.730611969748181E1    -7.151462508909430E1    -1.391844334344735       3.484625475236619E1    -8.534246180407159E1    -6.184955031316886E1
                        -6.791306769963866E1    -1.663262714566161E2    -7.963889970426794E1     5.068117128037695E1    -9.014521551126187E1    -1.748577487387959E1    -1.383151769806170       2.844760479844086E1

 5.525250000000000E7    -4.933140898187219      -1.585569258395584E2    -3.037381244058124E1     6.586733295292567E1    -7.288704963928633E1    -1.506294791218505E1    -6.644439398127787E1    -1.712289246947919E2
                        -3.048188072394802E1     6.544436663457068E1    -3.369426546287685E-1    9.420771604357685E1    -8.438838896739674E1    -1.555816568341423E2    -8.145972350643616E1     2.725838637285613E1
                        -7.151578002723342E1    -1.009433082046245E1    -1.010873133927081E2    -5.238189895652177E1    -1.388887765623996       3.486683645835281E1    -9.357247824508072E1     1.347091020341627E2
                        -6.753707474169565E1    -1.621204459606037E2    -8.116066100969916E1     1.751040687776670E2    -8.800598202283531E1    -1.461438459538614E2    -1.380679861257853       2.843463495100074E1

 5.525275000000000E7    -4.936309683016443      -1.585828435936180E2    -3.037868903481803E1     6.609622547151683E1    -7.212218333915776E1    -2.457336975715473E1    -6.734758685982962E1    -1.682576560788427E2
                        -3.042197996198476E1     6.615573260199562E1    -3.295624085072153E-1    9.423307625772658E1    -8.772806784332869E1    -3.418736182659821E1    -8.272339194812210E1     1.759820154374342E2
                        -7.209262841163232E1    -2.544284488562816E1    -9.405221449028591E1     3.733425967916822E1    -1.388574167235894       3.484881911042749E1    -8.270755434705889E1     1.238838707956972E2
                        -6.641687687608477E1    -1.731078345062310E2    -8.355981316275677E1     1.482846890076746E2    -8.323501317053169E1    -9.972113067762888E1    -1.377208451816242       2.842263018935861E1

 5.525300000000000E7    -4.939530308992588      -1.586291707956718E2    -3.043598205960580E1     6.613449499579131E1    -7.326120839397376E1    -2.132703760043822E1    -6.635972639764701E1    -1.785889624368996E2
                        -3.039207218318731E1     6.611344112621792E1    -3.260102030510406E-1    9.422237738938134E1    -9.177862306395598E1     1.529767467695742E1    -9.691211074077101E1    -8.505749900231287E1
                        -7.263147358645588E1    -2.173067677001652E1    -9.699472261531277E1    -1.136764783152782E2    -1.392197256513345       3.485074125364200E1    -9.217071045105870E1     1.319322465198441E2
                        -6.653504021962816E1    -1.696972776653998E2    -8.528326329699607E1     7.150917039350512E1    -8.814584360453937E1    -1.419965303555158E2    -1.381979056509605       2.841120862015708E1

 5.525325000000000E7    -4.948751899527261      -1.586649536348052E2    -3.037796737029554E1     6.568303023302420E1    -7.365760379349118E1    -1.986416540007108E1    -6.638677918205478E1    -1.644758974904890E2
                        -3.042567189934601E1     6.565733632695343E1    -3.266503257249085E-1    9.417185698222400E1    -1.001233916174429E2    -1.586022768885342E1    -8.932330642875996E1    -1.201684590994442E2
                        -7.216599101551577E1    -1.400240851091563E1    -9.033581982109612E1    -4.073023133835797E1    -1.390102350480819       3.485001192585082E1    -8.701859321515721E1     1.368850240151263E1
                        -6.565957385292658E1    -1.735143759036333E2    -8.349675178338043E1     4.986824553249319E1    -8.372066193884452E1     8.252457692466371E1    -1.380378835029240       2.839714019394557E1

 5.525350000000000E7    -4.947676667532890      -1.587435809662539E2    -3.048078095989258E1     6.592411065258587E1    -7.314990960465980E1     2.187943203226879E-1   -6.781177191122617E1    -1.667221752888572E2
                        -3.040913442037507E1     6.590927528968501E1    -3.307210201894392E-1    9.417304953982760E1    -8.767544251103089E1    -1.346274314466951E2    -8.728471416132356E1     1.531953270541134E1
                        -7.398071538134575E1    -3.270451725669873E1    -8.048311736207381E1     1.613260073594086E2    -1.386663189585871       3.484028584664659E1    -8.490132795945767E1     1.023042937077862E2
                        -6.613191529544807E1    -1.717070911734726E2    -9.822759045896768E1    -8.593733852172240E1    -8.717555848725674E1     1.992770306079652E1    -1.379296304147132       2.840074053166202E1

 5.525375000000000E7    -4.964805869782055      -1.587543743131533E2    -3.043726990562933E1     6.630875285798624E1    -7.104109531697490E1    -4.544575811426114      -6.629130919126754E1    -1.651222806063415E2
                        -3.050009410574035E1     6.584009379707644E1    -3.323182859197643E-1    9.420392382542073E1    -8.745112285201705E1    -1.073991666805710E2    -8.723284849870780E1    -3.801398251789053E1
                        -7.403039785038465E1    -3.884022059376926E1    -9.127414297214536E1     2.432830637827193E1    -1.390912391031910       3.486016719307427E1    -8.849053727061174E1     1.164157951507349E2
                        -6.507857839654803E1    -1.776826686651278E2    -9.168393622851512E1     1.763816184701161E2    -8.830504678663982E1    -4.924177565209445E1    -1.383646180201986       2.841300847895533E1

 5.525400000000000E7    -4.963964928614632      -1.588010065070573E2    -3.038338855961648E1     6.642085822493546E1    -7.118348092325465E1    -1.830814930622307E1    -6.709617346570329E1    -1.752544105555474E2
                        -3.059335579687940E1     6.589050719240466E1    -3.290714842407206E-1    9.416200325660179E1    -8.628192993215924E1    -3.835168738459628E1    -8.411542514147888E1     9.907534513519707E1
                        -7.245634151052630E1    -1.385914307797174E1    -8.723294308416202E1    -6.542163892275298E1    -1.388617686002901       3.484321206903586E1    -8.131230299036459E1     8.493019392392844E1
                        -6.622138907198870E1    -1.654889339805860E2    -8.184380248243534E1    -3.166110576146758E1    -8.819828696162553E1     1.785678261426594E2    -1.381599228964005       2.843552715738462E1

 5.525425000000000E7    -4.968423425979884      -1.587814833671832E2    -3.035490323861700E1     6.575956258734850E1    -7.251715100175463E1    -4.564793962718773E1    -6.595729967805360E1    -1.686346443853876E2
                        -3.038960753917671E1     6.713262305487289E1    -3.275101892704980E-1    9.418447317875531E1    -1.012029599351638E2    -1.273164105197304E2    -8.858455507748354E1    -1.460012597705417E2
                        -7.305125674040183E1    -1.661792399413624E1    -9.078366548785073E1     6.741824981022680E1    -1.388995130027599       3.483497786840746E1    -9.322820191446294E1     5.781382505603341E1
                        -6.688383799618637E1    -1.699151534572144E2    -9.009050132806513E1    -3.141420456709638E1    -8.330928910958855E1     3.371609474257674E1    -1.381887339000028       2.843000836316478E1

 5.525450000000000E7    -4.969673922395018      -1.588881552455297E2    -3.039842709216948E1     6.649162936565139E1    -7.391626820599946E1    -1.409824718208698E1    -6.698578277879122E1    -1.700326973307311E2
                        -3.054160937502107E1     6.654812416426633E1    -3.316218920220757E-1    9.419355200430138E1    -8.508606294013069E1     6.952039015515462E1    -8.600308506665569E1     1.258045708787599E1
                        -7.182510560401023E1    -1.347070127635700E1    -1.037384255477441E2    -1.734225266456896E2    -1.389214570672552       3.484468476324521E1    -7.987963638851467E1    -4.305297166464617E1
                        -6.761299233376444E1    -1.682457003273351E2    -8.821966437444964E1    -1.784103014556321E2    -8.647980682147454E1    -1.448566944643700E2    -1.379555848484104       2.839680845864531E1

 5.525475000000000E7    -4.980962320986409      -1.588889203645046E2    -3.038734404194376E1     6.560815029641626E1    -7.442845443738109E1    -2.034229968636848E1    -6.621330528461429E1    -1.644624157882741E2
                        -3.047146189386016E1     6.594537740815336E1    -3.260582542285029E-1    9.419392072764495E1    -8.444074018894102E1     1.379284609913016E2    -8.176913445579595E1     7.392901608688521
                        -7.165560305526627E1    -7.686357742148550      -8.571567997685847E1    -1.274039061755449E2    -1.389602239753066       3.481859002962939E1    -8.021906703983972E1    -8.947067312187714E1
                        -6.665567771818212E1    -1.762401074054312E2    -8.333090618989729E1     1.267932420809419E2    -8.182512709178310E1    -6.235994780431916E1    -1.381752812717585       2.837916633225549E1

 5.525500000000000E7    -4.982077378971678      -1.589685082718225E2    -3.033874278258193E1     6.608148773467545E1    -7.286654400580015E1    -2.630279172066059E1    -6.751631334428961E1    -1.690757327928660E2
                        -3.048679968650216E1     6.573147570195177E1    -3.208127077807634E-1    9.420016242325072E1    -7.926921617192397E1    -1.172628119588899E2    -8.533217558794976E1     6.041326602683559E1
                        -7.154153318113727E1    -2.678398970669032E1    -8.046030095001720E1     1.581049225060163E2    -1.394698132454687       3.479126542720672E1    -8.858948745958409E1    -7.473969782406390E1
                        -6.643671306480358E1    -1.641507386645636E2    -8.693632417879678E1     1.225139786240102E2    -8.456088576206594E1    -2.565294370362046E1    -1.380175947027517       2.839382059156228E1

 5.525525000000000E7    -4.987438662920037      -1.589854140157655E2    -3.038132589826397E1     6.578518382008232E1    -7.168640949028594E1    -3.228310969439292E1    -6.700556692558517E1    -1.657148191950455E2
                        -3.037613833597975E1     6.583504294596777E1    -3.268986421534776E-1    9.414447468202417E1    -9.033243902158768E1     1.540157098659157E2    -8.776104163784382E1     3.414645625597140E1
                        -7.475934040794819E1    -3.725713876754940      -8.123484554278792E1     1.520384941276606E2    -1.387789252303538       3.484746119655334E1    -8.715094369481750E1    -1.323892184016391E2
                        -6.708475908731509E1    -1.767077329561718E2    -8.812964009986656E1     5.946098506719839E1    -9.102700322161471E1     3.903681257616289E1    -1.379271215683897       2.839012990133194E1

 5.525550000000000E7    -4.994724175071600      -1.590970319268389E2    -3.042964260521506E1     6.629052511336660E1    -7.232221845795189E1    -7.226046402381499      -6.646653189713389E1    -1.711209890094066E2
