#  HZ   S   DB   R     50.00 
! Rohde & Schwarz Vector Network Analyzer 
! Rohde-Schwarz,ZNB8-4Port,1311601044102961,2.82
! Created: UTC 2/12/2019, 11:36:14 AM
! freq[Hz]                db:S11                  ang:S11                 db:S12                  ang:S12                 db:S13                  ang:S13                 db:S14                  ang:S14
!                         db:S21                  ang:S21                 db:S22                  ang:S22                 db:S23                  ang:S23                 db:S24                  ang:S24
!                         db:S31                  ang:S31                 db:S32                  ang:S32                 db:S33                  ang:S33                 db:S34                  ang:S34
!                         db:S41                  ang:S41                 db:S42                  ang:S42                 db:S43                  ang:S43                 db:S44                  ang:S44
! 
 3.000000000000000E7    -2.644800385869034E-1    1.036477303831668E2    -6.403344869291283E1     7.017294888362761      -8.746519052046112E1    -1.052402763657749E2    -8.682219870568437E1     6.637277084809891E1
                        -6.415646403939762E1     7.307419842223943      -2.521064584251367E-1    9.378040937484280E1    -8.877772556769554E1     1.314201730921799E2    -8.378175877847811E1    -1.657048639223763E2
                        -8.630324255224952E1    -1.729147163474144E2    -8.677109069334398E1    -1.608518147283499E2    -9.193154104285835E-1   -7.589071989616839      -8.528802013644284E1     1.634967437763237E1
                        -9.660802055957653E1     1.568557472549729E2    -8.756540692408305E1     3.750926301611811E1    -8.827474577535153E1     1.336339096667969E2    -9.292205828629607E-1   -1.251437150209426E1

 3.002500000000000E7    -2.662059127102524E-1    1.033770102895964E2    -6.402861839407403E1     5.496082927990905      -8.086066664684118E1     7.704292163160605E1    -1.000179642680801E2    -1.624703191991719E2
                        -6.454141566229040E1     8.227869794651699      -2.510310456532284E-1    9.338003579660801E1    -1.011822338845187E2     1.708942974192277E2    -8.989682838357274E1    -1.030863923122851E2
                        -8.746934698885697E1    -8.839651641069726E1    -8.633984360097375E1     3.552164503443046E1    -9.163563741759133E-1   -7.918540716677114      -7.941507563684910E1    -1.026055877535979E2
                        -9.334706218242131E1    -7.227231580987451E1    -8.687478620011602E1    -7.296241236498246E1    -9.341532476688658E1     7.036219588102098E1    -9.307793909974337E-1   -1.280946489145237E1

 3.005000000000000E7    -2.697122164221129E-1    1.030784829608716E2    -6.474316484475034E1     4.731309196429221      -7.985151350912126E1     6.404824466558708E1    -8.085776580288034E1    -9.945686433773661
                        -6.404647465041447E1     3.463976253839893      -2.521999321536663E-1    9.310290107166490E1    -8.309885947889809E1    -5.396913383146931E1    -8.688970716174197E1     4.001880015332562E1
                        -8.770274349201577E1     4.161297553750188E1    -8.592673070143150E1    -9.713820669717383E1    -9.212711285823054E-1   -8.173343425882289      -8.435347010526070E1    -7.631742253930990E1
                        -8.482537716429022E1     5.789559511091139E1    -8.374526586840290E1     8.516463350825035E1    -8.974511934350028E1    -6.110158472203668E1    -9.282486744217202E-1   -1.314807746179671E1

 3.007500000000000E7    -2.649506206474717E-1    1.027602225961567E2    -6.394845022717846E1     8.576929552406519      -8.650326615396665E1     1.002108966579733      -8.535882730822556E1    -1.538452404541266E2
                        -6.474459709388864E1     6.069575700788058      -2.530918429903460E-1    9.267586215491808E1    -8.427789006979268E1    -6.986256493329437E1    -9.018612282777502E1     1.789858878074421E1
                        -8.285074742624084E1    -5.312687358882378E1    -8.048864135116978E1     7.370262201067925E1    -9.221210190508018E-1   -8.478724106566768      -8.348285699022156E1     1.694260445685299E2
                        -8.851993771755787E1    -1.685913150578031E2    -8.332201067051403E1     1.123896179265036E2    -9.582666043688464E1     1.749368416740571E2    -9.356425610364111E-1   -1.346677815718511E1

 3.010000000000000E7    -2.639963397078676E-1    1.024708952804573E2    -6.361841507095041E1     1.411068764644926E1    -9.079666801745233E1    -1.401940329835213E2    -9.265902095842338E1    -5.188573592124861E1
                        -6.346254930305736E1     1.051467941115169E1    -2.559936656211833E-1    9.233053235397357E1    -8.416524750119396E1     1.310568873114299E2    -8.768411873339419E1    -7.700905596065768E1
                        -8.463583452014848E1    -8.631314001835709E1    -9.629202997497646E1     6.531608005356816E1    -9.170818926522927E-1   -8.780332046375754      -8.484710723375868E1     1.908019635741026E1
                        -8.453871359932407E1     1.201711135681840E2    -8.525706421933111E1    -1.146328434192901E2    -8.818947466714261E1    -7.128738703361424E1    -9.283997356106922E-1   -1.374691755177435E1

 3.012500000000000E7    -2.574668948546554E-1    1.021643496775610E2    -6.375873004915553E1     7.044685792300634      -8.348661747370667E1    -8.002368499968169E1    -8.536104872080303E1    -1.736866551541306E2
                        -6.436874212921966E1     8.858042816840566      -2.554417365706720E-1    9.191659233833070E1    -8.563178250017907E1     4.675449872545507      -9.035963465889557E1     6.557255745891922E1
                        -9.375203362727129E1    -1.662705027209764E2    -8.798350550753798E1    -1.136431164212110E2    -9.249835916677064E-1   -9.051351593062503      -8.506402116736945E1     2.268585128445023E1
                        -8.491124492071300E1    -5.215408382724628E1    -7.674861892858671E1     7.140619101000138E1    -8.824172908383716E1    -9.645268264012908E1    -9.335206522998339E-1   -1.409139787900310E1

 3.015000000000000E7    -2.601400590239105E-1    1.018608224399428E2    -6.521722896091791E1     8.746462470039015      -8.292463218131366E1    -1.053224243649811E2    -8.671924803594487E1     4.112434584681326E1
                        -6.361978116479957E1     3.776663809792726      -2.482902164769992E-1    9.156800754894721E1    -9.452546460704184E1     4.219418929495536      -8.340309603506212E1     5.296667745591177E1
                        -8.244972782401489E1    -2.955650168839390E1    -8.985769324242077E1     1.192363094533934E2    -9.226265787889367E-1   -9.367417024486143      -9.233211930110582E1     1.083575126028539E2
                        -9.674005468693410E1     1.560776889151780      -9.231663111899893E1     8.078905904021467E1    -8.587972015554379E1     6.177982348910602E1    -9.290401148774008E-1   -1.437530574610618E1

 3.017500000000000E7    -2.502164061753011E-1    1.015438181099259E2    -6.462040309278331E1     1.136045314169277E1    -8.347328531261040E1    -1.235273922772050E1    -8.085448745043685E1    -3.370011465930755E1
                        -6.458198815380347E1     3.979638344194349      -2.507698977367087E-1    9.117546253730278E1    -8.174242491920070E1     4.927254366681309E1    -8.276922389382605E1    -1.161818594209890E2
                        -8.270507147867974E1     1.749330109984358E2    -8.406002033181875E1    -5.268829087063983E1    -9.231558366273557E-1   -9.652390723415550      -9.439653827498732E1     1.386616484705967E2
                        -9.782713547224788E1    -1.355246686140336E2    -8.217884078694186E1     5.551608354610091E1    -9.276332523471602E1     4.872894561226076E1    -9.284005905025121E-1   -1.471890740819457E1

 3.020000000000000E7    -2.594514935583612E-1    1.012842486848871E2    -6.401996338996194E1     1.275920335672202E1    -8.785693887623782E1    -6.262762309150883E1    -9.763383145195142E1    -1.792769552794894E2
                        -6.291612390346686E1     5.356290363870905      -2.479777958765322E-1    9.086616845011724E1    -8.754007512569896E1     6.312038993400346E1    -9.027179893283693E1     8.390713903588772
                        -8.671999391994982E1     2.529900754716835E1    -1.024640108303583E2     1.180635005606885E2    -9.203605079469400E-1   -9.956583185340454      -8.435712212313246E1    -1.150214215994962
                        -8.709192974293973E1    -1.286629620434348E1    -8.592518050199732E1    -9.413370587905533E1    -8.138856046125893E1     1.374799928355963E1    -9.304431540047002E-1   -1.500688825595577E1

 3.022500000000000E7    -2.646774872431187E-1    1.009667558667135E2    -6.417324057662358E1     7.141804106728672      -9.151070599729920E1     1.855724847584437E1    -8.615082224474301E1    -3.899851550558418E1
                        -6.274573434959955E1     6.253459048863326      -2.588404374991598E-1    9.043515800417573E1    -9.510240085042703E1    -1.788594534377567E1    -9.298412041701845E1     1.202906864154362E2
                        -8.227841399931224E1    -1.458084412564142E2    -8.553816908524881E1     5.248518238336992E1    -9.178573475578593E-1   -1.029954586742095E1    -8.954523544585912E1     1.502835837923599E2
                        -8.554927675042146E1    -1.262687772457618E2    -8.254851602178263E1     9.349871492725262E1    -8.292463895749931E1     1.154837181864096E2    -9.267248757879372E-1   -1.530639085714889E1

 3.025000000000000E7    -2.598096000260193E-1    1.006794667532129E2    -6.330793129845836E1     7.798295750775740      -8.173618668174969E1     1.508979127293478E2    -7.891645998227895E1    -1.134818535816020E2
                        -6.404519464154707E1     8.475739505094644      -2.637265420264650E-1    9.008345282812945E1    -8.456180483464948E1     1.057287381303791E2    -9.523974604725518E1     6.584606602660676E1
                        -8.589543884115045E1    -8.798141301095448E1    -9.481837730746679E1    -1.470424139459509E2    -9.190063681666522E-1   -1.058377794029084E1    -8.939751539709479E1     4.884091548952824E1
                        -8.290470224307023E1    -6.615604703853228E1    -8.450916550082262E1    -2.897189320075042E1    -9.052421330664015E1     8.905400235406296E1    -9.319573998555648E-1   -1.557501306405855E1

 3.027500000000000E7    -2.523207518255827E-1    1.003964853459943E2    -6.396748260254579E1     6.369000450273750      -8.451799404768387E1    -9.108890981534881E1    -8.318700965916399E1     9.236495743978186E1
                        -6.390796313487130E1     6.112412294895633      -2.390362686369990E-1    8.970825100265398E1    -7.950444432482732E1    -1.511121078293979E2    -8.759887293686273E1    -1.389881269360857E2
                        -9.012204199551105E1    -6.058321245822918E1    -9.003845972304254E1     3.281912399001370E1    -9.183767084753367E-1   -1.085977266667508E1    -9.108495808562708E1     1.027627034835041E2
                        -8.537551083670033E1     1.615383000422789E2    -8.571210274992973E1     1.192844711608918E2    -8.471850896438650E1     8.003315607578026E1    -9.266079496826534E-1   -1.592594048221189E1

 3.030000000000000E7    -2.607121305749782E-1    1.001461549462677E2    -6.292633568746265E1     1.964558073322753      -1.042832906730435E2     6.353407553641799E1    -8.325812502766846E1     6.574998518776727E1
                        -6.425584175977362E1     5.095077076987176      -2.462794822017811E-1    8.933645088007998E1    -8.408153886907184E1    -1.585206116942141E2    -8.448586292542817E1     1.423242912791478E2
                        -8.142371621963738E1     4.131127658934727E1    -8.198529972749577E1    -9.170505873415033E1    -9.234453746139675E-1   -1.118339750365916E1    -8.596347596737175E1     1.586924548846974E2
                        -8.481086952846547E1     1.204933652496665E2    -8.309525872243785E1    -4.401893178393511E1    -8.078371362211351E1    -1.181611443751520E1    -9.236327805010465E-1   -1.624488179329130E1

 3.032500000000000E7    -2.592798646452788E-1    9.981771192441345E1    -6.427161312922276E1     8.160263497985614      -9.436176859419356E1    -1.212027384137509E2    -9.200459552030927E1    -1.214962244135880E1
                        -6.340750292533905E1     4.614777987869455E-1   -2.369491007900871E-1    8.893640899268992E1    -8.768645984701712E1    -1.476079465060907E2    -9.752798232075028E1    -8.677364020148846E1
                        -8.685862143251762E1    -1.139951407639997E2    -8.817804024987888E1    -6.810727641701735E1    -9.271315282451149E-1   -1.148229214167058E1    -8.547237289208405E1     9.121570929274803E1
                        -8.855744604427062E1    -1.131007938115745E2    -8.502261678558438E1     1.630487191697713E2    -8.993065013143416E1    -1.586565381590633E2    -9.300314777045107E-1   -1.651497828798216E1

 3.035000000000000E7    -2.494661068915940E-1    9.949762989039925E1    -6.378336051262870E1     1.061309041454115E1    -8.713728271645616E1     8.000001148743770E1    -8.939551383814961E1     7.165791690150657E1
                        -6.298297965417899E1     2.066920765859228      -2.374945172653708E-1    8.859010049087715E1    -9.020819178209280E1    -1.654353221810265E2    -8.032400958509501E1     1.674125997467515E1
                        -9.168162498703346E1     2.462244989052225E1    -7.930429728183285E1    -9.647245239443120E1    -9.154517119605349E-1   -1.177537480062125E1    -8.382160132869350E1    -5.391123448473363E1
                        -8.899880601572063E1     1.458788516359771E2    -8.559932441404372E1    -6.771357163264061E1    -9.234142943690455E1    -5.626200590112776E1    -9.280930150966736E-1   -1.683468735361079E1

 3.037500000000000E7    -2.529146417945213E-1    9.922528566451007E1    -6.275071879085541E1     4.349554641681080      -9.138204088786998E1     1.586613669366937      -8.263173560580552E1     1.588652444818765E2
                        -6.450509805134286E1     5.526813148325279      -2.449655094858447E-1    8.819858935104936E1    -9.564472099993525E1    -1.534192129868195E2    -8.763879591442785E1    -1.222112834681417E1
                        -8.730592324512918E1    -7.084180666877072E1    -9.192144699995322E1     9.121215824107945E1    -9.206181500494416E-1   -1.206083737364167E1    -8.087707110309705E1     6.478001043732867E1
                        -9.922201131083013E1     8.915985722758416E1    -9.600911660726602E1     1.327584283092727E2    -8.319272091344608E1    -1.120063584022491E2    -9.277281626386091E-1   -1.712570885103770E1

 3.040000000000000E7    -2.507911748057464E-1    9.888890376882608E1    -6.437459626619430E1     5.125537034921859      -8.950658092953336E1     9.039240173343885E1    -1.049524457400723E2     6.039974031152944E1
                        -6.286008615279527E1     5.464136640459452      -2.520045382221663E-1    8.786688195710840E1    -1.119255521511397E2    -1.142104312952708E1    -8.547815975931962E1     9.131732299536500E1
                        -8.851430868957220E1    -7.689108685222229E1    -9.491255088116412E1    -9.331940979758596E1    -9.225939351469149E-1   -1.240470491208791E1    -8.513585285100930E1     1.047293335232568E2
                        -8.606029112183194E1     1.419964593441342E2    -7.831074896626572E1     1.698939982231506E1    -8.582400500293727E1    -5.700201126769757E1    -9.282895279698074E-1   -1.745948406855370E1

 3.042500000000000E7    -2.511728940050883E-1    9.862899979102140E1    -6.342402037311959E1     2.605841419037830      -8.707875789406134E1     1.435038936742583E2    -8.207645709821436E1     1.436333191697843E2
                        -6.332349806405549E1     4.358906759967110      -2.533085415525979E-1    8.746260672443630E1    -9.889780960866035E1    -7.114352473464776E1    -8.722544431934834E1    -1.615153807499933E2
                        -9.398597673371174E1    -1.515425495613563E2    -8.539190752370544E1     8.662250238945406      -9.171531272446448E-1   -1.267820204560464E1    -8.812306245921894E1    -1.239545498491584E2
                        -8.975495432778499E1     3.633286762635922E1    -8.557422254666022E1    -1.573560637406763E2    -8.708034886301508E1    -5.348031226969459E1    -9.273376313561860E-1   -1.776021493439056E1

 3.045000000000000E7    -2.547301709555004E-1    9.828004961650049E1    -6.295141664604518E1     1.135003146465591      -1.026034363441625E2    -1.480342277539251E2    -8.698055225824631E1    -6.330355524421047E1
                        -6.329329528515575E1     3.312766752335264      -2.408154550525220E-1    8.710055640030060E1    -9.172044660249696E1    -6.450546195050059E1    -9.130542647484221E1     1.013745168367613E2
                        -8.371268893076709E1    -2.315759551199556E1    -8.801218328798875E1    -1.425007226375228E1    -9.216164463743088E-1   -1.299905199610008E1    -8.166073468766376E1    -6.203401036683271E1
                        -8.889494758575211E1    -2.519119917372039E-1   -8.672870802568522E1     1.026825161689587E1    -8.458983049052507E1    -1.473042331136407E2    -9.239485370198713E-1   -1.803643594405431E1

 3.047500000000000E7    -2.620301176708726E-1    9.801385232156576E1    -6.272334518128918E1     3.730497044216554      -9.135798948398130E1     9.495918851693944E1    -8.035317132874972E1    -8.155258443047325E1
                        -6.321584364236343E1     2.070043463850317      -2.444816600729438E-1    8.669928296942655E1    -8.600125763728389E1     1.870333956636877E1    -8.408572040058671E1     7.940091812217197E1
                        -8.992595236812022E1     4.077615093936095E1    -8.878742857458181E1     1.779370037986121E2    -9.234382631840509E-1   -1.325814938037312E1    -8.077738909049691E1     5.637862398649941
                        -7.915062283682343E1    -8.078980527050771E1    -8.070237359197370E1    -1.472689898846310E2    -8.963972909470984E1     3.317316567051131E1    -9.251476545177917E-1   -1.834367645323964E1

 3.050000000000000E7    -2.547537332281371E-1    9.772005209946373E1    -6.299219177814906E1     9.199283537166485E-1   -8.883429944468473E1    -1.050843522689433E2    -8.458144288577128E1    -1.764265739090564E1
                        -6.286732344859908E1     7.575584309955992      -2.425773848029332E-1    8.634689366124206E1    -8.370647583225150E1     4.913904774144571E1    -9.263515258708885E1     1.550215679295382E2
                        -9.621344239702717E1     1.378026725726298E2    -9.094913362625704E1    -1.336975003659333E2    -9.219813160835184E-1   -1.360444792919584E1    -8.961402149784583E1     3.159188029887921E1
                        -8.508725590284053E1     1.607541646782054E2    -8.533878766087112E1     3.300892585540504E1    -8.448173955455872E1     1.283091784151476E2    -9.278743314333506E-1   -1.870713033113445E1

 3.052500000000000E7    -2.536426717382346E-1    9.740900226688765E1    -6.287040310713251E1     1.015615813677587      -8.482900713645050E1     8.131415213934069      -8.785527377654732E1    -5.303875996565431E1
                        -6.274181697971127E1     2.219305961419009      -2.400591363400874E-1    8.593658964181753E1    -9.513437506103702E1     6.878417582494033E1    -8.442114800786514E1    -1.058067604916590E2
                        -9.359440425160669E1    -1.503448798754743E2    -9.580522567004108E1     1.706098253065503E2    -9.207155004576116E-1   -1.385734882521557E1    -8.661491264786532E1    -2.644666286611498E1
                        -9.098485220905845E1    -3.995607839117396E1    -8.361657851036186E1     1.742203651152921E2    -8.989098705754115E1    -9.733847125914366      -9.302677962990480E-1   -1.902074367682430E1

 3.055000000000000E7    -2.500078565600201E-1    9.711566047263629E1    -6.223857693734610E1     2.446617534588734      -8.152080172631568E1    -6.922546234483477E1    -8.290034415546558E1     4.777231658087020E1
