#  HZ   S   DB   R     50.00 
! Rohde & Schwarz Vector Network Analyzer 
! Rohde-Schwarz,ZNB8-4Port,1311601044102961,2.82
! Created: UTC 2/12/2019, 11:49:46 AM
! freq[Hz]                db:S11                  ang:S11                 db:S12                  ang:S12                 db:S13                  ang:S13                 db:S14                  ang:S14
!                         db:S21                  ang:S21                 db:S22                  ang:S22                 db:S23                  ang:S23                 db:S24                  ang:S24
!                         db:S31                  ang:S31                 db:S32                  ang:S32                 db:S33                  ang:S33                 db:S34                  ang:S34
!                         db:S41                  ang:S41                 db:S42                  ang:S42                 db:S43                  ang:S43                 db:S44                  ang:S44
! 
 3.000000000000000E7    -2.597392013426507E-1    1.049057673505748E2    -6.782818617194492E1     1.196305322476446E1    -8.771997833053473E1    -1.396457114160866E1    -9.379166544833367E1    -7.680919495022385
                        -6.794329727173302E1     6.375730892182707      -2.461768218027407E-1    9.382097450479617E1    -9.082594216288186E1    -7.651569267111356E1    -7.828925802867722E1    -1.324100904792026E2
                        -8.966769251800844E1    -1.766088313601659E2    -9.625226131778948E1     4.392625965067955E1    -9.211947360775979E-1   -7.582516130746321      -8.497722074833189E1     6.660813527304734E1
                        -9.700905212609179E1     3.452030982935948E1    -9.112289424097637E1    -1.664480534210971E2    -9.406321978750539E1    -1.182236736988677E2    -9.267923519482773E-1   -1.251580697895455E1

 3.002500000000000E7    -2.607580619524090E-1    1.045906508390577E2    -6.699225255190549E1     1.062360453530970E1    -8.473703761179608E1     7.521050373688229E1    -8.339326589747412E1     8.219603593110916
                        -6.708609582322629E1     9.636984062988388      -2.523406217596000E-1    9.346262342711637E1    -8.163417164165088E1    -1.043089406067665E2    -8.863721888904863E1     7.661325079791210E1
                        -8.721938977770392E1     1.762659126615902E1    -8.909484573276949E1    -3.448109786338539E1    -9.198562543327722E-1   -7.859739245374470      -8.092784818163642E1     1.245837685812524E2
                        -8.362993777773556E1    -6.340441585091168E1    -8.857841690963973E1     5.647571479021737E1    -8.473879246487184E1     1.655306715553995E2    -9.313433998896268E-1   -1.284802583850816E1

 3.005000000000000E7    -2.619684537848956E-1    1.043280247179395E2    -6.669906648636336E1     3.613669039790589      -8.667966562148834E1    -1.072580004562366E2    -8.978796810725075E1    -4.663716965214392E1
                        -6.800989688468812E1     8.441533348240400      -2.390195322395564E-1    9.311051526044189E1    -9.900293266095014E1     3.506592129485142E1    -8.130263483505274E1     8.259931234507765E1
                        -7.908459420676421E1    -3.327664665685557E1    -1.000325360933421E2     1.246573710790417E1    -9.252152881887310E-1   -8.149573124110001      -1.013638643569473E2     9.171300150914748E1
                        -8.372048138459719E1     1.816246959849961E1    -8.148112455873334E1    -1.558554706985113E2    -8.663033390566304E1     2.210275728409220E1    -9.299479114261667E-1   -1.316415920779522E1

 3.007500000000000E7    -2.612566166987653E-1    1.040146795493157E2    -6.803011752920502E1     2.854696950722503      -8.284385687247874E1    -8.898907997067779E1    -8.239762392423964E1    -1.001621680899024E2
                        -6.738756782715467E1     1.361082744140034E1    -2.393705693154310E-1    9.268553922770413E1    -8.272063530104659E1     1.434287049702788E2    -9.788936136597924E1     7.529620025624810E1
                        -8.144564534684285E1    -5.818745451087155E1    -8.324739171694168E1     5.123281483681278E1    -9.216106768704544E-1   -8.472706206261796      -8.079485691648625E1    -6.852556378265099E1
                        -9.263164719721773E1     1.318541930676748E1    -8.690128108396817E1     3.214401338827636E1    -8.758292337516194E1     3.979115468626237E1    -9.335504925882630E-1   -1.343101801404833E1

 3.010000000000000E7    -2.577909355659831E-1    1.037314025948030E2    -6.661038482135717E1     2.653257422407327      -8.374826173028433E1     7.199532246447789E1    -8.485112502573361E1     8.467662876160702E1
                        -6.695298427927659E1     7.660729771748720      -2.445094810803610E-1    9.233313735657211E1    -9.656621416173381E1     1.256122229612093E2    -8.186071161936580E1     6.938508039512303E1
                        -8.661230190523173E1    -1.374103772712568E2    -9.125411861434930E1    -7.786998098456251      -9.241164166877853E-1   -8.777745118600466      -8.709097136305090E1    -9.821599157702896E1
                        -8.498049130611400E1    -1.419199291979624E2    -8.737958545145514E1     2.869104171150713E1    -9.670055119607915E1     1.163656992476479E2    -9.294338178337389E-1   -1.376544745845668E1

 3.012500000000000E7    -2.543555500428888E-1    1.034017248385185E2    -6.704183715669558E1     7.446207534581768      -8.837642501150643E1    -9.093852968074252E1    -8.323617594862326E1    -1.603732586449186E2
                        -6.777828386765805E1     3.375098764644034E-1   -2.459406744240957E-1    9.197158746396291E1    -8.769807937988847E1     6.069754137908459E1    -8.916525296383580E1    -8.467797373257977
                        -8.565674645698104E1    -5.334328092051557E1    -9.136565922067896E1     1.547655127235140E2    -9.198706329733843E-1   -9.088093170970463      -8.746704128221369E1    -2.978061704932990E1
                        -8.916617600417854E1     6.745481193064986      -8.748273303797345E1    -6.323875440330617E1    -9.016584023617951E1     9.228193898361735E1    -9.262151166468170E-1   -1.408151738714722E1

 3.015000000000000E7    -2.534573960599578E-1    1.031530280473006E2    -6.700516853971584E1     1.071575640835845E1    -8.003593428893437E1    -1.285443158128842E2    -8.965570900795484E1    -1.747547982725617E2
                        -6.759295623006368E1     1.060590158600536E1    -2.408864862550136E-1    9.159242791582624E1    -8.606829113681391E1    -1.662737339117695E2    -8.070996216796522E1    -1.745162328059913E2
                        -9.122929133783380E1     5.605396141016423E1    -8.334310840629199E1    -7.959345784140503E1    -9.248646290786813E-1   -9.382906028784566      -1.045899078511947E2     4.823305648006267E1
                        -9.157834343254561E1     8.929563614448864E1    -8.910190345445024E1    -1.725882749830975E2    -9.724655536470188E1    -7.534741727746636E1    -9.262846129478193E-1   -1.440526959761134E1

 3.017500000000000E7    -2.485928256703954E-1    1.028619891795640E2    -6.716706415852973E1     1.004742905191433      -8.741374216190326E1    -4.829701722587472E1    -8.956577674831202E1    -1.617494943152465E2
                        -6.660402276510965E1     1.049903623831057E1    -2.391146448051766E-1    9.122294724668599E1    -1.203859760474636E2    -1.542443213769093E2    -9.051570543897913E1     8.962909241129260E1
                        -8.816693281507361E1     1.678309610725027E2    -8.514815250536672E1    -1.162236400638415E2    -9.249906797752079E-1   -9.681604136944738      -8.889713425230252E1     1.028351743019697E2
                        -8.385711765752397E1    -1.113158319124815E2    -9.657011407104376E1     1.323766791694432E1    -8.876166128057773E1    -2.443841429016729E1    -9.343634869599422E-1   -1.471002531193956E1

 3.020000000000000E7    -2.542114263112375E-1    1.025644829823249E2    -6.695876758768543E1     1.827102634284227      -7.775835332445483E1     9.600114743985451E1    -8.736332204484171E1     1.597075481280235E2
                        -6.630054153691548E1     8.377908052612236      -2.353685959242923E-1    9.086544530190473E1    -9.215202521135483E1     6.324870680142767E1    -8.094929104642638E1    -2.692308022487358E1
                        -8.862420732736780E1     1.554364810521832E1    -8.451142196035745E1    -8.801510276546374E1    -9.250031300569618E-1   -9.977022883942533      -9.002931597642953E1    -1.681550851258338E2
                        -8.445007941685731E1    -1.436879218479849E2    -8.408448142088828E1    -6.617394724138491E1    -8.413712632133175E1    -4.190637750370920E1    -9.283042957434242E-1   -1.502544523243768E1

 3.022500000000000E7    -2.610472979580975E-1    1.022595818537811E2    -6.693825100571638E1     2.707491147871099      -9.051597937677057E1     1.389371123597562E2    -8.443255194121758E1     1.776676607613345E2
                        -6.645611941841165E1     3.916831764031138      -2.381855964461281E-1    9.053267770707127E1    -8.598744737148638E1     1.704534662068153E2    -9.772466314398429E1     6.741372281109980E1
                        -8.620046101156166E1    -3.014163594474736E1    -8.401648932081312E1     2.343484965526170E1    -9.207760613946621E-1   -1.030669285202606E1    -8.534783024572542E1    -3.476942017421372E1
                        -8.666096973973720E1    -1.278729714901338E2    -9.360333309900108E1     9.400800894708362E1    -1.007251561966186E2     8.072325788540525E1    -9.309161871406758E-1   -1.531476405798366E1

 3.025000000000000E7    -2.618071278073901E-1    1.019571465348053E2    -6.650876706388958E1     1.598525354834276E1    -8.357226689437709E1    -1.795111741238803E2    -1.003387306065821E2    -3.773749767240942E1
                        -6.747901390751974E1     2.442161596430824      -2.412134357901525E-1    9.015848147047787E1    -8.465757687313798E1     4.311072862569316E1    -7.809801114643224E1     1.482740646220881E1
                        -9.185328051274965E1    -1.693035145533941E2    -9.570332805937035E1     5.630712405133249E1    -9.194083234213778E-1   -1.058807642292141E1    -9.051088165839769E1     1.729188132165454E2
                        -9.214213918252065E1    -4.956764020833280E1    -8.537414414947833E1    -3.677050884482910E1    -8.561743531247183E1     1.597710361356825E2    -9.331014844261802E-1   -1.560763891224830E1

 3.027500000000000E7    -2.497703211843133E-1    1.016262433773171E2    -6.730469394358318E1     1.396116351032556E1    -7.984198671123733E1    -1.223173122260315E2    -8.277944164401431E1    -2.573981081833979E1
                        -6.681280896554493E1    -3.354104692872310E-1   -2.289964995597876E-1    8.975264618543999E1    -8.710462522916522E1     6.862877417982631E1    -1.050151352453897E2     1.490416761089670E2
                        -9.280146067539104E1    -8.800352798619409E1    -8.469650375567220E1     1.499111270476570E2    -9.163631348140404E-1   -1.090818176237922E1    -8.976446794169533E1    -1.101649069171075E2
                        -9.068843760054969E1    -1.578412221072875E2    -8.547175460086974E1    -1.629219271586185E1    -8.608688965696771E1    -3.128322509697154E1    -9.267476847856461E-1   -1.591275850709976E1

 3.030000000000000E7    -2.569693957587590E-1    1.014013898160740E2    -6.757930554915113E1     2.153112849923005      -9.266447269961915E1     9.593479877554523E1    -9.515767166195110E1     1.469108522768335E2
                        -6.576471401287229E1    -5.217343516065582      -2.401464321551242E-1    8.934058991368460E1    -8.237780443087685E1    -1.700600970460431E2    -8.290076950563162E1     5.757003070693915E1
                        -8.606103388824856E1    -9.700615601599438E1    -8.485563068545899E1    -2.036844481292354E1    -9.290899572939259E-1   -1.120276936748797E1    -9.188069664330592E1     1.542820505323213E2
                        -8.755188844670444E1    -1.076521859048560E1    -9.440494665220513E1    -6.164582822117306E1    -9.204257347968235E1     4.354295903016619E1    -9.252113864528373E-1   -1.624511635577854E1

 3.032500000000000E7    -2.507735601351343E-1    1.010909063982419E2    -6.769560619847719E1     8.207957445168683      -9.618985197973927E1     6.178113523441877E1    -8.330049718373076E1     7.168992774836011E1
                        -6.655876855095860E1     6.060160364157154      -2.323029815357389E-1    8.898524659658665E1    -8.561187960337250E1    -3.289882122700718E1    -8.222526542591682E1    -1.196853840110292E2
                        -1.048316735110365E2     1.466049111955230E2    -8.696235546322487E1    -5.298207224695722E1    -9.257980109632020E-1   -1.150393600947841E1    -8.663821681045980E1    -2.321928709877872E1
                        -8.553289572190118E1    -1.017039409885954E2    -9.634824557872921E1     2.634574250095135E1    -8.228105725480225E1    -1.854457578474981E1    -9.277077762403446E-1   -1.656370032992080E1

 3.035000000000000E7    -2.507886255843993E-1    1.007707108964010E2    -6.554855013275764E1     1.209628912403694E1    -9.144275080960880E1     1.314631810504696E2    -9.400069841671937E1    -2.364088821441706E1
                        -6.627176106524100E1     9.202584334228664E-1   -2.316421082192714E-1    8.864881513774711E1    -8.572510805821082E1    -3.593252777784385E1    -8.984840403733193E1     1.343849272452985E2
                        -8.954797184105087E1     1.485699824484322E1    -8.371528128941134E1    -7.810000160370871E1    -9.242896027575974E-1   -1.180680007563733E1    -8.826781633275088E1     9.105822193740178E1
                        -8.288658413006732E1    -4.609311151115749      -8.561192488164443E1     9.954887079619287E1    -8.493661316339382E1     1.448266787352280E2    -9.316972928113910E-1   -1.685885435288389E1

 3.037500000000000E7    -2.460847085066978E-1    1.004793165164788E2    -6.538906471305997E1     6.103049276661486      -9.572241431060830E1     3.234265637850431E1    -8.247143457081377E1    -8.534334428037408
                        -6.634058423020917E1     1.042007873017077E1    -2.352414695168173E-1    8.825947655599065E1    -8.616131350293054E1     6.867762192582966E1    -8.229031397998561E1     1.153869964925235E2
                        -9.029667019530508E1     3.585423213112682E1    -8.740121867879735E1     6.580955423728956E1    -9.200343030944463E-1   -1.204874981521670E1    -8.701880677957682E1    -1.666267371873500E2
                        -9.548006880652720E1     1.596746803004722E2    -9.102943370083369E1     1.583947243498339E2    -8.800512795028544E1    -3.748519732577074E1    -9.291859412386179E-1   -1.713674902180026E1

 3.040000000000000E7    -2.445960162395966E-1    1.002122466306604E2    -6.622075569680801E1     1.459000332267233E1    -7.941085008974658E1     1.717311245762127      -8.327949191961407E1     1.125225290654130E2
                        -6.713306374350113E1    -1.447673190871006      -2.385920502504445E-1    8.788889674821071E1    -8.025817783121798E1     6.819644958995784E1    -9.302656303357171E1    -1.081449620023639E2
                        -8.475390681503087E1     1.485517382585545E2    -8.958302223072039E1    -1.788219833709590E2    -9.243750119204547E-1   -1.243055829572333E1    -8.526062082990093E1     1.190115701244315E2
                        -8.369681350520361E1    -1.726078757552328E2    -8.486876988244921E1     1.047110927189392E2    -8.384844834882918E1     1.161766854871261E2    -9.236160601269382E-1   -1.746346751658219E1

 3.042500000000000E7    -2.450897477472524E-1    9.988707774176520E1    -6.656639198203035E1     4.916383513961147      -8.434157331639960E1    -1.749184480074141E2    -8.266184151270970E1     8.204911565151986E1
                        -6.720332356888139E1     7.797748564976331E-1   -2.368720913500959E-1    8.756295894911922E1    -8.724960975347612E1     9.087652881161209E1    -9.229085907353137E1     2.046725763710438E1
                        -9.283810555060823E1     6.908919461633333E1    -8.354691099307158E1    -1.327142700962931E2    -9.232360707828893E-1   -1.270613579734673E1    -9.748260672743997E1     1.221579236315424E2
                        -9.622703071852615E1     1.821197757344167E1    -9.260108953988741E1     8.595152587155095      -8.757356136564992E1     1.710668978852332E2    -9.286001703504800E-1   -1.777005397596225E1

 3.045000000000000E7    -2.451433526880204E-1    9.960734888924135E1    -6.685354594136157E1     1.465833100365060E1    -8.894465563210136E1    -1.559539506964539E2    -8.197509036075145E1     6.987449295978033E1
                        -6.553609145793612E1    -3.866514484664293      -2.333610410873189E-1    8.711248413244795E1    -8.778772264448296E1     9.196846385188512E1    -8.352078649781647E1     1.084684406979513E2
                        -9.120872044751729E1     8.422528751492403E1    -9.677185194403792E1     1.779795638528198E2    -9.169000042716917E-1   -1.298538501746992E1    -8.241288337249162E1    -1.609582745637239E2
                        -8.496637747987144E1    -1.327485074766867E2    -9.673172579527054E1     7.296032089958285E1    -9.303423792616459E1     1.336246989455488E2    -9.284954684538784E-1   -1.809781842170650E1

 3.047500000000000E7    -2.531959946075886E-1    9.928424679264302E1    -6.726353236103145E1     6.333733951573468      -8.408006174701498E1    -1.750633712165713E2    -8.409828044320939E1    -1.418792301929999E2
                        -6.667523786609382E1    -1.364853434008037      -2.313164372190146E-1    8.673425508858526E1    -9.540031447053994E1    -4.893558344108963E1    -8.315874013423384E1     1.319698677606669E2
                        -8.868011629535542E1     3.005923991632577E1    -8.013397797346795E1    -5.653854351556690E1    -9.180339583474945E-1   -1.328041225785520E1    -8.574869843956391E1    -5.047248489335146E1
                        -8.489304545138032E1     3.794624637415198E1    -9.411693744612471E1    -1.427978730729514E2    -9.800880097500148E1     1.193068144097316E1    -9.291726698282283E-1   -1.837662602376205E1

 3.050000000000000E7    -2.562655535125697E-1    9.901850557658037E1    -6.649607417688742E1     4.576250239791371      -9.116380779829984E1    -9.495551061792894E1    -8.582316748832555E1     1.134385436348998E1
                        -6.584383845106756E1     3.102695574210291      -2.317083832176776E-1    8.639179736282694E1    -8.237179768198929E1     1.244462682969356E2    -8.429306917368146E1    -1.106368130913610E2
                        -8.381678688444109E1    -7.687124923831173E1    -8.506023749787650E1     8.748006668636728E1    -9.122960803755116E-1   -1.361324738744798E1    -7.905393905918218E1    -1.425129712463911E2
                        -8.395072564412489E1    -1.170547851633450E2    -8.589589637403265E1     1.157604014746684E2    -8.511851986155546E1    -9.907995845984239E1    -9.325833396362844E-1   -1.872340129367791E1

 3.052500000000000E7    -2.476929009052779E-1    9.872339844239200E1    -6.509322444898510E1    -4.388668283378245      -8.599558348035281E1     1.000667175025021E2    -8.203133749111748E1    -2.677293792569291E1
                        -6.580576168838340E1     1.634362979752469      -2.384346734139010E-1    8.601992169169309E1    -8.316600287272158E1     6.629223377023885E1    -8.901194591994542E1    -1.015506264379128E1
                        -1.093303753324533E2    -8.196676489217836E1    -1.103948127111684E2    -5.542675395502786E1    -9.199055665925321E-1   -1.391820964160254E1    -9.015018567589738E1     1.584510053410532E2
                        -9.089787245672275E1     9.479082899366756E1    -8.614322928206171E1    -6.190305443440425      -9.713880765275195E1     1.047486364156006E2    -9.292613250241992E-1   -1.901133399366132E1

 3.055000000000000E7    -2.451231994952612E-1    9.842613284365974E1    -6.639648498346338E1     6.905411848131967      -8.534612753059537E1    -1.417204554101817E2    -9.165629773259816E1     1.210497052814073E2
