#  HZ   S   DB   R     50.00 
! Rohde & Schwarz Vector Network Analyzer 
! Rohde-Schwarz,ZNB8-4Port,1311601044102961,2.82
! Created: UTC 2/13/2019, 9:37:57 AM
! freq[Hz]                db:S11                  ang:S11                 db:S12                  ang:S12                 db:S13                  ang:S13                 db:S14                  ang:S14
!                         db:S21                  ang:S21                 db:S22                  ang:S22                 db:S23                  ang:S23                 db:S24                  ang:S24
!                         db:S31                  ang:S31                 db:S32                  ang:S32                 db:S33                  ang:S33                 db:S34                  ang:S34
!                         db:S41                  ang:S41                 db:S42                  ang:S42                 db:S43                  ang:S43                 db:S44                  ang:S44
! 
 3.000000000000000E7    -2.688798512785317E-1    1.015213966713571E2    -6.909341769232073E1     4.687479729241876      -8.450657465968497E1     1.669722523435090E2    -9.830376227158635E1     1.117297851749260E2
                        -6.912694564964090E1     1.295402774699186E1    -2.977365182390949E-1    8.972056610318437E1    -9.013256808312812E1     4.341550230933689E1    -8.670844885139466E1    -9.178396833853599E1
                        -8.105544929955869E1    -6.358462404060412E1    -1.008226804430791E2    -1.286573773174789E1    -9.261398254950810E-1   -1.145101241460646E1    -8.885748248053595E1    -1.044715898709706E2
                        -9.151184022971614E1     1.233835606491810E2    -9.224609638961627E1     3.560669298760991E1    -9.007242621366248E1    -6.943549441974938E1    -9.362803440728074E-1   -1.644735468857554E1

 3.002500000000000E7    -2.760482084191638E-1    1.012661040738852E2    -6.740463478354245E1    -2.877539142104183      -8.773050712254729E1     8.493364160545988E1    -8.557025064611429E1    -7.029906126909248E1
                        -6.946813911094998E1    -2.201947116284426      -2.995158541114282E-1    8.926666120785578E1    -8.229856314184963E1    -1.503020617793239E2    -8.925855886855230E1     7.358096107123178E1
                        -8.153384339784347E1     1.820254409021959E1    -8.483940463761610E1    -1.329920768049491E2    -9.293962793341398E-1   -1.175287239163013E1    -9.069876481264370E1     1.051321255907784E1
                        -9.422717875014473E1    -1.534487569710962E2    -9.436903925678271E1     6.055494057703377E1    -8.261287224745851E1     9.658440913774324E1    -9.396973633179446E-1   -1.674289817540031E1

 3.005000000000000E7    -2.734809270465481E-1    1.009591955919005E2    -7.142635994357667E1     7.282029397663675      -8.857029172437358E1     1.004267993898193E2    -8.398602487734053E1     2.613258383322643E1
                        -6.936051240773101E1     1.007134812296930E1    -2.971497173018713E-1    8.895861247310064E1    -8.357134712889886E1    -1.198858114238699E1    -8.683739283886111E1     1.112204727792651E2
                        -8.703703493239689E1    -1.617386820671847E2    -9.174753300232175E1     9.287479897310232E1    -9.288783982420745E-1   -1.205871338512779E1    -8.280821374787823E1     7.253414951022697E1
                        -8.933744057048649E1     1.118654990200023E2    -9.925437318231444E1     1.605245158703959E1    -9.528063000971022E1    -1.387030949185473E2    -9.441969557923908E-1   -1.707652096741211E1

 3.007500000000000E7    -2.686266470283666E-1    1.006238863248538E2    -6.964319500562270E1     1.624163069423195E-1   -8.413877443270756E1    -1.484070216873556E2    -8.766240011964604E1    -1.105474326160588E2
                        -6.866686975061982E1     9.291187514976834      -2.980161755523942E-1    8.853374824371433E1    -8.591551315936998E1     6.766451611779034E1    -8.564109805819454E1     8.158480771058642E1
                        -8.804807540311671E1    -7.087581269234653E1    -8.240538120345968E1    -9.657097890768601E1    -9.337749751940744E-1   -1.237586172433764E1    -8.594342410242882E1    -7.465618261493499E1
                        -8.301417066390870E1     5.283546596259853      -8.970563325826637E1     1.563500587931995E2    -9.429043818192935E1     9.290988294851444E1    -9.387892570544955E-1   -1.737645034748914E1

 3.010000000000000E7    -2.697796288185320E-1    1.003558993790524E2    -6.874568398117424E1     1.197525123950172E1    -8.504002386825511E1    -1.509488635942552E2    -8.846383853444245E1     3.608224558563038
                        -6.834978162921129E1     1.037318160993108E1    -3.009726601879313E-1    8.818743734281512E1    -9.232853427945284E1    -1.171425107819052E2    -9.464187130118910E1    -4.519108014648148E1
                        -8.813488325405717E1     1.461030521584231E2    -7.877033105954749E1     6.555275237009964E1    -9.268607850334758E-1   -1.268513040008525E1    -8.627068643539735E1    -1.316417255936541E2
                        -8.507952680396090E1     3.401387109852411      -8.277347267936356E1    -1.591634591625808E2    -8.269712561650030E1    -9.735471300840089E1    -9.404498698028468E-1   -1.771254948058705E1

 3.012500000000000E7    -2.681291389340301E-1    1.000630726286112E2    -6.890163883898983E1     3.902531717775397      -9.443055836534435E1    -8.313053427806725E1    -9.085546425019473E1     5.678802806105522E1
                        -6.878324611127248E1     1.842509979406660E1    -2.992721802225725E-1    8.788730922101287E1    -9.365776014121046E1     1.576461959220720E1    -8.302658158690750E1    -4.817868528782140E1
                        -9.207269148778710E1    -6.051371019745433E1    -9.272198415554284E1     1.184208584162957E2    -9.333773558975278E-1   -1.298588608657707E1    -8.849032313108248E1    -6.231339593223709E1
                        -8.308750944698826E1     1.326679593881936E2    -8.810303560965099E1     6.615454960754997E1    -9.282165526348371E1     3.295722990056994E1    -9.409488918430603E-1   -1.801605357376807E1

 3.015000000000000E7    -2.696244461737073E-1    9.975940133955594E1    -6.836669085361254E1     6.311177077746640      -8.821180081948548E1    -7.532537777769632E1    -8.076280546559406E1     2.822985949477775E1
                        -6.768749521911286E1    -3.922953260023646      -3.026187887474766E-1    8.743119183663542E1    -8.272120862466824E1    -7.485996069878672E1    -8.607124166998722E1    -1.740269104278971E2
                        -8.612593253170603E1    -2.571277618093385E1    -9.036901009517155E1     8.516722253968547E1    -9.268512372873314E-1   -1.333191996093258E1    -8.286511882925437E1    -8.085552210339397
                        -9.248344619810050E1     1.380653561918401E2    -9.036062649904184E1     1.264391998264313E2    -8.555861057844163E1    -8.099735239228410E1    -9.421017320738625E-1   -1.831315887540971E1

 3.017500000000000E7    -2.622807584944678E-1    9.946406248068914E1    -6.902604750844924E1    -2.865924377137873      -9.997882419977303E1     1.597299300107315E2    -8.358185955670679E1    -3.136395257689838E1
                        -6.786596402116588E1     1.050245943233021E1    -2.966785013883639E-1    8.702527606639677E1    -8.983455548986130E1     1.128421589722453E2    -8.534359872683106E1     1.521015833857128E2
                        -9.141915037114714E1     8.667275945644707E1    -9.011307718743639E1    -1.459661532354034E2    -9.290310883595536E-1   -1.356421989107846E1    -8.328292244471415E1    -5.463191150641509E1
                        -1.024947361661485E2     3.873370862558743E1    -1.147329847940309E2    -1.019216544664622E2    -8.847938170849207E1     1.109832104562753E2    -9.414175081968706E-1   -1.864922625318785E1

 3.020000000000000E7    -2.605563354361659E-1    9.916430138566611E1    -6.977282578470026E1     1.126998037134215E1    -8.557427349205454E1    -1.690062887376339E2    -8.149757974559091E1    -1.526139319795946E2
                        -6.808771224720503E1    -5.092620869854811      -2.986512621970082E-1    8.673960386392123E1    -1.028127036923946E2    -8.256958727485930E1    -9.216856563647377E1    -5.044394503425026E1
                        -8.187765612082941E1    -1.556196779626643E2    -8.799886004567462E1    -1.184863503238246E2    -9.321561147836019E-1   -1.388685738044249E1    -8.318085144677845E1     1.591132502098414E2
                        -8.933885438162247E1    -1.486017694033815E2    -8.186514361324501E1     3.416120379000343      -8.588760789887978E1    -2.863603462799929E1    -9.423477191785399E-1   -1.899389115579803E1

 3.022500000000000E7    -2.761045018747930E-1    9.887906891617506E1    -6.703069810402731E1     7.410758023092764      -8.635803074970502E1     1.200679964661321E2    -8.283650191986126E1    -6.993163260714833E-1
                        -6.824188939151728E1     1.386413750752053E1    -3.013720924616959E-1    8.631295220690552E1    -8.563697815339403E1    -1.799800406542863E1    -9.221468772952076E1    -1.578050373139925E2
                        -8.616522785710248E1     1.134983603170558E2    -8.961350878376092E1     2.220998460068207E1    -9.305770130619522E-1   -1.421266818618402E1    -9.001135404849364E1    -1.240897670632170E2
                        -8.300818564058767E1     5.988068872714036E1    -9.078508148403422E1     2.769196268533606E1    -8.535259437101566E1     1.582573455439515E2    -9.363019006716044E-1   -1.926781800113830E1

 3.025000000000000E7    -2.693006128862917E-1    9.857294910406689E1    -6.845329722288557E1     1.657037547622255E1    -8.962525922849946E1    -7.863478621255847E1    -8.888530905635471E1     1.622529592490284E2
                        -6.874321843883027E1    -6.658738151831968      -3.079091760576795E-1    8.597703159767170E1    -8.101246554175114E1    -3.065628554334718E1    -9.871221988686551E1     6.474966919353464E1
                        -8.895984915470501E1     1.330663436656047E2    -1.010722595931351E2    -1.583343396380580E2    -9.204625657335337E-1   -1.449559449518198E1    -8.700332227099658E1     5.001679682199585E1
                        -8.681660051735010E1    -8.355749614481996E1    -8.038150650034376E1    -5.761145791859239E1    -9.485694473680864E1     5.152637295771301E1    -9.403774644836788E-1   -1.958662132024554E1

 3.027500000000000E7    -2.659608321081984E-1    9.830005748382114E1    -6.868527893459589E1    -5.511086415807160E-1   -8.779463603802697E1     9.941784343740389E1    -8.514160467979440E1     1.002082201632834E1
                        -6.907025834020594E1    -1.475673887038224      -2.869704995415602E-1    8.555866004518404E1    -8.135247114610377E1     1.277191352144463E2    -8.532837530132645E1     2.122293596607061E-1
                        -8.985197592610143E1     1.631542137426742E2    -8.392371884453002E1    -1.157261071732157E1    -9.259920631015985E-1   -1.479249455025743E1    -7.927226562907148E1    -6.056285827886948E1
                        -1.020762227352089E2    -1.109427469258268E2    -8.436177565372097E1    -1.048097720329889E2    -9.324159228520176E1     9.916835253119918E1    -9.413669394195814E-1   -1.991556631400153E1

 3.030000000000000E7    -2.672860922704609E-1    9.800649332693257E1    -6.759018521398652E1    -4.582801499778505      -8.748256465750829E1    -2.709183015628432      -8.300184909629253E1     9.010785721056969E1
                        -6.937772181718690E1     3.171924194662503      -2.927789962686410E-1    8.517924173798619E1    -8.507886026217251E1    -5.927167112698092E1    -1.014025093552300E2     7.101697235019290E1
                        -8.622510821092243E1    -1.329152466706051E2    -8.179187083781974E1     5.316592554098470E1    -9.336963297570369E-1   -1.509424432514192E1    -8.208520277421501E1    -1.361010564858588E2
                        -8.993059383034277E1    -8.043456018205684E1    -8.536151434375215E1    -1.378649596320381E2    -8.845488863997355E1    -5.374136016356151E1    -9.391582293682675E-1   -2.022134479090160E1

 3.032500000000000E7    -2.628497427415346E-1    9.767303879933709E1    -6.742392844358383E1     1.609277967946003      -8.694714670771313E1    -4.595282694583883E1    -8.660688932669683E1    -1.433301101228081E2
                        -6.808674482662427E1     8.427607416843383      -2.884526448932705E-1    8.480592097951481E1    -9.818689981503320E1    -1.700974150531469E2    -8.696470805531972E1     1.017164581088463E2
                        -9.186505791110119E1    -7.753063491679923E1    -8.522127086312358E1     1.782311523189219E2    -9.339294331058302E-1   -1.544379251680560E1    -8.914454421935952E1     8.136274486434509E1
                        -8.371360195992770E1    -1.005850429100585E2    -9.285378178363624E1    -1.754664327792925E2    -9.140832052942523E1    -2.475889803438167E1    -9.415732551783062E-1   -2.054089965721765E1

 3.035000000000000E7    -2.573566848455201E-1    9.742176313955339E1    -6.749770904264882E1     5.780282505681247      -8.048542358813508E1    -1.583075108579799E2    -8.318818432431743E1    -1.414039948222002E2
                        -6.780784663483195E1    -1.083050055844348E1    -2.942651984553995E-1    8.444111656111994E1    -8.174322826742687E1    -9.397006890105635E1    -8.255260065632305E1    -1.037953408273568E2
                        -9.648648612189555E1     1.002677339101422E2    -8.740864851039538E1    -9.475582524257939E1    -9.232586223636553E-1   -1.574240447243621E1    -8.602676566167335E1     9.296064765357794E1
                        -7.946171130326590E1    -1.775705051396610E1    -8.734950911482329E1     1.712801574824581E2    -8.599141972355858E1    -1.461430237137670E2    -9.394213205447622E-1   -2.083431008477515E1

 3.037500000000000E7    -2.623706180914256E-1    9.711794637510947E1    -6.718517101899863E1     9.705003941069556      -8.428486967890676E1    -4.684279709107788E1    -8.840691639467565E1    -1.495232182044323E2
                        -6.815484679012708E1     4.310785657333372      -2.991662236971591E-1    8.405848299854063E1    -8.337822893841499E1     1.465861713801997E2    -8.471067630569317E1    -1.792043279343019E2
                        -9.264110003315095E1     1.690313470136148E2    -8.535961766804485E1     1.737617710000556E2    -9.280035369799805E-1   -1.599862250047151E1    -8.418026751366182E1    -1.510972969483350
                        -8.253938481344308E1     1.224958094398090E2    -9.263889557390043E1    -7.242963227213748E1    -9.235612787770251E1     1.603758456838001E2    -9.383587239503677E-1   -2.113415049354843E1

 3.040000000000000E7    -2.602302573435034E-1    9.679473482833279E1    -6.767764040464694E1     1.011325330076365E1    -8.667240785724579E1     6.133259801303016E1    -7.649273564007517E1    -1.359124492846010E2
                        -6.790009862806872E1    -6.237854748077488      -2.976780657512031E-1    8.370521017185567E1    -9.231586976840781E1    -1.091694206989580E2    -8.547388892731638E1     1.182515914059135E2
                        -8.436892232159212E1     1.196891529914831E2    -9.419293635303332E1    -1.445849853724536E2    -9.227194573061370E-1   -1.633340142903492E1    -8.270255291966393E1    -1.761056250719204E2
                        -1.053726605196064E2     1.701741815861730E2    -8.775422615636086E1    -9.848506809191738E1    -8.061709710209905E1     2.035444681884454E1    -9.411562523478294E-1   -2.147298281735203E1

 3.042500000000000E7    -2.623483064514577E-1    9.655276314040026E1    -6.813771964284189E1    -1.712480479770410      -8.211754717266896E1     7.986092631447414E1    -8.471150412275095E1    -1.408928516280107E2
                        -6.832892608663019E1    -7.660075674812423      -2.932417793120396E-1    8.338743370919940E1    -8.568810711415119E1    -8.991332221215599E1    -9.054923368779865E1    -1.266999277087335E2
                        -8.594148390042560E1    -1.446751722578545E2    -8.981750422081774E1    -1.042409247022560E2    -9.237483934816287E-1   -1.664754759682349E1    -8.731967725440910E1     1.733523712439919E2
                        -8.063726607472462E1    -2.623484324292289E1    -8.611975686525652E1    -4.035962260802713E1    -9.156681788608734E1     6.233546287750290      -9.418497822999772E-1   -2.178818094035636E1

 3.045000000000000E7    -2.566659386877879E-1    9.624079672455703E1    -6.746345484340728E1     2.281161043757555      -8.304062325717814E1    -3.878950283155019E1    -8.584854425699076E1     3.137759031735292E1
                        -6.740075883944684E1     4.841245149163061      -2.927525595033987E-1    8.288351083412992E1    -7.971332561415852E1     1.184438301493273E2    -8.991785581541249E1    -7.879503049843410E1
                        -8.231886897950000E1     1.319589728976230E1    -1.006510656581401E2     1.140155857772337E2    -9.240968553025617E-1   -1.689746466710620E1    -8.604405706513923E1     1.726596336352195E2
                        -9.644057732065761E1    -6.612292658442628E1    -8.797954174488274E1    -6.880420363532811E1    -9.559858183956098E1     2.242794636563536E1    -9.396340590928047E-1   -2.208811653773735E1

 3.047500000000000E7    -2.627033505137600E-1    9.592108632866066E1    -6.642578747454897E1    -3.131553723526499      -8.029034438842031E1    -1.305019209281074E2    -8.287007888573515E1    -2.896668547684330E1
                        -6.772077749156526E1     4.973961293176921      -2.904168289027295E-1    8.258354571242637E1    -8.385438128082731E1     9.751146765549299E1    -8.511649139961845E1    -8.798364947783549E1
                        -8.461629926621743E1    -7.737209343452881E1    -9.199082368338766E1     1.167984533413543E2    -9.274897001178180E-1   -1.724189975411306E1    -8.323329367164739E1    -1.259126197907521E2
                        -7.942584549119168E1    -4.805759294748370E1    -8.556888535892693E1     1.461155302480838E2    -9.187548398871098E1    -1.799688229098838E2    -9.403749515429584E-1   -2.241871714222567E1

 3.050000000000000E7    -2.656855711465008E-1    9.567580498654998E1    -6.780347000289991E1    -5.214594923056377      -8.180840405350494E1     6.125507215181513      -9.215325820809755E1    -3.208447316852573E1
                        -6.700566860978395E1    -1.135957732548331E1    -2.941434572620442E-1    8.215892640165150E1    -8.967021686795650E1    -1.403343345277488E2    -7.955960874354469E1     1.102298633050272E2
                        -1.015379914537340E2     5.970010718472835E1    -8.840016602380787E1     5.395522656138621E1    -9.279178588370538E-1   -1.755400066929374E1    -8.448837897121979E1     4.865304125729729E1
                        -8.489764583953404E1    -8.712406066165572E1    -8.432338052280001E1     3.182586247741556E1    -8.760465863628591E1    -1.758155390232847E2    -9.439829721957698E-1   -2.273082382831250E1

 3.052500000000000E7    -2.581357822612365E-1    9.534054102649010E1    -6.697890738275954E1     1.466835262194016E-1   -8.815270506028992E1    -7.626904949195776E-2   -1.076993891820443E2     7.974913793650057E1
                        -6.883833388765279E1     6.543724268355968      -2.914510929699531E-1    8.180489081778347E1    -9.053052771470030E1    -1.699357689087604E2    -9.478400324759362E1    -4.469567963632373E1
                        -8.988751649257706E1     7.726281596922026E1    -8.613534036778779E1     3.997324971138608E1    -9.291791179665063E-1   -1.782352486644615E1    -8.066863910136286E1    -4.116715392495632E1
                        -8.334514758858562E1     2.993718735970044E1    -8.892238473706485E1    -1.509099392209184E1    -8.953823986515657E1    -1.261676573299684E2    -9.413396559746223E-1   -2.307526099620284E1

 3.055000000000000E7    -2.555691589647099E-1    9.502515272832329E1    -6.850994760088116E1    -4.662891913277245E-1   -7.947946054063353E1    -1.748852965332361E2    -8.458949188764308E1     4.078483517341449E1
