#  HZ   S   DB   R     50.00 
! Rohde & Schwarz Vector Network Analyzer 
! Rohde-Schwarz,ZNB8-4Port,1311601044102961,2.82
! Created: UTC 2/13/2019, 9:42:03 AM
! freq[Hz]                db:S11                  ang:S11                 db:S12                  ang:S12                 db:S13                  ang:S13                 db:S14                  ang:S14
!                         db:S21                  ang:S21                 db:S22                  ang:S22                 db:S23                  ang:S23                 db:S24                  ang:S24
!                         db:S31                  ang:S31                 db:S32                  ang:S32                 db:S33                  ang:S33                 db:S34                  ang:S34
!                         db:S41                  ang:S41                 db:S42                  ang:S42                 db:S43                  ang:S43                 db:S44                  ang:S44
! 
 3.000000000000000E7    -2.691744415785207E-1    1.015236400659599E2    -6.889454748833275E1     3.881240907256084      -9.341972811778379E1     9.831070929604286E1    -8.514648738473113E1    -6.763552018854249E1
                        -6.922924637639331E1     4.959132113189349      -2.945033390735873E-1    8.975406282437609E1    -8.767146732868983E1    -9.865995828792494      -8.868989529135814E1     5.641048179719703E1
                        -8.104775666582994E1    -8.825952773023936E1    -7.988689349581685E1     1.783154480199914E2    -9.285486305966278E-1   -1.145559791916704E1    -8.298084161464722E1     5.483631224690895E1
                        -8.980416192175713E1    -6.179595921746456E1    -8.020687451911454E1    -1.573178645289683E2    -8.279636812741528E1    -1.318651227276928E2    -9.399583279535233E-1   -1.642760387999135E1

 3.002500000000000E7    -2.688916708279638E-1    1.012488285417014E2    -6.817054997591183E1     1.415459014147074      -7.963230234732973E1     1.701580864711663E2    -8.995889566039315E1     4.240155408091344E1
                        -6.902974501056669E1     9.069688559365147      -3.028107556011328E-1    8.935236873434820E1    -7.965224372207690E1     7.644735354636114E1    -8.441325472799831E1     8.664310901991394
                        -9.023059187840016E1    -1.359056330513187E2    -8.643408661055250E1     1.041545852425546E2    -9.322537972999594E-1   -1.177076488112963E1    -8.282904579836796E1    -9.553060510656673E1
                        -9.864988499710977E1    -9.997292218758854E1    -8.446316207289533E1     1.415830250740166E2    -8.780052493896494E1     1.653874748116575E2    -9.404885374453155E-1   -1.674426784699415E1

 3.005000000000000E7    -2.739361329417415E-1    1.009512207862793E2    -6.959899917458826E1     1.016535384422734E1    -8.150377893276692E1     1.642400480284357E2    -8.206784759933080E1    -1.541941442632807E2
                        -6.979047428939217E1    -2.726837438241656      -2.934376462232220E-1    8.901236109222069E1    -8.117377482513618E1    -2.539883120109026E1    -8.882350646385056E1    -1.614924989850302E2
                        -8.327493941513015E1    -6.616422377138903E1    -8.712827291869169E1    -2.227850311245712E1    -9.239896278881276E-1   -1.202912707224697E1    -8.802720847596621E1    -1.555579686915391E2
                        -8.099747410695117E1    -2.083062655088993E1    -9.225994554318868E1    -1.211852110124631E2    -9.289936938578499E1     1.119991538088237E1    -9.391052410519627E-1   -1.707933168419164E1

 3.007500000000000E7    -2.707698677734052E-1    1.006437162646573E2    -6.779250794875448E1    -3.612814129759630      -8.782894241544838E1    -1.171047471116397E2    -8.553931293689749E1    -2.069955654086514E1
                        -6.899743065859104E1    -8.065472777745240      -2.962869644348128E-1    8.856878956261761E1    -8.737314313899397E1    -8.099411206901783E1    -1.021314174014477E2    -2.187257774626371E1
                        -9.116516415451009E1    -1.223448394685668E2    -9.209115812657556E1     1.412468063786790E2    -9.300271610155904E-1   -1.239930726659263E1    -8.961451953918378E1    -3.682197845358593E1
                        -8.168211086894281E1     1.363854583073907E2    -8.515304747759225E1     1.354063133124371E2    -8.903677859147754E1     5.122540994377064E1    -9.377018585973966E-1   -1.740925244119502E1

 3.010000000000000E7    -2.654046061990342E-1    1.003545185935394E2    -7.006306613658987E1     4.960889490113883E-1   -8.283214993494069E1    -3.466155727258953E1    -8.678919823839168E1    -1.439122970173932E2
                        -6.972452558144597E1     8.452240620870587      -3.022102635176319E-1    8.826569472894485E1    -8.642982562885003E1     1.724240922181604E2    -8.408866679910646E1     1.159698938492276E2
                        -9.221986391475569E1     1.165847740675079E2    -9.808937733109281E1    -1.230592982884865E2    -9.287287432268463E-1   -1.268420810363200E1    -8.033413715472946E1     3.068631629327465E1
                        -9.432666956165718E1     8.186552627562924E1    -9.186967525286840E1     1.729740967976008E2    -9.686565614605220E1    -1.695006136212691E2    -9.431738639703522E-1   -1.770785631060699E1

 3.012500000000000E7    -2.642702827871186E-1    1.000595773846565E2    -6.918347217157644E1     9.853744079594581      -8.171445811862192E1    -7.481331507900495E1    -8.124061945103028E1     1.365513571153733E2
                        -6.834565548671839E1     2.065880140308376      -2.955262975080221E-1    8.788059259498516E1    -8.619371809914554E1    -3.357283984989175E1    -8.917481515329524E1    -1.512712007922491E2
                        -8.375820690105142E1     3.681733058680850E1    -8.143303818271976E1    -7.585545175583800E1    -9.306091866357356E-1   -1.294026361678906E1    -8.261260116514998E1    -7.968496027886631E1
                        -8.788099142067070E1     1.085930913817390E2    -8.652125811356733E1    -1.087062661016712E2    -8.299064098853735E1     5.113478639164737E1    -9.362307685512307E-1   -1.801122910611807E1

 3.015000000000000E7    -2.661142081516976E-1    9.976832405083125E1    -6.849090574795652E1     3.006171524631563      -8.735285649993664E1     1.154509357924709E2    -8.877862464783658E1    -1.344591386593808E2
                        -6.855181801766398E1     9.096646864802690      -3.018755363570851E-1    8.746274014133552E1    -8.658345089819598E1     1.095870213935395E2    -8.463565575991296E1     1.016453992918616E2
                        -9.620988287180813E1     8.654603555000725E1    -9.056101284398908E1     9.184611266050732E1    -9.313697137985539E-1   -1.324916979269298E1    -8.468920507088106E1    -4.507886432655295E1
                        -9.712152004511870E1    -5.406036611164232E1    -9.518120676764190E1     1.309706028948680E2    -8.288971513896776E1    -5.014501409656511E1    -9.383873405021930E-1   -1.830814621727896E1

 3.017500000000000E7    -2.604784563757295E-1    9.945839595178778E1    -6.868433892788622E1    -8.679412592401690      -9.127105918832790E1    -4.367417845429645E1    -8.867945339314241E1    -9.155804752961420E1
                        -6.931211208473415E1    -1.997876318054786      -2.919854684035318E-1    8.713228034161089E1    -9.792630559763094E1     8.298461982532820E1    -8.398156405441318E1    -1.690165003910529E2
                        -8.394588108392249E1    -1.383667191609213E2    -8.286315955381738E1    -2.666089245281143E1    -9.219565518509720E-1   -1.359092308220602E1    -8.611018666598781E1    -2.505496584206471E1
                        -8.993229761686592E1    -8.882368739859420E1    -9.351498169300790E1    -1.188629406053223E1    -8.327649773086000E1     1.563356567071793E2    -9.418340860927142E-1   -1.862811857598483E1

 3.020000000000000E7    -2.599677281151229E-1    9.919841347187663E1    -6.855761166617984E1     2.681579121737990      -1.013021851295025E2    -1.686946820900581E2    -8.881760840171683E1    -4.615537720883678E1
                        -6.701196620813212E1     1.648577803720460      -2.909666211348829E-1    8.671534653561820E1    -8.870071407833727E1     1.114443000552484E2    -8.043723386077684E1     1.308523493204809E2
                        -8.286971713730209E1    -1.562194784378192E2    -8.380196466266770E1    -9.569392209531593E1    -9.231834658919729E-1   -1.388258144797725E1    -8.476996385348195E1     6.010101345163704E1
                        -8.890416732067472E1    -1.140210343326754E2    -8.507105403253468E1     1.513612867993103E1    -8.554134390548101E1    -3.404121237360579E1    -9.390202230935972E-1   -1.897124261638027E1

 3.022500000000000E7    -2.680933478633438E-1    9.887626195323300E1    -7.009667667200598E1     1.167149661101869E1    -8.621350130070337E1    -9.339540083934138E1    -8.870536796244890E1     1.595378479460372E2
                        -6.841567037959607E1     5.526028175662900      -2.940491519254526E-1    8.633647933191550E1    -8.384984230074545E1    -4.817092728830860E1    -9.960126267003116E1    -1.268815107823045E2
                        -9.172893872825341E1     9.608733376636901E1    -8.777812861879262E1     9.559065316763039E1    -9.331570579151003E-1   -1.418195157610899E1    -8.367431031435260E1     1.326717388309905E2
                        -8.938829965318421E1     9.626694211535341      -8.348421418500143E1     1.657040628223193E2    -8.789298022402407E1    -1.423882682748626E2    -9.390867139138430E-1   -1.928166485903779E1

 3.025000000000000E7    -2.634411301827994E-1    9.859008466240022E1    -6.822294500962087E1     6.524675635539690      -9.289100904152238E1     2.706322786107374      -9.385614179205616E1     1.025329313701887E2
                        -6.743203173230290E1    -3.084915573246773      -3.066575046238360E-1    8.599786284945137E1    -9.265972164673681E1    -1.355054646773859E2    -9.063906415757118E1     2.536238474997558E1
                        -8.456296388498687E1    -5.137391352295877      -7.989383994510823E1     3.645225244473760E1    -9.284910683088434E-1   -1.449267488407928E1    -9.558771263980277E1     1.758002296447275E1
                        -8.642246894263664E1    -9.972597314665781E1    -8.620608572052974E1    -1.604710617129970E2    -9.571903608014341E1     4.804937234782616E1    -9.418317046336054E-1   -1.960259528773976E1

 3.027500000000000E7    -2.664401421431730E-1    9.829385278421219E1    -6.914376986315081E1    -9.278499191181298      -8.881588608429931E1     1.901804236630625E1    -8.057310897295302E1     4.875095104671038E1
                        -6.866936530892983E1     1.353353192223025E1    -2.832820244504581E-1    8.554899314788257E1    -8.322814208759552E1     9.359380181633050E1    -8.632643777206597E1    -9.770198764265421
                        -9.032511733724618E1    -1.491227593927854E2    -8.766667733396258E1    -2.071544405626785E1    -9.263426264070409E-1   -1.482806238558678E1    -9.010837276437744E1     1.668928611690146E2
                        -1.039253925262745E2     4.328051870561515E1    -8.824326383504014E1    -6.329396189454866E1    -8.880997771511966E1     9.672653757609301E1    -9.410231816151633E-1   -1.990750524893833E1

 3.030000000000000E7    -2.686952707967529E-1    9.799989163503565E1    -6.725788072542950E1    -4.293322195058500      -8.411100105153130E1    -1.026696340420974E2    -8.282893567831690E1    -1.635661333415991E2
                        -6.869158177957000E1    -4.520258717286864      -2.915423452027124E-1    8.527507347342407E1    -8.628325738965290E1     4.359894457694769E1    -8.671664636002737E1     4.044034018774826E1
                        -8.460544709703837E1    -1.510611335976383E1    -8.631009025616550E1     3.224140307006464E1    -9.284340476084395E-1   -1.515390852671458E1    -8.836887859167169E1     1.368074896302763E2
                        -8.771405246794603E1    -5.656227934538561E1    -9.052159517847188E1    -5.136254385016100E1    -9.090046062187591E1    -9.815847358415812E1    -9.415019507697963E-1   -2.024687467175115E1

 3.032500000000000E7    -2.616199766706944E-1    9.772151083974048E1    -6.774383716799477E1     6.744573991265987      -8.694592755755166E1    -2.139888376966949E1    -8.011227321966074E1    -6.289595400940161E1
                        -6.823087936716352E1     1.027331769285672E1    -2.849219927923754E-1    8.486234178057367E1    -8.278561345140034E1    -1.261331494184699E2    -8.052787299276389E1     1.111620801561128E2
                        -8.557036965764030E1     7.082619101991338E1    -8.492557727756876E1    -1.767734378685811E2    -9.255334520591747E-1   -1.545266232937923E1    -8.400925465448790E1    -8.320644970216573E1
                        -9.551660679297568E1     5.546294394789448E1    -8.460380797691826E1     2.330669042204917E1    -9.491332752869846E1    -9.090302448492638E1    -9.393077638033486E-1   -2.048808554873046E1

 3.035000000000000E7    -2.539938456284979E-1    9.745105143587952E1    -6.803021520602387E1     3.753766709223074      -8.206997489084267E1    -7.619678090439362E1    -8.435341811118100E1     5.882430419559376E1
                        -6.955314249933373E1     9.513772816051889E-1   -2.892698937297183E-1    8.445223013875967E1    -8.208543828589818E1     7.117869626896223E1    -9.689918781332108E1    -1.708369386183464E2
                        -9.155461317694844E1    -1.614756411587019      -8.367537620354135E1    -1.157562418958927E2    -9.232416919092917E-1   -1.574309248118800E1    -9.025472796427847E1     8.323014076927380E1
                        -8.239206019356010E1     1.232741683862750E1    -9.137174270884077E1     2.348298789818294E1    -9.115852754996536E1     1.247361057668588E2    -9.427860512374630E-1   -2.086281060413513E1

 3.037500000000000E7    -2.582028561439971E-1    9.713310884592654E1    -6.681909227711338E1    -6.478152904497818E-1   -8.604137512453208E1    -4.108641075463698E1    -8.579972604809392E1     4.996517967346139E1
                        -6.842016126197918E1    -2.529310692942034      -2.932666885693364E-1    8.406338284257238E1    -8.219236547923825E1     1.102804127684276E2    -8.474089593820496E1    -1.538718527250453E2
                        -8.574654256323241E1    -2.493360617719734E1    -9.377119890562815E1     1.839595374552562      -9.325539082231344E-1   -1.602628760811192E1    -9.158775688550703E1    -7.881365805894332E1
                        -8.372285162255132E1     7.507552760200295E1    -8.338437773104168E1    -8.556264441816165E1    -8.495134331695140E1    -9.592007646108392E1    -9.396198775085690E-1   -2.113488713108205E1

 3.040000000000000E7    -2.571751241571711E-1    9.681539566534067E1    -6.998051250851336E1    -6.848783800418083      -8.476053225918173E1     1.783814179909821E2    -9.166751510155007E1    -8.286417848241943E1
                        -6.737411037458000E1    -5.674922247545745E-1   -2.945526912569755E-1    8.376362704790904E1    -8.365838338313910E1     1.780228494603710E2    -8.966440991848307E1     1.078220852644089E2
                        -8.727055685386549E1    -1.208088564938351E2    -7.718674216773270E1    -8.965110524118427E1    -9.363537127518933E-1   -1.633964227365931E1    -8.491788095761764E1     1.477562518980823E1
                        -9.005875888377894E1     1.532802720942134      -8.982025081894994E1    -5.051466748676867E1    -9.153873142281761E1     9.952052906157441E1    -9.416191854399668E-1   -2.149820722624122E1

 3.042500000000000E7    -2.573155480588590E-1    9.652205971960619E1    -6.787630727387436E1    -5.185780350532066      -9.461203055439641E1    -9.757457846316925E1    -8.103634670221484E1    -1.786093634228549E2
                        -6.745970082221473E1     7.240436929285267      -2.918937360042397E-1    8.338887480144774E1    -8.658550987108532E1    -1.390672126742023E2    -8.552169758344115E1    -4.672290658755849E1
                        -8.329068770494267E1    -6.174393240172066      -8.487610293474299E1    -1.219116322971588E2    -9.288004995100299E-1   -1.661908578956309E1    -8.928707207791103E1     1.181001214661345E2
                        -9.651527632964191E1     4.164999482699372E1    -8.323586672408744E1     5.774747336649114      -9.656774360324086E1    -3.813031359981684E1    -9.370429452021367E-1   -2.180622755130824E1

 3.045000000000000E7    -2.590453855265583E-1    9.623372851240141E1    -6.763659641168721E1     1.073413271831066E1    -9.089854696107169E1    -4.599107833731847      -8.807068690655365E1     1.500293621023563E2
                        -6.860626574711417E1     5.300814564831101      -2.895936173973399E-1    8.293240788382937E1    -8.428255577342178E1    -3.141557472954553      -9.116189011824658E1    -6.876945614512597E1
                        -8.778288174175634E1     1.206106313008325E2    -8.987160232669285E1     8.672186422760693E1    -9.279331340926573E-1   -1.693834472271494E1    -8.493284561629567E1     2.860803279247616E1
                        -9.435717604163227E1    -9.037267133536693E1    -8.257414329920354E1    -4.340692188960669E1    -8.024390397816444E1     1.441065964199226E1    -9.395984554422001E-1   -2.209959888053133E1

 3.047500000000000E7    -2.607683346248191E-1    9.590417171516987E1    -6.677821197372535E1     1.742344596206680      -8.721346377482263E1     1.322764376652313E2    -8.785273393629015E1     5.830308311994543E1
                        -6.795980380101797E1     1.308384843165574      -2.889602232054914E-1    8.264056216235794E1    -9.900737470773927E1    -1.658804195444987E2    -8.867482145719282E1    -1.447793104646940
                        -9.640071691327860E1    -6.146404013258542E1    -8.870821437261918E1    -1.778179492667375E2    -9.278865283507005E-1   -1.721618140417855E1    -9.577436917335108E1     1.380046652589535E1
                        -8.768585298746204E1    -5.089679940697339E1    -9.109185741890317E1     8.187747235711771E1    -8.567094948679400E1    -8.933473558006858E1    -9.381935984493904E-1   -2.239991198256283E1

 3.050000000000000E7    -2.651040801513017E-1    9.564633364741536E1    -6.642686646723108E1    -3.612956690288455      -8.416035609472873E1     1.614584638680103E2    -8.949509856149078E1     5.461216391026760E1
                        -6.778297527913587E1     1.896687465077424      -2.890716512114738E-1    8.217546176386601E1    -8.610169963904581E1     4.326951076798594E1    -8.103467507258759E1     1.617275264831977E2
                        -8.222028355980257E1    -9.810559842004608      -9.360407607890744E1    -1.166291164234733E1    -9.263758959096784E-1   -1.754932930356523E1    -8.754917446770789E1    -9.578904394964766E1
                        -9.323553287157642E1     1.572360582187466E2    -8.366787178849933E1    -1.469843085329087E2    -9.845603921742922E1     1.551454997518682E2    -9.363574696117170E-1   -2.274167790127486E1

 3.052500000000000E7    -2.524020438729414E-1    9.537614220366126E1    -6.744760062066841E1     1.219229413884033      -9.528505938869697E1     1.437224223781563E2    -8.966056400262934E1    -1.593489411292737E2
                        -6.925493632804023E1    -1.730905934012263      -2.927452583354416E-1    8.186178901980495E1    -9.058492868173400E1     6.478795243608969      -9.097015336032078E1    -5.979530228880944E1
                        -8.728338746867394E1    -1.030041292165032E2    -8.356401721851864E1     4.348003726386602E1    -9.324495866225315E-1   -1.784440443187670E1    -9.441914758101200E1     4.033844821320185E1
                        -9.007967809074413E1    -8.177624969822240E1    -8.948416375553185E1     9.751558085206010E1    -8.316587776610491E1    -3.073053523889228E1    -9.437028751045311E-1   -2.305135394461199E1

 3.055000000000000E7    -2.566059965169970E-1    9.507678592563723E1    -6.751064832215053E1     8.675759720862369E-1   -8.111066910033030E1    -9.809383131961010      -9.021018147225703E1    -1.786541763581799E2
