#  HZ   S   DB   R     50.00 
! Rohde & Schwarz Vector Network Analyzer 
! Rohde-Schwarz,ZNB8-4Port,1311601044102961,2.82
! Created: UTC 2/13/2019, 9:57:57 AM
! freq[Hz]                db:S11                  ang:S11                 db:S12                  ang:S12                 db:S13                  ang:S13                 db:S14                  ang:S14
!                         db:S21                  ang:S21                 db:S22                  ang:S22                 db:S23                  ang:S23                 db:S24                  ang:S24
!                         db:S31                  ang:S31                 db:S32                  ang:S32                 db:S33                  ang:S33                 db:S34                  ang:S34
!                         db:S41                  ang:S41                 db:S42                  ang:S42                 db:S43                  ang:S43                 db:S44                  ang:S44
! 
 3.000000000000000E7    -2.813164823319905E-1    1.015000550845835E2    -6.893401286078567E1     1.781053738420376E1    -8.100445242511547E1    -1.199300108087720E2    -9.588424317210328E1     5.367224073623545E1
                        -6.706676715150609E1     6.175528675822473      -2.666613401629683E-1    8.992877869528786E1    -8.136733806916422E1    -7.608527315710728E1    -8.605612553913163E1    -1.343880308808383E2
                        -9.345980116313662E1    -1.670437592078939E1    -8.764433590328922E1     8.836047179705631E1    -9.263647543563260E-1   -1.141922548920221E1    -8.786742755926737E1    -6.926689009585884E1
                        -9.578246652329108E1    -9.592574181548736E1    -9.359669242220068E1    -1.070099391413906E1    -8.431177952138862E1     7.825254071106720E1    -9.401761111112486E-1   -1.644141768547570E1

 3.002500000000000E7    -2.820398348292971E-1    1.011968895556398E2    -6.908495371573216E1     1.145018272203818E1    -8.691031349923128E1     1.120133756346425E2    -8.186489684131308E1     6.097847646933310E1
                        -6.846915551231652E1     2.438609024982581      -2.746509086069935E-1    8.954810613329505E1    -8.209886482158426E1    -1.495882674147126E2    -8.664766578282368E1     1.174696188068712
                        -9.587355575952986E1    -1.507824545571106E2    -8.254594607194622E1     6.731932293982341E1    -9.235998864088278E-1   -1.168971605139501E1    -8.594450364061665E1     2.665213373470242E1
                        -9.317250072172729E1    -1.524975416847772E2    -8.191169574189942E1     1.775401028681004E1    -1.030803164916941E2     5.499176945146736E1    -9.426596979971520E-1   -1.677821162950858E1

 3.005000000000000E7    -2.878621571541289E-1    1.009261547254295E2    -6.840445635912970E1     1.087341316956010E1    -8.519519487640298E1    -1.087062372147607E2    -7.962627925652149E1     7.895826407813439E1
                        -7.036539846295720E1    -1.231336233202642      -2.647352103985552E-1    8.917277428475099E1    -8.969569376609923E1    -8.744268769716466E1    -8.765984987310065E1     9.076546644292486E1
                        -8.318912976686193E1     7.865728139211672E1    -8.185972024260906E1    -3.127711096663421E1    -9.303169535324035E-1   -1.200571564126769E1    -8.637642322479552E1     5.440041346376629
                        -8.923335701109235E1     9.233374880980477      -9.268299476556632E1     8.130991835155669E1    -8.374736523200740E1    -1.733937056832036E2    -9.397016127499170E-1   -1.707155783794745E1

 3.007500000000000E7    -2.804396381554366E-1    1.006317537945830E2    -6.866570081311947E1    -6.622816887919316E-1   -8.257533805117302E1    -2.560381572466275E1    -8.146869325895472E1     6.857399177617303E1
                        -6.666270662183790E1     7.309922408697188      -2.710776119926627E-1    8.877087246234189E1    -8.990635266911821E1     1.473452384072209E2    -8.254512877755339E1    -1.334697954914873E2
                        -8.745243935916582E1     9.768581607658446E1    -8.516601406504206E1     1.028932736816890E2    -9.303758747051931E-1   -1.236866375121241E1    -8.832798712466109E1     1.777808774225510E1
                        -9.354284239239368E1     1.274639435270041E2    -8.432047976528979E1    -3.759922507799443E1    -8.951108126118895E1    -9.715235094803715E1    -9.470291157947746E-1   -1.739236703498527E1

 3.010000000000000E7    -2.764409736040232E-1    1.003473686712235E2    -6.915128801617483E1     7.119950307002522      -9.162961295621933E1     8.615560099804900E1    -8.475608778514756E1     9.539250705826454E1
                        -6.957079084282931E1    -9.703831256640457      -2.726942794910570E-1    8.840670847924670E1    -8.664392829662943E1    -1.554048243505531E2    -8.582773099419077E1     1.516174989835511E2
                        -9.475389579166888E1     5.873987961688196E1    -9.421083574931561E1     3.895937436323302      -9.277048855782728E-1   -1.267731621910099E1    -1.250244129541848E2     1.020877755778942E2
                        -8.269980970763336E1     1.078813538172856E2    -9.492853780461334E1     1.484096179618248E2    -9.247006965994287E1     6.812267864565648E1    -9.435025642615340E-1   -1.766247583490940E1

 3.012500000000000E7    -2.712897650790628E-1    1.000258268789530E2    -6.818271266585329E1     7.750256269250353      -7.914118758272798E1     8.932876945389502E1    -8.588895975174388E1    -3.118314857705596E1
                        -6.983145165500079E1     2.979826859024517      -2.711476608782595E-1    8.807878764942500E1    -9.363028497988266E1    -3.375276071392432E1    -8.922264936241042E1     7.041523323299957E1
                        -9.366443323792460E1    -4.466184755827692E1    -9.125033174452878E1    -1.195740815154035E2    -9.257888899706044E-1   -1.294464087305432E1    -9.679545992830620E1    -1.203181691669713E2
                        -8.496811491949715E1     1.568785522952181E2    -8.294220360845486E1    -1.096130315064624E2    -8.311587887376383E1    -1.789951076301468E2    -9.401480119845855E-1   -1.803687855998241E1

 3.015000000000000E7    -2.774261338590116E-1    9.974716234700054E1    -6.856310134499340E1     8.160505924275684      -9.265957449962750E1    -1.058663178657333E2    -8.120594969889456E1    -1.759857428766167E2
                        -6.838484507684150E1     8.010911997634928      -2.671288216227817E-1    8.766345413566670E1    -8.194326427488414E1     1.000118143922271E2    -8.976236845904711E1     7.839115124312232E1
                        -9.841213387463996E1    -1.349220466021526E2    -9.178061552438666E1    -6.839076339553142E1    -9.271087797913002E-1   -1.329341168272236E1    -9.628100832938833E1     1.085535129807840E2
                        -8.614179804933181E1    -1.098743411376609E2    -8.363641427282701E1     7.918653245690495      -8.799887497634343E1     1.103849162247957E1    -9.376449300672530E-1   -1.832396621693565E1

 3.017500000000000E7    -2.720902427994095E-1    9.941226056525940E1    -6.887021748178476E1    -1.710374530978548      -8.850708511173600E1    -3.596311564874331E1    -9.092308414757599E1     1.537238000319961E2
                        -6.815729004938140E1     3.745382405998022      -2.627297042796098E-1    8.731734486274284E1    -8.816470785420196E1    -1.693579782267786E2    -8.685668977336006E1    -5.047332445792494E1
                        -9.048084331367573E1     2.726347342474277E1    -8.340728796135761E1     1.524188570490032E2    -9.311283502083610E-1   -1.357771791396951E1    -8.892397474630062E1    -1.223733853731847E2
                        -8.512691956171000E1     4.725241710980203E1    -8.760541898622617E1    -1.423831667717963E2    -8.757581509658616E1     1.110220147127496E2    -9.421555326778059E-1   -1.861586164766771E1

 3.020000000000000E7    -2.746428330315046E-1    9.918227658919500E1    -6.849445785973241E1     7.353709852066114      -8.328561584735081E1    -1.363470526876440E2    -9.141236321829723E1    -1.066234400289733E2
                        -6.833035450063673E1     6.358630323149241      -2.674151702317209E-1    8.690703369387673E1    -8.558665067649933E1    -8.572050710323664E1    -9.767510754978657E1    -1.182125580922197E2
                        -9.140185280903326E1     7.066807313122746E1    -9.455445894391278E1    -3.164663784655916E1    -9.346955738989746E-1   -1.388603493597552E1    -9.133669846775527E1    -1.351880162250755E2
                        -8.653805682947359E1     7.573461892316662E1    -8.483521038809711E1     9.820808024405339E1    -8.137501745851218E1    -1.674167479200801E1    -9.439244033453732E-1   -1.897857568261581E1

 3.022500000000000E7    -2.773822719680659E-1    9.887088361475836E1    -6.985843453628436E1    -1.210355677940034      -8.446546295320131E1    -1.696415495965053E2    -8.518891795234781E1     1.157288250282093E2
                        -6.847384016205569E1     1.474179471193097E1    -2.675498244135192E-1    8.657001066414824E1    -8.004791776537468E1     1.398769741760678E2    -8.487230215849259E1    -1.796069119044590E2
                        -9.350248198702401E1     1.620280540300318E2    -8.133867334384755E1    -2.660142171242141E1    -9.301592853845980E-1   -1.419717250753550E1    -9.281030829889090E1     1.192052689305807E2
                        -8.844927924566589E1    -4.833416018509038E1    -8.553634023311520E1    -1.672265536315987E2    -8.610420984496705E1     5.884639250801079      -9.406275209015226E-1   -1.927745955306458E1

 3.025000000000000E7    -2.800007310368601E-1    9.854442146879900E1    -6.788239208146521E1     1.263713100853893      -8.555821460263422E1    -1.546321966961888E1    -9.500768944395119E1     1.241645274701357E2
                        -6.800275191868379E1     4.858185682830825      -2.807926568090450E-1    8.620305545592761E1    -8.115950001390698E1     1.685537792353368E2    -9.233295616346527E1     7.071891448525358E1
                        -8.618698746676583E1    -6.753072647785574E1    -9.007877285902090E1     1.599259163845420E2    -9.281049106286738E-1   -1.447772367625292E1    -8.190555384212091E1     5.410818552664528E1
                        -9.266376847004386E1     6.791717448134721      -8.556667296220618E1    -1.513932030744188E2    -9.007185020330363E1     1.057240117385518E2    -9.457833799501579E-1   -1.954708645027199E1

 3.027500000000000E7    -2.777243995905816E-1    9.826691074394179E1    -6.962577906212283E1    -1.835879755628587      -8.913672088592186E1     1.064575452583176E2    -8.900394039962393E1    -5.999804093218641E1
                        -6.825180960552244E1    -1.519448923048090E-1   -2.578696985258679E-1    8.578529513883123E1    -9.100917401532620E1    -7.752224372381004E1    -9.224178693707087E1    -6.924511942670178E1
                        -8.320060172815153E1    -7.196163339195640E1    -8.253405921475130E1    -8.189321205111911E1    -9.297072656657528E-1   -1.479951473633612E1    -9.515851376062108E1    -1.596935250731615E2
                        -8.618585863738902E1    -1.094561630627547E2    -8.734977579386622E1     6.156370386787731      -8.534893311445461E1    -1.529871048634377E2    -9.424091032763039E-1   -1.991954505739741E1

 3.030000000000000E7    -2.752295946851068E-1    9.801491150444065E1    -6.759886447278494E1    -4.933692255494906      -8.765233173856161E1     1.534642780375700E2    -8.990462914130021E1    -1.419843461119543E2
                        -6.742672866016817E1    -1.745886545961418      -2.758532915628171E-1    8.548799139521320E1    -8.267634816233039E1     9.119972952336394E1    -8.856269135974314E1    -5.952909985125302E1
                        -8.070744604118553E1     5.824874549312973E1    -9.246582224374603E1    -1.595482829512937E2    -9.286901562107659E-1   -1.511091722007764E1    -9.036082809276988E1     1.682119117313226E2
                        -8.589000389618991E1    -2.381559703736717E-1   -8.562025227219601E1    -1.214548197112251E2    -9.186469421811255E1     2.056505411925122E1    -9.417997841684277E-1   -2.022865167766792E1

 3.032500000000000E7    -2.762116491306956E-1    9.768664487806905E1    -6.779958581318446E1     5.490186840825926      -8.099206368787503E1     3.246261137492287      -9.105861766290627E1    -2.756421489421903E1
                        -6.747334152393124E1     7.017889683899480      -2.589267250839522E-1    8.499041128560727E1    -8.476213985848005E1     4.060252377073427E1    -1.004027939160227E2    -1.426609187427160E2
                        -8.684263459840867E1    -1.120736999855306E2    -8.156229076404019E1     4.931658127485240E1    -9.370923603849275E-1   -1.543459993678363E1    -8.519856451610401E1    -4.619736069349074E1
                        -7.962195059106298E1    -6.658929146399278E1    -8.648784967356782E1    -1.699885212586571E2    -8.387055176503657E1    -9.027228230242687E1    -9.433541927540341E-1   -2.053078429387666E1

 3.035000000000000E7    -2.742037609693619E-1    9.742723750118745E1    -6.749172878511361E1    -1.138946956743624      -8.195892491917833E1     7.244132096983425E1    -8.796326012435814E1     3.569551966095778E1
                        -6.794525641900431E1     1.379658063279981E1    -2.611819842755589E-1    8.465186798104844E1    -8.610065774343825E1    -3.151296696121265E1    -9.261647357195818E1     1.601921485297836E2
                        -8.152121902249655E1    -4.549616807374920      -8.136202036884298E1     1.602240181541625E2    -9.295759907315038E-1   -1.571697677875006E1    -8.648287355555988E1    -3.033091584960105E1
                        -8.425696603018992E1    -1.494058408782037E2    -9.208396184406959E1    -1.796628383101059E2    -9.889386104034919E1     1.237419801708898E2    -9.406776067464326E-1   -2.085028078734663E1

 3.037500000000000E7    -2.695791009972564E-1    9.705981203934152E1    -6.838837123552682E1     1.101869062876444E1    -9.235208391649653E1    -1.511883558060684E2    -8.129359386688267E1    -5.105692686351866E1
                        -6.824780171349555E1    -1.134980642777924E1    -2.698493755962252E-1    8.431666247302741E1    -9.133968310390152E1    -1.552835786417195E2    -9.155911662620758E1    -1.256742354968120E2
                        -9.124179370526892E1     1.070178899861888E2    -8.566231313964784E1    -1.735709336581355E2    -9.305931617904073E-1   -1.600854482601905E1    -9.366810694532396E1    -1.583635774045718E2
                        -8.465123669602679E1    -1.760163214356422E2    -8.832121353186936E1     1.488696572947864E2    -8.687937040419128E1    -1.218671592002773E2    -9.411453350906061E-1   -2.113643937844466E1

 3.040000000000000E7    -2.717750102276075E-1    9.677989596358327E1    -6.764495607575134E1     2.210692481763789      -8.869459699575926E1     1.761723921008008E2    -9.077739588520133E1     1.175502053793415E2
                        -6.808603994621423E1    -3.567090219412587      -2.664816201149044E-1    8.391364651235388E1    -8.429216110195866E1    -1.219795573704450E2    -8.677320727544509E1    -1.731896421332435E2
                        -8.402607209171889E1     1.789927563703641E2    -8.659351931670378E1    -8.736370336128240E1    -9.269476989452532E-1   -1.629503748397351E1    -8.773459679150039E1    -1.696619496711871E2
                        -8.707954280825936E1     7.904104207443712E1    -8.855130276328380E1     3.119915219331400E1    -8.830756517663644E1    -1.302866457996177E2    -9.434295424604620E-1   -2.148055379477855E1

 3.042500000000000E7    -2.723239983863602E-1    9.653423360865931E1    -6.724599324199205E1     1.442838077470916      -8.751746014947187E1    -9.396744782455035E1    -8.816122843702877E1     5.148873683538543E1
                        -6.881562013417690E1    -1.205591564450937E1    -2.604939358722312E-1    8.360142951818133E1    -9.116722459148872E1     1.716307047823886E1    -8.886391813019762E1     3.625513280756168E1
                        -8.507982335717180E1     5.270839640907528E1    -9.118074226240167E1    -8.098329712573447      -9.331947499096600E-1   -1.665185213070179E1    -8.861765077971927E1    -1.339784330428834E2
                        -9.329465668195138E1     1.081777267463973E2    -8.607983423904142E1    -1.104686514540356E2    -9.308596522899300E1     7.763820271474496E-2   -9.454771915811177E-1   -2.179359117980433E1

 3.045000000000000E7    -2.708021641521085E-1    9.617440316945449E1    -6.744976183360627E1    -5.243739845592729      -8.432931580596176E1     7.438073956766947E1    -8.890280921211667E1    -1.496652291921010E2
                        -7.008420810255815E1     2.898322504669565      -2.625049093894167E-1    8.315511881075051E1    -8.027422246368639E1     6.590635074737429E1    -9.098413434755558E1     1.011055914426956E2
                        -8.532213887638500E1    -1.488531998094257E2    -9.248459042952047E1    -1.638154905558436E2    -9.351232003942166E-1   -1.690734326560099E1    -8.306534470416653E1     4.087818927466086E1
                        -8.615450724503091E1     9.664155816928425E1    -8.266107737861819E1     1.986960895092490E1    -8.470284400843642E1     8.991162931401578E1    -9.447175489253412E-1   -2.209387893637931E1

 3.047500000000000E7    -2.702261773116143E-1    9.588499746434766E1    -6.859618595842176E1     1.004701227548823E1    -8.300912786016225E1    -8.049471934748709E1    -9.304902068659376E1     3.174022456964033E1
                        -6.755742297479740E1    -2.311824178867486      -2.635831152876983E-1    8.275008279322664E1    -8.695882547308123E1     1.637950365235281E2    -8.733140569683377E1     1.780324007181667E2
                        -8.702989719651393E1     3.228544920711242      -8.831706390805671E1    -1.246624984125595E2    -9.300013553590811E-1   -1.722854753684062E1    -8.615539976956455E1     4.884099086257896E1
                        -8.739907743185026E1    -1.319731995393216E2    -1.048268364403600E2    -1.115037817961656E2    -8.432743925994500E1     1.484437557598899E2    -9.454531740182303E-1   -2.241844722136748E1

 3.050000000000000E7    -2.730505829084287E-1    9.561072618913426E1    -6.551751741383963E1     2.890252653172715E-1   -8.654571745610012E1    -5.844179298798913E1    -8.668850852215070E1     5.599911176544252E1
                        -6.807736671683216E1    -2.628910725348142      -2.571838844090464E-1    8.236871884464937E1    -8.514661482595582E1    -3.261425237460574E1    -8.841562748147274E1    -4.951431690740158
                        -8.685779487471370E1    -4.466021172955331E1    -8.390644003041581E1     9.472065046009085E1    -9.314666099664331E-1   -1.754896701674528E1    -1.058271317712007E2    -3.304727489584268E1
                        -8.523640326720270E1     1.737248675566019E2    -8.229859057365992E1     1.028441907057543E2    -8.984808897556752E1    -6.505554763686325E1    -9.388807157815865E-1   -2.272602653745151E1

 3.052500000000000E7    -2.667260303424601E-1    9.533411487161597E1    -6.793432448801519E1    -4.800178805971285E-1   -1.002086709536308E2     1.602737807952487E2    -8.312798241594470E1    -1.698787827106931E2
                        -6.763102591994684E1     1.366490247493711E-1   -2.558222925536568E-1    8.198830863385739E1    -9.031701593512676E1    -1.758929327892426E2    -8.722118501702715E1     9.615063015611544E1
                        -9.726478605454447E1    -1.103097002443047E2    -8.589155493839124E1    -1.743768057110340E2    -9.341885064452680E-1   -1.783120096888899E1    -9.212456106104986E1    -1.729937076654003E1
                        -9.474346452552385E1    -6.431267246352962E1    -8.921387596479761E1    -1.264044318077238E2    -8.170015660545650E1     2.421034425730992E1    -9.436949696344642E-1   -2.302979177546505E1

 3.055000000000000E7    -2.640241657726798E-1    9.500646498977426E1    -6.807910505419727E1    -6.835858439305494      -9.426625993344993E1     8.963606139650995E1    -7.777440057107373E1    -1.148243227137424E2
