#  HZ   S   DB   R     50.00 
! Rohde & Schwarz Vector Network Analyzer 
! Rohde-Schwarz,ZNB8-4Port,1311601044102961,2.82
! Created: UTC 2/13/2019, 9:21:15 AM
! freq[Hz]                db:S11                  ang:S11                 db:S12                  ang:S12                 db:S13                  ang:S13                 db:S14                  ang:S14
!                         db:S21                  ang:S21                 db:S22                  ang:S22                 db:S23                  ang:S23                 db:S24                  ang:S24
!                         db:S31                  ang:S31                 db:S32                  ang:S32                 db:S33                  ang:S33                 db:S34                  ang:S34
!                         db:S41                  ang:S41                 db:S42                  ang:S42                 db:S43                  ang:S43                 db:S44                  ang:S44
! 
 5.525000000000000E7    -2.366722108555038      -1.418601174944193E2    -2.945096085727517E1     6.823526514622614E1    -7.669698308992602E1    -4.911280471675657      -6.639968217877473E1    -1.543930570120624E2
                        -2.955849467737262E1     6.850251755724166E1    -3.286321229765066E-1    9.421275397416908E1    -9.079491327617389E1     7.757262881663398E1    -8.919745662601233E1    -1.035595289745308E2
                        -7.330448619848130E1    -8.162625010207497      -8.379418874154419E1     1.021837111487681E2    -1.385763585066139       3.491520147658277E1    -8.279855190685863E1     1.696165915318954E2
                        -6.588035292681131E1    -1.523401516765918E2    -9.141804772251618E1    -3.128063290239738E1    -9.360019527584234E1     3.554026102762639E1    -1.385939067537703       2.846903845999937E1

 5.525025000000000E7    -2.364787696095173      -1.419102530612858E2    -2.947640916895477E1     6.833174188277178E1    -7.449620401781390E1     1.058247943447876E1    -6.596222456401294E1    -1.578811450390990E2
                        -2.953411898842162E1     6.786235822041756E1    -3.313340095772438E-1    9.421028972036834E1    -8.876241580586870E1     1.363212346119836E2    -8.496927614948021E1     1.457728918575756E2
                        -7.669024849105954E1     9.577517719685684E-1   -8.391002910871576E1     1.436218505801036E2    -1.389753371412605       3.491520014031208E1    -9.067199015515938E1    -7.193018577512089E-1
                        -6.545915042820646E1    -1.574393200819932E2    -8.703789243798906E1     8.519741107786606E1    -9.598597156528420E1    -1.412886276310501E2    -1.384726230593781       2.844505346883317E1

 5.525050000000000E7    -2.369426166336097      -1.419670496611921E2    -2.958864699002877E1     6.828980310630666E1    -7.336939993190742E1    -4.719777977136676      -6.693995101953685E1    -1.562822096643149E2
                        -2.959075133250355E1     6.794692173473484E1    -3.243584193152549E-1    9.419920734785451E1    -8.523216934940116E1    -1.049159173565881E2    -8.813177377938490E1    -7.079182741387015
                        -7.480046746606352E1    -1.164075744929105E1    -8.759525560935558E1     1.511972109872478E2    -1.392606020914510       3.491063152280250E1    -8.497853681970679E1     1.686681845652898E2
                        -6.512363714737627E1    -1.643396947932421E2    -8.218538273056340E1     3.728627060230016E1    -8.902884701695362E1     1.413964547477636E2    -1.382274975997056       2.846317620056574E1

 5.525075000000000E7    -2.375208511055226      -1.420238383584741E2    -2.954939711672480E1     6.834180733115800E1    -7.369330921766675E1    -1.183971064066903E1    -6.668573880638951E1    -1.601791061715742E2
                        -2.957291490428277E1     6.794138002605760E1    -3.234476723738199E-1    9.419290210089325E1    -9.803986705975019E1     5.463564145213939E1    -8.978758291897142E1    -6.721349766060470E1
                        -7.299245016610695E1     1.208066426414987      -8.946497242477761E1    -1.626757589944100E2    -1.395590849415222       3.487903793695800E1    -1.028379903030924E2     1.230038918402658E2
                        -6.662215550845988E1    -1.487228991308735E2    -9.586475243393083E1    -1.523298229764072E2    -8.262089517257847E1    -5.407799459630708      -1.382025695213887       2.843325401326634E1

 5.525100000000000E7    -2.378172229277886      -1.420238656967651E2    -2.952821348401513E1     6.786686276643769E1    -7.864059652185331E1    -4.817274778419820      -6.592899986621455E1    -1.580773669708977E2
                        -2.963458156923555E1     6.759516923479453E1    -3.276074080709924E-1    9.419108224649877E1    -8.322319226484892E1     1.760893294918520E2    -8.789561522889960E1    -8.270556911506075E1
                        -7.413764653334711E1    -1.360379575527838E1    -8.218210416794793E1    -2.610717342885765E1    -1.388631066940113       3.486435294546027E1    -8.900052635409128E1     2.781455200968634E1
                        -6.602004227485554E1    -1.628664096606692E2    -8.099612961373606E1     1.283391910946075E2    -8.455795881513859E1    -3.265444292960092E1    -1.385777881442914       2.847104349547892E1

 5.525125000000000E7    -2.379695237143165      -1.420960279666835E2    -2.948784515418985E1     6.820699110428870E1    -7.434204850118174E1    -9.523579500109461      -6.585617658764778E1    -1.553786930846193E2
                        -2.964464460748434E1     6.797919177149960E1    -3.249601463797183E-1    9.419575431452437E1    -8.377750033582699E1     1.168383669950127E2    -7.926332745867181E1     3.695562520107978E1
                        -7.402750043199303E1    -1.502976959016744E1    -9.472739691572267E1    -1.012588279965938E2    -1.387024080297177       3.485503052439699E1    -8.121577125807895E1    -6.183885913687745
                        -6.737172468377342E1    -1.546238208773620E2    -9.180967541322383E1    -2.994018972223141E1    -8.506957614326110E1     4.715282053079605E1    -1.380344971982563       2.845360648908184E1

 5.525150000000000E7    -2.384469100052013      -1.420866882152241E2    -2.954145503976665E1     6.847614846546337E1    -7.691279471265081E1    -1.977121207797601E1    -6.630491862659920E1    -1.614530585390326E2
                        -2.952363410204483E1     6.746817898065885E1    -3.267076651046640E-1    9.418859014063148E1    -9.208123865947782E1     1.009649836278347E2    -8.919836064469648E1    -7.372071504275738E1
                        -7.745658563952907E1    -2.367739553172858E1    -8.704428882025680E1     3.103451926047376E1    -1.387188084761046       3.488699756102930E1    -8.643960087369786E1     7.114036336090186
                        -6.713286053115665E1    -1.579986870914018E2    -9.129741361018147E1    -1.031683869431406E2    -8.909358181074765E1    -3.331701465674970E1    -1.382273393946035       2.844807427464981E1

 5.525175000000000E7    -2.382243345027049      -1.421359439869600E2    -2.952723841606413E1     6.784688206998376E1    -7.410568880679927E1    -8.047568708903954      -6.611611589313520E1    -1.605236434568237E2
                        -2.970006757855152E1     6.824322689009290E1    -3.265963715439476E-1    9.419530691124612E1    -9.427499033237513E1    -1.703254710215805E2    -8.197404729662993E1     1.785358815748499E2
                        -7.438865000241498E1     1.009795834941005E1    -8.928025532688999E1     4.462307030166289E1    -1.394956575321500       3.486224240131767E1    -9.421316341046369E1    -7.616874069797501E1
                        -6.643870693870912E1    -1.647020555192420E2    -9.420826696690452E1     1.347338645166161E2    -8.308265068613829E1     1.241072135974070E2    -1.386755436449414       2.840882680612474E1

 5.525200000000000E7    -2.383913585184369      -1.421892408501513E2    -2.950181706280593E1     6.827781203702300E1    -7.684768275868535E1    -9.414509138972399      -6.656547866018768E1    -1.527338387626693E2
                        -2.957509692552918E1     6.790707728370597E1    -3.268937359811369E-1    9.419370591718445E1    -8.151895499957251E1    -1.262313723948467E2    -8.688872886803060E1     4.116082598122716E1
                        -7.402307817730301E1    -1.171140577080976E1    -9.091601118641546E1     1.213969485226671E2    -1.389053684456805       3.485710664027801E1    -8.610835535242096E1     4.500586933978962E1
                        -6.561994660409548E1    -1.574270191065819E2    -7.869900824057817E1    -4.715118548247297E1    -8.739621421824511E1    -1.564339414608827E2    -1.380629836481528       2.843441675699839E1

 5.525225000000000E7    -2.392958141896452      -1.422388713090779E2    -2.949637250058471E1     6.784172363034926E1    -7.418857505485816E1     2.410347626157679E1    -6.522429569868193E1    -1.495855595744289E2
                        -2.954592797030578E1     6.774138755830160E1    -3.289578472034449E-1    9.419108978930042E1    -8.300524518274284E1     1.588302638719291E1    -8.182260651666788E1     4.662445307856494E1
                        -7.408844400263675E1    -2.050554973626279E1    -8.818972497146078E1    -7.709050690424751      -1.392439832564643       3.488224903973752E1    -9.229700532920569E1    -1.737462788051261E2
                        -6.519650112604498E1    -1.589150805915031E2    -8.171258162512484E1     9.367004312773679E1    -8.527629459142281E1     5.959128380814332E1    -1.382517054031836       2.844465316161913E1

 5.525250000000000E7    -2.390982211352800      -1.422744360572683E2    -2.960823303956676E1     6.757940607139484E1    -8.020582466201324E1     4.613207820366920      -6.666871034021990E1    -1.609906467998362E2
                        -2.966197368784744E1     6.835430076062262E1    -3.248750160912198E-1    9.418052361154201E1    -9.065695382294491E1     1.417524740171248E2    -8.002605287252736E1    -5.562720669552540E1
                        -7.308518485976116E1    -3.734759493819050      -8.161582722190504E1     7.745833739128551E1    -1.396110056864901       3.485059614214576E1    -9.012791189355247E1     1.019284110016830E2
                        -6.543536454783542E1    -1.608944959195085E2    -8.660573371896776E1     1.206968127274266E2    -8.508369040114022E1     1.409046744738802E2    -1.379354067164776       2.844612488333780E1

 5.525275000000000E7    -2.395995778559685      -1.423179492070314E2    -2.955520323709827E1     6.765499127647271E1    -7.516869386897605E1     3.543767042145793      -6.574758035553690E1    -1.605407398973849E2
                        -2.957692523174437E1     6.826410942166581E1    -3.245151382994116E-1    9.414581160074734E1    -1.117285500092536E2    -1.752606428600877E2    -8.618642968289869E1     9.048290183396777
                        -7.566037838263524E1    -1.460131633317024E1    -8.613465161372719E1     6.748159122615348E1    -1.389491312993759       3.486489647426294E1    -9.385532036687204E1     1.043346716488626E2
                        -6.606654892647164E1    -1.564708902737787E2    -9.559639318886069E1     8.502356494264993E1    -8.600776788571133E1     5.333963854255016E1    -1.383674727809681       2.844470289976105E1

 5.525300000000000E7    -2.398987697132558      -1.423694887665629E2    -2.957652289664853E1     6.768743022885158E1    -7.413226468424003E1     5.647352191305510      -6.573750906903278E1    -1.538844234810914E2
                        -2.959750898894806E1     6.822220398985381E1    -3.307949561501526E-1    9.415755909591334E1    -8.890131371150092E1    -1.001300537931257E2    -9.463866468398632E1    -2.900411272149493E1
                        -7.519330376129827E1    -2.892376043410009      -9.670552168401645E1     7.906016941712117E1    -1.387614187629989       3.485292080290956E1    -8.478471076214662E1     1.074884397123399
                        -6.613811973637397E1    -1.654078188215585E2    -8.162412062541053E1     1.754559649337540E2    -9.485658384930821E1    -1.361643515545117E2    -1.379172489599045       2.843403720494899E1

 5.525325000000000E7    -2.407164877014259      -1.424069195752853E2    -2.952740480176982E1     6.783975660810859E1    -7.420746596343301E1     4.602812653402485      -6.584625486959405E1    -1.588847199103122E2
                        -2.967756490217255E1     6.756775029433723E1    -3.275983218521086E-1    9.415301866404263E1    -9.015848329212236E1    -2.100620063150511E1    -8.558227666358718E1    -8.128542357832755E1
                        -7.421758954173615E1    -1.356294220005407E1    -1.014899932999688E2    -9.607488558737021      -1.386984117340741       3.484007634759173E1    -8.261811840761267E1    -1.352392564578556E2
                        -6.601553095896476E1    -1.545958792834560E2    -9.321541216894431E1    -4.887558298054160E1    -9.156304253327747E1     1.197590450292139E2    -1.381190050697362       2.840155394020858E1

 5.525350000000000E7    -2.405587910697426      -1.424466151643391E2    -2.948350486133253E1     6.786983001041736E1    -7.479587795860131E1    -4.242011249442786      -6.554293322578735E1    -1.559533305750394E2
                        -2.956211766131869E1     6.854327664779960E1    -3.288791277214286E-1    9.413073049015880E1    -9.188186541803876E1    -8.552820746004547E1    -8.705631072429421E1     1.260341235413016E2
                        -7.461206258098396E1     2.319893302307921E1    -8.411768020753692E1     4.675937484772910E1    -1.393489585843080       3.487283219613674E1    -8.994383377087070E1    -6.561024014273818E1
                        -6.573166061623356E1    -1.642796289751857E2    -8.460802298525188E1     1.512432362483453E2    -8.697563919117931E1     3.396196415288296E1    -1.381301876131061       2.840674729626899E1

 5.525375000000000E7    -2.406046959411120      -1.425249852582001E2    -2.957005115181922E1     6.825101128441999E1    -7.180725406002642E1    -1.702340484186070      -6.533343329545173E1    -1.579513427973109E2
                        -2.959459928731096E1     6.825930238299050E1    -3.263581235652808E-1    9.410747404111437E1    -9.556617506940718E1    -1.616510806566584E2    -8.170909804566625E1     3.013244938375622E1
                        -7.234875032465043E1    -1.393285454321657E1    -8.422865550769599E1     6.355302073471027E1    -1.385671394203324       3.485451713493745E1    -8.728793712451758E1    -1.630373357687081E1
                        -6.558782044849981E1    -1.664210704826945E2    -8.664950734029551E1    -3.645748175474877E1    -8.254641866659122E1    -1.730341902525586E2    -1.378961648639325       2.841145733891983E1

 5.525400000000000E7    -2.414452942042994      -1.425629746320348E2    -2.952602425537646E1     6.782836671393866E1    -7.134475349674409E1    -1.493967678987247E1    -6.684362897955077E1    -1.640102339421344E2
                        -2.956268609189059E1     6.810888962841895E1    -3.240424434729814E-1    9.414719642441098E1    -8.913010760578074E1    -1.377753595651619E2    -8.358850158412977E1    -1.349342328394391E2
                        -7.411036354705659E1     1.068363958182124E1    -9.386677789218160E1     3.260205532210458E1    -1.383861859443599       3.483797781254614E1    -9.443610728894737E1    -3.338939506987911E1
                        -6.646220846353985E1    -1.588272474472822E2    -9.666586673783080E1     1.690454049992892E1    -8.383261202131699E1     9.167286776318242E1    -1.382671330718891       2.842347593563839E1

 5.525425000000000E7    -2.412924726417106      -1.425760842218303E2    -2.957593848189427E1     6.789499164462175E1    -7.440910358360033E1    -1.453265559118887E1    -6.722606886479427E1    -1.599812128607156E2
                        -2.960860852124913E1     6.771195243021448E1    -3.285276456085136E-1    9.411466615523372E1    -8.288486916391403E1    -6.512270931761570E1    -8.166060788762340E1    -6.755658514600926E1
                        -7.473509182465853E1    -1.308505663727768E1    -9.175347657264038E1    -6.910179036456319E1    -1.389052070688801       3.482941757319014E1    -1.028580681094885E2    -1.018526883144725E2
                        -6.441606475786367E1    -1.604287147001403E2    -8.013833796987312E1    -7.830643549044758E1    -8.298483013060080E1     1.424671784850521E2    -1.375047311984727       2.840230785229962E1

 5.525450000000000E7    -2.417602832842672      -1.426021669758027E2    -2.955117289262191E1     6.792688033479600E1    -7.578862058531391E1    -1.303484395434949E1    -6.565322931562486E1    -1.586269473732241E2
                        -2.953586547488156E1     6.789212395408705E1    -3.247778909869989E-1    9.414977828883069E1    -8.414677706685689E1     1.532126374344878E2    -8.772376488636949E1    -1.292665090206257E2
                        -7.118962180534255E1    -6.825624667886898E-1   -8.402457725265742E1     8.964561109889502E1    -1.392760789952635       3.484401158050846E1    -9.225368644977665E1    -1.737816371483617E2
                        -6.525031515182569E1    -1.542291318542155E2    -8.911602061319039E1    -9.679261894734590E1    -9.153096679367101E1     1.512308347694843E1    -1.380633845650710       2.841137659090211E1

 5.525475000000000E7    -2.421195429370129      -1.426665658690136E2    -2.958465972296514E1     6.757300591340363E1    -7.360413396073527E1     1.285681181184731E1    -6.525040642273700E1    -1.562144652547013E2
                        -2.968331485289946E1     6.752559186821867E1    -3.301416563222692E-1    9.414807462552993E1    -8.651830600459279E1    -7.628662480616471E1    -8.700303219964229E1    -7.567735396421770E1
                        -7.500253126234738E1    -3.391457879499603E1    -9.174383711624478E1    -1.746501066369633E2    -1.392522613159402       3.484991508025164E1    -8.811964591395439E1    -1.124550432118196E2
                        -6.579128355502122E1    -1.531678373213137E2    -8.716564821984279E1    -1.540476523596654E2    -7.995409072897191E1     1.793472613815090E2    -1.382802810041578       2.840220571695599E1

 5.525500000000000E7    -2.424800888583258      -1.427140484266750E2    -2.945121455358253E1     6.781116766594207E1    -7.523248375378562E1    -3.631236668547123E1    -6.577049419709469E1    -1.565737514703675E2
                        -2.966071324764602E1     6.729937419292347E1    -3.230025967389851E-1    9.411252542413472E1    -8.397342778242070E1    -1.075617840895691E2    -9.106864767914365E1    -7.680977932543465E1
                        -7.522231266347374E1     1.512989325460855E1    -8.526839000515699E1    -1.542617467705839E2    -1.389395047234704       3.485564422138060E1    -9.160062532716441E1     6.994854364981191
                        -6.559558828240610E1    -1.572939796529204E2    -8.470558898008864E1     3.652254338032664E1    -9.033335783350290E1     6.601387919075634E1    -1.383471762322152       2.843113345201477E1

 5.525525000000000E7    -2.430013754820170      -1.427648454673987E2    -2.958859440457601E1     6.734919907785090E1    -7.615151494631598E1    -4.730045359494383      -6.637350990210911E1    -1.630079077144805E2
                        -2.960409490728465E1     6.768243399950266E1    -3.287274487780550E-1    9.409684670406878E1    -9.166436337546769E1     4.029522052281327E1    -9.260257105190212E1     1.152627271473576E2
                        -7.468918545567787E1     1.156697801498904E1    -8.605596300345198E1    -1.258506289182953E2    -1.391160494002882       3.482898600898818E1    -8.254339763270122E1    -1.794056913797346E2
                        -6.474323342727031E1    -1.583157075644411E2    -8.398823836598615E1     1.352360783748624E2    -8.442319700803323E1    -3.680902330520662E1    -1.380200448940888       2.840093368256000E1

 5.525550000000000E7    -2.428016557924325      -1.427975569080994E2    -2.959723942176925E1     6.790997652110524E1    -7.481676745075957E1     9.447657343696083      -6.662090270447791E1    -1.528446894414358E2
