#  HZ   S   DB   R     50.00 
! Rohde & Schwarz Vector Network Analyzer 
! Rohde-Schwarz,ZNB8-4Port,1311601044102961,2.82
! Created: UTC 2/12/2019, 4:53:33 PM
! freq[Hz]                db:S11                  ang:S11                 db:S12                  ang:S12                 db:S13                  ang:S13                 db:S14                  ang:S14
!                         db:S21                  ang:S21                 db:S22                  ang:S22                 db:S23                  ang:S23                 db:S24                  ang:S24
!                         db:S31                  ang:S31                 db:S32                  ang:S32                 db:S33                  ang:S33                 db:S34                  ang:S34
!                         db:S41                  ang:S41                 db:S42                  ang:S42                 db:S43                  ang:S43                 db:S44                  ang:S44
! 
 5.525000000000000E7    -8.450941555778073      -1.743789665779493E2    -3.448581430483679E1     8.528488095037251E1    -6.573472015670666E1    -1.764468466543194E2    -7.609436512317225E1    -3.336890872565348E1
                        -3.436299983940545E1     8.463282745498074E1    -3.558478213791896E-1    9.443414928151050E1    -8.848617450471917E1     1.639040435737762E2    -8.405562500288434E1     8.512091512235537E1
                        -6.733905441721558E1    -1.715180381032460E2    -9.806497708559304E1     3.959184218472042E1    -1.393690153327086       3.543334149621240E1    -8.124305033897792E1    -5.894960574552494E1
                        -7.277930053965751E1    -5.281571341348532E1    -8.816927101163076E1    -3.822385800336880E1    -8.192343448925973E1     5.138289085453209E1    -1.382770057866248       2.900445372128709E1

 5.525025000000000E7    -8.471507374466107      -1.744463675728558E2    -3.452857265929283E1     8.429818328258588E1    -6.830195977462901E1    -1.798150330342205E2    -7.316950985059388E1    -3.660828805810890E1
                        -3.448615337215196E1     8.465082995064962E1    -3.521407536863644E-1    9.440715788873156E1    -8.016997749091460E1    -3.041309507284840E1    -8.696866182862519E1     7.695893789410414E1
                        -6.766265911920800E1    -1.677462399943532E2    -1.004456652297661E2    -1.386262506677310E2    -1.393605251766700       3.543552625262750E1    -8.545107678943376E1     1.541800520919736E2
                        -7.171822274239501E1    -3.489782041159955E1    -9.078621944053553E1    -8.739947868750841E1    -8.306466907532644E1    -1.101280182620398E2    -1.386280479451794       2.899680995916705E1

 5.525050000000000E7    -8.473464097284655      -1.744495776002273E2    -3.444799401153949E1     8.508492205849271E1    -6.773051945850330E1    -1.669353739451645E2    -7.024449622501561E1    -3.902436172805735E1
                        -3.443601607290396E1     8.492903738678875E1    -3.634140704635430E-1    9.433223892801429E1    -8.307095498233224E1    -2.223590278758202E1    -8.206837607208756E1     9.546009134703861E1
                        -6.732366726637169E1     1.777390450035474E2    -1.006678453102016E2    -1.123561830807122E2    -1.390716046359951       3.539091253508495E1    -9.660431802758492E1     2.360620204840427E1
                        -7.291571629799810E1    -2.185146501609579E1    -8.756136469690131E1    -3.873862539533958E1    -8.852451270018727E1     5.311922624952737E1    -1.382776096564109       2.900256283214426E1

 5.525075000000000E7    -8.474732947697358      -1.745130796621975E2    -3.440839497481176E1     8.409925457822297E1    -6.699242913818806E1    -1.797530281563422E2    -7.175362380730672E1    -2.159127303485266E1
                        -3.429478210786930E1     8.341132876979680E1    -3.546647013710700E-1    9.440159748432426E1    -8.189412438895667E1     1.689665697282599E1    -9.207860770067468E1     1.931729945159777E1
                        -6.844623748325664E1     1.775212427014206E2    -9.156650615054922E1    -9.407199171673595E1    -1.392944833166418       3.540314961038764E1    -8.744378284750337E1     1.762697489247829E2
                        -7.072546295938663E1    -4.702531950628525E1    -9.251369291679148E1     1.328000687703421E2    -1.053979312536825E2     1.770896234131380E2    -1.386408809478458       2.897611433128997E1

 5.525100000000000E7    -8.481290447396427      -1.745493038659159E2    -3.443238006633330E1     8.528225575150404E1    -6.565845342931451E1    -1.714677845803230E2    -7.422901304274066E1    -3.068234776562883E1
                        -3.426751273394813E1     8.312963249437135E1    -3.509216635439569E-1    9.441857305060061E1    -8.630708593183726E1    -1.749851381137673E2    -8.088592519270830E1    -1.299222047403717E2
                        -6.810757831719806E1    -1.725781569588133E2    -8.650848013909298E1    -1.506620706969815E1    -1.391693141785483       3.539790754193685E1    -8.709583989828946E1    -1.491439859315924E2
                        -7.094350366103897E1    -4.465208964469036E1    -8.474696586861259E1     3.857937356300170E1    -9.136830885708918E1    -7.140045982635544E1    -1.386417047278337       2.900187342154175E1

 5.525125000000000E7    -8.487841497576982      -1.746129605759514E2    -3.440743348901751E1     8.512303378806710E1    -6.772816735513219E1    -1.726582711190467E2    -7.311211805072992E1    -3.648693127658370E1
                        -3.443019961976793E1     8.435486723494070E1    -3.543734404784250E-1    9.437360209565583E1    -8.441724710114868E1    -1.591951399428878E2    -8.559501621405050E1     1.720832317158094E1
                        -6.835070605553509E1    -1.791612880491612E2    -8.601469592963923E1    -1.829260445938697E1    -1.390863250839862       3.540639243104700E1    -8.909553499356193E1    -1.624383415359381E2
                        -7.436751943269985E1    -4.534691144180073E1    -8.265739948801434E1     1.112491173698874E2    -8.687368157437830E1    -2.464805141185067E1    -1.383057633401222       2.894568092654383E1

 5.525150000000000E7    -8.502255186819502      -1.746616498723305E2    -3.438097652914392E1     8.484355717391864E1    -6.810184335312243E1    -1.746241452091170E2    -7.067802571888802E1    -4.716462213887799E1
                        -3.443239991190119E1     8.374097796668917E1    -3.562697750151480E-1    9.433967441380800E1    -9.066461632443543E1     1.417437621724859E2    -9.417360857436799E1     1.535867339685411E2
                        -6.702638803973682E1    -1.735596266328334E2    -8.515392665392353E1    -7.307224256792255      -1.396843076411723       3.538580531074170E1    -8.512522681382396E1     1.131086402789674E2
                        -7.420737330977266E1    -5.046749117602277E1    -8.236104279612447E1     1.126718212045295E2    -8.788441134062252E1     1.773239961849372E2    -1.383376546590402       2.898855612875441E1

 5.525175000000000E7    -8.509783907506204      -1.746998960934505E2    -3.445651055511704E1     8.472635989657800E1    -6.827124808879606E1    -1.708670999085138E2    -7.216100979947368E1    -4.981545639950097E1
                        -3.439160978596151E1     8.521166192352629E1    -3.570125626559376E-1    9.433971991902303E1    -8.109437060407745E1    -4.284771632073269E1    -9.164944709960018E1     1.163202240023179E2
                        -6.662776950829182E1     1.788594068669193E2    -8.738103513565417E1     1.553042808582367E2    -1.390828550666021       3.541825563407780E1    -9.941840937655371E1     1.029905194725972E2
                        -7.172915905964152E1    -3.756276915862617E1    -8.466273048930033E1    -7.980922330564334E1    -8.628981705278441E1     9.394252087672486E1    -1.381588190102151       2.901171542399610E1

 5.525200000000000E7    -8.510814592286485      -1.747293275734601E2    -3.445711464462093E1     8.457014917664650E1    -6.657271075084036E1    -1.752169035283603E2    -7.305433583443336E1    -3.022040786776505E1
                        -3.440956270735880E1     8.469715511554672E1    -3.567298361050975E-1    9.435540948619611E1    -7.921231343204551E1     3.960917558492429E1    -1.055833965424883E2    -8.633019901523510E1
                        -6.716212061043213E1    -1.716918278837836E2    -9.241027560228440E1     4.060609775356062E1    -1.392133425740494       3.540842896712553E1    -8.142504141467285E1     6.781355723098751E1
                        -7.085556101864813E1    -1.660228340175631E1    -8.820456309238409E1    -1.011444283223414E1    -9.752228071815543E1    -1.695443287766393E2    -1.382419521667160       2.897710452995701E1

 5.525225000000000E7    -8.519011006509222      -1.747763863133879E2    -3.439255703197481E1     8.459412580041789E1    -6.727992850060171E1    -1.756464294429594E2    -7.278920220829332E1    -2.931251793341979E1
                        -3.430576041393842E1     8.444587417536602E1    -3.555740026863967E-1    9.436505096974962E1    -8.704956716212527E1     1.149802100560524E2    -8.675346906664493E1    -4.151321090528177E1
                        -6.686796710189336E1    -1.753165629100566E2    -9.370382429513856E1     6.379807304695069E1    -1.393591039977288       3.539903272198411E1    -9.267742647495393E1    -1.333828215420290E2
                        -7.121398128707313E1    -2.875916748691602E1    -8.593917073015459E1    -3.141755015836620E1    -8.082459625943713E1    -9.870447281032106E1    -1.380854472317088       2.899198805481866E1

 5.525250000000000E7    -8.527540514059151      -1.748317063484583E2    -3.433330851511418E1     8.510486680436719E1    -6.733814164139103E1     1.763955439609669E2    -7.260334660321136E1    -2.659804644519707E1
                        -3.446810678401137E1     8.507843534727857E1    -3.535548762914101E-1    9.437127598166097E1    -9.058736756522922E1     5.779438133385681E1    -9.476916722539920E1    -7.191616294373559E1
                        -6.766628080673158E1    -1.780683306889025E2    -8.847171494261674E1     1.181874362821368E2    -1.396656576935347       3.538024541464429E1    -9.155558836337167E1     5.831052325566196E1
                        -7.440339740639628E1    -4.501862943050528E1    -8.150198206102077E1     1.531922220917253E1    -8.945302046698862E1    -1.643815160807320      -1.380064971056976       2.898710105315679E1

 5.525275000000000E7    -8.541821046500749      -1.748767005266534E2    -3.442580604896305E1     8.439369162984680E1    -6.762827034741831E1     1.761343104397474E2    -7.382230907888464E1    -2.752584564786311E1
                        -3.452550221002486E1     8.461826857854111E1    -3.563726468598341E-1    9.434580475985844E1    -9.100506613124566E1     1.394726806503781E2    -8.794139009374183E1     4.077892955170896E1
                        -6.675053206113660E1    -1.751549000528020E2    -7.902232349042369E1     1.154734814531359E2    -1.396365559439734       3.538560052971032E1    -8.942279160796666E1    -7.188519811841742E1
                        -7.159015204073587E1    -3.721616922219358E1    -8.239929162978444E1     1.666842927232869E2    -8.224648079193722E1     3.601824082577551E1    -1.380137881034333       2.898340322306912E1

 5.525300000000000E7    -8.544825139082590      -1.748868583022600E2    -3.433646040478703E1     8.507239213739720E1    -6.652435701050368E1    -1.798893265376032E2    -7.203419172046944E1    -4.192191075121964E1
                        -3.450465524099641E1     8.466250586298368E1    -3.546804712656531E-1    9.436957373319213E1    -9.254377865913774E1    -3.704365114012396E1    -8.392189299503798E1     7.775818761302584E1
                        -6.694296946152181E1    -1.772648894963517E2    -9.256408025764101E1    -1.662049269719259E2    -1.393659231476645       3.536749895029060E1    -8.996811026392534E1     1.339825787409240E1
                        -7.409116783210524E1    -3.601801052605975E1    -8.749408298373294E1    -1.545665797806600E2    -7.702639166636355E1    -1.017229016273996E2    -1.382545978532777       2.896797347551442E1

 5.525325000000000E7    -8.554460640512904      -1.748734082654024E2    -3.439816607531063E1     8.468338182541629E1    -6.710539753970433E1     1.788648440849032E2    -7.133936680486907E1    -3.068136702386521E1
                        -3.444183909609970E1     8.406680233988328E1    -3.572107975741620E-1    9.433542058624290E1    -8.666434494928942E1    -1.181749714235599E2    -8.962888639517863E1     1.116879421124246E2
                        -6.623415072593906E1    -1.772146265424085E2    -9.886492431766386E1    -6.050872960249675E1    -1.390566180358435       3.537960759294518E1    -9.016214541223619E1    -1.015058993670785E2
                        -7.269074136649233E1    -3.713242003434797E1    -8.377631268430324E1    -5.938108894658102E1    -8.522361989949437E1     1.282117553289423E2    -1.381729789007853       2.895176853462886E1

 5.525350000000000E7    -8.568347040338997      -1.750205335179838E2    -3.429104648033479E1     8.570304365901380E1    -6.807202446660777E1    -1.773295068854162E2    -7.293210057801782E1    -5.156123217003494E1
                        -3.435269754357341E1     8.389351642854498E1    -3.538292655236767E-1    9.434251816237152E1    -8.202172229853494E1    -7.798417215060532E1    -8.642573696026253E1     3.280065440805979E1
                        -6.710683126759926E1    -1.794491930744844E2    -9.285815166703630E1     1.704133231657423E2    -1.393120918576459       3.537596428527182E1    -8.076866879307434E1     3.216273496465865E1
                        -7.116222919799887E1    -3.650645218771505E1    -8.623632199999435E1    -1.063295613701918E1    -9.772680749547070E1    -1.726245560102660E1    -1.379114965762307       2.899788197461649E1

 5.525375000000000E7    -8.569614684193063      -1.750351167109394E2    -3.429607271343022E1     8.499693274508545E1    -6.693294910419891E1    -1.781858611191288E2    -7.198258081106005E1    -2.642529477003610E1
                        -3.442601408253048E1     8.535145631201917E1    -3.601011985531315E-1    9.432381750233330E1    -8.726199533081081E1     2.982816739622902E1    -9.332632651175038E1    -3.987586465394008E1
                        -6.662777708208502E1     1.784593343766513E2    -8.329155659035268E1     1.480392167438175E2    -1.393557008014459       3.539108017491211E1    -8.492534676160685E1    -5.765882854501353E1
                        -7.303271339073646E1    -3.440174292314293E1    -9.791125620699326E1    -8.877997817419420E1    -8.733761450958659E1     1.396573892091410E2    -1.378642556740704       2.894489342112203E1

 5.525400000000000E7    -8.574436132045456      -1.750843604819363E2    -3.451400602764041E1     8.555704912480218E1    -6.838439504671283E1    -1.741316206226959E2    -7.320560157649625E1    -4.259645255231033E1
                        -3.467298715464838E1     8.561682085005440E1    -3.564749302197478E-1    9.433101266000992E1    -9.814859294097217E1    -2.518076684855083E1    -8.117323879629964E1    -1.498104577924110E2
                        -6.738086364047513E1     1.794014352849542E2    -8.921720676846397E1     1.311988390139319E2    -1.394534158463429       3.539582674085467E1    -9.417915575166327E1    -6.430527884266539E1
                        -7.159719027472690E1    -2.212609649205209E1    -9.184676121970981E1    -3.373163021902090      -8.806344302805499E1    -3.912446040400015E1    -1.383894129244382       2.897200854938275E1

 5.525425000000000E7    -8.582114031022911      -1.751309513571969E2    -3.444565836235640E1     8.544157688175680E1    -6.744844795154354E1    -1.718020190675590E2    -7.370122870319656E1    -1.286283083433672E1
                        -3.454025258651011E1     8.497991798236099E1    -3.582308428857309E-1    9.430217268090303E1    -8.512908058437837E1    -2.958831613488538      -9.062742180777271E1    -2.515201340598338E1
                        -6.686834503502298E1     1.750162567394060E2    -9.138721253460332E1     1.601094193860097E2    -1.392779771863113       3.536561334003572E1    -8.127319808360619E1    -1.086237643061651E2
                        -7.136213223299562E1    -3.637805177440425E1    -8.761677620984843E1    -1.268830724213640E2    -8.468240516684246E1    -1.109958541999255E2    -1.378634403467512       2.893717497508467E1

 5.525450000000000E7    -8.588877202475302      -1.751338662530353E2    -3.450170818546155E1     8.497140951932957E1    -6.869067799763471E1    -1.771525580895210E2    -7.337320370393483E1    -4.142591731029902E1
                        -3.450840475392648E1     8.536162534124165E1    -3.559606994182936E-1    9.429870554000164E1    -9.100348272598011E1     7.250927507419696E1    -9.585622296706639E1     1.660165378516820E2
                        -6.651075154386324E1    -1.765372517269400E2    -8.334202491554552E1    -4.892297921376828      -1.390806742430492       3.540859157395620E1    -8.334222538502692E1     1.723130976131346E2
                        -7.364787219285493E1    -4.867989444571686E1    -9.097228047901527E1    -1.651277419661821E1    -9.101552447103416E1    -1.031097256306247E2    -1.383254979333446       2.896864867242222E1

 5.525475000000000E7    -8.598071102626491      -1.751451358266588E2    -3.438125022707946E1     8.503519017478135E1    -6.721061306208227E1     1.797872735849566E2    -7.146707522943204E1    -3.266287368922059E1
                        -3.441175121550831E1     8.496573219291450E1    -3.491308105039720E-1    9.429352513210225E1    -8.065655231341128E1     3.070127275171388E1    -8.380995282471881E1    -3.960047984766319E1
                        -6.764480574226384E1    -1.752289828063251E2    -8.758645569614092E1    -9.416883586043140E1    -1.390914641165879       3.538489198854091E1    -8.863623787380929E1     8.029864362355876E1
                        -7.367502842851592E1    -4.337141593078464E1    -9.142687295583066E1     7.945170224717673E1    -8.966177694891391E1     9.739953840034630      -1.382197507073641       2.895605479278543E1

 5.525500000000000E7    -8.592143827239799      -1.751721238178895E2    -3.427847432717556E1     8.420652712236364E1    -6.605671837637490E1    -1.782427078791798E2    -7.179244846409631E1    -2.169073404726969E1
                        -3.438072715848162E1     8.435769054279939E1    -3.563155545795808E-1    9.431394641322409E1    -9.215845112934548E1     6.571373301760029E1    -8.672550717497552E1    -2.222708713871686E1
                        -6.599656581867100E1    -1.766125489081939E2    -9.431832831532661E1    -6.494146592659735E1    -1.398272648627333       3.538317331478240E1    -8.585111894987500E1     1.125430248905094E2
                        -7.158255135847034E1    -3.140490193015483E1    -8.365814587486341E1    -1.431935128611929E2    -8.600327442387339E1    -1.588732348795902E2    -1.379887706839296       2.892212452140734E1

 5.525525000000000E7    -8.606238668637973      -1.752668510731442E2    -3.460280288790909E1     8.376938608049076E1    -6.659547056176450E1    -1.798626622117134E2    -7.361400519297406E1    -3.141658070106193E1
                        -3.440800388106769E1     8.506351597910117E1    -3.577260928577405E-1    9.432240041972450E1    -9.431934446421927E1     4.880144933002206E1    -8.213884833042616E1    -5.719187366424070E1
                        -6.707754293388423E1     1.758670161420864E2    -8.638812348868962E1    -5.279188851493755E1    -1.392688973934147       3.534595864283462E1    -8.337114304470094E1    -1.396382173113575E2
                        -7.614498603228206E1    -2.830048897855525E1    -8.604660518599088E1     4.976610751916044E1    -8.937205327782813E1     1.606582324022290E2    -1.379391583389257       2.893357105568408E1

 5.525550000000000E7    -8.609561770565083      -1.752657284684305E2    -3.442936747170059E1     8.458334785584248E1    -6.679537970872809E1    -1.664404309700474E2    -7.326094252241371E1    -5.324347512661329E1
