#  HZ   S   DB   R     50.00 
! Rohde & Schwarz Vector Network Analyzer 
! Rohde-Schwarz,ZNB8-4Port,1311601044102961,2.82
! Created: UTC 2/13/2019, 9:29:29 AM
! freq[Hz]                db:S11                  ang:S11                 db:S12                  ang:S12                 db:S13                  ang:S13                 db:S14                  ang:S14
!                         db:S21                  ang:S21                 db:S22                  ang:S22                 db:S23                  ang:S23                 db:S24                  ang:S24
!                         db:S31                  ang:S31                 db:S32                  ang:S32                 db:S33                  ang:S33                 db:S34                  ang:S34
!                         db:S41                  ang:S41                 db:S42                  ang:S42                 db:S43                  ang:S43                 db:S44                  ang:S44
! 
 3.000000000000000E7    -2.753495245206155E-1    1.014998138609372E2    -6.985228477103023E1     5.072836805529827      -9.016493827492229E1    -9.145911194030599E1    -8.302544702817701E1    -1.660958617653836E2
                        -6.810521240910789E1     2.193324175355070      -2.822982681501826E-1    8.978709263639942E1    -1.050650812839925E2    -1.780644460337161E2    -8.509653975701750E1     1.342381727493094E2
                        -8.824887938674324E1    -1.649966632591925E2    -8.398732046043205E1     1.170048624921143E2    -9.287458840899898E-1   -1.142049763733604E1    -9.021782145584837E1     1.314833843310316E2
                        -8.516453835153243E1     1.052635349042844E2    -8.545820645924064E1     1.059670453361518E2    -9.005944434025621E1    -1.477993944532792E2    -9.401193351341770E-1   -1.646871883357629E1

 3.002500000000000E7    -2.755433918689935E-1    1.011880501224731E2    -6.892037303611393E1     9.337060123989588      -8.911396688041101E1     8.312303883763470E1    -8.020751397012785E1     7.616025796063579E1
                        -6.904455466837243E1     6.841832767196340      -2.778748082255907E-1    8.946081201572225E1    -8.732239348991222E1     9.824222482911369      -8.614382139392610E1     1.620960163491602E2
                        -9.438716090720729E1     1.070063915762669E2    -9.568064995600862E1    -5.719941959398222E1    -9.331730524610051E-1   -1.174640071522518E1    -9.020436632467860E1    -8.414380667909470E1
                        -9.194968016253093E1    -1.223343466115339E2    -8.839960575356825E1     7.527093343428625E1    -8.301480298009133E1    -4.965279188595000E1    -9.354687870209801E-1   -1.675609219097309E1

 3.005000000000000E7    -2.800372508768425E-1    1.009203783033224E2    -6.804298628085796E1     1.180426401385982E1    -9.596786725732582E1     1.322874336640818E2    -1.017181151314699E2     1.625136021024563E2
                        -6.834012139879289E1     8.043194283164846      -2.785347748946150E-1    8.905916983835145E1    -9.166527919745802E1    -6.754133778004980E1    -7.928835655536707E1     3.357250824739020E1
                        -9.062396307048400E1     3.332023164257793E1    -7.976969351949330E1    -1.490974941354192E1    -9.352397599285246E-1   -1.205426705284229E1    -9.340896218769315E1    -1.191021465199773E2
                        -8.741162242577266E1    -7.969947467425261E1    -8.349638125008147E1    -1.685078510116843E2    -9.063194786639683E1     7.499498245490271E1    -9.372414425675149E-1   -1.705869633190068E1

 3.007500000000000E7    -2.763144163597782E-1    1.005987951415701E2    -6.846208957943438E1    -1.653439832641614      -8.035756727112384E1     1.077275237222598E2    -8.764791877646418E1    -2.678816692593696E1
                        -6.993342174322582E1     7.362420711198118      -2.751634075382464E-1    8.862784399383926E1    -8.558627705113130E1     9.560789139534329E1    -8.309982028231973E1    -7.586678764253115E1
                        -8.140364570552200E1     1.673666316741252E2    -8.408118757076798E1     3.720847031375013E1    -9.320700745451626E-1   -1.239179425104668E1    -8.845404497282308E1     1.412871541346207E1
                        -9.387792096416091E1     1.760939622928534E2    -9.672803974356256E1     1.059206945283348E1    -8.434957753326343E1    -1.434889817659787E2    -9.399640899400206E-1   -1.737542464560031E1

 3.010000000000000E7    -2.729413887682192E-1    1.003504098908376E2    -6.748163689901790E1     5.140999719215082      -8.576346593249086E1     1.388443489112247E2    -9.816907893618243E1     1.675979378491840E2
                        -6.917247586711090E1     7.141457007282916      -2.818163873050765E-1    8.832808357420221E1    -8.362251823077322E1     1.708350436453757E2    -9.118653222554015E1     1.682620860708163E2
                        -8.106397492783304E1    -9.863754468812952E1    -9.306828182113043E1     2.612693599229202      -9.293715878816908E-1   -1.262512487092301E1    -8.683222779554315E1     1.047926235116667E2
                        -8.165456152742392E1    -1.186006948474437E2    -8.574152308292513E1    -2.106587332083524      -9.684801313314355E1     1.241182207245627E2    -9.366651383467041E-1   -1.770084280936229E1

 3.012500000000000E7    -2.724209847493032E-1    1.000428419418459E2    -6.794670983862710E1     1.403565600604938E1    -8.958471749663586E1     1.326812644763347E2    -8.278517922571608E1    -1.443903138285536E2
                        -6.933174410021020E1     2.930804691867416      -2.801624060712931E-1    8.793488343325464E1    -9.307704388238830E1    -4.429577232503022E1    -8.666179132453330E1     8.652969408088649E1
                        -8.884130880509538E1    -8.604746241319168E1    -9.905554211095097E1    -1.349629515398111E2    -9.305938718653213E-1   -1.300454964046032E1    -8.605629600336322E1    -1.254791379097818E2
                        -9.113944766005263E1     3.522742596464109E1    -9.381599798797055E1     1.149470537941201E2    -8.255798036142059E1     4.364579644115586E1    -9.405322252025948E-1   -1.800443763033225E1

 3.015000000000000E7    -2.703124379964565E-1    9.975409007308521E1    -6.852799839124029E1     9.532258857023674      -8.943471977841165E1    -1.344048462688063E2    -1.010513698539962E2    -1.200803727012109E2
                        -6.939768346682791E1     3.667810990567042      -2.801491307214097E-1    8.755703468639359E1    -8.872999205327957E1    -1.765950496617454E2    -8.945713561747427E1     1.611069529487600E2
                        -8.806131349295058E1     1.713203055870402E1    -9.303236871606069E1     2.954705600843207E1    -9.254733018987295E-1   -1.326158654086861E1    -8.160550360071997E1    -1.332785810374397E1
                        -8.810492532762295E1     1.692569406502546E2    -8.199883537722947E1     1.098807475948524E2    -8.909102417883335E1    -6.544744973278443      -9.407949021016600E-1   -1.829397029879520E1

 3.017500000000000E7    -2.690595471066780E-1    9.945362994553551E1    -6.708805292589220E1    -2.002119679971655      -8.494731946938441E1    -1.404289696634850E2    -8.553908825673899E1    -6.742903784363242E1
                        -6.886862890932318E1     8.149045977779167      -2.737903855026253E-1    8.714806335089500E1    -8.184957761321974E1    -5.913610589488945E1    -8.496713443646061E1     1.253305397386281E2
                        -8.574350999710262E1    -1.580809754012019      -8.355233095855782E1    -6.209372670687633E1    -9.330350971129292E-1   -1.355470682942829E1    -8.690595939372570E1    -6.909872554775579E1
                        -8.863535219984796E1     9.554144478746922E1    -8.692254815760315E1    -1.734660565527348E2    -9.119487370472170E1    -1.520824377317822E2    -9.412290356343610E-1   -1.862318912273655E1

 3.020000000000000E7    -2.692079216751129E-1    9.914249806045379E1    -6.795148204338013E1    -1.197033778544044      -7.954440361670234E1     2.497159222781398E1    -9.916215907281529E1    -1.613403251748533E2
                        -6.735059585180289E1     7.203111480194018E-1   -2.793785319387261E-1    8.678211806927300E1    -9.652584185153472E1     1.901233673596810E1    -9.423837052321504E1    -1.265139812273189E2
                        -8.485523541429257E1    -2.323692103245704E1    -8.335268691842771E1    -3.310793117150976E1    -9.260241807843785E-1   -1.389171852641917E1    -8.906477319834876E1    -1.770840007651136E2
                        -8.714216422454763E1     1.015148674961378E2    -9.782915607380519E1    -5.594182112204494E1    -8.392404157934303E1    -1.385696754351149E2    -9.412391488093118E-1   -1.898417460505106E1

 3.022500000000000E7    -2.741181054073505E-1    9.884252699718148E1    -6.858506392437971E1     6.896233621693104      -8.626773021501208E1    -6.738001113928738E1    -8.708010531208812E1     4.727189895133743E1
                        -6.817363289979066E1     8.439508309716720      -2.768486388945153E-1    8.646705554355233E1    -8.672971969406353E1    -2.770549214383350E1    -8.456168975933764E1     8.025493722839295E1
                        -8.951636903919257E1     1.239016572928851E2    -8.752239790627709E1     1.729137847987308E2    -9.269310100539911E-1   -1.421399094643109E1    -9.216367254252404E1     5.437975670235253
                        -8.785035949688235E1    -4.260461934803260E1    -9.638738329611455E1    -1.779164997069410E2    -8.646674171593924E1    -9.926006769446813E1    -9.361868021353965E-1   -1.927081294612089E1

 3.025000000000000E7    -2.729150962249017E-1    9.854347970139037E1    -6.912709542101345E1     8.020990689193376      -8.935689073868005E1    -1.451681813575337E2    -8.841416376209506E1     1.406772555694982E2
                        -6.835320212827041E1     6.679978390330583      -2.910626584701975E-1    8.609732471375504E1    -8.438401479929598E1     1.488876750295233E2    -8.305103318445072E1    -5.278358155468624E1
                        -8.752513325622539E1     1.583081769962223E1    -8.393443428709136E1     4.733071821053995E1    -9.276204097114029E-1   -1.448136285322561E1    -8.527196441312438E1    -2.614757517937125E1
                        -8.669628130726439E1    -1.710990268071727E2    -8.022459641150762E1     1.527726793747922E2    -9.805555361834283E1    -7.859173618685539E1    -9.438998886765719E-1   -1.955949872701727E1

 3.027500000000000E7    -2.671798613530184E-1    9.822922389738577E1    -6.767278840113994E1    -3.987981006451353      -9.442661642710192E1    -1.498534861105861E2    -8.576631785479552E1    -8.523246738084015E1
                        -6.980181367989677E1     5.098454356499929      -2.677525502215383E-1    8.569399920268057E1    -8.368901265129695E1     6.638185212856192E1    -1.039024785358105E2    -8.136679156864352E1
                        -9.093080697003779E1    -1.170173884796777E2    -8.579378088272735E1    -1.499640807232815E2    -9.281340708619285E-1   -1.478138425938905E1    -9.187344854311431E1     1.213863862893725E1
                        -8.744554373716548E1    -7.199221559734480E1    -9.315563322454956E1     1.376741864590257E2    -8.789607524442155E1    -5.898205827421469E1    -9.403231942837100E-1   -1.989241791639952E1

 3.030000000000000E7    -2.721643936045506E-1    9.797709474230325E1    -6.834528876103823E1     1.363351465042388      -8.566199217657399E1     7.178880903456313E1    -8.890888245230477E1     1.302235273861448E2
                        -6.763302332492499E1     1.050717487842084      -2.692949012359758E-1    8.529168407506472E1    -8.041670512576580E1     1.383194065573929E2    -8.039701426768326E1     1.602186786914868E1
                        -8.729202950854372E1     1.207485002370869E2    -8.288017067825916E1     1.536357062367474E2    -9.265307038200352E-1   -1.510243531905968E1    -8.750066725784897E1    -1.449526029616357E2
                        -9.541482291260439E1    -1.038840766107841E2    -9.296558908352810E1    -3.199607182379138E1    -9.405801222675527E1     5.051036720190681E1    -9.410024795121899E-1   -2.019780546447181E1

 3.032500000000000E7    -2.683296730636189E-1    9.769343887072799E1    -6.894636452096195E1     2.874353749162599      -9.521257828917349E1    -1.458029164559639E2    -9.448143564641796E1    -9.637079811890467E1
                        -6.810865523013749E1     5.156411097438325      -2.644402618838170E-1    8.490098958817399E1    -9.016935574631305E1    -1.635047475252721E2    -8.853751612976549E1    -5.031244341719949E1
                        -8.702033501366729E1     4.175310584245059      -8.649757404955558E1     2.407431590356369E1    -9.263201767093485E-1   -1.542802073057211E1    -9.668764867376942E1     7.105174287193924E1
                        -8.413934638694920E1     1.579738604860164E2    -8.554380342579600E1    -1.759138183963500E2    -8.545567464765801E1    -2.040025232564646E1    -9.382577158962467E-1   -2.052815781643044E1

 3.035000000000000E7    -2.683126750262879E-1    9.737578515045627E1    -6.700167359011186E1    -8.064340339982920      -8.274289074231371E1    -4.981563457009442E1    -7.940808255036788E1     8.053454608840424E1
                        -6.800225817670318E1     5.846797435350612      -2.701808702933283E-1    8.455371088415222E1    -8.396652574993247E1     8.857786664457079E1    -8.328545324592730E1     3.270137465676368
                        -7.978361830046521E1    -1.895124652022384E1    -8.140630264995943E1     1.599258981588718E2    -9.287236645152093E-1   -1.574992351743125E1    -7.985440111095596E1     1.405547501844512E2
                        -9.002075251062651E1    -1.329775559880465E2    -8.853833259019147E1     1.841122384574894      -8.308975866380982E1    -8.842521134468417E1    -9.441720037930845E-1   -2.081520099278055E1

 3.037500000000000E7    -2.677851986581680E-1    9.709450368718443E1    -6.979103586948287E1    -4.437673427712641      -8.650846918485192E1     1.190831466651616E2    -8.267855890041993E1     1.260805176481408E2
                        -6.739206969636936E1     1.788278583371143      -2.758081637059204E-1    8.418771622901491E1    -8.465272350839547E1    -9.116508090496845E1    -8.801202083383785E1     1.610573452487225E2
                        -8.483191096935465E1     2.931071065065645E1    -8.962188985452431E1     8.511280553037197E1    -9.302872701055944E-1   -1.597155990883412E1    -8.234974444787655E1     6.320740449738263E1
                        -8.832437510187762E1     1.621733020439509E2    -8.964631035867691E1    -1.451418499516615E2    -9.053324261596949E1     8.444025825062569E1    -9.397426499399931E-1   -2.113753444845607E1

 3.040000000000000E7    -2.627796965640818E-1    9.681624993564998E1    -6.798185524238478E1    -1.674800808509181E1    -8.367012593016371E1    -1.559077857573365E2    -8.408703315515398E1     1.748845346539158E1
                        -6.856757169753868E1    -2.164119702380454      -2.779565901281993E-1    8.379126669865298E1    -9.695968448828468E1     9.135268398194673E1    -8.708056097930673E1    -1.023947741688823E2
                        -8.717491598837235E1     6.971757917469832E1    -8.818046945963593E1     1.041692248800605E2    -9.310223767322730E-1   -1.632901013148480E1    -8.290513789849760E1    -1.604672381750221E2
                        -8.565652074477981E1     1.879677244703358E1    -8.823067584114291E1     1.430460218519894E2    -8.721068283518113E1    -1.682982586537025E2    -9.407364128399862E-1   -2.146358027363946E1

 3.042500000000000E7    -2.652556044739543E-1    9.649916413630827E1    -6.706169639710588E1     1.227709998051421E-1   -9.096236995383661E1     1.586323063437061E2    -8.071363009445855E1    -1.328809741047054E2
                        -6.756715211588450E1     2.596333835525024      -2.731864178354649E-1    8.345493441239825E1    -8.694906388173300E1     4.720988366603104E1    -9.238562218738315E1     1.285542638478011E2
                        -9.780351334313458E1    -1.765753847546351E2    -8.882005152955129E1    -1.649683365849657E2    -9.318347129373145E-1   -1.661611132376983E1    -9.112356710463195E1    -5.362223673563898E1
                        -8.515135208158657E1     8.718526571268878E1    -8.993772371477506E1    -5.322197835759663E1    -8.936304925608812E1    -1.355487890316968E2    -9.449293171670823E-1   -2.178670535684992E1

 3.045000000000000E7    -2.733305703208830E-1    9.618267692114748E1    -6.612308045214826E1    -2.966030793537968      -8.586928172234032E1     1.094096092188099E2    -9.073484541339877E1    -1.742448049000821E2
                        -6.946222866118998E1    -9.145439636825230      -2.710054936289950E-1    8.304439111650008E1    -9.185436755624809E1     3.988183554763311E1    -8.142478588033556E1    -1.749564522410328E2
                        -1.070236119142140E2    -7.350243247612350E1    -9.245552752864865E1     8.332023027736381E1    -9.303897585563177E-1   -1.692297746235412E1    -8.548442768232141E1    -2.668829446139887E1
                        -9.968524343053369E1    -1.199082839520115E1    -9.178579569052852E1     6.038924765225362E1    -8.990288696223118E1     2.006818613558685E1    -9.386960079457308E-1   -2.211507203456043E1

 3.047500000000000E7    -2.694111294676104E-1    9.589835346247449E1    -6.880210570530225E1     2.529963137226485      -8.567630908242430E1     6.781741351577445E1    -8.070210011175936E1     1.694434354016302E2
                        -6.941804982486887E1     5.973968317765720      -2.715844686193890E-1    8.267956752511817E1    -9.333500831367303E1     1.586734156677997E2    -8.667265187913233E1    -3.128212724958621
                        -9.108832577219103E1    -1.307629359431099E2    -8.992754626050004E1     1.139206494911618E2    -9.268534834490327E-1   -1.721967358402027E1    -8.984209774573218E1    -3.637661766972573E1
                        -8.494995846745191E1    -1.103544900501624E2    -8.612116826741220E1     8.714777155077752E1    -8.762419113495102E1     1.462017660953198E2    -9.433497250449074E-1   -2.241127134764298E1

 3.050000000000000E7    -2.659049992691687E-1    9.562641066094999E1    -6.794187082087095E1    -2.965764003929817      -8.302047827216028E1     1.270101911128734E2    -7.798226667663663E1     1.287654378467092E2
                        -6.846573594135373E1    -3.078117641969642      -2.666237931767749E-1    8.232766288861014E1    -8.430651664087552E1    -1.779951114781793E2    -9.582675417425091E1    -4.391328749308573E1
                        -9.359454148404497E1     2.534418311661051E1    -9.518773800713743E1     1.539479363945710E2    -9.281068454518898E-1   -1.756866302194788E1    -8.289221065577561E1     1.278985165714526E2
                        -8.755980178257562E1    -6.541223636778096E1    -8.878082332633537E1    -1.574797994824560E2    -8.722050225550005E1    -5.879224329613430E1    -9.438762230641755E-1   -2.273609817563634E1

 3.052500000000000E7    -2.661036260514502E-1    9.531682090112302E1    -6.626714449179585E1    -8.218782826273150      -8.088407258645539E1     1.659863608954460      -8.097111989978258E1     6.377994369605512E1
                        -6.844451897322914E1     2.318480615634448      -2.708451295453652E-1    8.191728659271878E1    -9.892646861409918E1     7.571855858281533E1    -8.288223835533047E1    -1.168417025030097E2
                        -9.637345660726589E1     9.902834016498466E1    -8.527639498581664E1     1.135703962449215E2    -9.337810334151607E-1   -1.784452274624348E1    -9.480627285524102E1     1.643352780215308E2
                        -8.399001115594736E1     1.538989737808451E2    -7.936964649874304E1     1.704110964372667E2    -8.098724059418512E1    -6.510322045105991E1    -9.425335268578362E-1   -2.305084622228026E1

 3.055000000000000E7    -2.581972159301199E-1    9.500665915514958E1    -6.650451774724084E1     7.220301838047745      -7.932474730877816E1     5.745907364688360E1    -9.401746179345705E1     8.170965228716918E1
