#  HZ   S   DB   R     50.00 
! Rohde & Schwarz Vector Network Analyzer 
! Rohde-Schwarz,ZNB8-4Port,1311601044102961,2.82
! Created: UTC 2/13/2019, 9:52:41 AM
! freq[Hz]                db:S11                  ang:S11                 db:S12                  ang:S12                 db:S13                  ang:S13                 db:S14                  ang:S14
!                         db:S21                  ang:S21                 db:S22                  ang:S22                 db:S23                  ang:S23                 db:S24                  ang:S24
!                         db:S31                  ang:S31                 db:S32                  ang:S32                 db:S33                  ang:S33                 db:S34                  ang:S34
!                         db:S41                  ang:S41                 db:S42                  ang:S42                 db:S43                  ang:S43                 db:S44                  ang:S44
! 
 5.525000000000000E7    -1.109851938742750      -1.294892678006393E2    -3.024993904162551E1     7.282047034493684E1    -6.569588402936046E1    -1.403558745275436E2    -8.584723294498443E1     2.964981109749494E1
                        -3.026442197891070E1     7.343433647420561E1    -3.218303690844164E-1    9.423299931709033E1    -8.698433308652079E1     9.020885237862062      -8.512654150656002E1    -1.892935610528167E1
                        -6.647563809663167E1    -1.466475265510175E2    -8.680442549657087E1     9.893447914359875E1    -1.389995269285515       3.488310338083368E1    -9.463877244607150E1     9.359487955798787E1
                        -7.854061228824729E1    -4.487185109970555      -8.938403528051720E1     1.208312372152504E2    -8.434405898686542E1     1.595857271286477E2    -1.383218827609841       2.845889051828135E1

 5.525025000000000E7    -1.110822848844031      -1.295286562967320E2    -3.031064508464718E1     7.294492727238722E1    -6.463536692957563E1    -1.455300249793904E2    -7.706064677362525E1     1.742842552423504
                        -3.032897408730996E1     7.329352695973566E1    -3.235321729412700E-1    9.420850211150926E1    -8.724109802767450E1    -8.684427445961062E1    -9.108578760994887E1    -1.005310569274780E2
                        -6.573764684837951E1    -1.466366410588134E2    -9.055769636907839E1    -6.469848571974633E1    -1.390660628100420       3.489623166258136E1    -9.223005686416477E1    -1.503999855521559E2
                        -7.729130763467610E1     1.999066475895616E1    -8.744590129140711E1     1.307616019329338E2    -9.733353267214092E1    -1.497073186023671E2    -1.382314025521224       2.844531741370937E1

 5.525050000000000E7    -1.113654191476649      -1.295655476957746E2    -3.025579275074528E1     7.303710163667925E1    -6.608783359726513E1    -1.514672773343345E2    -7.907832437034361E1    -3.198369762071441E1
                        -3.033939515394087E1     7.359451715629827E1    -3.187657983606461E-1    9.417397519800780E1    -8.834181888083546E1     8.083479405866763E1    -9.114472752511168E1     1.582353109057793E2
                        -6.535920070415526E1    -1.456609973693224E2    -8.060708300889202E1     6.143026140569589E1    -1.390201351363308       3.491136079071121E1    -8.636034991648735E1     5.894735738307153E1
                        -7.742589557992011E1    -2.179607966346089E1    -8.492353910843650E1    -1.218670851995991E2    -8.201332131462073E1     1.145678241973219E2    -1.380512706237844       2.845896849299997E1

 5.525075000000000E7    -1.112390544164673      -1.296044223072142E2    -3.036338103093586E1     7.333556582886814E1    -6.528210676346728E1    -1.466095745825693E2    -7.877603544554273E1    -2.679282963310197
                        -3.033546208853150E1     7.311611958345799E1    -3.204358384178339E-1    9.418899953472480E1    -8.480135618676259E1     7.885403085919955E1    -9.593224010165781E1    -4.303033781983922E1
                        -6.590970511607326E1    -1.433803130386653E2    -8.998291960636620E1    -1.798374697367306E2    -1.391960877995465       3.487124462496207E1    -8.602675987417322E1    -1.088423675711796E2
                        -7.599666234664193E1    -9.488355976560854      -8.600068659886830E1    -6.394135873564367E1    -8.975244810357978E1    -8.589330542905289      -1.383954581904130       2.845162379206334E1

 5.525100000000000E7    -1.117897946016335      -1.296483310350161E2    -3.035393923074269E1     7.372801230126605E1    -6.656455341625792E1    -1.436997552162016E2    -7.653450153232058E1     1.385742785271891E1
                        -3.039383671087320E1     7.352557602749812E1    -3.147785682010881E-1    9.422119585646028E1    -8.913242938011551E1    -3.806758344350547E1    -7.996639579745151E1     1.654405943178353E2
                        -6.597394017080974E1    -1.465736827289531E2    -8.592192127693079E1     3.834937436757700E1    -1.388358917173983       3.488265571343216E1    -9.908710316858426E1    -1.685006800540029E2
                        -8.638803414077243E1     5.456896131689688E1    -8.652463715216469E1     2.735516643678768E1    -9.779404761773822E1    -7.171057186300686E1    -1.382551371448483       2.844800914630017E1

 5.525125000000000E7    -1.118682932493957      -1.296685589080891E2    -3.025898448935583E1     7.280445837680222E1    -6.468425904177964E1    -1.434418046995600E2    -8.845179888893988E1    -4.190981424921764E1
                        -3.026168452601946E1     7.361466847148317E1    -3.203651933541217E-1    9.418836708638513E1    -9.161815475522091E1     1.144725512145808E2    -8.853359610054829E1     1.365402922488285E2
                        -6.580261007101620E1    -1.463171623551570E2    -8.113342025467344E1     1.885099174883978E1    -1.390355331465029       3.487842939689223E1    -9.005866761921951E1    -3.040336507360588E1
                        -8.095790677792708E1     5.026725134056874E1    -9.029530671566933E1     1.557296526807302E2    -8.825862591988162E1     1.627728467549321E2    -1.386232079907904       2.844545553579437E1

 5.525150000000000E7    -1.120779532504089      -1.297284398439181E2    -3.027525749959693E1     7.295864497567027E1    -6.517147779770897E1    -1.443117356214654E2    -7.607734328425435E1    -1.619909729838402
                        -3.028470318294298E1     7.331754538976078E1    -3.199434555700809E-1    9.417943471528946E1    -9.017338708501984E1    -2.777802585002924E1    -8.530530939125197E1     1.605016756140336E2
                        -6.590287488511650E1    -1.432625860867444E2    -8.325969105295705E1    -7.622457050052100E1    -1.385908127508128       3.490000950832329E1    -1.001959439343022E2    -5.974274032368584E1
                        -7.576505563292953E1     1.409312616397275E1    -9.502990906422414E1     4.528430070839499E1    -1.015903945720709E2    -1.313166906178834E2    -1.384523209309965       2.844381814907029E1

 5.525175000000000E7    -1.121888168559747      -1.297445487507974E2    -3.031090871191313E1     7.298054771709680E1    -6.579549708119470E1    -1.395435562848874E2    -8.116111898703836E1     1.435657032659631E1
                        -3.032139568766125E1     7.364336945280356E1    -3.159040978772078E-1    9.415682487634136E1    -9.407190633830464E1    -7.601123338772435E1    -8.609182764112316E1    -1.517966250003024E2
                        -6.541957618605765E1    -1.425401685139844E2    -1.012226059641154E2    -1.516808197612846E2    -1.388538369017675       3.485054460401280E1    -8.162777516627286E1    -6.412930145982571
                        -7.865486159045186E1     2.637432771962232E1    -8.536177615827192E1     1.556852170025965E1    -9.432457028568537E1    -9.442149984206570E1    -1.381688971047067       2.845483946687825E1

 5.525200000000000E7    -1.121716441863499      -1.297773934196979E2    -3.019942080962509E1     7.320165184551907E1    -6.589167455126528E1    -1.404790780796716E2    -7.737212270677676E1    -1.321681919928343E1
                        -3.039547856907686E1     7.456214049698912E1    -3.168959892631689E-1    9.416174078157972E1    -8.281531943486456E1     1.716359227869139E2    -8.515859868632872E1     3.575358053390838E1
                        -6.655007111312924E1    -1.432509009853591E2    -8.308783572105840E1    -1.593869847573795E2    -1.387688844132111       3.486831165241584E1    -8.616161433744621E1    -1.521937327850145E2
                        -7.823608713744085E1    -2.441206421671654E1    -9.171254865305700E1     1.687732886423814E2    -8.574807871823701E1     1.456853095235342E2    -1.384110244339358       2.843544361013368E1

 5.525225000000000E7    -1.117954724040072      -1.298076510243862E2    -3.024941379022258E1     7.350452241198192E1    -6.513112162098210E1    -1.383170612315905E2    -7.627481900182823E1     4.011621084858933E1
                        -3.026251685834671E1     7.383203810128376E1    -3.175505707000847E-1    9.415130830880550E1    -9.440600017759724E1    -2.265477206640670E1    -9.639640480022912E1     4.228792067684245E1
                        -6.474921916452587E1    -1.472811837043633E2    -8.584256028742621E1    -1.420874674131908E2    -1.393367070057111       3.483980090168229E1    -8.322422659873976E1     1.167410697777688E2
                        -8.315619878225724E1     5.570012608225464      -9.710206476936378E1    -7.777834224844216E1    -8.554047443218211E1     2.957202023435115E1    -1.385725928631578       2.842357963858273E1

 5.525250000000000E7    -1.124836854796254      -1.298296828193488E2    -3.030271974495913E1     7.334456950581968E1    -6.637012235544586E1    -1.464729123822862E2    -7.777524559197394E1     1.786100156688730E1
                        -3.033584342462971E1     7.375927409658691E1    -3.178061637277229E-1    9.415436004356472E1    -8.526199849970375E1     1.765657693432802E2    -9.032829729746209E1    -6.566287480138774E1
                        -6.726749445781327E1    -1.470419909059497E2    -8.183327814871502E1    -7.466272237742217E1    -1.392521892758954       3.485855571008231E1    -8.401254138682008E1    -1.435186997433165E2
                        -7.932700301011370E1    -1.907786979424426E1    -1.058226257889084E2    -9.190294458384412E1    -8.602669306598455E1     7.744445265688933E1    -1.386956316636531       2.841710457844429E1

 5.525275000000000E7    -1.123330433958270      -1.298833200576955E2    -3.033218339380069E1     7.370175696125384E1    -6.519391804306900E1    -1.376038929148297E2    -7.719480310509876E1    -2.872122321138980E1
                        -3.046376857196483E1     7.315062236551582E1    -3.244795466398835E-1    9.417319630924929E1    -9.631812671362896E1     1.167564703420921E2    -8.174923909946195E1     1.715752596401864E2
                        -6.581898019609282E1    -1.450091351194652E2    -9.147104526280556E1     1.341749234937507E2    -1.389865755592206       3.486507413476265E1    -9.582648720066649E1    -1.539892801603994E1
                        -8.207899080753873E1     2.962850311812454      -8.638260473316286E1     1.750400102346784E2    -8.849480268012151E1    -4.775168441149382E1    -1.377125949336633       2.840983293898344E1

 5.525300000000000E7    -1.125764498471853      -1.299133554840226E2    -3.031327854391588E1     7.366073940812839E1    -6.492450186097858E1    -1.426139361560559E2    -7.661397078473812E1     4.212194603327131E1
                        -3.022965338544950E1     7.327407840815641E1    -3.226221690893519E-1    9.417008254212043E1    -7.848443747605433E1     6.151483369293486E1    -8.635588397281609E1     1.175054924770559E2
                        -6.508776301793047E1    -1.425397790173301E2    -8.622251634878944E1     1.742755523944777E2    -1.390970522437375       3.484428798064368E1    -8.181835716388758E1     1.128704441008990E2
                        -7.997715418390942E1    -1.013139368835326E1    -9.689707072091912E1     4.852030055881100E1    -9.253921714317096E1     1.320459128361906E1    -1.382867303029991       2.841880830972958E1

 5.525325000000000E7    -1.130739602964911      -1.299501265834909E2    -3.025777508410031E1     7.365616633362971E1    -6.618944333282275E1    -1.496162225022979E2    -7.789122190877987E1     2.518753192636831E1
                        -3.035318927613514E1     7.409429226769370E1    -3.226820421280192E-1    9.420309015336291E1    -8.953530331104902E1     4.355334797096225E1    -8.225784221368321E1    -1.151685749176208E2
                        -6.508570081858545E1    -1.469369758084808E2    -1.019947185808601E2    -1.476583388876095E2    -1.393546414687978       3.488909475806864E1    -8.508864785917994E1    -1.323631805277246E2
                        -8.087676782704337E1    -1.678533213447868E-1   -8.734775583471021E1    -1.041180122420932E1    -8.813994816495752E1    -9.134932822342215E1    -1.381770881927221       2.841306388268352E1

 5.525350000000000E7    -1.126286882046330      -1.299944267184620E2    -3.028716281094741E1     7.349874648273377E1    -6.666272650609142E1    -1.389154816336725E2    -8.250920303654497E1    -1.340716090759775E1
                        -3.031929779600990E1     7.353644446814714E1    -3.177059580181149E-1    9.418163850772513E1    -9.136791774399319E1    -3.414488821334781E1    -8.528772886825401E1     1.520338550635870E2
                        -6.522330018412698E1    -1.500928294430465E2    -8.383264544563717E1     5.102747875475915E1    -1.391033459220446       3.485665558966586E1    -8.762060915267243E1    -1.018376448919667E1
                        -8.616900855773810E1    -5.014598223461948      -8.604661380558370E1    -9.136773376755903E1    -8.606617976321374E1    -2.167505446676182E1    -1.384074382395696       2.840377713267743E1

 5.525375000000000E7    -1.132550567015425      -1.300099115510240E2    -3.026438096942464E1     7.300366306989687E1    -6.479540502673248E1    -1.486631183038618E2    -7.989890200281243E1    -1.808449323850311E1
                        -3.044114892825606E1     7.316348494648581E1    -3.164334033108280E-1    9.413841546051324E1    -8.389880394157841E1     4.168761908410902E1    -8.604482800769375E1     1.331066958314492E2
                        -6.557691601517875E1    -1.530464554209252E2    -8.938263925116615E1     2.338418725316646E1    -1.389239828065136       3.486739601135039E1    -8.501869809326131E1    -6.411698809955816
                        -8.527226303314011E1     4.089356228769366E-2   -8.624040723513585E1     1.608558544362649E2    -8.991366966187553E1    -6.289563694793831E1    -1.383210159220068       2.841914768078406E1

 5.525400000000000E7    -1.131077614642649      -1.300710246206147E2    -3.040258409923789E1     7.312154948980550E1    -6.596425625838799E1    -1.383529024130671E2    -7.945449208939211E1    -7.358998792473386E-1
                        -3.040490042181897E1     7.370353950950543E1    -3.196577912492401E-1    9.414998131459574E1    -8.771059826985676E1     1.136787701748917E2    -8.158733083958279E1     7.518691899092529E1
                        -6.556359548445900E1    -1.403155989191968E2    -9.341426556439517E1     9.231623861928857E1    -1.384775823537725       3.486667720621428E1    -8.396212165112570E1     8.586994368803207E1
                        -7.505945156650992E1     2.872655004599358E1    -8.395804983165641E1    -2.346817515551346E1    -8.959635656378823E1     7.734481135819435E1    -1.381451489907039       2.838716253170840E1

 5.525425000000000E7    -1.135438394601356      -1.301040932810272E2    -3.032618999907454E1     7.292036131463485E1    -6.615352148368632E1    -1.501205432264860E2    -7.789834186712808E1     3.744513301663345E1
                        -3.036462001243266E1     7.228321412547160E1    -3.131871208567040E-1    9.413464402771415E1    -8.097681339649117E1     7.521760348521757E1    -8.638464665624267E1    -9.205565178108402E1
                        -6.600723635487474E1    -1.430746307082577E2    -8.680832843065524E1    -1.037564829276991E2    -1.391842846538202       3.483676826028151E1    -8.459038822306727E1    -1.775454214085059E2
                        -7.667907227811503E1    -2.753420361270182      -9.676260681881391E1    -9.404589797853181E1    -8.486140815186849E1     4.829599753919744E1    -1.377495652477540       2.841002025743183E1

 5.525450000000000E7    -1.134581714618356      -1.301386453263701E2    -3.031391421844539E1     7.336740062670462E1    -6.536960631690920E1    -1.468028547323041E2    -7.589493136469309E1     1.100547161016518E1
                        -3.020472685694239E1     7.310534505694193E1    -3.250539384377635E-1    9.415785656891470E1    -1.011026778968158E2    -1.578110608896009E2    -9.358480323541966E1     1.614826636743564E2
                        -6.522075001381148E1    -1.452366002166556E2    -9.644406389686218E1    -1.394094984648812E2    -1.386976579360919       3.482970132936764E1    -8.629008266176405E1    -1.666276037214880E2
                        -7.645859119756651E1     4.802581836469861E1    -9.378299884388964E1     1.522709974771950E2    -9.232909795716086E1     1.760043617394753E1    -1.379346322371366       2.841883530356848E1

 5.525475000000000E7    -1.137967941959832      -1.301562411166589E2    -3.033557043687534E1     7.337944512688085E1    -6.551275664105761E1    -1.495011193769305E2    -7.957223578117657E1     2.216653490124874E1
                        -3.035388854405753E1     7.327047141948707E1    -3.163042188735077E-1    9.413491382788629E1    -8.449690157456291E1     9.301351609533667      -8.446745867324053E1     1.575982493230123E2
                        -6.700221268236342E1    -1.450494895391215E2    -9.324658139252925E1    -1.005500903857881E2    -1.384330627405092       3.485734076731830E1    -8.896110240021147E1    -9.807691398680329E1
                        -7.698944087921755E1     2.511924000452087E1    -8.629179376384143E1    -6.066847284877613E1    -8.636423044696673E1    -1.225936440344367E1    -1.382879856409130       2.841920746933827E1

 5.525500000000000E7    -1.139721873385857      -1.301882079047263E2    -3.024411719457623E1     7.316331590066270E1    -6.603979763127340E1    -1.458981453377776E2    -7.790690304228276E1     4.139787391833350E1
                        -3.026797889182553E1     7.292332754987240E1    -3.250192765277894E-1    9.410676319871173E1    -9.422176964390803E1    -4.542846332141953E1    -9.141569085557973E1     2.014106323182280E1
                        -6.556235836173350E1    -1.402712406911891E2    -8.616685563154238E1    -8.640112912196311E1    -1.386840624685751       3.483715054371037E1    -8.134220810772368E1     1.005490461652080E2
                        -7.759798621799720E1    -1.229843563381331E1    -8.949235607648367E1     4.195451836700872E1    -8.773142759535445E1     1.150868502776944E2    -1.379757263729516       2.839248560028011E1

 5.525525000000000E7    -1.141205712306628      -1.302459789039072E2    -3.029873401288678E1     7.302689136965503E1    -6.495171711435332E1    -1.454237818718281E2    -7.502016496294468E1    -1.161125035818549E1
                        -3.026059462980734E1     7.315663974271132E1    -3.149945849685978E-1    9.411856537034414E1    -8.717421971427319E1     9.907390073101479E1    -9.108091665618051E1     1.334423665502091E2
                        -6.617530187182592E1    -1.466334774813291E2    -9.129985806674164E1     9.215321143852586E1    -1.387154008170457       3.483147576208955E1    -8.578120275209527E1    -8.836955797334318E1
                        -7.547124964748146E1     1.871242909221211E1    -9.383146119415815E1    -3.137480690827982E1    -8.751755300222526E1     1.101234115395337E2    -1.382955698525636       2.840685973852973E1

 5.525550000000000E7    -1.141140499976040      -1.302637862962749E2    -3.034556800719889E1     7.342281595097411E1    -6.579300482860306E1    -1.446784599724566E2    -7.936762296197904E1    -3.081327787815023
