#  HZ   S   DB   R     50.00 
! Rohde & Schwarz Vector Network Analyzer 
! Rohde-Schwarz,ZNB8-4Port,1311601044102961,2.82
! Created: UTC 2/12/2019, 11:56:38 AM
! freq[Hz]                db:S11                  ang:S11                 db:S12                  ang:S12                 db:S13                  ang:S13                 db:S14                  ang:S14
!                         db:S21                  ang:S21                 db:S22                  ang:S22                 db:S23                  ang:S23                 db:S24                  ang:S24
!                         db:S31                  ang:S31                 db:S32                  ang:S32                 db:S33                  ang:S33                 db:S34                  ang:S34
!                         db:S41                  ang:S41                 db:S42                  ang:S42                 db:S43                  ang:S43                 db:S44                  ang:S44
! 
 3.000000000000000E7    -2.628096773174700E-1    1.052868964740593E2    -7.000906195401609E1     5.799608929291438      -8.163757098781477E1    -1.349455020427873E2    -7.825977906050474E1    -1.035728784782014E2
                        -6.839349296594793E1    -2.805400749814212      -2.374250454474400E-1    9.385321989737649E1    -8.722922002312433E1    -1.324954426715632E2    -8.972616570751458E1    -9.841164830751899E1
                        -8.937731450260826E1     1.594958447907934E1    -8.401700891257065E1     1.007778454958867E2    -9.196569522526737E-1   -7.585100392047131      -9.253815508189788E1    -1.682043854084488E2
                        -8.507732704341690E1    -5.804994681038258E1    -7.873822078932435E1     5.313410573561836E1    -9.068577579949790E1    -8.292884284405798E1    -9.284718883510874E-1   -1.255999963607395E1

 3.002500000000000E7    -2.657491320712523E-1    1.050070201991454E2    -6.752380085787866E1     9.608652562246645      -9.372661134008466E1    -3.914401152868263E1    -7.856285387647139E1    -2.757892823159573E1
                        -6.838130728415506E1     1.783433064874064E1    -2.395289364010294E-1    9.343986258041656E1    -8.455437628913187E1    -1.111661836363762E2    -8.650144343432494E1    -1.591747442465790E2
                        -8.729070327963729E1    -9.002205074384952E1    -7.922664423907959E1    -2.105961710079296E1    -9.244457243121319E-1   -7.861715626084515      -8.387286488756149E1    -1.746877083384327E2
                        -8.648072841026632E1     7.206525803630905E1    -8.318552632347283E1     4.063480107107292E1    -9.063646106487420E1     8.403405338379343E1    -9.249743853203225E-1   -1.285309635433470E1

 3.005000000000000E7    -2.654073335033339E-1    1.047210012295240E2    -6.907099557202312E1     1.665532933292435E1    -8.877569880760834E1     1.766138099785108E2    -9.764739465290658E1    -1.072434525727851E2
                        -6.750747102503314E1     1.197668384622562E1    -2.358129842613028E-1    9.314635003717460E1    -8.460232884349966E1    -1.481567780030584E1    -8.248290957986509E1     1.374024510240647E2
                        -9.181353121495496E1     1.089345912573074E2    -8.890376972470784E1     8.667857157392506E1    -9.232220280289293E-1   -8.172580131567207      -8.575059518758637E1    -1.106127985681169E2
                        -8.660125827287362E1    -8.646673587584370      -8.418846332235080E1    -1.822267422978579      -9.593829413323759E1    -1.584234627952397E2    -9.246478644736960E-1   -1.316037768406495E1

 3.007500000000000E7    -2.635309051784920E-1    1.044099303659182E2    -6.854088300696404E1     8.899949713211580      -9.047331239176222E1    -1.100513939958108E2    -9.040449838255424E1    -1.442523382565556E2
                        -6.901556127753958E1     1.055567797484556E1    -2.403516254760828E-1    9.272432306882379E1    -8.601846692377899E1     4.257234248023575E1    -8.070497129141225E1     1.269489019864701E2
                        -8.560311947417738E1     1.729705646007691E2    -9.014058504187815E1     1.799268313743708E2    -9.279943937176252E-1   -8.530501884375077      -9.186694077447952E1     9.333205791090261E1
                        -8.552281187106702E1     8.810547667986185E1    -9.517595906942370E1    -5.620317007887734      -8.991513904527466E1    -1.912729627843912E1    -9.276267588594835E-1   -1.345872317899336E1

 3.010000000000000E7    -2.598427680640107E-1    1.041283805693555E2    -6.843542806502619E1     3.462608103964628      -8.935748006722224E1     1.133715671625014E2    -8.484194225326502E1    -8.739676979255793E1
                        -6.870544574722972E1     1.461069268075798E1    -2.465689545924518E-1    9.236142019320759E1    -8.552546161419645E1     1.743614587473017E2    -9.526035211466959E1     1.079691365728451E2
                        -9.136465683172420E1    -1.774135979150215E2    -8.742586566398877E1     1.401618913627031E2    -9.189248839639185E-1   -8.803712981721732      -8.308319145699798E1    -8.702473727271647E1
                        -9.013931384142154E1     9.368236592399953E1    -8.272720300486614E1    -9.256185869947584E1    -8.580358624560753E1     1.278000781978591E2    -9.287548898643419E-1   -1.373805646120120E1

 3.012500000000000E7    -2.600008773266725E-1    1.038450968270735E2    -6.971598244824469E1     1.454609994585491E1    -9.655874616868834E1    -1.708544191313563E2    -9.335789892348210E1    -1.785021343373218E1
                        -6.958952845580888E1    -3.942630343880388E-1   -2.362571960332113E-1    9.200513374382993E1    -8.857579944827558E1    -5.236130998472043E1    -9.645967989404463E1    -6.066356842182196E1
                        -9.279815569425247E1    -6.114075191545408E1    -8.455272737357454E1     1.393367394556959E2    -9.252640917260370E-1   -9.044921201300996      -8.170124799737879E1     1.205228023858562E2
                        -8.845060654416591E1     5.691014279746713      -9.106497075008470E1    -7.421715527134771E1    -8.642220544185271E1    -8.628420228982662E1    -9.305249709396022E-1   -1.409489810185931E1

 3.015000000000000E7    -2.610253419056452E-1    1.035623293154550E2    -6.815239547069459E1     1.183108152125450E1    -9.639939945399347E1    -1.048894365387191E2    -8.263445335030072E1     6.481738271314791E1
                        -6.819232632261354E1     1.891928460286135E1    -2.417479237963433E-1    9.158547598274282E1    -8.968921508167684E1     1.122851902955274E2    -8.487087826427576E1    -1.101857035116748E2
                        -8.872405277790594E1     5.180439417716277E1    -9.857203098094101E1    -1.188298899024552E2    -9.224210498574016E-1   -9.357007322449004      -8.491138331578698E1    -1.383355319798457E2
                        -9.815286112728776E1     4.966795411296728E1    -8.328228198488210E1     1.510377995956335E2    -8.556377648538535E1     1.375460216022138E2    -9.293847277438576E-1   -1.436792546240231E1

 3.017500000000000E7    -2.557076640844380E-1    1.032582138401284E2    -6.753486946817142E1     1.175772443599334E1    -9.129226488788581E1     5.612664296359029E1    -9.174964527151339E1    -6.476689219609335E1
                        -6.716066066568730E1     1.232038561808475      -2.413509889470115E-1    9.123812799947949E1    -8.720328282471562E1    -3.154793116369759E1    -8.687575958052632E1     1.119049549890896E2
                        -8.836687381019372E1    -1.135669406175167E2    -9.191285247392513E1     5.349098457506425E1    -9.206254896639341E-1   -9.677323992031310      -8.308480996437592E1     1.780132226192349E2
                        -8.901203731791642E1     1.301011220258742E2    -9.256823614439500E1    -1.570443385347986E2    -8.041561846887583E1    -1.324423291330405E2    -9.238543830378211E-1   -1.468615297041403E1

 3.020000000000000E7    -2.541429086039946E-1    1.029883588264975E2    -6.961045043781699E1     1.467993255163883E1    -9.092193571560108E1    -8.652323502899637E1    -1.043727046857613E2     3.048729061995105E1
                        -6.789383693387444E1     1.076476044500880      -2.350369307075685E-1    9.089816104900132E1    -1.004926174912235E2    -1.045485917853708E2    -9.031730216102361E1     4.165356166637247E1
                        -9.394439623047575E1    -9.476700437284116E1    -9.574641305538461E1     5.238181220355916E1    -9.206928151961886E-1   -9.965179694552745      -8.781848605990568E1     6.403898297271296E1
                        -8.138792439912224E1     3.868770787716108E1    -8.692388494173437E1     1.886333442524746E1    -8.413601125963568E1    -4.963500671080102E1    -9.338357074986945E-1   -1.504285320386700E1

 3.022500000000000E7    -2.654089298934015E-1    1.026725366627458E2    -6.895986952129442E1     1.167476035945546E1    -9.232914616244895E1    -7.768092824632642E1    -8.830785210044868E1     3.596497297094104E1
                        -6.746840658937228E1     7.554604132417910      -2.393789208152004E-1    9.057627987094878E1    -8.560295476778343E1    -1.547475872642739E1    -8.385654627628080E1     1.100819217976535E2
                        -8.720669870688310E1    -4.358352050837282E1    -8.616327864855343E1     1.686125628768727E1    -9.244575285614181E-1   -1.028022788477722E1    -9.048492226543266E1     1.510143738564153E1
                        -9.035554734996126E1     2.806483390150684E1    -8.327050076879800E1    -6.436781187690109E1    -9.099147335921060E1    -1.023178028170420E2    -9.292194205773862E-1   -1.532406808392864E1

 3.025000000000000E7    -2.598486654113165E-1    1.023824870240531E2    -6.900208798816597E1    -3.497114961139793      -9.228073288538934E1     8.389881719370918E1    -8.042638140437079E1    -1.552775158774669E1
                        -6.772173440581177E1     1.039594686657614E1    -2.459599820097713E-1    9.015959772838464E1    -8.605485783474072E1     9.767123355246385E1    -8.793884813704260E1    -1.571912351177450E2
                        -8.929653331106023E1     7.639830702364029E1    -8.540396191069286E1     8.435291909084457E1    -9.199010470580931E-1   -1.056089671180458E1    -8.818698607876128E1    -1.178222250899510E2
                        -8.572758589097040E1     4.510635009670229E1    -8.187491608677109E1    -1.717224998565338E2    -8.737479733052692E1    -1.224167484253886E2    -9.264252982497536E-1   -1.561408926643729E1

 3.027500000000000E7    -2.553051317982993E-1    1.020834246356368E2    -7.014364473660025E1     4.094679347022651      -9.165385366323187E1     7.767411744265267E1    -8.531425924109540E1     5.966898067610553E1
                        -6.817456543058671E1     1.308759264317840E1    -2.295722081152643E-1    8.975877740004592E1    -9.136643155449612E1    -1.668966216860667E2    -9.246042409656239E1     4.113710245944533E1
                        -8.975315209527567E1     1.176842668938760E2    -8.249160558344529E1    -8.691021455418775E1    -9.215017669390186E-1   -1.089287918883693E1    -9.263200905504418E1     1.022106496558674E2
                        -9.026015070251674E1    -1.161642918082938E2    -8.811512413042581E1     8.219892490255401E1    -9.099600530616647E1     8.838467593754008E1    -9.299551858978722E-1   -1.595238909990119E1

 3.030000000000000E7    -2.549393365673168E-1    1.018169471144415E2    -6.794652953413161E1    -1.784558410584199      -9.248786892102248E1     3.288575139840556E1    -8.415082473958236E1    -3.857473222915981E1
                        -6.714915264770197E1     7.396073277812285      -2.407126687191981E-1    8.936989714830182E1    -8.981086211427346E1    -1.168746257185047E2    -9.048914440930423E1    -1.171517266272906E2
                        -8.000863047923824E1    -5.863936033362820E1    -8.835223210792947E1    -1.461866336281840E2    -9.217832861372959E-1   -1.117706933594032E1    -8.632371943726197E1    -1.564726038792624E2
                        -8.793790785589053E1     2.335579294153158E1    -8.860345577871883E1     6.490666216182953E1    -1.002969435186108E2     1.192993306630654E2    -9.244091050261133E-1   -1.621632781220782E1

 3.032500000000000E7    -2.580628664710419E-1    1.014874123757079E2    -6.864492148665971E1     7.384424539560428      -8.263292427798255E1    -2.659297736169271      -8.474546491228378E1    -9.000719318028683E1
                        -6.737227634398951E1     5.512186353606889      -2.292394300036921E-1    8.902807713487256E1    -8.890149201906000E1    -2.501070045556120      -8.871604508485491E1    -9.203399429938372E1
                        -8.356598338316357E1    -8.177070437540463E1    -9.109534335415805E1    -1.777338748582348E2    -9.278757239639706E-1   -1.149581435969183E1    -8.680151693585194E1     5.007353298613671E1
                        -8.608290101832429E1     1.552694374160123E2    -8.090878025878374E1     7.989852833915244E1    -8.976093587276972E1    -9.938181678400690E1    -9.291810372479682E-1   -1.653951391963870E1

 3.035000000000000E7    -2.555102042428360E-1    1.012208925610594E2    -6.864031785571827E1     1.298062295128584E1    -9.211481181519487E1     1.290203217460810E2    -8.945903675878668E1     1.391405478554864E2
                        -6.949373939906300E1     5.317148044621834      -2.303841303601377E-1    8.862949679239610E1    -8.432574062794356E1     9.931182580247527E1    -9.286047261451580E1     8.957613062921008E1
                        -8.832386309623934E1    -1.310698700878671E2    -8.791228827948807E1    -1.605853220964046E2    -9.195405643164378E-1   -1.183015783226207E1    -8.497512289594512E1    -7.229371067788490E1
                        -8.980718825961503E1    -9.395545060999186E1    -8.732138478369419E1    -4.605794202511139E1    -8.149210902613363E1     8.043877299338595E1    -9.312913479082323E-1   -1.682941500515380E1

 3.037500000000000E7    -2.548770006199067E-1    1.009275724283102E2    -6.855827069297996E1     6.169064172607682      -8.878241338206662E1    -1.488504013164294E2    -9.028835704042604E1    -1.524816662165925E2
                        -6.801558846943848E1     4.475736757232531E-1   -2.420335599605090E-1    8.826848066430662E1    -8.672434638072292E1     5.130944153695268E1    -9.423241117194372E1     1.861253349650160E1
                        -8.070220771203287E1    -1.305371508505214E2    -8.890361363696761E1    -1.697146265552584E2    -9.162927553311506E-1   -1.208957954294255E1    -1.051371124088582E2     1.208405490213255E2
                        -8.849548739765113E1    -1.687929305370872E2    -8.561297353996787E1    -1.168170263495293E2    -1.081793663778723E2     1.525917144656755E2    -9.275744771917132E-1   -1.717081389047841E1

 3.040000000000000E7    -2.511042761631152E-1    1.006699566611018E2    -6.794877966818146E1     1.006533039251108E1    -1.003933902113832E2     1.348301708997385E2    -8.323498753115078E1    -2.804482168854498E1
                        -6.832920702300433E1     1.865154966379506      -2.361212452138009E-1    8.789047552288847E1    -8.815906394431136E1     1.621426854714631E2    -9.854029393878521E1     3.998970449075599E1
                        -8.064186007851014E1     6.118146439414429E1    -8.390380818487662E1     9.932714942271745E1    -9.224012231576488E-1   -1.239249057218719E1    -9.873194570187339E1     2.206750221428279E1
                        -1.019594915728616E2     7.255115821294783E1    -8.128852066055623E1     1.093169599815030E2    -9.281817375023960E1     1.627927644725156E2    -9.283404258354622E-1   -1.748819153481904E1

 3.042500000000000E7    -2.504998667528625E-1    1.003445359842066E2    -6.844697993438574E1    -4.197989201435602      -8.207717702871949E1    -7.408765472854401E1    -8.411588354211666E1    -8.623177289565935E1
                        -6.812104480014818E1     1.191643601219189E1    -2.372837137664280E-1    8.758084855257219E1    -8.105683111722938E1    -1.864907499610608E1    -9.481435636819172E1     6.403912978490706E1
                        -8.030241554399389E1     1.559246601186002E2    -8.732148910066927E1     8.666558989076779E1    -9.224703739714169E-1   -1.270776458170787E1    -9.463279245137885E1    -5.506033364983077E1
                        -8.401906339958327E1    -1.799851645638482E2    -9.259922929330445E1     1.464207483419046E2    -9.727528678676981E1     5.478473556966029E1    -9.300144909906758E-1   -1.774632354718084E1

 3.045000000000000E7    -2.537620639252402E-1    1.000275608301522E2    -6.832639464825381E1    -3.202973451055634      -8.743472894429671E1     6.395459675608111E1    -9.449376716731658E1    -1.146515024504392E2
                        -7.001440141864543E1     9.336792435190382      -2.321861070278748E-1    8.712045558499504E1    -8.363587456708265E1     1.131636260235301E2    -8.467701009601940E1    -1.764450166029617E1
                        -8.577581934391051E1     4.384386649388647E1    -8.954616423942296E1    -2.595067900233856E1    -9.210005992627980E-1   -1.295853854805201E1    -8.781906617489553E1    -2.642318157608727E1
                        -8.905151899894455E1    -1.172469712750146E2    -8.433334994176028E1    -6.124977852164108E1    -8.774908844860386E1     1.407576616100480E2    -9.298094532622071E-1   -1.808418878007395E1

 3.047500000000000E7    -2.562402409479968E-1    9.974193101583136E1    -6.768737504522888E1    -1.180903797060299E-1   -8.269753499169822E1    -2.257867356358242E1    -9.949886332186028E1    -1.719182576675436E2
                        -6.771052763245764E1     1.703792437474228E-1   -2.325768325006134E-1    8.677197947094918E1    -8.515404373439027E1    -6.779175704200650E1    -9.145051321986776E1    -3.827113086704071E1
                        -8.799682929024826E1    -5.491400164901486E1    -8.914131117483423E1    -7.406908590317364E1    -9.248879788970605E-1   -1.326732166830448E1    -8.909852221601945E1     3.971895072493544E1
                        -8.723958093283498E1     6.028334556076694E1    -9.060975979899978E1    -1.505214993824177E2    -8.195375349402477E1    -1.051031849922998E2    -9.278191786907354E-1   -1.842584791831061E1

 3.050000000000000E7    -2.543969493380908E-1    9.945442904489906E1    -6.744539065150283E1     8.053258446206929      -9.001045090076320E1     9.354749764636303E1    -8.672561176465283E1    -1.347056834244856E2
                        -6.622307723592351E1     7.332084638486371      -2.324841602574065E-1    8.639398344997441E1    -8.762558188043057E1     1.183231727972011E2    -8.190483781058929E1     7.448934237973717E1
                        -8.281416020987321E1     1.405466195296840E2    -9.402776313631875E1     6.599103882430016E1    -9.241465198197502E-1   -1.357038098948023E1    -8.598980802141350E1     3.354745712988476E1
                        -1.019617809884040E2     1.094415173099092E2    -9.251694993184147E1    -3.625475244452126E1    -8.639938653722987E1     5.019044207968850E1    -9.272360116216781E-1   -1.872452391890219E1

 3.052500000000000E7    -2.533386679266010E-1    9.916020913013085E1    -6.824363298079402E1     6.824240761163024      -8.365580552592431E1     2.526175594360158E1    -8.770663610456246E1     8.544046767977419E1
                        -6.637611664003602E1     2.813494174322317      -2.289060531400976E-1    8.603178526596265E1    -8.864285051667673E1    -1.737500887681100E2    -9.813269192755014E1     3.686324307685780
                        -8.702543874558985E1    -3.990681270647383E1    -8.563290870704881E1    -1.576358740634926E2    -9.227183466224374E-1   -1.387957912133578E1    -8.913718626286840E1     8.535807901845651E1
                        -9.045533730265547E1     1.354118235298159E2    -1.054346123611925E2    -1.413290826172106E2    -8.492870437142520E1     1.625621490889929E2    -9.315535001163772E-1   -1.901649135252033E1

 3.055000000000000E7    -2.505750346511018E-1    9.884352887634884E1    -6.681911452920505E1    -5.752721255791375      -9.226524180799228E1     1.685276477836376E2    -9.202712433112896E1    -1.603529614675713E2
