#  HZ   S   DB   R     50.00 
! Rohde & Schwarz Vector Network Analyzer 
! Rohde-Schwarz,ZNB8-4Port,1311601044102961,2.82
! Created: UTC 2/13/2019, 8:45:56 AM
! freq[Hz]                db:S11                  ang:S11                 db:S12                  ang:S12                 db:S13                  ang:S13                 db:S14                  ang:S14
!                         db:S21                  ang:S21                 db:S22                  ang:S22                 db:S23                  ang:S23                 db:S24                  ang:S24
!                         db:S31                  ang:S31                 db:S32                  ang:S32                 db:S33                  ang:S33                 db:S34                  ang:S34
!                         db:S41                  ang:S41                 db:S42                  ang:S42                 db:S43                  ang:S43                 db:S44                  ang:S44
! 
 5.525000000000000E7    -6.368379309241687      -1.648595792984195E2    -3.066369526149620E1     6.676637428559621E1    -7.252772007083046E1    -2.743049957392779E1    -6.636020289713078E1    -1.690568496538976E2
                        -3.076180311829923E1     6.642445227241115E1    -2.853491561696781E-1    9.455263128759255E1    -9.089039940206996E1     1.247404458455313E2    -7.994545018002542E1    -8.646873112512537E1
                        -7.052544293122007E1    -2.976524282916635E1    -9.149814800767148E1    -5.883669031486283      -1.392693032378678       3.489726724892100E1    -9.250156517844701E1    -1.122700950343322E2
                        -6.701379011678279E1    -1.783348724803449E2    -9.925719578982965E1    -9.857195041075002E1    -8.608362054764993E1    -1.181570172397274E2    -1.387736538864011       2.843699787393621E1

 5.525025000000000E7    -6.372275188550693      -1.648887997335812E2    -3.069401504586175E1     6.721779180049502E1    -7.268986863695582E1    -3.190783073664323E1    -6.841074799110763E1    -1.739645802223106E2
                        -3.075370070660377E1     6.695920254708327E1    -2.859113313628903E-1    9.457036109107976E1    -8.286296725814630E1    -9.027103806029018E1    -8.692855741166648E1     4.520693965733985E1
                        -7.310123411157989E1    -2.886485697490056E1    -8.607122164324785E1     6.218256336207661E1    -1.392900021398381       3.484879610214374E1    -8.200226976777158E1     1.750834525142882E2
                        -6.742728285136796E1    -1.751702253964682E2    -8.598507310061152E1     4.007847086606922E1    -9.127831809657245E1    -1.089326896409597E2    -1.376229007007119       2.841907162882847E1

 5.525050000000000E7    -6.378081442342943      -1.649258051862457E2    -3.070689663916928E1     6.652751145702433E1    -7.255292993879355E1    -1.567656422507289E1    -6.707722662324233E1    -1.789728923691509E2
                        -3.078382203567694E1     6.681251137079150E1    -2.830108099529938E-1    9.454282991706529E1    -8.481845187291660E1    -1.045880124020005E2    -8.676630917247968E1     9.249966662667831
                        -7.299886046764823E1    -4.287095133584596E1    -8.823429019085546E1     8.857907619438396E1    -1.391558054335269       3.486290314870499E1    -9.364014623509905E1    -6.429427221809750E1
                        -6.837586710718280E1    -1.727238893301429E2    -9.263145612569176E1    -9.668679161810221E1    -7.877724377150418E1    -1.744270111820804E2    -1.382380562950481       2.842400716143429E1

 5.525075000000000E7    -6.382224125429941      -1.649742558589400E2    -3.080526362184358E1     6.672175893350337E1    -7.017901337201326E1    -3.493075527399439E1    -6.863016218888075E1    -1.786870842932423E2
                        -3.076406952014958E1     6.687643679205353E1    -2.915562863808008E-1    9.454104011104417E1    -8.608515838495018E1     1.456097781648055E2    -8.250437627932993E1     7.046025691549724E1
                        -7.225308156894980E1    -2.942688177033741E1    -8.889137186276000E1    -1.771579029782681E2    -1.390607285981532       3.486529857644774E1    -8.374726808428864E1    -3.503416880423391
                        -6.786316037574784E1    -1.721392987135154E2    -8.826712417110748E1     1.037592143912749E2    -8.569098693917483E1    -1.569678365086611E2    -1.380132875277994       2.841467499793007E1

 5.525100000000000E7    -6.394071027915134      -1.650037272894452E2    -3.071724264344132E1     6.676515268343847E1    -7.288760240661057E1    -1.452368439472050E1    -6.771528738061025E1    -1.658532834209042E2
                        -3.075063081886410E1     6.670482421475299E1    -2.874109125288785E-1    9.455144855881635E1    -8.359147595622316E1    -1.780607443031737E2    -8.035347594421312E1     4.549729162445262E1
                        -7.089160596180845E1    -3.482588498856876E1    -8.691742148649162E1     5.234844792966792E1    -1.389768009957928       3.484501815484984E1    -9.108773375079069E1     2.576245219665912E1
                        -6.834405555759564E1    -1.799123562254233E2    -8.925229409526179E1    -1.404446426366893E2    -9.017099859052402E1     1.552539500488377E1    -1.382409089571917       2.843585227925441E1

 5.525125000000000E7    -6.397302790966920      -1.650932050387629E2    -3.066948673753282E1     6.703080905726428E1    -7.152365657798170E1    -2.607442376511445E1    -6.785572329601324E1     1.725951375362469E2
                        -3.085533403999803E1     6.645945682610794E1    -2.877703039791845E-1    9.455650151633385E1    -9.717437871874580E1    -5.162172649627831      -7.927474149191303E1     4.196588200394639E1
                        -7.180080083436909E1    -6.502231242509043      -8.636958648296128E1     7.069168174566184E1    -1.391156438313534       3.487859410219009E1    -1.003600256301198E2     9.192763684094189E1
                        -6.671764300054539E1    -1.758106526204429E2    -8.053997434698567E1    -4.699700475586442E1    -8.839181990318791E1     6.978615900364795E1    -1.380812229265044       2.844694405872681E1

 5.525150000000000E7    -6.399206595545376      -1.650910851863219E2    -3.078021877870889E1     6.691858059743483E1    -7.429746875421283E1    -2.515248929871049E1    -6.815518742850304E1    -1.736240060034158E2
                        -3.077143497579575E1     6.683800356497675E1    -2.898003030092767E-1    9.452874653747253E1    -8.399922999030312E1    -1.774050594609327E2    -8.719745343831102E1     9.237878525197750E1
                        -7.276367179371306E1    -4.250998238165965E1    -8.234069883131835E1     1.292316427676714E2    -1.389275783519187       3.486146820608493E1    -8.452526299281664E1     5.122041678976552E1
                        -6.817215397713356E1    -1.755203829924446E2    -8.540774245604194E1     6.898572561540948E1    -8.577144819719413E1    -6.738375166203346E1    -1.382782168330847       2.840292803802750E1

 5.525175000000000E7    -6.410078087902815      -1.651362388977976E2    -3.067947021939209E1     6.722131878191856E1    -7.270131217307133E1    -3.317661310203354E1    -6.737062634513401E1    -1.729201672840691E2
                        -3.073394462340545E1     6.693649837603617E1    -2.890975922595057E-1    9.454082795321426E1    -9.165227072072401E1     1.725513103985357E2    -8.341054052789929E1    -3.401024617142085
                        -7.285334715692110E1    -3.624967660586803E1    -8.558218308783098E1    -1.694985490293655E2    -1.385596487956402       3.484764652411030E1    -9.434055796884297E1     1.058754397280647E2
                        -6.711352889042342E1    -1.750816964479020E2    -9.004843257154380E1     1.737619961833350E2    -8.919610918613749E1     1.556761161325256E2    -1.381846905387737       2.842300209708050E1

 5.525200000000000E7    -6.417541389926508      -1.651850701264920E2    -3.069435700721676E1     6.683091803025508E1    -7.236557407751970E1    -3.352609733960603E1    -6.747347805544821E1    -1.772090844917523E2
                        -3.079956543437136E1     6.718476028320137E1    -2.865556888150831E-1    9.452495645127912E1    -8.509160479725182E1    -1.318052230987777E2    -8.850795541301457E1    -6.595195992546488
                        -7.274131935414039E1    -3.937390547557763E1    -8.562753684969074E1     1.500297173605246E2    -1.390209002166886       3.485872809667194E1    -9.480326743853048E1     7.303721478615063E1
                        -6.736528473167090E1    -1.742891256689917E2    -7.946263057639817E1     6.337765174336490E1    -8.392395203962329E1    -2.309897821000248E1    -1.377181887972252       2.845099189750447E1

 5.525225000000000E7    -6.424887935481615      -1.652255873900121E2    -3.065665011581426E1     6.694862099456017E1    -7.106400109447075E1    -2.419237238741539E1    -6.724458183988129E1    -1.727637735159007E2
                        -3.088371220765884E1     6.707205567709885E1    -2.897918113198800E-1    9.451960642334062E1    -8.409386196041774E1    -9.096462388318651E1    -8.534489746730984E1    -1.650317842747191E1
                        -7.015616316541878E1    -4.170440826310948E1    -8.897170228828026E1    -6.652638632414511E1    -1.388294598238674       3.485832557715756E1    -8.330797823753312E1     1.226100523457636E2
                        -6.859898178768576E1    -1.720430553110496E2    -9.471886219353392E1    -6.730678399683868E1    -9.202212383596748E1    -1.791494232366996E2    -1.379779561124814       2.842365497066955E1

 5.525250000000000E7    -6.429771053706217      -1.652710648139877E2    -3.068467334483703E1     6.620869567674502E1    -6.994549328889602E1    -2.926226019477797E1    -6.705308532328665E1    -1.780682442478487E2
                        -3.076872056770274E1     6.713122114121792E1    -2.908766701591661E-1    9.451428515616820E1    -8.763761488011055E1     6.159823928121240E1    -8.991348144112889E1     1.095941696579428E1
                        -7.491161228609458E1    -3.619802726136690E1    -8.984383591871982E1     2.888862391647555E1    -1.393129063715717       3.482894122482603E1    -9.348636474957522E1    -1.221652693974944E1
                        -6.683454689102932E1    -1.783063288793489E2    -9.891523868320255E1    -1.144947945305519E2    -9.936568573186753E1    -7.182445562793158E1    -1.382127266268305       2.841716583934472E1

 5.525275000000000E7    -6.428483529512241      -1.652969466046891E2    -3.075576662636282E1     6.718353321732744E1    -7.249537704014597E1    -1.821454539473590E1    -6.812867831564940E1     1.794648477078235E2
                        -3.075586012808348E1     6.642882310576891E1    -2.817907596752417E-1    9.450293660471374E1    -8.920075264049514E1    -7.433595962212883E1    -9.366614766112346E1    -1.189709572564539E2
                        -7.038464041442185E1    -4.425347655883599E1    -8.978284724727826E1     1.393558975535649E2    -1.390882377429489       3.483671560337276E1    -8.585086786505511E1    -8.865268509173470E1
                        -6.729647077783480E1    -1.763585781022366E2    -8.937317876115029E1    -4.798646613237759E1    -9.014618052917388E1    -9.290619469065285E1    -1.382279375539937       2.842478621324283E1

 5.525300000000000E7    -6.440712249657245      -1.653454869885317E2    -3.077893303673423E1     6.625783466942393E1    -7.151758354631357E1    -2.391056854491857E1    -6.674688197639811E1    -1.654761652594071E2
                        -3.077308216663695E1     6.637177758798677E1    -2.878457048688869E-1    9.451861170353416E1    -8.435246782158598E1    -1.043908268465934E2    -9.357802527111714E1    -1.433763783512637E2
                        -7.405750532778473E1    -3.091465643181519E1    -8.561769370001332E1     7.419431138605839E1    -1.392522968813724       3.482413980606319E1    -7.920273345566753E1     1.380066168409676E2
                        -6.649107855971737E1    -1.750051152668211E2    -8.453487087256973E1     1.643368947417818E2    -8.349687135437263E1     1.385317016663436E2    -1.378305958318430       2.844905713460058E1

 5.525325000000000E7    -6.445405865013964      -1.653804470397483E2    -3.068147339303293E1     6.654496562243106E1    -7.049399143597202E1    -1.562411778165222E1    -6.655502672573047E1    -1.750519269773223E2
                        -3.082046950408658E1     6.588009019483363E1    -2.836028064096128E-1    9.447861303660724E1    -9.621476665616785E1    -1.507163339539908E2    -9.431561721721381E1    -2.812158954214456E1
                        -7.181082566302000E1    -2.685383280794998E1    -8.884032806765710E1    -1.140098889911270E2    -1.390076869841216       3.485032594339740E1    -9.542545938860377E1    -9.287135931205141E1
                        -6.657704471118949E1     1.775871102402884E2    -8.878590081540878E1     6.381327066362942E1    -8.631818730226208E1    -1.050962789578124E2    -1.378510124951228       2.841876795058018E1

 5.525350000000000E7    -6.448802798009296      -1.654257461878904E2    -3.076020010813789E1     6.702654359497696E1    -7.327679939960119E1    -2.734780238695667E1    -6.661698628741347E1    -1.773788201492182E2
                        -3.072051930257318E1     6.578200589495215E1    -2.841433742490214E-1    9.448801177835820E1    -8.329375344662938E1     1.248966434916467E2    -8.705364222579183E1     1.247482449600292E2
                        -7.329466883368821E1    -2.881360393556476E1    -8.555224677607964E1    -1.545449923155394E2    -1.391105960191877       3.484064218038570E1    -8.287558097076335E1     1.088552806572089E2
                        -6.610330583077061E1    -1.770833086886131E2    -9.036337420978984E1    -4.725574254460002E1    -8.646058966776634E1     1.447470846937935E2    -1.379056706483728       2.838912021051699E1

 5.525375000000000E7    -6.467928062778777      -1.654730595201505E2    -3.080220817096664E1     6.678680470594986E1    -7.353098313992642E1    -2.993852528748268E1    -6.682636922378029E1    -1.666475439154915E2
                        -3.081927469205734E1     6.654820074532761E1    -2.892502962694387E-1    9.445274220504273E1    -9.312204823878804E1    -7.173046879150058E1    -8.301124943851639E1     1.138125268668298E1
                        -7.022125454773723E1    -3.029478537727232E1    -9.106106835893593E1    -9.626353714391617E1    -1.388397715497063       3.482058351568821E1    -1.004104402496607E2     8.080449931811357E1
                        -6.719711490279619E1    -1.766408599908416E2    -8.777740915849593E1     1.566600575879632E1    -8.820477199916167E1    -1.164928028054259E2    -1.377758036952752       2.840699361642447E1

 5.525400000000000E7    -6.462931576848354      -1.655106578959207E2    -3.075426192692865E1     6.670467527155327E1    -7.238713333104965E1    -3.397298933557802E1    -6.736974156885364E1    -1.768288664110958E2
                        -3.083785055426878E1     6.706153688364630E1    -2.880287483077960E-1    9.446637390349717E1    -7.861042944681910E1     1.621908702306175E2    -8.426239909670132E1    -2.082778890756189E1
                        -7.313112665090370E1    -3.369365452524691E1    -8.281032201665917E1     1.267919710457924E1    -1.392982698039100       3.483183132349407E1    -7.987782957355852E1    -3.606336063188598E1
                        -6.719665152939822E1     1.794828258458189E2    -8.450499727742337E1     8.437598172765659E1    -8.632094463115607E1     1.030353905977508E2    -1.378622925212387       2.836703283806472E1

 5.525425000000000E7    -6.478773116713366      -1.655841731460731E2    -3.076525591181573E1     6.671073128287323E1    -7.292550221692341E1    -1.145000073233200E1    -6.604097886940400E1    -1.737462135099492E2
                        -3.072336137171245E1     6.683300841434452E1    -2.892342281355523E-1    9.446824745999831E1    -8.094258276450876E1    -1.016816269660466E2    -8.368251621693730E1    -1.307425940878955E2
                        -7.203112583484389E1    -3.606216652291925E1    -8.565405247166896E1    -1.512408753967435E2    -1.390158074719151       3.482853284622761E1    -9.037316595937321E1     3.095388256757548E1
                        -6.668713797926591E1    -1.797732368296090E2    -8.062923795203838E1    -4.649847469913244E1    -8.814034841072392E1     1.405489521631346E2    -1.378176423134885       2.838145743747777E1

 5.525450000000000E7    -6.475437863372249      -1.655952799071579E2    -3.080800447463255E1     6.677916640191154E1    -7.215509962551090E1    -3.070435638952199E1    -6.697374660600424E1    -1.719848202407955E2
                        -3.080847156582033E1     6.655937079784394E1    -2.830653971887774E-1    9.449479031415305E1    -9.379803905929860E1    -4.512034564104562E1    -7.931204789358002E1     9.361680922343119
                        -7.217745214108508E1    -2.710112122405842E1    -8.733601613510439E1    -1.528583390776431E1    -1.392690889913904       3.481052153256305E1    -8.746912320268001E1    -9.257113479895563E1
                        -6.749093038462610E1    -1.766338335806308E2    -7.882339132866923E1    -1.703436454567454E2    -1.023158822570274E2     1.650783216722579E2    -1.379918088982850       2.839003847624422E1

 5.525475000000000E7    -6.487194802661489      -1.656710362745521E2    -3.082780869843487E1     6.635660024306328E1    -7.274223206470566E1    -3.297921684092781E1    -6.736284324805213E1    -1.770598390470411E2
                        -3.080725501632770E1     6.663403793153833E1    -2.892476270232635E-1    9.449222699044118E1    -9.054671471932649E1    -1.247144072402480E2    -7.986364619757850E1    -2.304350853144730E1
                        -7.151045933257079E1    -3.949833880545789E1    -9.055822496235457E1    -1.462634388073687E2    -1.385063194982755       3.483628351352186E1    -9.164276806890200E1    -3.548804624747758E1
                        -6.650994738513201E1    -1.738376653145944E2    -8.390431663730892E1     8.567913761226730E1    -8.448420246948001E1     1.480183039351713E2    -1.383791849653131       2.841447134498441E1

 5.525500000000000E7    -6.489654473929986      -1.657189121551401E2    -3.077000603325080E1     6.630029356510464E1    -7.417564800579893E1    -3.679455215825645E1    -6.569782067632188E1    -1.719692905041409E2
                        -3.080498248062406E1     6.689473199610896E1    -2.839200873374402E-1    9.446603933289525E1    -8.759047082100165E1    -1.106619587051909E1    -8.705361960577909E1    -4.888907892304580E-2
                        -7.150529556408813E1    -2.205001099367268E1    -8.923963499471812E1     6.518351904842621E1    -1.387737766299066       3.478286871173333E1    -7.955392293108818E1    -1.638111981782852E2
                        -6.591990807237066E1    -1.759645068559281E2    -8.554708482842791E1    -7.628688286258232E1    -8.259896566197158E1     2.556272731094537      -1.383285896024941       2.838202946136513E1

 5.525525000000000E7    -6.492923566513595      -1.656687602433873E2    -3.071230665201267E1     6.643411289432366E1    -7.202251722616953E1    -1.831091489688378E1    -6.652598643863568E1    -1.746646639170692E2
                        -3.072159636638384E1     6.643542533627861E1    -2.822839900512389E-1    9.447323273573889E1    -8.424425716625919E1     1.091402901693919E2    -9.969812524370524E1     1.422980694802257E2
                        -7.301038708667829E1    -3.840912754797432E1    -8.542732170080970E1     1.336920342703995E1    -1.386927696804751       3.482301635614215E1    -8.530500760495136E1     1.471467119333447E2
                        -6.827770436780565E1    -1.749427233922178E2    -9.299007104975036E1    -7.357524520734388E1    -9.263313392083602E1    -2.790466216645556E1    -1.381245208110320       2.838623287413284E1

 5.525550000000000E7    -6.501578416110807      -1.657727744033960E2    -3.065687946087998E1     6.667684899925889E1    -7.304911111477212E1    -3.203815354790037E1    -6.778498186562588E1    -1.770130516380526E2
