#  HZ   S   DB   R     50.00 
! Rohde & Schwarz Vector Network Analyzer 
! Rohde-Schwarz,ZNB8-4Port,1311601044102961,2.82
! Created: UTC 2/13/2019, 9:55:15 AM
! freq[Hz]                db:S11                  ang:S11                 db:S12                  ang:S12                 db:S13                  ang:S13                 db:S14                  ang:S14
!                         db:S21                  ang:S21                 db:S22                  ang:S22                 db:S23                  ang:S23                 db:S24                  ang:S24
!                         db:S31                  ang:S31                 db:S32                  ang:S32                 db:S33                  ang:S33                 db:S34                  ang:S34
!                         db:S41                  ang:S41                 db:S42                  ang:S42                 db:S43                  ang:S43                 db:S44                  ang:S44
! 
 5.525000000000000E7    -9.706164606648484E-1   -1.275246616182410E2    -3.011836285187231E1     7.413668457044868E1    -6.563974453213534E1    -1.398923601720223E2    -7.865846700225566E1     1.943694682670355E1
                        -3.021040360608412E1     7.354410704228248E1    -3.120945429202330E-1    9.427765823852081E1    -8.757674616461455E1     1.108770335587564E2    -8.747599966402055E1     1.973142634516348E1
                        -6.537317574373502E1    -1.361947820416171E2    -9.366372092041584E1    -1.728906589241976E1    -1.392058233726845       3.488210718993273E1    -8.044599272856068E1    -8.183575139462303E1
                        -7.974989827000459E1     2.198492272105305      -9.162401284251324E1     6.261181366688034E1    -8.731998954607489E1     9.296627217091353E1    -1.382543703327780       2.846350833577127E1

 5.525025000000000E7    -9.727524204911775E-1   -1.275611696003656E2    -3.015822779533162E1     7.390080331758618E1    -6.522667259121263E1    -1.456071328105898E2    -8.378934500599019E1     4.677119272587740E1
                        -3.026589944075561E1     7.467054300267992E1    -3.126413209160345E-1    9.421972506733005E1    -8.585958335680377E1    -2.587220892918586      -8.837541301986343E1     6.300801101899431E1
                        -6.673982750302237E1    -1.532984836431029E2    -8.206397536958279E1     9.501221317473942E1    -1.389211024599083       3.488363188465311E1    -9.577401475100643E1     5.967073230133765
                        -7.785549433975052E1     3.509415182237446E1    -8.662813113873929E1    -6.914409125371111E1    -1.001109516608746E2     1.026507882184119E2    -1.380008695800451       2.846769163695828E1

 5.525050000000000E7    -9.733997701383865E-1   -1.275905021257285E2    -3.015748830901873E1     7.381619363518946E1    -6.617822784684581E1    -1.439606693582350E2    -7.865064032207191E1     1.380790999520141E1
                        -3.021463138222245E1     7.433778180504935E1    -3.132830608087904E-1    9.421492290457326E1    -9.067694617445794E1    -1.272728872597376E2    -8.392960897510848E1     1.761243651767510E2
                        -6.571568672352154E1    -1.450698536188778E2    -9.283336117015116E1    -1.166259615719989E2    -1.386760715236746       3.488496463088682E1    -9.040899977615675E1    -9.084961406896849
                        -8.078485952341792E1    -4.918092441491848E1    -8.955578343061379E1     1.040900028852597E2    -8.733327097745234E1    -1.383125441729425E2    -1.383562928369407       2.844543421405881E1

 5.525075000000000E7    -9.777374761255786E-1   -1.276385751528587E2    -3.009430762285291E1     7.342646176205753E1    -6.513422950355921E1    -1.479566981972434E2    -8.717965744918929E1     1.876455226629676E1
                        -3.021320786951367E1     7.443304594198082E1    -3.134431257523037E-1    9.420431464495842E1    -8.605012264469748E1    -6.238481130363442E1    -8.721966067696150E1     9.727655566767236E1
                        -6.528371507159693E1    -1.457162834434249E2    -8.341936029613709E1     1.180453522321687E2    -1.392688471337312       3.490317308703166E1    -8.992103185486640E1     2.440104478018348E1
                        -7.791198990425183E1    -2.290474516508290E1    -1.015178816274546E2    -3.756432210703486E1    -9.247342136431743E1     1.534943676438236E2    -1.384881152194868       2.844224660134762E1

 5.525100000000000E7    -9.745882191485609E-1   -1.276636615623320E2    -3.021233058551172E1     7.423118489398523E1    -6.588490221742428E1    -1.382530075592578E2    -7.943351124707390E1     1.633569363568279
                        -3.020898065447936E1     7.437774116359977E1    -3.119248306579633E-1    9.423504260571330E1    -8.461174479505027E1    -1.077267863648515E2    -8.031972268313025E1    -2.804675904714544
                        -6.539917146446939E1    -1.427290034458929E2    -8.444408193781084E1     6.095053006278772E1    -1.393527594060456       3.487176620325059E1    -9.284079825782968E1    -9.532772723665619E1
                        -8.707725671794387E1    -5.724781957692844E1    -9.166038481234028E1     4.944726512551739E1    -8.977701744318284E1    -7.299988972963166E1    -1.385787245579147       2.844754341034008E1

 5.525125000000000E7    -9.778060924905073E-1   -1.276732238482509E2    -3.020362355952888E1     7.409603808105582E1    -6.616173295380234E1    -1.403466820503318E2    -7.580707042269184E1    -1.714710039151107
                        -3.008858164928485E1     7.418499054759654E1    -3.091843107909064E-1    9.418891348770582E1    -7.883619163540311E1     9.758487465672816E1    -9.303616399343808E1     3.465670260851007E1
                        -6.512028085883505E1    -1.455264090057305E2    -8.459842383226200E1     2.829587065409628      -1.389456713547159       3.489888157525647E1    -8.957653262838184E1    -1.383091256074358E2
                        -8.205701978661426E1    -2.241142217529266E1    -9.675106414258488E1     1.763146471667586E2    -8.826179562378989E1     2.798828334322051E1    -1.383172584330783       2.843496006914561E1

 5.525150000000000E7    -9.779649814496015E-1   -1.277317557052198E2    -3.020744000641287E1     7.350858913055977E1    -6.599558953668810E1    -1.390162669543514E2    -7.359520716366490E1     5.281598697654011
                        -3.019786857013970E1     7.409056800395833E1    -3.065700824701570E-1    9.421618002421079E1    -9.893117787728293E1    -8.835670190026751E1    -9.116368057107734E1     3.565613406623572E1
                        -6.627059364349518E1    -1.462924468508538E2    -8.738523231103810E1    -9.820660009604006E1    -1.394365077220651       3.488607583167241E1    -8.517103770078877E1     6.399127610845517E1
                        -7.878464906966721E1     4.086558354833515E1    -8.788832906269812E1     1.719555944288079E2    -8.578121321584766E1     1.755272869989405E2    -1.386449534229111       2.844713212350272E1

 5.525175000000000E7    -9.758687606434556E-1   -1.277473811952090E2    -3.016187848259830E1     7.360071744330541E1    -6.448386145874264E1    -1.419106636480616E2    -8.175439906318556E1    -1.645299291939735E1
                        -3.016457086885025E1     7.381994335479166E1    -3.187159002749787E-1    9.422252347628465E1    -8.812689106691269E1    -7.961750969619101E1    -9.209752234215688E1    -2.697303629830532E1
                        -6.500172766488940E1    -1.422478901369669E2    -9.186123350397105E1     7.722696244528150E1    -1.389886711295016       3.484414388699835E1    -8.252366634727360E1     8.507757576288435E1
                        -7.819067633174984E1    -1.406518424686281E1    -8.167660354656242E1    -9.081631896521442E1    -9.083728610026297E1    -1.790107192807719E1    -1.382376110937011       2.843287163647230E1

 5.525200000000000E7    -9.784690589997401E-1   -1.277740668843262E2    -3.012239604393408E1     7.392628400670813E1    -6.513517346655725E1    -1.520517856701592E2    -7.737700580725348E1     1.664597574600755
                        -3.023045640219280E1     7.328924703226130E1    -3.164951434731504E-1    9.421064143901610E1    -8.165534315346774E1     2.182987277900131E1    -8.573996699214953E1    -1.598352077785483E2
                        -6.666938943822507E1    -1.374531152574640E2    -8.847684971513701E1    -7.817463504508658E1    -1.392840575149905       3.487607106197408E1    -8.933900247127234E1    -9.837745467454030E1
                        -8.322399031551908E1     3.831713245657057E1    -8.438937604202023E1     7.396608713505975E1    -7.849108766119875E1     1.299870982287124E2    -1.382369192935204       2.842678094973196E1

 5.525225000000000E7    -9.820902703168966E-1   -1.278379385530428E2    -3.021658896150397E1     7.393870660442487E1    -6.613370477782875E1    -1.465494878559627E2    -7.973904267242412E1     2.420887413280790E1
                        -3.016996148954165E1     7.426068848251876E1    -3.132777820362495E-1    9.421059439526937E1    -9.074535476112929E1    -1.719472179369105E2    -8.476228937931421E1     1.328158707015623E2
                        -6.502540755431625E1    -1.383619720362187E2    -9.266066539211764E1     5.754573022383209E1    -1.393837711438309       3.486768052381733E1    -8.953892197723110E1     8.003083560949817E1
                        -8.262607957556691E1     8.840203465956808      -8.499945154835422E1     1.614586050406498E2    -7.993004723957965E1     1.359139267308547E2    -1.382612057825112       2.842873911388379E1

 5.525250000000000E7    -9.817192687659033E-1   -1.278720502254094E2    -3.008863188357452E1     7.391824681559149E1    -6.550220500110888E1    -1.462887256979022E2    -7.725301550548886E1     2.764110820812044E1
                        -3.030072057589364E1     7.452606044620151E1    -3.156669733432231E-1    9.419542720059482E1    -8.995461358581537E1    -1.546486763039573      -8.244055707938172E1    -9.382563502409961E1
                        -6.697529007761197E1    -1.425013308714320E2    -8.627779284424138E1    -3.964288423311403E1    -1.392364441417607       3.487970228577490E1    -9.110072412160257E1     6.594241606064111E1
                        -8.714828453920146E1     2.672825641399271E1    -8.743770806767910E1     1.523313026575806E2    -8.911988546528512E1    -7.629127947413888E1    -1.385394971352091       2.841604325281110E1

 5.525275000000000E7    -9.831459907321549E-1   -1.278907939107801E2    -3.005236266595543E1     7.427921905109000E1    -6.602901040251584E1    -1.452847461156602E2    -7.958972051381753E1    -1.687168558465925E1
                        -3.021049491225749E1     7.348992832263129E1    -3.102282242307761E-1    9.420149417356421E1    -9.053346238903015E1     2.639919333214009E1    -8.387304377134781E1    -1.730806009795837E2
                        -6.478544204356167E1    -1.461746189099585E2    -8.972530157846960E1    -6.284193931618350E1    -1.390361172690689       3.488985602539854E1    -8.617829006640166E1    -1.313346224083378E2
                        -7.961177634002559E1     1.451658315795703E1    -9.038162135445865E1     3.894625770741359E1    -9.372263310862897E1    -1.514187404944286E2    -1.381566941769336       2.841533849509019E1

 5.525300000000000E7    -9.819302789328614E-1   -1.279126583503852E2    -3.025685866654635E1     7.358553487903004E1    -6.568089742315490E1    -1.429656958096658E2    -7.877424762959626E1    -3.893871247330212E1
                        -3.016756411155137E1     7.358184974819032E1    -3.172487247297409E-1    9.418544208154425E1    -8.616504666504815E1     1.613821330221148E2    -9.215950875967107E1    -2.662224225346964E1
                        -6.567158817376330E1    -1.335529305041540E2    -9.173110050620259E1    -1.471905638769875E2    -1.389770211483059       3.485330924656000E1    -8.857119783332510E1    -1.617771863340233E2
                        -8.215266885954179E1     4.885406564523512E1    -8.487821028593798E1     1.009387569371844E2    -8.259621738445142E1     1.513345517854627E2    -1.384726222130788       2.841294047651908E1

 5.525325000000000E7    -9.855186986402877E-1   -1.279740126339418E2    -3.020667929218945E1     7.397858441437988E1    -6.557201397115958E1    -1.518751411431044E2    -9.206535321619381E1     3.609272168615459E1
                        -3.015756353146395E1     7.390608779451857E1    -3.115991377534165E-1    9.419030547477526E1    -8.893953241675536E1    -1.134385275643311E1    -8.282850996062123E1    -1.517293029872853E2
                        -6.684682384205578E1    -1.446426806100622E2    -9.602928807815312E1     6.360468392157974E1    -1.389527278774720       3.486414252967730E1    -8.662325547895802E1    -1.223861027132753E2
                        -9.008986462314994E1    -3.450133920600972E1    -8.294028116381257E1    -2.477335031121079E-1   -9.189210776164769E1     2.756032973114025E1    -1.384099250647634       2.841225859187707E1

 5.525350000000000E7    -9.873116225487131E-1   -1.280177400764280E2    -3.010946784048414E1     7.379910962443975E1    -6.789717289052548E1    -1.331242239118045E2    -7.937378795262238E1    -1.640827895123332E1
                        -3.024934254684378E1     7.358263369291606E1    -3.108926606491551E-1    9.417247194936023E1    -8.141672952319448E1     1.588047799902364E2    -8.601385105017340E1     1.373620445799558E2
                        -6.619618136049931E1    -1.477573258420653E2    -8.498243834509685E1     5.128579534834387E1    -1.389229976496320       3.485062844481076E1    -8.504709648119595E1     7.154530384885507E1
                        -8.608865166424010E1     1.003737156111187E1    -1.061085762751923E2     5.984508147747044E1    -8.525993689309131E1     2.942254251187245E1    -1.379602959658636       2.841936154130634E1

 5.525375000000000E7    -9.925489165714273E-1   -1.280492625575374E2    -3.017841699988592E1     7.390738382750986E1    -6.520528203370115E1    -1.410980053655820E2    -7.613928503316319E1     2.410288823543860E1
                        -3.019037068521247E1     7.372460599456984E1    -3.135230416288636E-1    9.414949638743713E1    -8.426418185860625E1     1.363583089372548E2    -8.584167072267050E1     1.064254054758531E2
                        -6.584881082480899E1    -1.401538285844337E2    -8.363546284107707E1    -5.400016924968790E1    -1.388329902333153       3.486182627069073E1    -9.103439707644060E1    -4.317178315616489E1
                        -7.826148477422908E1     6.592510805696851      -9.181119308770383E1    -1.491053123917973E2    -8.894960144310102E1     7.737456921006375E1    -1.382505781272109       2.839330717032678E1

 5.525400000000000E7    -9.870704018771830E-1   -1.280622128590730E2    -3.027853444987698E1     7.338244261018792E1    -6.496661542153693E1    -1.445191014606552E2    -7.602899165352883E1     7.507378320615361
                        -3.018852151840436E1     7.292768392597849E1    -3.108990905799172E-1    9.416422030001530E1    -8.337420865346181E1     7.722886215614935E1    -8.123257500632846E1    -7.106979262340641E1
                        -6.471196922575066E1    -1.498538438548753E2    -9.121326396101850E1    -1.570624079780816E2    -1.390566932578869       3.483744671357013E1    -9.117426112029793E1    -6.631263064312773E1
                        -8.354515662460734E1     2.204391528293628E1    -1.035921394447286E2     3.310676981811272E1    -8.623711484058383E1     9.396199445967399E1    -1.382126605495427       2.840336260711811E1

 5.525425000000000E7    -9.899182903027776E-1   -1.280873286865639E2    -3.014678221183890E1     7.371124381293821E1    -6.594051380258784E1    -1.420233901752224E2    -8.439434725076525E1    -7.856000934967335
                        -3.028857005544175E1     7.412312962030276E1    -3.121053942076556E-1    9.416693611955279E1    -9.360656174812883E1     1.455693713426814E2    -8.311478658861959E1     8.653449885167310
                        -6.621253961343300E1    -1.480194012231730E2    -8.482858356452036E1     1.030542653114183E2    -1.392912429060777       3.483539843118630E1    -8.076019177461838E1    -7.741975136176011E1
                        -7.712870913746342E1     2.348037974033085E1    -8.283052545337174E1     4.103967319528415E1    -1.078264341408401E2    -1.325539697963742E2    -1.383063483159931       2.837501976701471E1

 5.525450000000000E7    -9.964110997191235E-1   -1.281649955718724E2    -3.026163666490459E1     7.321277006393177E1    -6.554490292713820E1    -1.457987856385965E2    -7.715734415884386E1    -3.816595250020360
                        -3.008581058096148E1     7.428224304638236E1    -3.109915932790591E-1    9.416907952602587E1    -8.741593512932795E1     5.962470076687428      -9.439843076272993E1     1.527854106539426E2
                        -6.595923493495968E1    -1.441338631326229E2    -8.632012407230141E1    -1.699130346108159E1    -1.389413070774405       3.483355166743998E1    -8.935594835814385E1     1.094885402290682E2
                        -8.294535217387204E1     2.245222023104786E1    -8.966101271779687E1     1.456339144658308E2    -8.365085187841727E1    -8.256100429465390E1    -1.380138851771011       2.839786833505567E1

 5.525475000000000E7    -9.916986665569434E-1   -1.281932014579434E2    -3.008316736249473E1     7.429626918837980E1    -6.563000068420691E1    -1.408173360708305E2    -7.778498898858031E1    -3.755867144903378E1
                        -3.024581223153209E1     7.414736141685931E1    -3.123164265739728E-1    9.416635141536807E1    -8.422170575982145E1     1.434941507811844E2    -8.136406280336163E1     7.477578068569488E1
                        -6.558985273762865E1    -1.370128010204758E2    -9.686739562160098E1     1.780388386371803E2    -1.390701613488085       3.483876975205096E1    -8.999626596188848E1    -1.031164380307163E2
                        -7.926343733544880E1     3.117913514122325E1    -9.902362196285276E1    -1.280762903465190E2    -9.940745514476240E1    -1.654208437576272E2    -1.385041548894455       2.837799651835080E1

 5.525500000000000E7    -9.962705734126537E-1   -1.282097595553045E2    -3.014080220897612E1     7.389155015001292E1    -6.528995497768507E1    -1.526821518464359E2    -8.318889001776151E1    -5.391321988911997E-1
                        -3.024931865855434E1     7.415778534618208E1    -3.132482626230377E-1    9.419152484964118E1    -8.222785469463818E1    -1.422216286960417E2    -9.051638930013255E1     1.557565123426428E2
                        -6.658777773206390E1    -1.407668654683208E2    -9.018235729565092E1     1.487303373356098E1    -1.389782970319017       3.484639086215862E1    -8.761460163650291E1     1.173421764529756E2
                        -8.103728315993638E1    -9.488464453556404      -8.458817906739409E1    -3.756675128642696E1    -9.166919106083121E1    -7.728690241131088E1    -1.381837074576254       2.838283467940067E1

 5.525525000000000E7    -9.908713885989396E-1   -1.282420698266434E2    -3.018531566539007E1     7.367660390002915E1    -6.563526657321086E1    -1.377051440726962E2    -7.814814486506324E1     2.183918384004978E1
                        -3.021605141771761E1     7.407705750265536E1    -3.178442153624628E-1    9.415385354266348E1    -9.182346482319832E1    -1.121713702093592E2    -1.043411467204505E2     2.171594180737684E1
                        -6.553703193469093E1    -1.384662003828858E2    -8.313856028715415E1    -5.318580439972519E-1   -1.386943565348389       3.483008893565399E1    -8.722928510012581E1    -1.375578532816205E2
                        -7.964302557441245E1     3.585037148603385      -8.635151393629350E1    -1.739337379980498E2    -9.951858111408251E1    -9.942243566742710E1    -1.384087265827207       2.838025982636869E1

 5.525550000000000E7    -9.954359708760074E-1   -1.282764963643573E2    -3.018696739224988E1     7.408915847714285E1    -6.569109851565659E1    -1.410657227061696E2    -7.891490775534541E1    -1.289255957821181
