#  HZ   S   DB   R     50.00 
! Rohde & Schwarz Vector Network Analyzer 
! Rohde-Schwarz,ZNB8-4Port,1311601044102961,2.82
! Created: UTC 2/12/2019, 4:54:14 PM
! freq[Hz]                db:S11                  ang:S11                 db:S12                  ang:S12                 db:S13                  ang:S13                 db:S14                  ang:S14
!                         db:S21                  ang:S21                 db:S22                  ang:S22                 db:S23                  ang:S23                 db:S24                  ang:S24
!                         db:S31                  ang:S31                 db:S32                  ang:S32                 db:S33                  ang:S33                 db:S34                  ang:S34
!                         db:S41                  ang:S41                 db:S42                  ang:S42                 db:S43                  ang:S43                 db:S44                  ang:S44
! 
 3.000000000000000E7    -2.903275745996810E-1    1.015905893695099E2    -6.714954611969435E1     7.132222829038100      -7.737204405806777E1     7.105392203578178      -8.224589070340778E1    -6.554035248283839E1
                        -7.019251515161473E1     1.546002821799957E1    -2.820768283202935E-1    9.003283427148877E1    -8.220727028338914E1     1.669831367902722E2    -8.324559286036175E1     1.452366874366107E1
                        -9.227437207306190E1    -1.055846327173222E2    -8.664871432120690E1     6.045614272096822E1    -9.332980529506986E-1   -1.113256670175289E1    -9.312799138437759E1    -1.782565803890928E2
                        -9.075610208983139E1    -5.679049079974641E1    -9.550747648751775E1     5.624951798561438E1    -8.547555823217424E1     9.355132694959848E1    -9.437143171058547E-1   -1.616188750216322E1

 3.002500000000000E7    -2.911147185509168E-1    1.012963277218681E2    -6.839957567710761E1     6.139589019277371      -7.980589068173563E1     8.088236527626508      -7.981483753599568E1    -1.450728825764890E2
                        -7.021409071897139E1     8.893820686486070      -2.881605024242023E-1    8.963885150209343E1    -9.677107461526637E1    -1.913466820840226      -9.161404436411897E1     2.838005962805510E1
                        -8.857839580338572E1     1.628401389782493E2    -9.696919970748753E1     1.023116984609236E2    -9.395547204406896E-1   -1.142336657437530E1    -8.851970901648990E1    -5.736279481916474
                        -8.595972736137156E1    -1.281962049984078E2    -8.610438301903415E1     1.038619114704136E2    -8.885043323164503E1     3.606031973908877      -9.441381287999828E-1   -1.649697608009453E1

 3.005000000000000E7    -2.963186772422315E-1    1.010289530383993E2    -6.711353400355841E1    -1.502808616450661      -8.508652149994501E1    -6.049166497965398E1    -8.869727064891990E1     1.702056034381019E2
                        -6.838039731695817E1     1.781205137971091E1    -2.831750348496440E-1    8.940098752908151E1    -9.622906304634314E1     1.633601144354270E2    -8.574130765534218E1    -1.379028096610479E2
                        -8.364278712304007E1     1.618053650719244E2    -7.837890119176920E1     2.500827354836384E1    -9.312428168464975E-1   -1.171996161039171E1    -8.452630042670174E1     9.962121817925808E1
                        -8.686100988127933E1     1.042728402239217E2    -8.248499507769451E1     1.621578085318336E2    -8.126214024217364E1    -2.129638237450622E1    -9.470176432426285E-1   -1.676502652147844E1

 3.007500000000000E7    -2.891681881378539E-1    1.006945999160023E2    -7.023727046174840E1     1.609090326178052E1    -9.994711562724382E1    -5.664520397254577E1    -8.088883967669690E1    -5.123379063154997E1
                        -6.821426269927085E1     8.076225422264880      -2.774174245867952E-1    8.894884985152827E1    -9.189973267835657E1     7.495504761994627E1    -9.001197341687460E1    -8.028261540812551E1
                        -9.993104456505611E1     1.026786220699475E2    -8.275917197522971E1     1.558500164740165E2    -9.390734431587333E-1   -1.208760927903838E1    -8.045199205029030E1     1.301763229451173E2
                        -8.478280971771793E1    -1.486603448881503E1    -8.413432133595384E1     1.006960566886400E2    -9.843612097654955E1    -3.349522024614208      -9.498891985781486E-1   -1.708229775570534E1

 3.010000000000000E7    -2.869031212847185E-1    1.004006126486957E2    -6.852506135231819E1     1.946166729442000E1    -9.061400542425167E1    -1.686928621320352E2    -8.282145404889155E1    -2.114995150708311E1
                        -6.713302285782446E1     1.117341867826330E1    -2.845522328913824E-1    8.855711371143926E1    -8.698351567859483E1    -1.574101399100901E2    -9.148857046144150E1    -1.075373335794509E2
                        -8.890275055033889E1    -2.210200050937041E1    -8.772385074910429E1     1.572332027321930E2    -9.289081361141864E-1   -1.238775007198041E1    -9.363171322409058E1     2.130377874967942E1
                        -9.021257232045409E1    -5.299865914554326E1    -8.645145176782128E1    -1.489242059003627E2    -8.387252365750462E1    -4.559959496057036E1    -9.411477252619250E-1   -1.741297313789089E1

 3.012500000000000E7    -2.872050551807238E-1    1.001300059113582E2    -6.904189286898841E1     3.550624120344756      -1.068383013754449E2     4.006115270202909E1    -9.777357674300131E1     5.648913298546920E1
                        -6.935763186758827E1     5.933638644548894E-1   -2.789397890980417E-1    8.814609298553340E1    -9.151166362649876E1    -5.168315583080906E1    -8.735534857928435E1     1.899176109553225E1
                        -8.186435250319732E1    -8.157500331152650E1    -9.352992045547461E1    -4.781082887521282E1    -9.402492334219250E-1   -1.266904757447409E1    -8.514886319765910E1    -1.695035758670102E2
                        -9.230567800684462E1    -1.192839724212401E2    -8.661266746198936E1    -1.640948843642805E2    -8.579817653999727E1    -4.959622794852619E1    -9.483784914995046E-1   -1.773461273286084E1

 3.015000000000000E7    -2.912010935879639E-1    9.984769285560165E1    -6.798514758252462E1     6.146928409905292      -8.137508474693063E1    -2.480564141280945E1    -8.070657499930098E1    -1.241563020799578E2
                        -6.974429769902601E1     6.999426811580653      -2.858107807499832E-1    8.778735917751634E1    -8.804448618147804E1    -1.310720082185431E2    -8.488131050492086E1    -1.309453870077053E2
                        -8.883063730502130E1    -1.379368738030148E2    -9.085475173154117E1    -4.299784730937776E1    -9.363131603986957E-1   -1.297092987681124E1    -9.041552020634077E1    -1.408287423562703E2
                        -7.988748893183899E1    -2.206290398496473E1    -8.211967541493479E1     3.412318673366937E1    -8.515532080008255E1    -6.515143880377518E1    -9.439889861704354E-1   -1.801458206022941E1

 3.017500000000000E7    -2.832136505032888E-1    9.954018849876978E1    -6.800062018226852E1     8.766670873708845      -9.240211067426526E1    -1.470465077684380E2    -9.039974543605996E1    -1.643302818659723E2
                        -6.758303801194266E1     5.495816585064714      -2.822006171000154E-1    8.746402815414727E1    -8.567021634599017E1     8.068265385748144E1    -8.572593569884762E1    -4.959675100787184E1
                        -8.510043248554632E1    -1.978670514064191E1    -8.407604575130446E1     1.585195702824887E2    -9.345017532007206E-1   -1.327143826850556E1    -8.140188934994771E1    -6.148521308722778E1
                        -8.755708909468066E1    -8.745388547255967      -9.699590988359645E1     5.621411479526020E1    -8.546252979704232E1    -1.675083783733635E1    -9.432363610685056E-1   -1.836639711094488E1

 3.020000000000000E7    -2.860346270014437E-1    9.926260280405825E1    -6.741550085540388E1     1.024735523772614E1    -8.684284532252875E1     1.325576281534580E2    -8.851546300324783E1    -3.347297568039960E1
                        -6.780591950173529E1    -7.260156444769116      -2.780411952308253E-1    8.711108341755221E1    -8.560503680841899E1     1.841432830954829E1    -9.064821124056087E1     8.558822545428397
                        -8.658363816085867E1     1.740477722099545E2    -8.366504841703389E1     9.405293830422295E1    -9.330949507312016E-1   -1.357442644758083E1    -8.609953200616077E1    -9.083339595851062E1
                        -1.012709347346702E2    -1.601973161535872E2    -8.604575048336679E1    -1.309955978802461E2    -9.231109518506065E1     9.673095737905894E1    -9.462709430679686E-1   -1.869171530582969E1

 3.022500000000000E7    -2.907646816149309E-1    9.895394406791644E1    -6.946817308625874E1    -9.438877264526957E-2   -8.519953860009977E1    -1.056658452157091E2    -9.592461625986205E1    -1.603358563050045E2
                        -7.019745712103511E1     5.861217755134158E-1   -2.813839771243619E-1    8.671733304606603E1    -7.904826476284623E1    -1.357264280293061E2    -9.521002137727022E1     1.096064388546440E2
                        -9.271599111118442E1    -8.535647985587217E1    -9.187097314749360E1     1.356121958761579E2    -9.356621605082462E-1   -1.388044992299603E1    -8.593535473972909E1    -5.669896359531278E1
                        -9.095094733351495E1     7.551001126476008E1    -1.027125161180907E2    -6.638278815535291E1    -8.623769467196962E1     4.245922770804206E1    -9.461594455317088E-1   -1.895528654810698E1

 3.025000000000000E7    -2.925393484416574E-1    9.864866980678035E1    -6.827649235938304E1     3.875889462009706E-1   -8.635156590071973E1    -5.297221828542682E1    -9.340456638664513E1    -1.004796244047759E2
                        -6.799853265187286E1     4.059352597356889      -2.890435730453040E-1    8.634574542596187E1    -8.785570096846394E1    -1.719975904928523E2    -8.919776470400394E1     9.532546329327954E1
                        -9.113424720332672E1     1.584164841247886E2    -9.108368517411992E1    -1.978850836204327E1    -9.283340129418910E-1   -1.416291385651026E1    -8.603240083071557E1    -1.405933227514169E2
                        -9.970061368701045E1     1.755077095734899E2    -8.549504508101907E1    -5.765783133049882E1    -8.733731775624200E1     1.564754593976132E2    -9.459553681855736E-1   -1.927432533228635E1

 3.027500000000000E7    -2.843847057701875E-1    9.835836519553931E1    -6.900429687843369E1     1.126523798164791E1    -8.264348628653410E1    -1.432622272640815E2    -8.872620068792338E1     9.069726345783101E1
                        -6.827899065864825E1    -9.270393665310618E-1   -2.714749027497920E-1    8.589958791242302E1    -8.285736197648126E1    -9.429257222370154E1    -8.492355250446970E1    -6.629498710432942E1
                        -8.839896400767366E1     1.587667355710997E2    -8.609172617709740E1    -2.029642191941423      -9.302141686792586E-1   -1.445901629407787E1    -8.037903240282729E1     1.600321819031773E2
                        -8.990294419775049E1     2.053026521532589E1    -8.612007062371342E1     1.552044374082097E2    -8.538123172207898E1    -5.766965851074713E1    -9.422465563295450E-1   -1.958568670682210E1

 3.030000000000000E7    -2.865224961928959E-1    9.806824719578374E1    -6.806900876479683E1     8.958511801950184      -9.032178466359503E1    -1.692664843021950E2    -8.373431519782281E1     7.380651301462794E1
                        -6.934197028208901E1     8.532151906222453      -2.913164954319716E-1    8.556703712557413E1    -8.698616558484684E1    -7.471548913766378E1    -8.055855229752139E1    -8.931380879897704E1
                        -1.044546887802510E2     5.065705390479798E1    -8.657829002209525E1     5.037196764172724E1    -9.354443814620934E-1   -1.481287783263645E1    -9.743111898424802E1     9.327127996183144E1
                        -9.364278524187108E1    -1.362220163154688E2    -8.643547657999648E1     1.017591781869367E2    -9.341349008548148E1    -1.496459350023714E2    -9.422359409587544E-1   -1.995076585062954E1

 3.032500000000000E7    -2.842386539985453E-1    9.778144166729567E1    -6.819764095463890E1     1.314384122848160E1    -7.883220763040806E1    -1.308651396898131E2    -9.420528193541520E1    -4.266138700006071E1
                        -6.795313741054520E1     1.453555246028757E1    -2.688225735188586E-1    8.516713837764276E1    -1.002973037115546E2    -1.190742988754464E2    -8.701078930241255E1    -5.703336252379651E1
                        -8.347658735324484E1     5.797223007212812E1    -8.991740690867482E1     1.520270410274983E2    -9.341207488513359E-1   -1.514420229127888E1    -8.643987540623812E1     1.551192488284103E2
                        -8.252755411542653E1    -1.856854700921387E1    -8.579403637455715E1     4.870197078946512E1    -9.487682408415114E1     1.137693217989702E2    -9.437688682057690E-1   -2.020140513080266E1

 3.035000000000000E7    -2.855288570766460E-1    9.750319700591722E1    -6.700580449522379E1    -2.498369378378179      -8.488837194122684E1     1.276283007544680E2    -8.174384915698616E1    -1.276414456885137E2
                        -6.900830836474343E1     4.877372580839796      -2.847653359076018E-1    8.481470035031265E1    -9.144023437568245E1    -6.734896580983764E1    -8.733924461909892E1    -2.792709107896994E1
                        -8.652480843137343E1     9.896967151568329E1    -8.686876816476683E1    -6.540169293314257E1    -9.364091790677447E-1   -1.544200847919906E1    -8.924598296229863E1    -1.484073835466181E1
                        -8.456790837494117E1    -1.191400750631159E2    -8.483593483422931E1    -1.227440949272207E2    -8.623535601391899E1    -7.944544814855168E1    -9.452061915610442E-1   -2.054481814312236E1

 3.037500000000000E7    -2.831942319796578E-1    9.718566817915965E1    -6.749251808266280E1    -1.240962825452676      -8.340304056222911E1    -6.353261916995610E1    -9.100652245749593E1    -1.163914385304384E2
                        -6.803477368264545E1     4.885932452673117      -2.791170519186407E-1    8.439724028388721E1    -8.665612080292732E1    -1.080524381644205E2    -8.519739746862331E1     3.123081805749598E1
                        -8.989053787524556E1    -3.230739667833031E1    -8.304988709855175E1     8.745586243360754E1    -9.294894274879350E-1   -1.570679124887486E1    -8.885496326395115E1     8.385304959917407E1
                        -9.066982555274542E1     9.509532817090532E1    -9.553408412836043E1     1.414877757783319      -8.972602649253929E1     3.267457256938305      -9.411399550430132E-1   -2.083352373918341E1

 3.040000000000000E7    -2.831021814558931E-1    9.690733790497747E1    -6.821141254721761E1     5.635020254384955      -8.356836662371036E1     1.179993017409614E2    -8.583211029447213E1    -9.216300029677250E1
                        -6.866759959011259E1     5.101338229618134      -2.854520432160566E-1    8.406662830153015E1    -9.187585223469611E1    -1.653428706536403E2    -8.012505231123045E1    -5.286841559984920E1
                        -8.568921032728495E1     1.652478207056130E2    -8.447800478066131E1     9.217088695911723E1    -9.298169705013575E-1   -1.598416835796350E1    -1.008504784767753E2     1.113171788553438E2
                        -8.690442153106932E1     4.759685761250849E1    -1.013391900322188E2     1.010128341037994E2    -8.474397895581397E1     9.166386101140871E1    -9.468475213904888E-1   -2.117186140944336E1

 3.042500000000000E7    -2.766304197843732E-1    9.660265599352506E1    -6.683261187339132E1     5.116547639802906      -8.127819189673865E1     3.993175067919413      -8.031395258486228E1    -1.652001753996389E2
                        -6.838087880526251E1     8.732542963414611      -2.826433500996733E-1    8.370841489983449E1    -8.926377003396311E1    -1.001925817011832E1    -8.056439996556873E1     1.717372320654162E2
                        -9.487606135513028E1     9.301598286373652      -9.442386711636206E1     1.453602512047734E2    -9.347192303247105E-1   -1.633170218708208E1    -9.192634689132434E1    -8.134719559102800E1
                        -8.256916353544315E1     2.704253432214324E1    -9.440061036710600E1     1.319084817382291E2    -8.584639483943863E1    -1.315484108285271E1    -9.454570169549349E-1   -2.147658583516218E1

 3.045000000000000E7    -2.830961883401804E-1    9.628503039176844E1    -6.777716441509882E1     1.135577908764528      -8.931869531394518E1    -1.210341998916388E1    -8.745160333783575E1    -9.503327453084735E1
                        -6.731922156017757E1     4.137751660746819      -2.833627794247056E-1    8.326238582244430E1    -9.210809170404390E1     2.287859253457661      -1.059548206255146E2    -8.772020142903494E1
                        -1.075475492929317E2    -4.081415889114970E1    -8.866140773392837E1    -1.612157090165211E2    -9.332387452364012E-1   -1.664338002195068E1    -8.310415420916181E1    -1.735438098804531E1
                        -8.728785982867305E1    -5.768568842394916      -8.176820889615264E1     1.354698239031055E2    -1.064379791606463E2     6.769541923748794E1    -9.494004737178842E-1   -2.176483947841921E1

 3.047500000000000E7    -2.827136091804829E-1    9.598966320755253E1    -6.793142275671245E1     6.776865598663957      -8.041722806276822E1     1.793896466299098E1    -8.435836414376566E1    -8.507257217038709E1
                        -6.699757242399801E1     1.173524925270166E1    -2.813061998575328E-1    8.291312722431853E1    -9.504303732936499E1     3.187015869464142E1    -8.143066132865752E1     1.787209156409145E2
                        -7.743406650095650E1    -8.649934582337833E1    -8.409178856791124E1    -1.573491569588986E2    -9.260288124010507E-1   -1.690842896170046E1    -8.460385358798887E1    -9.175559471437670E1
                        -7.806578256982678E1     9.796372086960594E1    -9.397883289100740E1     7.712290101401146      -8.834421974465487E1     1.416635557923152E2    -9.497563145104440E-1   -2.211579231301838E1

 3.050000000000000E7    -2.803940670602608E-1    9.569930651138317E1    -6.743444555887751E1     2.039906348939156      -8.214941926484832E1    -6.166163402104748E1    -7.952674754937804E1    -7.073065352253181E1
                        -6.787528632048952E1     8.279986729438981      -2.758788170243982E-1    8.250716842104998E1    -8.176938573433586E1     5.615474829009192E1    -8.678760049369679E1     6.453186976290736E1
                        -9.080862707519677E1     8.146628665902423E1    -8.406723618193240E1     5.067621225348426E1    -9.293307669420585E-1   -1.727765435982311E1    -8.730436526070476E1    -1.433830941676600E2
                        -8.633044406072577E1    -1.550921003703220E2    -8.612357784018144E1     5.835009932355507E1    -9.258761474875529E1     1.735857515707143E2    -9.468191394780622E-1   -2.242645095030797E1

 3.052500000000000E7    -2.801798686470820E-1    9.542369928172322E1    -6.751974928653837E1     4.212179230987834      -9.048072246339886E1     9.385408621619376      -9.364082654999102E1     9.393906753549814
                        -6.778434359513210E1     1.030696576564600E1    -2.786321360418929E-1    8.217108973222435E1    -8.704807394592987E1     2.646857273015040E1    -8.430008478644568E1    -5.770854847920548E1
                        -8.673700876074460E1     5.078641097686805E1    -9.536738684690620E1    -1.714535906754220E2    -9.326404419599575E-1   -1.753001971500667E1    -7.798410603009599E1    -1.167758833629424E2
                        -8.810583603524998E1    -3.235170580132674E1    -8.666041462099997E1     1.496442988351395E2    -9.251536196385274E1    -8.408889045192568E1    -9.463397007325611E-1   -2.274701560416387E1

 3.055000000000000E7    -2.812496056529097E-1    9.509762429762294E1    -6.653927896198130E1     5.123677453315728      -9.823372016300860E1     5.652662755004015E1    -8.968765661974621E1    -2.878475051141637E1
