#  HZ   S   DB   R     50.00 
! Rohde & Schwarz Vector Network Analyzer 
! Rohde-Schwarz,ZNB8-4Port,1311601044102961,2.82
! Created: UTC 2/13/2019, 9:57:24 AM
! freq[Hz]                db:S11                  ang:S11                 db:S12                  ang:S12                 db:S13                  ang:S13                 db:S14                  ang:S14
!                         db:S21                  ang:S21                 db:S22                  ang:S22                 db:S23                  ang:S23                 db:S24                  ang:S24
!                         db:S31                  ang:S31                 db:S32                  ang:S32                 db:S33                  ang:S33                 db:S34                  ang:S34
!                         db:S41                  ang:S41                 db:S42                  ang:S42                 db:S43                  ang:S43                 db:S44                  ang:S44
! 
 5.525000000000000E7    -1.032821398988195      -1.271610122691630E2    -2.908110588226041E1     7.258501052512798E1    -7.954316139083434E1     4.574226919275953E1    -6.723980244385467E1    -1.608552162798476E2
                        -2.912560419400655E1     7.328746052411159E1    -3.132729074634985E-1    9.427433019743182E1    -8.258289700896324E1     7.905337831657970E1    -8.218695849801236E1     8.080093478501206E1
                        -8.008466304163929E1     3.526361822897335E-1   -9.196197309321441E1     5.153852601389313E1    -1.387958663832752       3.488165850860706E1    -8.453551360651554E1    -1.653499401899920E2
                        -6.735954237421508E1    -1.419908840298663E2    -8.401412028659813E1    -8.509948028404634E1    -9.673131077570500E1    -4.457417533157414E1    -1.383479916979294       2.846728471701680E1

 5.525025000000000E7    -1.039361240813811      -1.272004510554656E2    -2.910349768745805E1     7.282020413065104E1    -8.083855867923198E1     6.476229999781194E1    -6.605204224140866E1    -1.484673131949993E2
                        -2.908502776279525E1     7.302412130838647E1    -3.145493718110301E-1    9.423198770852059E1    -8.783820858686268E1     4.003209339614089E1    -9.293312108896460E1    -7.697334210508872E1
                        -7.803768603147701E1     1.126616156262902E1    -8.680296055518201E1     8.649069433861520E1    -1.387691356979875       3.488365291593640E1    -9.021576963584549E1    -1.721379757718446E2
                        -6.743367754384879E1    -1.406016745617123E2    -8.120171077785304E1     6.189978362171969E1    -8.392660596274205E1     7.011606883738999E1    -1.385183982070914       2.846762937903499E1

 5.525050000000000E7    -1.036152908761499      -1.272387830158705E2    -2.906834341429700E1     7.275782474486790E1    -7.895451972277166E1    -2.476921429549992      -6.644144875443432E1    -1.462461946167871E2
                        -2.908445195889947E1     7.325881226107973E1    -3.151746137217530E-1    9.420962537305796E1    -8.564988465139079E1     6.955918167226071E1    -8.119289400515470E1     1.340074845247228E1
                        -8.568756277563416E1     6.059741424858217E1    -8.703582627696882E1     9.843257315832298E1    -1.392278724571864       3.487560236386090E1    -8.217973369909669E1     1.101941723042299E2
                        -6.656695363025230E1    -1.465150297996776E2    -8.580181192250201E1     1.384687110247936E2    -8.785620497661614E1    -1.697430388593617E2    -1.382231291082742       2.846569197650632E1

 5.525075000000000E7    -1.040470412320909      -1.272664200356854E2    -2.909120856136705E1     7.316080487923462E1    -8.097025280944892E1     2.788673169662234E1    -6.555250614517239E1    -1.505236062091858E2
                        -2.907403489738477E1     7.289618318372936E1    -3.111122214596609E-1    9.424497182213440E1    -8.796136352690077E1    -1.322350574050692E2    -8.090359289582828E1    -8.070850071501485E1
                        -8.109472197304112E1    -1.956757556832389E1    -9.805362959292623E1    -1.074526357074524E2    -1.391003561569604       3.488482664084740E1    -9.345815763390456E1     1.432093565827593E2
                        -6.678701557169541E1    -1.498989266838250E2    -9.717733077527122E1     1.789189056506124E2    -1.139897593442836E2     1.385180751057125E2    -1.382310904434319       2.845308485188283E1

 5.525100000000000E7    -1.038351390904995      -1.273062819449429E2    -2.920181947628180E1     7.314404043097009E1    -7.930619053660054E1    -2.868141969514646E1    -6.585118988282885E1    -1.456526122410060E2
                        -2.907943243219218E1     7.316333071821772E1    -3.191302867465713E-1    9.422579002085247E1    -8.367345172238443E1    -7.178639956253775E1    -8.262668950348191E1     1.041390802479339E2
                        -7.968486762717269E1    -2.706589114465870E1    -8.714559555957466E1     2.893742337230274E1    -1.388878919735156       3.488488007885503E1    -8.520294222847664E1     2.380174787879795E1
                        -6.740662368040677E1    -1.591173973228231E2    -8.921091122046654E1     1.522992230166385E2    -8.145016899059277E1     1.167865210340872E2    -1.383148879067812       2.842449868765161E1

 5.525125000000000E7    -1.042474413818742      -1.273423913927031E2    -2.910011690289725E1     7.321492044038735E1    -7.578495020279962E1     6.074549128797656      -6.701049253210054E1    -1.378716234753373E2
                        -2.916962652778178E1     7.303285626354118E1    -3.084302675257734E-1    9.423295826708869E1    -9.323561706275784E1    -1.229037100765000E2    -8.218767035832045E1    -1.295463110938318E2
                        -7.617883230379670E1     1.517885004033567E1    -8.616459997976605E1    -4.110016853456169E1    -1.384651272651735       3.490053005380424E1    -9.794664167008678E1     1.339815474383599E2
                        -6.648593283231661E1    -1.458104563500725E2    -8.603758987982666E1    -2.387601231147388E1    -8.902644755622998E1     1.129280196940608E2    -1.384473054999811       2.846102056232668E1

 5.525150000000000E7    -1.043804795226452      -1.273499835356727E2    -2.907644238642346E1     7.315721163159589E1    -7.702543896584479E1    -5.470515343924024      -6.742444078373323E1    -1.502772188680104E2
                        -2.910609273793860E1     7.351068302872493E1    -3.145537013107235E-1    9.419681465982539E1    -8.251931893348582E1    -8.134947766811300E1    -8.713360583578529E1    -2.975780319683758E1
                        -7.761471280695994E1     1.169304645238189E1    -8.127699324884236E1    -9.317888921383261E1    -1.389535828123748       3.488613953174827E1    -8.133387104348488E1    -7.305270600340305E1
                        -6.867080082156787E1    -1.443979879699248E2    -9.325759449379709E1     1.585012321496408E2    -8.631412473135160E1    -1.680648716227823E1    -1.385323363029603       2.841034043916706E1

 5.525175000000000E7    -1.040001474500109      -1.273869849252380E2    -2.904310733804300E1     7.259098218613165E1    -7.811930801660498E1     4.637040259827597E1    -6.677274438134545E1    -1.423878663043463E2
                        -2.908108366738794E1     7.313271685295912E1    -3.142927683566393E-1    9.421381815987634E1    -8.708182098059959E1     1.105622859162539E2    -8.542981626544894E1     3.754424698768228E1
                        -8.059217735378356E1     3.347642481328441      -8.910513597702773E1     2.975832286280930E1    -1.390040565192478       3.487647467600321E1    -8.953297752003789E1    -1.004115275862870E2
                        -6.642627311158729E1    -1.505694615906897E2    -9.005138543885840E1     8.772309914127365E1    -8.191927572719064E1     1.454856182988989E2    -1.390193485915216       2.844805498317378E1

 5.525200000000000E7    -1.044538536873450      -1.274452926249518E2    -2.904987081452364E1     7.310023053545490E1    -7.655963560603777E1    -1.211724802177828E1    -6.612017437223118E1    -1.429269938288699E2
                        -2.913733571397525E1     7.269646201751097E1    -3.134201748935269E-1    9.422430200445889E1    -8.600042736649826E1     1.328958191095587E2    -8.513126451313836E1    -1.515741264613990E2
                        -7.890736727406163E1    -3.157817928380910E1    -8.652693091444482E1    -1.665719959325095E2    -1.390272414475547       3.485997218654230E1    -8.550710630417339E1     3.238148480765172E1
                        -6.630350607791543E1    -1.466993750328108E2    -8.333667995482657E1    -4.790133622071746E1    -8.451800593106756E1     3.983650603229255E1    -1.380821563794012       2.843862299464681E1

 5.525225000000000E7    -1.046315407410098      -1.274702948107970E2    -2.904294627121823E1     7.269730933692216E1    -8.450791533487630E1     1.549659788316928E1    -6.830384600853424E1    -1.399161655507758E2
                        -2.909651734016089E1     7.268725233678785E1    -3.132443133135960E-1    9.420610103143903E1    -9.289750134485277E1     1.708373010388895E2    -8.859637350471584E1     2.338202178007317E1
                        -8.238982172787502E1    -3.673480048179388E1    -8.368371017643642E1     2.360858196361517E1    -1.390730846216967       3.485071829118707E1    -9.186630524615708E1    -1.705621156290342E2
                        -6.717999833736111E1    -1.488104430103427E2    -7.831539848389093E1     4.527047670649483E1    -8.874773737729166E1    -1.362478956372808E2    -1.386030089230359       2.841309304720820E1

 5.525250000000000E7    -1.044767214731212      -1.275026044285651E2    -2.914756026176521E1     7.294989335053205E1    -8.038986737106681E1     1.476721422147610E1    -6.546646197750059E1    -1.471614837796855E2
                        -2.909950022848857E1     7.302618220418063E1    -3.107849246002154E-1    9.419843119403039E1    -8.456900465904916E1     1.538162212869474E2    -9.591228674151138E1     1.311896344843898E2
                        -7.625431150177329E1    -3.938059340556367E1    -8.352609879670712E1    -7.595628950013351E1    -1.392587285892937       3.485285028362169E1    -8.962290325872880E1    -2.335827033721344E1
                        -6.679757903172650E1    -1.435383261394170E2    -8.541961658821066E1    -9.709791153494596      -8.841433140800375E1     3.546485747320238E1    -1.382126621095225       2.843536475125482E1

 5.525275000000000E7    -1.045874788932610      -1.275191210423282E2    -2.909993204270048E1     7.289243984529578E1    -7.829745695290923E1     2.990686720838842E1    -6.581489288132812E1    -1.469478321212561E2
                        -2.916730723600221E1     7.268356359738843E1    -3.144000882605564E-1    9.421323895060199E1    -8.080615648223025E1    -1.008601028218028E2    -8.931083606077590E1     3.569458464240689E1
                        -7.796962815707468E1     1.196635468947387      -8.817121004595660E1    -4.579944858868821E1    -1.390925184050813       3.484548921141916E1    -8.296835367676984E1     1.201794433097363E2
                        -6.694927659677489E1    -1.471647615072285E2    -9.378751624939395E1    -1.242777500529046E2    -8.865558612980719E1    -1.976744018245683E1    -1.383740317502513       2.842298231525999E1

 5.525300000000000E7    -1.048771046500337      -1.275328105391073E2    -2.905400069898642E1     7.245246816644716E1    -7.827249763330890E1     2.290568998934400E1    -6.599583163371572E1    -1.439728862490167E2
                        -2.911638312609920E1     7.273876815332488E1    -3.158255462040670E-1    9.418074161771249E1    -9.792994298628892E1    -1.521802057670862E2    -8.125863786449190E1     1.341115077071662E2
                        -7.984079987004543E1     3.360547801921894E1    -8.377473521485386E1    -2.847512512564944E1    -1.387688865958009       3.485832199418492E1    -9.469706930893374E1    -8.311015925394548E1
                        -6.602626731553862E1    -1.500980321010605E2    -8.113378948079293E1     1.155813696648600E1    -8.789593542582256E1     3.585971845463526E1    -1.382570230658200       2.843313985797013E1

 5.525325000000000E7    -1.050593139659960      -1.275671868721288E2    -2.912789231579265E1     7.292924401043736E1    -7.472283972292134E1    -8.104639522948649      -6.737497142368606E1    -1.444689492946529E2
                        -2.913393847614866E1     7.365113264366683E1    -3.140163399681514E-1    9.425274487705501E1    -7.972080286272900E1    -1.050641110505902E2    -8.857618656956801E1     1.215562928418379E2
                        -7.918654987446625E1     8.001201119494240      -9.529048154143396E1    -1.136518001333726E2    -1.386217481539607       3.485462658106667E1    -9.414962002885112E1     1.435408632306117E2
                        -6.620048486546932E1    -1.457469055180358E2    -8.297634891946512E1    -6.884913137069880E1    -8.680869577188786E1    -1.534946880476993E2    -1.382815536178074       2.842687399102845E1

 5.525350000000000E7    -1.050316813087811      -1.275976529146033E2    -2.910145660259444E1     7.305173628077857E1    -7.600224735963595E1    -8.606166626345694      -6.601662345316038E1    -1.427832626496199E2
                        -2.913308285491704E1     7.321479222388074E1    -3.109106420977597E-1    9.419499517749833E1    -9.084760941490092E1     1.277887526019710E2    -8.353059629506477E1     1.557059737605245E2
                        -8.517138394793045E1     1.233184148365768E1    -8.422758731469516E1     7.813201153309542E1    -1.392954553147307       3.486480285187210E1    -8.565020261990519E1    -1.053972792689636E2
                        -6.662959613758049E1    -1.423105457521651E2    -8.593620409144025E1    -1.231707927076234E1    -9.365720295723347E1    -8.027686328257303E1    -1.387988265095099       2.840962812718078E1

 5.525375000000000E7    -1.056271101484058      -1.276542393477906E2    -2.912325648673968E1     7.286545449545399E1    -7.834210306595855E1    -5.176536941988580E-1   -6.656471616980890E1    -1.459294134493559E2
                        -2.919241936408705E1     7.316025992479167E1    -3.079414326221159E-1    9.415860692029173E1    -8.677255579455957E1    -1.630116744900930E2    -8.366059647137165E1    -2.606556504066683E1
                        -7.851332453791999E1     3.056715140934570      -1.018621698613266E2     9.136760092905908      -1.388510201817152       3.484978069812422E1    -8.967869675085933E1     2.108634847798843E1
                        -6.650099158758179E1    -1.434084786689081E2    -9.112105270563538E1    -1.299124314794292E2    -8.612502772858265E1     3.101321256110056E1    -1.381931328652527       2.841878962291537E1

 5.525400000000000E7    -1.051455489963702      -1.277204010381749E2    -2.905735998977656E1     7.290002661837750E1    -8.032551108930171E1     4.166747017814250E1    -6.605972662893971E1    -1.511646448006781E2
                        -2.907720958329474E1     7.294405194013382E1    -3.129256313376680E-1    9.417513891163530E1    -8.863697080220226E1    -1.274030898557425E2    -8.304146779182462E1     7.534945348738424E1
                        -8.439122189471522E1     5.692728599198562      -8.607097498794863E1    -5.462376820610433E1    -1.388841440326716       3.483901017339445E1    -8.515595003569933E1     3.489302977247148E1
                        -6.669301203459116E1    -1.515913598665969E2    -9.305285721198558E1     1.208208699365121E2    -8.735769857955165E1    -1.428299527789315E1    -1.383966398803011       2.840664699389686E1

 5.525425000000000E7    -1.055222103320492      -1.277330762049491E2    -2.900585817748489E1     7.314441284427042E1    -8.009532058437759E1     6.535956190564842E1    -6.641025515262031E1    -1.536213016570976E2
                        -2.919140755657173E1     7.286611171794229E1    -3.134331584860629E-1    9.417057667312189E1    -8.360662455383493E1    -1.324405974828261E2    -8.473379131057249E1     2.672155025704968E1
                        -8.153131418358689E1    -8.178564458597071      -8.526431801389597E1     5.284669464556043E1    -1.387256490465889       3.483344445076486E1    -8.887602310290157E1    -9.278880786998440E1
                        -6.566411329790243E1    -1.457922089145001E2    -9.425948811605664E1     8.367517470294835E1    -9.130154262665981E1    -1.180764677921696E2    -1.381555819957903       2.837766971197628E1

 5.525450000000000E7    -1.055049375760782      -1.277745692846830E2    -2.902955488950624E1     7.247394293743975E1    -8.233371316636186E1    -3.076131713773266E1    -6.577108278545647E1    -1.501570027594864E2
                        -2.913140370865296E1     7.304419583580123E1    -3.115145199750329E-1    9.417484471015122E1    -8.610116721496053E1    -1.195680991413195E2    -9.709446149225559E1    -1.127137111762862E1
                        -8.204157169225651E1    -1.245298199192629E1    -8.767138159332239E1     9.290392228456867E1    -1.392897794718714       3.481363008031926E1    -8.158092390193016E1     1.163902384686053E2
                        -6.718978125127406E1    -1.474848463426426E2    -9.174267352558594E1     1.785709739078580E2    -8.704933681555657E1    -1.632144523332576E2    -1.380264391965466       2.839934696684256E1

 5.525475000000000E7    -1.052473536237064      -1.277990855699910E2    -2.909747791611588E1     7.264226374740549E1    -7.925218595739116E1     3.523103455050607E1    -6.664816080854639E1    -1.463880231861623E2
                        -2.905247033567791E1     7.328652550916452E1    -3.153505949827931E-1    9.418287919863732E1    -9.715546754810126E1    -7.433787467150175E1    -8.637548123108689E1     3.644115186927326E1
                        -7.833403850414658E1    -1.056168200684637      -7.905369098449712E1     1.523297083656131E2    -1.388054351862747       3.483522897083667E1    -8.445910092845976E1    -4.994986925722672E1
                        -6.663421285120477E1    -1.474316437139205E2    -8.516601165919704E1     9.517663726328013E1    -8.643893516052452E1     8.755007632932896E1    -1.379282191655791       2.838636641019051E1

 5.525500000000000E7    -1.058285343765939      -1.278229571261136E2    -2.910016385167407E1     7.278694362370453E1    -9.038019387912212E1     7.380124157319357E1    -6.741602205037091E1    -1.436648217938170E2
                        -2.912410843712943E1     7.300837806594964E1    -3.084424753465503E-1    9.417236282729566E1    -8.121502351284390E1     1.326020125409746E2    -8.798665843532378E1     1.229221237858443E2
                        -8.190355957867342E1     9.217495059644023E1    -8.981659973295490E1    -9.592507922215559E1    -1.386458190749544       3.481887499702636E1    -8.875748949819034E1     1.034980324086505E2
                        -6.608220930963529E1    -1.370619455411867E2    -8.913429979632437E1     1.962928699090357E-1   -8.616226837692616E1     1.440907923869913E2    -1.384339036503570       2.839065859329609E1

 5.525525000000000E7    -1.058506296838142      -1.278659487384600E2    -2.905685737929542E1     7.263402577839311E1    -8.330669738422196E1    -8.649333416866771E-1   -6.487974658587663E1    -1.484742382978214E2
                        -2.913036589011071E1     7.279132187522627E1    -3.182520612329501E-1    9.415720860884395E1    -9.437406598165336E1    -2.363696136953073      -8.598652221083695E1     5.041729435172972E1
                        -7.476224080062602E1     7.475154252303198      -8.790501303926261E1     4.829499375367528E1    -1.387771019264041       3.485201520136025E1    -8.755618916064832E1     3.643649721412542E1
                        -6.571834969596443E1    -1.493346778855990E2    -8.441978360414147E1     1.039785698005166E1    -8.015575019375302E1    -2.343128340587426E1    -1.383216240169862       2.839313710106638E1

 5.525550000000000E7    -1.062035689006285      -1.278912503921010E2    -2.915011621930338E1     7.276174760548258E1    -7.993167398552201E1     3.312305605661538E1    -6.562124600780066E1    -1.505480697480019E2
