#  HZ   S   DB   R     50.00 
! Rohde & Schwarz Vector Network Analyzer 
! Rohde-Schwarz,ZNB8-4Port,1311601044102961,2.82
! Created: UTC 2/13/2019, 9:18:16 AM
! freq[Hz]                db:S11                  ang:S11                 db:S12                  ang:S12                 db:S13                  ang:S13                 db:S14                  ang:S14
!                         db:S21                  ang:S21                 db:S22                  ang:S22                 db:S23                  ang:S23                 db:S24                  ang:S24
!                         db:S31                  ang:S31                 db:S32                  ang:S32                 db:S33                  ang:S33                 db:S34                  ang:S34
!                         db:S41                  ang:S41                 db:S42                  ang:S42                 db:S43                  ang:S43                 db:S44                  ang:S44
! 
 5.525000000000000E7    -3.042552254583728      -1.478140913844147E2    -2.980931288008583E1     6.705117213885968E1    -7.289309104218948E1    -1.172866086070870E1    -6.626927651778247E1    -1.671144155840782E2
                        -2.979280787329554E1     6.653983030198290E1    -3.298984511372605E-1    9.420928420042243E1    -8.615866866990285E1    -1.480235524631924E2    -8.732795379415906E1     2.464330590090923E1
                        -7.411066232697765E1    -2.073425538216715      -9.582138464034404E1     9.258198088867157E1    -1.393092445243311       3.488131206313888E1    -9.118317383938441E1    -1.514987519404095E2
                        -6.619272162415808E1    -1.694947130135882E2    -8.375725336412295E1     1.128476113450358E2    -8.998661763579943E1    -1.960562399505898E1    -1.383936449797439       2.848587756552542E1

 5.525025000000000E7    -3.053567250187576      -1.478798634527787E2    -2.984555987393822E1     6.636664491911569E1    -7.169592092520382E1     5.993498166679893      -6.595891054410616E1    -1.695999124273712E2
                        -2.983800570950937E1     6.661223918076991E1    -3.282522337545524E-1    9.418331437750010E1    -8.530457861094467E1     7.128278659597073E1    -8.423552834278455E1     1.354088229337222E2
                        -7.234763358441116E1    -7.446137488877926      -8.543902303385872E1     1.754847509031749E2    -1.390075368763044       3.490635733158584E1    -8.525691920557790E1     1.528106364270874E2
                        -6.590295890371624E1    -1.610177625571646E2    -9.570885860258252E1    -1.488411338444547E2    -8.755769218386317E1     1.284742699631850E2    -1.385160422937036       2.845690834179376E1

 5.525050000000000E7    -3.056481793928750      -1.478932510839742E2    -2.976441034191037E1     6.674168076291868E1    -7.579653189193442E1    -1.498200235847685E1    -6.543052636835689E1    -1.610078876821110E2
                        -2.990504085655543E1     6.691635268330475E1    -3.266403648645310E-1    9.416492656901342E1    -8.619657766470138E1     9.193383781719389E1    -9.351861566824950E1     1.276886523262331E2
                        -7.358105438972540E1     6.501749833483483      -8.957857901112354E1    -2.765046703230653E1    -1.388039874373346       3.485202447759422E1    -8.258668838965683E1     5.802275148634598E1
                        -6.585713165099899E1    -1.679003571024308E2    -8.883351962446636E1    -9.001122634268147E1    -9.500079768214582E1     1.543140512783227E2    -1.383384901374017       2.847145226528707E1

 5.525075000000000E7    -3.058595077410685      -1.479475516440340E2    -2.974011318878013E1     6.644539438503027E1    -7.446397541525498E1    -1.316866144444410E1    -6.590109903079645E1    -1.647066284574383E2
                        -2.992312451806271E1     6.719516027551882E1    -3.323156394056384E-1    9.418589086423451E1    -8.974566393360205E1    -1.503075633341793E1    -8.099204467376394E1     4.327208284136228E1
                        -7.432938081723324E1    -8.595231463916058      -8.743355429864386E1     2.959372541500343E1    -1.391608544963370       3.488926439938827E1    -9.467730731980865E1    -1.322969784685938E2
                        -6.656821799939239E1    -1.547928503488211E2    -8.627665694125838E1     6.105276722187395E1    -9.130629728635832E1     5.406869967385759E1    -1.382968165661507       2.847130169287444E1

 5.525100000000000E7    -3.057415745903625      -1.479985884530170E2    -2.979247893495027E1     6.663181449433216E1    -7.413893240254595E1    -5.068849878143262      -6.568021901273139E1    -1.622136380748624E2
                        -2.986462860951991E1     6.685675988108253E1    -3.281262906342080E-1    9.417637810281136E1    -8.759208194724889E1    -4.302630622250008E1    -8.423848406389071E1     1.697794259819632E2
                        -7.213608974191737E1    -1.116689318805305E1    -8.169046238185266E1    -7.039992981522376E1    -1.388759154336698       3.485532128640870E1    -9.698884101898460E1     1.239039430764612E2
                        -6.595206488793306E1    -1.622155408975178E2    -7.972077936623271E1    -6.006666950562762E1    -8.597242803717988E1     3.227053891632318E1    -1.381885195782204       2.845670852545030E1

 5.525125000000000E7    -3.066025404808048      -1.480693474744034E2    -2.977358070986118E1     6.689726357895680E1    -7.326388384912855E1     1.297740413612901      -6.682505199833925E1    -1.763591554657973E2
                        -2.989059866036322E1     6.663452220739825E1    -3.351338378237259E-1    9.416842614970749E1    -8.878873389970184E1     5.414611133730492E1    -9.577016241705861E1    -9.901313092521134E1
                        -7.374908398828194E1     1.436227950230125      -8.590661898025586E1    -1.033730074502338E2    -1.393421303106766       3.486139439036281E1    -7.969412195189440E1     9.270694717109812E1
                        -6.643676698312784E1    -1.682052242955469E2    -8.780948467607462E1    -1.710366176887732E2    -8.197332024279149E1    -9.027106550757726E1    -1.380531200363736       2.843711224515413E1

 5.525150000000000E7    -3.067242375333665      -1.480797374990129E2    -2.984272728251252E1     6.647479740146500E1    -7.296577066974970E1     7.299435423193319E-1   -6.552211872754221E1    -1.621575131656111E2
                        -2.981116967167528E1     6.693785682751859E1    -3.358802991459450E-1    9.414126792032579E1    -8.488222811988463E1    -9.749501508975733E1    -8.078555834849182E1     8.215239251990165E1
                        -7.208072023222618E1    -1.508093558780946E1    -9.118873184586676E1    -7.554526881089035E1    -1.388354354488256       3.486572586791294E1    -9.092647810543210E1     2.332941188129497E1
                        -6.527917491065681E1    -1.692200016575686E2    -9.887610721975919E1    -1.773162818067972E2    -8.220578024114572E1     1.681459838081459E2    -1.383528715259665       2.845636473637521E1

 5.525175000000000E7    -3.077848819894583      -1.481275818246653E2    -2.983965433787095E1     6.626870727145550E1    -7.547027855548618E1    -8.450212382260615      -6.663472285895347E1    -1.611536219549867E2
                        -2.986960835134160E1     6.656105252181199E1    -3.348415511816710E-1    9.415737521760593E1    -1.009352863233401E2     8.475093662237248E1    -8.697092591747057E1    -1.205430077396577
                        -7.539681691515563E1    -1.761198307793983      -9.050578631403977E1     4.738121640523406E1    -1.389489147346187       3.485960002084317E1    -8.718437125338305E1    -9.236808352992463E1
                        -6.608541635970201E1    -1.610794619416321E2    -8.967528215531154E1    -6.530383871473902E1    -9.281183383475454E1     3.179363717846871E1    -1.383525638249750       2.841061619792773E1

 5.525200000000000E7    -3.078181483177978      -1.481655799958123E2    -2.980442686777619E1     6.657507904290002E1    -7.051903749331176E1    -1.008197596679535E1    -6.554155372410612E1    -1.697650729716216E2
                        -2.982654564280650E1     6.648156995409183E1    -3.275726474155008E-1    9.417161452715430E1    -8.524934504281976E1     4.950415337371946E1    -8.459859392803395E1     1.569924451458957E2
                        -7.483414069339952E1    -9.132627341753622      -8.678534776026639E1    -1.046680061615918E2    -1.390874020899677       3.484993598342448E1    -8.832452323690875E1     1.429263624163830E2
                        -6.622596478069470E1    -1.672658584558567E2    -8.854154356528505E1    -6.507958713704035E1    -8.824125750135822E1    -1.385919673065318      -1.384985229485232       2.843650672339899E1

 5.525225000000000E7    -3.083801973233777      -1.482310027147824E2    -2.986143743409087E1     6.651572410743346E1    -7.241141201958382E1    -1.177867930504331E1    -6.683644028271812E1    -1.667644231382959E2
                        -2.977277206793277E1     6.633667905615799E1    -3.311941995873237E-1    9.416766834222905E1    -8.911859164249421E1     1.680018973004732E2    -8.352774821730631E1     1.447012363224783E2
                        -7.352168455060122E1    -9.270840812551093      -8.267283871274816E1    -1.619644675377394E2    -1.392315448382832       3.487472777214691E1    -8.767072242203702E1    -1.363049465400077E2
                        -6.507897737408888E1    -1.645799346256574E2    -8.008660690354330E1     1.056677260763954E2    -9.309130381267410E1    -1.575231587196524E2    -1.385737174799039       2.843001375483849E1

 5.525250000000000E7    -3.080831188168743      -1.482815174383938E2    -2.978395441098752E1     6.632243544321683E1    -7.156935446742786E1     9.265625832104807E-2   -6.552735608532453E1    -1.645547295828134E2
                        -2.988708521261605E1     6.638750183265084E1    -3.298371259038825E-1    9.416896336451413E1    -8.464845457355231E1    -1.200458141764378E2    -9.448924871961198E1     4.307807098459877E1
                        -7.531582414435816E1    -1.547241140612969E1    -8.854989977692492E1    -1.331685148052754E2    -1.392957135369702       3.487461169870146E1    -9.507560446135403E1     6.591887826326793E1
                        -6.579789534112999E1    -1.709851073296271E2    -9.032226556726528E1    -8.645874288596788E1    -8.917083557985741E1     3.258147024266071E1    -1.381898200699790       2.840782890584249E1

 5.525275000000000E7    -3.080783428560243      -1.482907650962414E2    -2.980603695667243E1     6.688647036399350E1    -7.252603113133958E1    -8.819972194635096E-1   -6.570546200416918E1    -1.569178082484074E2
                        -2.988392316834309E1     6.659298701491098E1    -3.306047747213778E-1    9.413084051043343E1    -8.844273502190619E1     1.349050460416051E1    -8.503379649283359E1     4.918224284518666E1
                        -7.544232335282361E1     6.757532903358120      -9.696553149471274E1    -5.569565900052163E1    -1.391646238347529       3.486702182165910E1    -1.045552674932452E2    -5.654195820237504
                        -6.775713089920743E1    -1.626308665914544E2    -8.493706622064528E1     4.991006740377181E1    -8.699538092834681E1     1.053849877257597E2    -1.378824738162552       2.844258255110491E1

 5.525300000000000E7    -3.090458077926196      -1.483543613987284E2    -2.986125927443006E1     6.682591513167685E1    -7.340995062084646E1    -6.635783743944412      -6.597781324551362E1    -1.595491949087422E2
                        -2.988267944276506E1     6.640081450705571E1    -3.336705414947182E-1    9.412534002602257E1    -8.161296115602673E1     6.570521663890641E1    -8.980337259837378E1     4.225625140842407E1
                        -7.352090579563193E1    -2.372472625138316E1    -9.969661027678539E1    -1.223186115164456E2    -1.391663461259409       3.487197272354611E1    -8.724428277801653E1    -1.058042970337899E2
                        -6.587074916451182E1    -1.695647981024209E2    -9.402174498821807E1     7.603056564133718      -9.048150445356028E1     1.473095870629021E2    -1.383682392126840       2.841758354145976E1

 5.525325000000000E7    -3.091214484998635      -1.483735753292579E2    -2.982061632471942E1     6.716263696159727E1    -7.299353186175081E1    -1.997620897961699E1    -6.662451897417520E1    -1.614903879879588E2
                        -2.987551556684614E1     6.627854608259423E1    -3.291842841541364E-1    9.414119524780494E1    -8.520383673245910E1    -7.924257248893285E1    -9.421238609503105E1    -2.675187310315316
                        -7.233343041515610E1     8.836608392808740      -8.099599450890426E1    -1.811050658974502E1    -1.390394089153705       3.483207884316151E1    -8.496909818751757E1     6.651554319039033E1
                        -6.561599403191545E1    -1.600482970527912E2    -8.083979887178134E1     4.853172889835110E-1   -8.533447138568275E1     1.302665719011583E2    -1.378935311957085       2.842767178551254E1

 5.525350000000000E7    -3.097523574751816      -1.484267333615981E2    -2.987202657744858E1     6.590895842903716E1    -7.166787447857887E1    -3.163620054986149      -6.619187920120530E1    -1.642014544689214E2
                        -2.979686536622761E1     6.587614521585132E1    -3.308663110540772E-1    9.411007655325349E1    -8.616189397704551E1     1.611810353634313E1    -8.835543742674048E1     8.090172800754510E1
                        -7.344372598465367E1    -4.631028411380865      -8.335719416525576E1    -1.699003968490065E2    -1.392890782957003       3.487340900545834E1    -8.210488447200824E1     1.353425535318303E2
                        -6.587420544182015E1    -1.582550804924960E2    -8.951037153043359E1    -9.306947036479424E1    -8.771571929187282E1     7.522816552644822E1    -1.383935659371580       2.840589125559797E1

 5.525375000000000E7    -3.102162292086536      -1.484637230052675E2    -2.983917395554725E1     6.685427859030644E1    -7.080095390615188E1     1.038983606693952E1    -6.529915870229898E1    -1.582810723469085E2
                        -2.976087305032151E1     6.648218684077339E1    -3.314309070215648E-1    9.412058897851532E1    -8.613895836645455E1    -1.393734013564816E2    -8.443103041400053E1    -4.847916112275944E1
                        -7.142778046654034E1    -1.228985161596098E1    -8.454265530343719E1     4.077918935120593E1    -1.387646349632882       3.484207416247983E1    -8.746529719752482E1    -3.388651438505680
                        -6.500799255442998E1    -1.650368298365059E2    -8.532795817914180E1     1.785325308088048E2    -9.080557851749109E1     1.535268721372688E2    -1.380415365366923       2.840658456749992E1

 5.525400000000000E7    -3.105710454503710      -1.485084145891712E2    -2.981680883266267E1     6.630925930851369E1    -7.567848209074785E1    -6.395256343729583      -6.598401897159717E1    -1.635291722040903E2
                        -2.990745545214207E1     6.641090694874370E1    -3.293936009391662E-1    9.414114864096621E1    -9.478873367937469E1    -5.527322575342242E1    -9.532704134554572E1     1.109741332410346E2
                        -7.437489778072967E1    -1.296571702066891E1    -9.546897636777766E1     1.015898193572286E2    -1.391944574969938       3.485766382777170E1    -8.395831059554593E1    -8.105606495127672
                        -6.668802980609205E1    -1.690370421528439E2    -8.403339759143861E1    -1.725419930011394E2    -9.003793832930215E1    -5.928825162861797E-1   -1.381546868056318       2.841738122904072E1

 5.525425000000000E7    -3.114340896742753      -1.485409025676196E2    -2.983066735909672E1     6.688901186150055E1    -7.204104786221929E1    -5.261139567377755      -6.570596725363684E1    -1.672270251149822E2
                        -2.989825239826190E1     6.709187724798181E1    -3.279213247592583E-1    9.410610199490218E1    -8.663606242081612E1     6.258946745051976E1    -9.030750191764119E1     4.182869124775750E1
                        -7.298369816195633E1    -2.198363211376233E1    -8.559666350299503E1    -1.112747527110052E2    -1.390226610055531       3.483668116212896E1    -9.169871843274349E1    -4.079037356638988E1
                        -6.548128244352205E1    -1.664843205942146E2    -8.724932812791516E1     1.775321124369230E2    -1.019096673549454E2    -1.532678240388759E2    -1.383928446616167       2.840073753705691E1

 5.525450000000000E7    -3.117239516453470      -1.486142572913644E2    -2.984717534643695E1     6.626372762251556E1    -7.420453377557240E1     9.691497968450983      -6.613382876713990E1    -1.597384281785350E2
                        -2.995051387797673E1     6.671321470552836E1    -3.278808381351999E-1    9.413675011918087E1    -8.203870562318512E1    -1.783543150321395E2    -8.219955509297763E1     9.061161612658208E1
                        -7.184383244609423E1    -1.193831778082520      -8.202077696176774E1    -1.021465513480951E2    -1.389371809961962       3.480678516536094E1    -9.162411622380270E1     1.471030237592383E1
                        -6.583191952246419E1    -1.619756952143367E2    -8.498323474395394E1     7.505617457914964E1    -8.583487490530823E1     5.325522419663227E1    -1.377740172884925       2.843660296715106E1

 5.525475000000000E7    -3.116621179723631      -1.486688305409637E2    -2.986597949378352E1     6.658725125023878E1    -7.357389518889862E1    -6.205584585926622      -6.557987980006215E1    -1.753378521619546E2
                        -2.986810952172422E1     6.614003833411930E1    -3.289076297136759E-1    9.408731528966804E1    -9.080986961584057E1    -5.953816335659116E1    -8.183045263989371E1     5.945778161562618E1
                        -7.515511199180567E1    -1.000128798402659E1    -8.240627610820735E1     1.545350505316621E1    -1.389600554270743       3.483246142088433E1    -8.505001129193225E1    -6.205420977176671E1
                        -6.594580259964602E1    -1.596336534456051E2    -8.640746220725255E1    -1.110325176725669E1    -8.590186109427775E1    -8.839506435579793E1    -1.380937223907542       2.842013942750987E1

 5.525500000000000E7    -3.124452371955666      -1.487038583052692E2    -2.980367013493700E1     6.679863792720411E1    -7.128066726802943E1    -2.169224316083312E1    -6.558685214480565E1    -1.609887844856926E2
                        -2.985030270550475E1     6.586683221865044E1    -3.285318652372056E-1    9.409718919978818E1    -8.370057254753249E1     1.062268059347283E2    -8.837217865828956E1    -1.196360462356497E2
                        -7.178434522499869E1    -2.051958770081649E1    -8.841623819533902E1    -1.218844799718640E2    -1.394460991765692       3.483410075041329E1    -8.485948173282236E1     8.041992115985383E1
                        -6.596429023043115E1    -1.635294678690471E2    -9.113992713509586E1    -1.150748584191611E1    -8.237202825807550E1     1.010379177398240E1    -1.381739642868169       2.838575933822195E1

 5.525525000000000E7    -3.127829761894104      -1.487279314883700E2    -2.981393187055024E1     6.609785334885834E1    -7.331768567782996E1    -1.418209036644924E1    -6.585058730781059E1    -1.606191036268145E2
                        -2.991754450975037E1     6.677548512845165E1    -3.279452498730844E-1    9.410672454147580E1    -8.787301426724481E1    -7.678269827372317E1    -8.162790952978315E1    -1.352257364461345E2
                        -7.254220048067168E1    -1.012193889718410E1    -8.506100768756524E1     9.031868319663796E1    -1.394576659385241       3.480949915378173E1    -9.905472363354038E1     9.059976035617915E1
                        -6.573069302216416E1    -1.593320735764818E2    -9.958606240150033E1    -5.720298285581609E1    -8.794247814921067E1    -1.726307536934876E2    -1.379661659412469       2.838939141669965E1

 5.525550000000000E7    -3.130972183876394      -1.487688678742144E2    -2.984056723047420E1     6.623559842237918E1    -7.277918814388730E1    -2.765427819215784E1    -6.546924478794773E1    -1.643552699582333E2
