#  HZ   S   DB   R     50.00 
! Rohde & Schwarz Vector Network Analyzer 
! Rohde-Schwarz,ZNB8-4Port,1311601044102961,2.82
! Created: UTC 2/13/2019, 9:32:34 AM
! freq[Hz]                db:S11                  ang:S11                 db:S12                  ang:S12                 db:S13                  ang:S13                 db:S14                  ang:S14
!                         db:S21                  ang:S21                 db:S22                  ang:S22                 db:S23                  ang:S23                 db:S24                  ang:S24
!                         db:S31                  ang:S31                 db:S32                  ang:S32                 db:S33                  ang:S33                 db:S34                  ang:S34
!                         db:S41                  ang:S41                 db:S42                  ang:S42                 db:S43                  ang:S43                 db:S44                  ang:S44
! 
 3.000000000000000E7    -2.725378965652598E-1    1.015171577778433E2    -6.973390734548927E1     2.539489223203340      -8.030303646195706E1     6.831251671427614E1    -8.784850236244114E1    -2.395514430559420E1
                        -7.101939734164081E1     1.164945644515826E1    -2.710191021538394E-1    8.985580108911802E1    -8.366953584989020E1    -1.456237509322417E2    -9.520901778852171E1    -5.250835759921126E1
                        -8.080565658520382E1    -1.534139696066754E1    -8.271952983504569E1    -8.849796058467638E1    -9.293725916475216E-1   -1.141254776666771E1    -8.901502259543111E1     6.431180516720959E1
                        -8.876486123692190E1     1.124643190112028E1    -8.877661747399958E1    -5.436357099250883E1    -8.062870995405341E1    -3.572503575801151      -9.410362877063383E-1   -1.645963547903325E1

 3.002500000000000E7    -2.750636500836372E-1    1.012181244060989E2    -6.943434502594354E1     6.373975378679089      -8.726542170471747E1     1.063876861835479E2    -9.929917351009237E1     1.549610431628336E2
                        -6.953092975090725E1    -2.989141605677560      -2.672830409786548E-1    8.946284292461202E1    -9.064123052503993E1     4.583784681108968E1    -8.705530946540873E1    -5.801688193588366E1
                        -8.147988358300715E1     3.976323216393934E1    -9.506674346366218E1     6.447268958313373E1    -9.300366603225492E-1   -1.174556663164947E1    -9.578641656401759E1     3.259389250458009E1
                        -7.788329761414865E1     1.666963460555546E1    -9.425915918546529E1     1.484965954404328E2    -9.005141995461415E1    -1.799282008749183E2    -9.408898288022771E-1   -1.672096292645820E1

 3.005000000000000E7    -2.769941931970784E-1    1.009365871844906E2    -6.769407053307967E1     8.115840853281460      -9.113691692198351E1    -9.252815879751982E1    -9.983308897781797E1     1.079600360882110E1
                        -6.786796034362914E1     7.485815257729535      -2.710129821747042E-1    8.912364158693700E1    -8.713745579567376E1     8.797837305739934E1    -8.087297110826239E1     9.371128608649094E1
                        -9.074140122324353E1    -1.416581612394367E2    -9.641032208476112E1     1.608749918304772E2    -9.255652891306243E-1   -1.204456547862230E1    -8.279328324050903E1     1.723310968452212E2
                        -9.207204557602427E1     9.285028990516621E1    -8.917197307396343E1    -9.981958384006596E1    -9.104934553180213E1    -7.101422885463863E1    -9.405872078072401E-1   -1.709922677109465E1

 3.007500000000000E7    -2.713675417437926E-1    1.006252169981878E2    -7.043787554189234E1     7.358050281399418      -8.845788467439682E1     4.372382702053618E1    -8.643424030741251E1    -6.051456620601388E1
                        -7.182966250564002E1     1.288146699932447      -2.649117485736237E-1    8.872342252970856E1    -9.382308410780684E1     7.238155150466005      -8.980186768185101E1    -5.300435419980103E1
                        -8.660513221912206E1    -1.693627623630289E2    -9.239721315166740E1     4.734559675032045E1    -9.312713408562370E-1   -1.233942853331880E1    -9.141013108609029E1     1.485127244148555E2
                        -8.182952845633542E1     5.561642606081892E1    -8.046221112151905E1    -8.308709813942893E1    -9.429878944733156E1     8.660546690469559E1    -9.432832296499996E-1   -1.738484007565049E1

 3.010000000000000E7    -2.718580663777847E-1    1.003397159783050E2    -6.819237497570813E1    -5.771199434409767E-1   -8.171321368239701E1     3.861172349447674E1    -8.477507420671611E1    -2.300754196651647E1
                        -6.794980659346069E1     7.860465406162212      -2.740887204525225E-1    8.839440383162609E1    -8.360965130510499E1    -1.468091156164646E2    -9.159394395314629E1     1.483359989150347E1
                        -8.404259838776157E1     1.731550919248281E2    -9.071344135530561E1    -4.737437285109245E-2   -9.260224380992671E-1   -1.264734206869313E1    -9.663207609713537E1     1.597321863394142E2
                        -7.712108926912764E1    -1.634854236159658E2    -9.281699373534173E1     3.391024484023286E1    -9.043349287850643E1    -6.616819436365431E1    -9.409807556874440E-1   -1.770770141180955E1

 3.012500000000000E7    -2.667186812115769E-1    1.000374262739092E2    -6.997154610834683E1     1.076068137760579E1    -8.532373824538881E1     1.624731058743163E1    -8.653684644218102E1    -5.623052663299755E1
                        -6.791675804301758E1     1.058162788389170E1    -2.677694257098474E-1    8.798313998987719E1    -8.342514174626173E1     1.623373774008169E2    -8.824872028787821E1    -8.020379603025668E1
                        -8.396276067651725E1     4.122569995918953E1    -8.809073715498558E1     5.402000629548279E1    -9.292962779928847E-1   -1.292375992558943E1    -8.465388252698126E1     4.797425410359034E1
                        -8.320043392120603E1    -6.483082201850196E1    -9.217524911523485E1    -7.259554596085528E1    -8.632099023323582E1    -1.340572878233241E2    -9.427787691941496E-1   -1.801213358267653E1

 3.015000000000000E7    -2.699784717416046E-1    9.970720386869459E1    -6.798075146671715E1     1.796954092700903      -8.949229313321509E1    -1.516671885069961E2    -8.407617715667611E1    -1.265336884213999E1
                        -7.093986736140033E1     5.703723550521748      -2.707773332729950E-1    8.761785664838402E1    -8.014545325413481E1    -1.040480130338788E2    -8.269044057762235E1    -1.470146477862710E1
                        -9.171714997829614E1     2.319186003713293E1    -8.987930782641325E1     1.152877838777854E2    -9.323396338136737E-1   -1.327521586467157E1    -9.162500676313533E1     1.568493884292051E2
                        -8.537015741108134E1    -1.046579058950952E2    -9.490889740625987E1     1.410022681623595E2    -8.268269667864887E1     1.538379212221501E2    -9.406914567544307E-1   -1.830439297896847E1

 3.017500000000000E7    -2.719281353871524E-1    9.944770154838646E1    -6.757154242307155E1     4.793713196140854      -8.612399748965159E1    -5.426487873048987      -8.852493489893361E1     1.143263821460745E2
                        -6.887319755708221E1     2.271941434270159      -2.657391554517911E-1    8.720820727459763E1    -9.979860946537235E1     5.235800639561527E1    -9.516903062816967E1     5.851769222741019E1
                        -8.427676770810221E1     1.138584409980634E2    -8.935941079101218E1     5.687418751523933E1    -9.283057471740820E-1   -1.357663894676536E1    -9.715687512906411E1     1.033648099238196E2
                        -8.497690544161048E1    -2.603085601213085E1    -8.683747971565749E1     1.454658389504595E1    -8.441512075499577E1    -9.039997565681445E1    -9.361275724744009E-1   -1.861905716254585E1

 3.020000000000000E7    -2.627685761542077E-1    9.914004603988056E1    -6.882105894917703E1     5.241177988321106      -8.090954494173617E1     9.890573169523784E-2   -9.184894743088864E1    -1.572721769995210E2
                        -6.816780897248468E1    -4.854405700020310      -2.649812103666784E-1    8.690569061808978E1    -8.102684833841649E1     3.026005813909650E1    -9.129543183358067E1     6.947762578636345E1
                        -8.449929952611639E1    -4.546216718535748E1    -8.743199840702916E1    -6.984640509287536E1    -9.290622305495445E-1   -1.389324800774528E1    -8.957811235543220E1     1.601226342767978E2
                        -8.949362376315500E1     9.005546050262537E1    -9.030602797476108E1    -1.441813544665660E2    -8.575018457689956E1    -1.716794149637354E2    -9.417142110151650E-1   -1.899346752913800E1

 3.022500000000000E7    -2.726904931394881E-1    9.886341968919911E1    -6.970083768754046E1    -1.635902371334395      -8.521899633116067E1    -5.283540439459396E1    -8.362190917821864E1    -2.249579846319478E1
                        -6.690652949957256E1     6.014809004512850      -2.747271073518862E-1    8.649633709413278E1    -9.562114414011369E1     1.206937466869930E2    -9.310296664339418E1    -1.443668412684581E2
                        -8.346864303448649E1     5.056197943340247E1    -8.514020036022215E1     1.286508720564994E2    -9.251588554048474E-1   -1.418748416634929E1    -8.665203120722671E1     1.468828080908181E2
                        -8.402865847394141E1    -5.890708076507746E1    -9.322614573418085E1    -1.304044983880091E2    -9.101611247574925E1    -1.208403398087456E2    -9.366864882707170E-1   -1.925977876549525E1

 3.025000000000000E7    -2.694079387817455E-1    9.856162045400710E1    -6.868207836320914E1    -3.682035872920078      -7.889883620438937E1    -4.916592286426519E1    -8.586498836941465E1    -8.415346645994683E1
                        -6.868683238298844E1     6.494120422330409      -2.834931816772947E-1    8.614356925471252E1    -9.607811294351674E1     3.632383897478247E1    -7.935154186604501E1    -1.790554348285736E2
                        -8.841712648383547E1    -1.093170960792176E2    -8.504111931118959E1     2.949929236339686E1    -9.296956974841915E-1   -1.451003574329699E1    -9.968135950125067E1     1.145364238662496E2
                        -8.254886836467725E1     1.736336390785863E2    -1.016992455242441E2    -6.946293703403913E1    -8.825700510388528E1     1.143352930074214E2    -9.412171194665295E-1   -1.957200484375558E1

 3.027500000000000E7    -2.626799203241147E-1    9.825554722122706E1    -7.040477101321011E1    -5.565790754032092      -8.478605923108833E1     8.672983544409698      -8.578219771576244E1     7.504034292725451E1
                        -6.935569057997368E1    -5.919756008873179      -2.645849452291058E-1    8.574483940827084E1    -9.601182162507699E1    -7.606218819196820E1    -8.176352061928262E1    -9.817298428571664E1
                        -8.254200374783032E1     1.470732260898598E2    -8.334795116499747E1     1.544612170656614E2    -9.228017387074043E-1   -1.477886999687433E1    -8.608728293196855E1    -5.703276028386618E1
                        -8.326880359401858E1    -6.644050974630287E1    -1.043569304399789E2     3.131969275340066E1    -9.220857830122807E1     9.093254250197579E1    -9.437835974595664E-1   -1.989925700226005E1

 3.030000000000000E7    -2.745668616945741E-1    9.800480362879030E1    -6.825146642660295E1     2.464666424698408      -8.770451597953753E1    -6.852547649244988E1    -8.599076481378226E1    -4.524833489806182E1
                        -6.877079419152359E1     6.582168168392614      -2.730692448159571E-1    8.541827762740861E1    -7.987825702561598E1    -4.639079037606718E1    -8.269578210725285E1    -1.505958713101297E2
                        -8.501898490227994E1     1.018281207568751E1    -9.868146435482888E1     1.156608344028588E1    -9.269393193353672E-1   -1.506710161283388E1    -8.520853555010061E1     8.966853658881966E1
                        -9.487805071288011E1    -2.566161677862683      -8.181668836110505E1     1.387791006071362E2    -8.809519857216003E1    -1.439366915239113E1    -9.423793114660329E-1   -2.020715006206777E1

 3.032500000000000E7    -2.726266622373622E-1    9.767117385074941E1    -6.761843107682731E1     5.992072422879801      -8.162846431469659E1     2.629162792525712      -8.985762199086828E1    -2.932715847880879E1
                        -6.941454908102497E1    -5.858117540832984      -2.641356841713053E-1    8.499079123362473E1    -8.624173163135492E1    -3.468865106496098E1    -9.367741226294308E1    -1.377379311258428E2
                        -8.177889681307498E1     1.224594632035691E1    -8.936710401198745E1     7.384108904910714E1    -9.300586136814369E-1   -1.543210676535468E1    -7.809209764066256E1     9.426816236046638E1
                        -8.827024297088862E1     1.561059597687571E2    -8.335238101230864E1     1.218535326976115E2    -8.244024656544735E1    -2.743258727200739E1    -9.425199194647758E-1   -2.057304015567421E1

 3.035000000000000E7    -2.642642710752018E-1    9.739503092783160E1    -6.873874284161596E1    -3.267066733418245E-1   -9.029171726649814E1    -1.787524597735715E2    -8.795069738550888E1     1.276221995867067E2
                        -6.754265361921195E1     1.261154893434236E1    -2.608936261839090E-1    8.464254534066114E1    -8.889198878588684E1     8.288083199001972E1    -8.169340063809426E1     6.567323450635318E1
                        -8.665893235379494E1    -1.446005807260963E2    -8.552051737309017E1     1.232298783509540E2    -9.309366215874302E-1   -1.570940991237373E1    -8.505784739824470E1     1.053725988646992E2
                        -8.496630715931060E1     1.152666479292465E2    -9.319979723473189E1     8.012406477502063E1    -8.455072600914293E1     6.256546716385306      -9.406808621950205E-1   -2.084680225117504E1

 3.037500000000000E7    -2.659759025874217E-1    9.707635886591382E1    -6.778796993094591E1     5.408494092143391E-1   -8.719676562610135E1    -1.297289969669148E2    -9.111880940786547E1    -1.654904403632995E2
                        -6.774407183144095E1    -7.664601306805793      -2.698867894394065E-1    8.424136396038770E1    -8.280868833295556E1     1.442017658715866E2    -9.521347988450515E1     1.338604718012044E2
                        -9.523452333009718E1    -6.083705676811816E1    -8.299909506452663E1    -1.093698918587796E2    -9.292177998978832E-1   -1.601629128858281E1    -8.458107191094112E1     1.274838352372473E2
                        -9.001369566734020E1     2.540443210746997E1    -8.089187298065113E1     9.392592414833304E1    -8.747077164867902E1     1.374564065050465E2    -9.330613656039556E-1   -2.113491957544075E1

 3.040000000000000E7    -2.587229396875885E-1    9.678696019498453E1    -6.991386448006880E1    -1.831341445778113      -8.392873182337246E1    -1.234067759836055E2    -8.588282589942173E1     1.251179908439492E2
                        -6.729122235400834E1     1.901084455819935      -2.736644339031784E-1    8.387712780021477E1    -9.127645181446214E1    -4.566943962253219      -8.314672304664683E1    -7.050955892037770E1
                        -9.156197799422579E1     8.568511286004235E1    -9.059766058690661E1    -1.665228680645332E2    -9.252536425566822E-1   -1.631383118618035E1    -8.422638725288434E1    -7.362542978503004E1
                        -9.609178408984568E1     1.111386497514596E2    -9.594847750347519E1    -3.626345221029594      -9.013747075897487E1     9.781548141467681E1    -9.361057973346174E-1   -2.150903061200868E1

 3.042500000000000E7    -2.625150665935477E-1    9.653661996690778E1    -6.730947413219651E1     1.364744079126552E-1   -8.297441925583800E1     9.425124348101561E1    -9.135591824596945E1     6.690691435124346E1
                        -6.742444070858484E1    -7.018674168304936      -2.695387795183484E-1    8.351440614740301E1    -9.203270474103128E1     2.605633045016835E1    -8.573237061990538E1     1.526783924017983E2
                        -8.040495611869275E1     9.744487858706165E1    -8.028893670051113E1     1.564145087322294E2    -9.353230925083009E-1   -1.663264003688962E1    -8.436116372281157E1    -5.690693607521465E1
                        -8.559686525760853E1    -1.422155025140619E1    -8.183645296875470E1    -1.141537207085409E2    -8.295977423725714E1     5.437731157976434E1    -9.399668296447554E-1   -2.180002789501864E1

 3.045000000000000E7    -2.622616851780361E-1    9.620002729638208E1    -6.727429659814825E1    -7.267992752158962      -8.584797134755945E1     4.276320955679297E1    -8.618335237009076E1     9.939514580259896E1
                        -6.735494796661162E1    -5.432457530737501      -2.691168718839908E-1    8.303015639166466E1    -8.916050429983331E1    -7.367801754509797E1    -8.029829628709179E1     1.358007828615674E2
                        -8.134955930776302E1    -1.012791073027195E2    -8.344492776547125E1    -1.023741846628152E1    -9.270465473945959E-1   -1.691617439491949E1    -9.183306257461054E1     1.331471372481722E2
                        -8.917567983354401E1     1.038794619110220E2    -8.898709985545503E1     1.669237258213543E2    -8.235380367566515E1    -1.280375512165955E2    -9.410232982899857E-1   -2.207597897308818E1

 3.047500000000000E7    -2.673258751328927E-1    9.592588488041517E1    -6.755156699533625E1     6.616066134201807      -7.718082757012603E1     1.004231141129348E2    -8.020251863041105E1     8.556631538077710E1
                        -6.766335759091520E1     8.229029782527272      -2.675289907742314E-1    8.274396177366400E1    -8.211756586251818E1    -1.231368484885560E2    -8.457619509359043E1     1.239956674603366E2
                        -8.866016547432670E1    -1.039577581050771E2    -8.598750109138169E1    -1.310905141596662E2    -9.299547699643442E-1   -1.721372260589495E1    -8.223738305728654E1     7.971710024805392
                        -8.833665563414611E1    -6.723492916515829E1    -8.640312340175848E1    -1.655286838415249E2    -9.023348596296272E1    -1.738510120173156E2    -9.413642916553240E-1   -2.240156495774914E1

 3.050000000000000E7    -2.615178938696843E-1    9.563062821918970E1    -6.814829284703012E1    -3.415954141732202      -9.289229544386259E1    -1.155041010738784E2    -8.261119742785724E1    -6.504496376568807E1
                        -6.763651368576107E1     1.010051606067465E1    -2.639462513832681E-1    8.230755412612788E1    -9.020288923617289E1     6.891236883586559      -8.641136367573330E1    -7.134268518617313E1
                        -8.074729198403590E1    -9.917858717612120E1    -8.745854553920496E1    -2.432351173863454E1    -9.283366027327824E-1   -1.753463133217670E1    -9.558334771199867E1    -2.129168482588485E1
                        -8.633832292380687E1    -1.254032883968554E2    -9.025845686851257E1     9.922187598300232E1    -8.991381971235842E1     1.879604725683076E1    -9.420178715578320E-1   -2.272438298665814E1

 3.052500000000000E7    -2.624637545519225E-1    9.534597976659867E1    -6.726099691871757E1    -1.250051299105752      -8.526408283497270E1     1.172103743931589E2    -9.247952599555148E1    -8.887712176128858E1
                        -6.640891857601829E1     4.763992437070713      -2.686271158282034E-1    8.199202526595003E1    -8.386370744241857E1     6.832582408360398E1    -8.643708189167467E1    -5.276887047414123
                        -8.836812939570572E1     1.758826259071248E2    -8.694383839761034E1     3.088215285025773E1    -9.325303434534450E-1   -1.778516833525566E1    -8.086796342310791E1    -1.735008312672905E2
                        -9.061671717886742E1    -9.904417109694616E1    -9.824372209775410E1     1.336727171462213E2    -1.009632392019621E2    -9.018562663538870E1    -9.455758046729034E-1   -2.304290731734632E1

 3.055000000000000E7    -2.569520530191270E-1    9.499361860218022E1    -6.888781841803687E1    -1.237479028615752E1    -8.127378538125178E1     3.631243534258138E1    -8.305302874964774E1     1.642028532986200E2
