#  HZ   S   DB   R     50.00 
! Rohde & Schwarz Vector Network Analyzer 
! Rohde-Schwarz,ZNB8-4Port,1311601044102961,2.82
! Created: UTC 2/12/2019, 1:26:48 PM
! freq[Hz]                db:S11                  ang:S11                 db:S12                  ang:S12                 db:S13                  ang:S13                 db:S14                  ang:S14
!                         db:S21                  ang:S21                 db:S22                  ang:S22                 db:S23                  ang:S23                 db:S24                  ang:S24
!                         db:S31                  ang:S31                 db:S32                  ang:S32                 db:S33                  ang:S33                 db:S34                  ang:S34
!                         db:S41                  ang:S41                 db:S42                  ang:S42                 db:S43                  ang:S43                 db:S44                  ang:S44
! 
 5.675000000000000E7    -4.600169087453198E-1   -1.340958261347948E2    -2.872635614380907E1     6.037731992769920E1    -9.002314448996569E1     1.017831760155740E1    -6.699721748690068E1    -1.500155250922415E2
                        -2.874469449316724E1     5.967819427873428E1    -2.518543049833559E-1    7.518892484175819E1    -1.038164161651635E2    -3.323529631837338E1    -9.283331207035531E1    -1.177889137791265E1
                        -8.523334930100836E1     1.201303908821258E2    -8.265268507191975E1     1.445548673828506E2    -1.368392371807644       2.423983116507002E1    -8.418333633544282E1     1.525190152636403E2
                        -6.739602104304848E1    -1.504999999105201E2    -8.539854540978317E1     8.632711748029971E1    -8.223837031286799E1    -4.733509260312421E1    -1.373406444433736       1.730361603563519E1

 5.675025000000000E7    -4.642905305731720E-1   -1.341026241601680E2    -2.862911442999739E1     6.026011707933446E1    -8.192257775674349E1     1.703105696643566E2    -6.805139223263582E1    -1.426019158726256E2
                        -2.874301572681921E1     5.981557067393099E1    -2.437727337617139E-1    7.515535305315871E1    -7.860431901859150E1    -1.698261780348542E2    -9.285588326885701E1     1.496379117677724E2
                        -8.222692035037457E1    -1.157510257059584E2    -8.569729804181299E1    -1.753893576123959E2    -1.368903012000861       2.424676964208464E1    -8.267826041656221E1     1.187785716981731E2
                        -6.721312624975768E1    -1.467047685592765E2    -9.743618550683026E1    -1.206402027127340E2    -9.986782363777090E1     1.754189666658855E2    -1.370599913197743       1.733074343003802E1

 5.675050000000000E7    -4.621507823627138E-1   -1.341605493865560E2    -2.864939220216833E1     6.028011743697925E1    -8.566017199717305E1    -6.233664750732266E1    -6.819269622376984E1    -1.530614202623251E2
                        -2.877595376260826E1     5.977120344691299E1    -2.462140551788822E-1    7.519476698876237E1    -8.625621332944476E1     1.288614496256247E2    -8.978013152328701E1    -4.182484021946902E1
                        -8.475881188517590E1    -1.143139799354142E2    -9.208143591028693E1    -9.643909321574880      -1.368381201788218       2.423408035932845E1    -8.135481805467335E1    -8.996521383332588E1
                        -6.689366964968259E1    -1.495268949759170E2    -7.990320947606352E1    -5.908320193706314E1    -8.238022342083225E1    -1.440449907625533E2    -1.370790106696626       1.733937046012108E1

 5.675075000000000E7    -4.648430978312273E-1   -1.341741332830949E2    -2.869572178893926E1     5.978863110954768E1    -8.121509308036335E1    -2.164021359054617      -6.809624337400952E1    -1.525729492215049E2
                        -2.873130337379296E1     6.002665443142278E1    -2.511028444949383E-1    7.514834165546688E1    -8.820819596217446E1     5.226713087429022E1    -8.395015177343881E1    -1.171141440049210E2
                        -8.930213223901687E1     1.242328082223874E2    -9.210679735865158E1     8.111121489210296E1    -1.365715348252834       2.424002731859141E1    -8.470615717299080E1     1.252409421239871E2
                        -6.616600675113519E1    -1.529840423637765E2    -8.567869789199904E1    -8.799670966521241E1    -8.957248431813150E1     1.284798054657194E2    -1.369355835995537       1.731384056220141E1

 5.675100000000000E7    -4.612300561505495E-1   -1.341999976816458E2    -2.875563180774535E1     6.039922336911741E1    -7.952707790789205E1    -1.107579378891907E2    -6.761480426275035E1    -1.447300135297009E2
                        -2.875019175638538E1     5.970858417488238E1    -2.514326780526237E-1    7.518166166274857E1    -8.697511370246875E1     6.820054736443217E1    -9.159791560611208E1     8.023929709938146E1
                        -8.169327680942553E1    -8.504993119226485E1    -1.057123249445753E2    -5.538669414289090      -1.368348401303607       2.421923885532683E1    -8.487940350979423E1     1.147581705582933E2
                        -6.812016451060417E1    -1.569704403652502E2    -8.114560908401280E1     9.475262836924686E1    -1.002501501974059E2     7.449118042146856      -1.366817277706538       1.730819879767488E1

 5.675125000000000E7    -4.641425474766848E-1   -1.342206706178638E2    -2.876538475795233E1     5.974567981444735E1    -8.650581240182957E1    -1.772431832628978E2    -6.729546629273432E1    -1.559061583513833E2
                        -2.882811766220320E1     5.980771377031979E1    -2.472600692604024E-1    7.515525230685292E1    -7.904582065943228E1    -3.964518731899946E1    -8.817362471207814E1     1.468443107984620E2
                        -7.973155936070148E1    -1.559822834785230E2    -8.462251249999000E1     7.903995925889002E1    -1.365925780929851       2.423856114487665E1    -9.996082802405843E1    -1.510858906061425E2
                        -6.662399696528382E1    -1.539311423129203E2    -8.385276376850709E1     3.995745853772061E1    -8.629527500149897E1    -1.060202511898414E2    -1.368465521528064       1.730903682330807E1

 5.675150000000000E7    -4.640076790861132E-1   -1.342696993164907E2    -2.878921143369034E1     5.997990646891913E1    -8.018807277767576E1    -5.705123872168141E1    -6.747763639631873E1    -1.523986525412616E2
                        -2.873734262538159E1     6.057723867353079E1    -2.484097096436097E-1    7.517135127595083E1    -8.289045822357889E1     5.971962347426182E1    -8.539066576848194E1     6.564201471582257E1
                        -7.783211267200345E1    -1.334402362998427E2    -8.170396773588968E1     3.412273225112870E1    -1.363295935328175       2.423480945090888E1    -8.235254990846539E1     1.243531828101084E2
                        -6.653293886586779E1    -1.521972090862225E2    -8.335329398448350E1    -1.019215036156763E2    -8.402234424702630E1    -7.539157864473623E1    -1.369778499346972       1.728124309112593E1

 5.675175000000000E7    -4.634831032376638E-1   -1.342893349077493E2    -2.870195922478811E1     5.996726371974795E1    -1.006890341445306E2     1.431116968815645E1    -6.730782057244093E1    -1.516244136133153E2
                        -2.870421835255544E1     6.043575397235465E1    -2.513608862244699E-1    7.514628411430682E1    -7.881119888496545E1    -1.160546825974138E1    -8.109906576820094E1    -1.239313188443756E2
                        -8.196210346845322E1    -1.426619096962966E2    -8.578719807650265E1     6.179817234587539E1    -1.363963080059288       2.423384974915426E1    -8.447398197526186E1    -1.269262087488891E2
                        -6.778349404210603E1    -1.504851711892875E2    -9.059023384676918E1     1.015825360485709E2    -8.802146740029146E1     3.947554164912678E1    -1.368015834017250       1.730389885251458E1

 5.675200000000000E7    -4.654387385517682E-1   -1.343029783021923E2    -2.873587868926864E1     6.025287696231062E1    -8.891282447553058E1    -1.517685151350462E2    -6.619518762821413E1    -1.530842244232295E2
                        -2.870852503448312E1     5.949799178342219E1    -2.531496308309384E-1    7.512489449573202E1    -8.047009438463114E1    -1.668026210941603E2    -9.853056070342619E1    -1.671153104052113E2
                        -8.716636571275177E1    -1.227572836905716E2    -8.307428818422848E1     1.768702649927011E2    -1.364498252587723       2.423071570618594E1    -8.585959830513156E1     8.757812353905634E1
                        -6.714284575324764E1    -1.434596085936020E2    -8.402275951630179E1     2.167696760344043E1    -8.418263050766790E1     1.779417790405845E2    -1.370813210480067       1.727032161382044E1

 5.675225000000000E7    -4.658306385877197E-1   -1.343220910470880E2    -2.872593651090116E1     5.993627702044989E1    -8.853848680515208E1    -6.583731597213139E1    -6.761276415898233E1    -1.522465600488173E2
                        -2.873212714143277E1     5.979854178686495E1    -2.514466072522060E-1    7.512683427850561E1    -8.735853172065882E1    -1.281196182169445E2    -8.014632915450198E1    -4.393161603709153E1
                        -8.888518551828173E1    -1.059181740519503E2    -8.104525883373208E1     5.562812753173753E1    -1.363745442367137       2.421723069558708E1    -8.923388167674392E1     1.724601024581282E2
                        -6.787585094474079E1    -1.565819780963064E2    -8.573990157157709E1     9.194581850478480E1    -8.626049551769449E1    -1.469500691808934E1    -1.369166793311681       1.728822613016066E1

 5.675250000000000E7    -4.651480802578202E-1   -1.343513295280435E2    -2.870775281362565E1     5.995412351958679E1    -8.558505278678906E1    -1.247713624153559E2    -6.749949788328452E1    -1.603487895961466E2
                        -2.882803795955536E1     6.025324296971489E1    -2.468644658986452E-1    7.509070221439224E1    -8.754284522451835E1    -5.605375971873094E1    -8.288963362974799E1     1.733296612865989E2
                        -9.133375356399107E1     1.580352079779062E2    -8.471073054972453E1    -1.051320599607774E2    -1.365655366249462       2.420506900845613E1    -8.609032688930171E1     1.707695809437371E2
                        -6.791004468090377E1    -1.587227613558197E2    -9.529653752763467E1     9.101367787299616E1    -8.951729500616730E1    -1.170840767366950E2    -1.371914731315614       1.728803289279056E1

 5.675275000000000E7    -4.685688394024028E-1   -1.343709201534883E2    -2.867435616216219E1     5.955227804881925E1    -8.329857058380571E1     1.728847079083392E2    -6.719820850746670E1    -1.477429131819542E2
                        -2.874019685702349E1     6.024888792337316E1    -2.487685843774912E-1    7.512093930353028E1    -8.414916386649327E1    -9.589575846750188E1    -8.077463832371812E1     1.166591765213175E2
                        -8.340971568442373E1    -1.091126136766423E2    -8.473724326891454E1    -6.746195836378756E1    -1.363587084623683       2.421059837692274E1    -9.690706157335686E1     8.140930483011019
                        -6.784729825276172E1    -1.579442244700899E2    -8.421912824850205E1     1.785118183237949E2    -8.927026247724402E1     1.596919301030847E2    -1.369221522571838       1.728212225832163E1

 5.675300000000000E7    -4.689668198812227E-1   -1.343708525676548E2    -2.876755983191822E1     5.997465988584903E1    -8.015608166354815E1    -1.337533587624127E2    -6.703551418045950E1    -1.503346188554144E2
                        -2.876312106329509E1     6.033885886867742E1    -2.481917591463462E-1    7.515423969380751E1    -9.047633236916072E1     6.907884594657303E1    -8.141734613811676E1    -1.201771502889959E2
                        -9.146333676555315E1    -1.658333079565616E2    -9.256777349090685E1    -6.887901292859638E1    -1.362788751174831       2.423117733078719E1    -8.625261134795170E1    -3.442357136579786E1
                        -6.611609941625616E1    -1.523117971572563E2    -8.673495070326189E1     1.981999552816336E1    -8.850761381981315E1     6.702674644907968E1    -1.367109564043866       1.728541106155980E1

 5.675325000000000E7    -4.679341895112385E-1   -1.344237313894680E2    -2.872609957163565E1     5.985894527365743E1    -7.948618948977467E1     1.587079166957363E2    -6.678075900653164E1    -1.469811094297629E2
                        -2.870203812831019E1     5.973716765211775E1    -2.505587671465712E-1    7.512338429261270E1    -8.306748330748241E1    -1.359210081406768E2    -8.743143155862907E1    -1.703192506205539E2
                        -8.466015025267970E1     1.642960256917201E2    -8.811974769492181E1    -1.189676520542991E2    -1.370080182485613       2.418982304364461E1    -8.858762057522115E1    -4.805498032958333E1
                        -6.740002836190223E1    -1.547754923281274E2    -8.261680794733287E1     2.743910143792643E1    -8.659788011709148E1     1.606413370310046E2    -1.373104393661465       1.725678786350346E1

 5.675350000000000E7    -4.707570055930986E-1   -1.344522373116308E2    -2.870089543087030E1     5.972803282125945E1    -8.037802862046593E1    -8.138904824791263E1    -6.617995054615867E1    -1.520083857064452E2
                        -2.874009467695680E1     5.984253628397727E1    -2.439271164646309E-1    7.511762181537392E1    -8.394221563721672E1    -1.395129917205555E2    -7.742644220874217E1     6.482258587232960E1
                        -8.707160333166739E1    -6.283938153827022E1    -9.490821795730881E1     1.356633971355776E2    -1.366893749284175       2.419040729199907E1    -8.760603558924375E1     7.557748303770936E1
                        -6.786660772672380E1    -1.493190506237598E2    -8.299934362316574E1     7.023680581472520E1    -8.404694311064176E1     1.324392500187932E2    -1.369844145991517       1.728855055998505E1

 5.675375000000000E7    -4.639604374162527E-1   -1.344674782504750E2    -2.868745932843715E1     5.990698456074421E1    -9.140725853988502E1     4.788593463667778E1    -6.758408163462940E1    -1.585320458188280E2
                        -2.875872694400701E1     6.034973203871687E1    -2.503040584369761E-1    7.509446582249862E1    -8.407131669030929E1    -6.945529378373433E1    -9.235392522921870E1     1.724292247628969E1
                        -8.584956904123807E1     1.665130111297778E2    -9.177837631792076E1    -4.924008835606974      -1.369248871344699       2.418758643624701E1    -9.568592583648845E1    -5.843675296841741E1
                        -6.784451311726174E1    -1.394119266903720E2    -8.065075277982253E1     6.306458217964553E1    -9.176844926469441E1    -9.451448298373320E1    -1.367609418370950       1.730040242435880E1

 5.675400000000000E7    -4.642969153874921E-1   -1.345147292904284E2    -2.876449869848113E1     5.938672469515383E1    -9.422165932880434E1    -4.372802261226948E1    -6.769331756330510E1    -1.472730272387739E2
                        -2.876934468118763E1     5.989204804526005E1    -2.480959681119717E-1    7.514495605502881E1    -8.410587913328291E1     1.455069706061928E2    -8.161757274015658E1     1.134211567937975E1
                        -8.003287045857975E1     1.739945254449037E2    -8.986721126447897E1     6.395847612316839      -1.361105673912320       2.420251250795685E1    -8.229812178958957E1     8.346475206028741E1
                        -6.695429919818055E1    -1.538516547429011E2    -8.597776061932609E1    -1.056499740302239E2    -8.583720198001792E1     6.856804092210449E1    -1.364673357497097       1.725256966756557E1

 5.675425000000000E7    -4.675284213591575E-1   -1.345510670921410E2    -2.872131527338127E1     6.016952716777467E1    -8.234559300874999E1    -9.880812694295403E1    -6.654094312033426E1    -1.489420936599787E2
                        -2.876802228254774E1     6.008602465826971E1    -2.521336615084722E-1    7.512273132633132E1    -8.452257563812137E1     1.636476712378920E2    -8.198331016290882E1     6.127490830368805E1
                        -8.354828672967498E1    -6.693720351520992E1    -8.170499212720706E1     1.058030223769363E2    -1.358235647522246       2.423673420941145E1    -9.248393430757156E1     2.625273360846159E1
                        -6.854907452816498E1    -1.609565647077820E2    -9.175249264722622E1     1.428657119222686E2    -9.588285681931424E1     1.360104252465563E2    -1.366680138143003       1.728111408583755E1

 5.675450000000000E7    -4.643687563758612E-1   -1.345246364143102E2    -2.872969094036140E1     5.975573185529553E1    -8.937900133088490E1     9.166588644412909E1    -6.739491598186243E1    -1.498988090175769E2
                        -2.879808923239359E1     5.915944423247152E1    -2.513248236944378E-1    7.506474321027058E1    -8.265096536146386E1     3.208893838873505E1    -8.107511309045242E1     1.072360434569206E2
                        -8.853079423701939E1    -8.581222052226387E1    -8.539917282598246E1    -1.897184822539750E1    -1.361343996104619       2.419878019047870E1    -8.727347179466220E1    -5.984694691433143E1
                        -6.729702183950514E1    -1.494439019064302E2    -8.200062972662980E1     1.781413030386854E2    -9.831444832960440E1    -1.138297942281525E2    -1.368819741820447       1.730678940070450E1

 5.675475000000000E7    -4.640678762639735E-1   -1.345708863185077E2    -2.871564934642535E1     5.995793455113167E1    -8.517374917099863E1    -4.601644350876302E1    -6.888698022640725E1    -1.486918309984516E2
                        -2.866267688543795E1     5.952810063061230E1    -2.497309343410181E-1    7.506144250816722E1    -9.960845877602004E1    -1.658159409020255E2    -9.259475152524304E1     6.320438398234428E1
                        -1.006988590547949E2     1.273159371007144E2    -8.590149865891200E1    -3.137373665343991E1    -1.360166024123961       2.419635001878554E1    -8.641255907980849E1    -4.009514497878930E1
                        -6.925527124535992E1    -1.471961831466481E2    -8.560532247600889E1     8.310664621712512E1    -9.730420383998455E1    -6.818493544509290E1    -1.368817712594766       1.731042057068384E1

 5.675500000000000E7    -4.664955463723001E-1   -1.345924165447318E2    -2.864709162941371E1     5.971869939742808E1    -8.409950972158495E1    -7.890242359677781E1    -6.794732517378095E1    -1.494735123357594E2
                        -2.871530306765347E1     6.027630646260403E1    -2.506507211767688E-1    7.503568340659069E1    -8.524748957576854E1     1.608575602791718E2    -8.010132550660160E1     8.966309062064563E1
                        -9.633718795693825E1    -7.115409436991833E1    -1.033310677916597E2    -9.645144191712883E1    -1.366039087310264       2.418096706942898E1    -8.396350551603746E1     3.097202072004655E1
                        -6.762271134189740E1    -1.440261788880036E2    -8.457552832315642E1     4.822962214976740E1    -8.338912906644261E1    -9.929277784787682E1    -1.367247528370065       1.725898263189334E1

 5.675525000000000E7    -4.678604547420577E-1   -1.346468695437812E2    -2.883783126078608E1     5.976537999830003E1    -8.399057144367401E1    -5.970705162618526E1    -6.702808392256824E1    -1.556755085370709E2
                        -2.874702083175860E1     6.073152835079431E1    -2.544706231325334E-1    7.510974300395095E1    -8.685559790123561E1     7.722283576391959E1    -9.339283658994646E1    -9.011148726576893
                        -8.441027270428377E1    -2.058723910338788E1    -8.569487382305276E1    -9.404705264570285E1    -1.368131478972896       2.418571668263420E1    -8.488926855452577E1     6.465694316246724E1
                        -6.756323226972553E1    -1.536511044115943E2    -9.607745958826244E1     1.002270882549003E2    -9.089690634259361E1     5.194446933536226E1    -1.370407160882500       1.724356842936252E1

 5.675550000000000E7    -4.676932288834118E-1   -1.346490743582527E2    -2.873322370011369E1     5.977759382696721E1    -8.568382360957253E1    -1.458578987773884E2    -6.867111427782376E1    -1.529208087613393E2
