#  HZ   S   DB   R     50.00 
! Rohde & Schwarz Vector Network Analyzer 
! Rohde-Schwarz,ZNB8-4Port,1311601044102961,2.82
! Created: UTC 2/12/2019, 11:07:52 AM
! freq[Hz]                db:S11                  ang:S11                 db:S12                  ang:S12                 db:S13                  ang:S13                 db:S14                  ang:S14
!                         db:S21                  ang:S21                 db:S22                  ang:S22                 db:S23                  ang:S23                 db:S24                  ang:S24
!                         db:S31                  ang:S31                 db:S32                  ang:S32                 db:S33                  ang:S33                 db:S34                  ang:S34
!                         db:S41                  ang:S41                 db:S42                  ang:S42                 db:S43                  ang:S43                 db:S44                  ang:S44
! 
 4.775000000000000E7    -2.718675339648013E-1    6.345357590462061E-1   -3.086912905824378E1    -1.439048937895096E2    -7.245284141421708E1    -2.727720175076852E1    -8.367904862609069E1    -8.188307787061130E1
                        -3.090365963763535E1    -1.437991822513206E2    -3.115515161508418E-1   -1.093005473320200E2    -8.714251231142777E1     1.251338521561858E2    -8.528456424769505E1     1.030027866707084E2
                        -7.133449887344824E1    -2.108588779179069E1    -9.062553705250102E1    -6.259658325086601E1    -1.431717346161201       1.315560466807555E2    -8.341613281441300E1     8.717994622268056E1
                        -8.583276335288603E1     1.397885568261645E2    -8.515719291598644E1    -1.797753449838766E2    -8.922657551208994E1    -3.424059580265797E1    -1.377929896041997       1.260536119505562E2

 4.775025000000000E7    -2.676298679844450E-1    6.152949480316744E-1   -3.088665929034054E1    -1.445063943951651E2    -6.955104546563756E1    -3.956873105792207E1    -8.049505466313333E1    -3.662904809835882E1
                        -3.096736423876184E1    -1.437934733467619E2    -3.102449539575179E-1   -1.093052305725891E2    -8.824391755965428E1     2.547748988496076E1    -8.636714029493282E1     3.914745059635859E1
                        -7.292867165241661E1    -2.934727743210501E1    -9.398632713024567E1    -9.959089837412471E1    -1.434754147477342       1.315771560192285E2    -8.301794775514757E1     6.295979122886391E1
                        -9.031156348494555E1     3.980964242906658E1    -8.926469367442913E1     1.956214331779541E1    -8.286136841072738E1    -5.271819982777354E1    -1.381277623254001       1.260671138204809E2

 4.775050000000000E7    -2.658792748837141E-1    6.059869856753936E-1   -3.085913384633685E1    -1.437338934991582E2    -6.980681684817340E1    -2.385908823789180E1    -1.034844837993182E2     5.306958255083359E1
                        -3.087559308794927E1    -1.440038279778603E2    -3.058823417648851E-1   -1.093550402116124E2    -8.425534885334507E1     1.014169064296664E2    -8.179854436845810E1     7.223641194584811
                        -7.131734464282377E1    -3.110089681190107E1    -9.508027199273492E1     7.877503397204045      -1.432343071713111       1.315346029735834E2    -8.468709268720323E1     4.768337044297940E1
                        -8.631348816818266E1    -2.881563874904449E1    -9.517218124228498E1     3.502551681771742E1    -8.952429340829343E1    -1.351545837494080E2    -1.372923868074839       1.260379434762265E2

 4.775075000000000E7    -2.665000846315896E-1    5.849237272580282E-1   -3.079683373009747E1    -1.449998392704199E2    -6.848780086634726E1    -2.536396493774308E1    -9.229493119179759E1    -1.321788526537356E2
                        -3.085227148655331E1    -1.442249854214993E2    -3.136370805706713E-1   -1.093326713874511E2    -8.648776560700406E1     1.980857655527148E1    -1.033772296474260E2     2.005383160362118E1
                        -6.986738940047739E1    -2.890626789529205E1    -9.510809072702557E1    -1.389208590067400E2    -1.436316126079103       1.315704003810782E2    -9.327335095281116E1     1.500149379936131E2
                        -8.362295845552140E1    -5.274292485120485E1    -8.818517700490830E1     1.548554810721208E2    -8.190060615900782E1    -1.591358825895120E2    -1.380375152859987       1.260735263032403E2

 4.775100000000000E7    -2.702041843947740E-1    5.450845590408598E-1   -3.071572778320685E1    -1.439661730971914E2    -7.189109910709576E1    -1.589139234202447E1    -9.550497032962073E1     3.585112965553528E1
                        -3.089465373051825E1    -1.444199924094240E2    -3.072212673168363E-1   -1.093710285541840E2    -8.144178093387920E1    -3.569239013432424E1    -8.760610788043793E1     1.685098496221429E1
                        -7.204604294779723E1    -2.313094539875100E1    -8.597695493694258E1    -1.091959345257341E2    -1.436379685658350       1.315380373025344E2    -9.488407252908779E1    -4.663378342713433E1
                        -8.920701694885315E1    -8.368805214141361E1    -8.173023570165131E1     4.404692712760294E1    -8.426142579362009E1     1.296161286460974E2    -1.380672641726856       1.260625545666084E2

 4.775125000000000E7    -2.707044184660015E-1    5.548972899520250E-1   -3.084331780339211E1    -1.443394241197269E2    -7.207858335104794E1    -2.008420562204415E1    -8.795510555666075E1    -7.664448951201433E1
                        -3.095527873772195E1    -1.443066304499397E2    -3.039121956608882E-1   -1.093817521990814E2    -9.600104760414205E1     9.732100592400766      -9.299821690397315E1    -7.133232346171862E1
                        -7.080757598101700E1    -2.134280707804437E1    -8.942837059026161E1    -6.805677257056254E1    -1.432853697109248       1.315612335743201E2    -8.748302825520855E1     1.249423966559690E2
                        -8.977778315016136E1    -2.760254794163968E1    -9.221148951785307E1     4.792292991275796E1    -8.955662300626281E1     5.790884908149637E1    -1.381881553465522       1.260804710291588E2

 4.775150000000000E7    -2.679361057781062E-1    5.675689955844171E-1   -3.088365323910992E1    -1.438884563550245E2    -7.313362917130574E1    -3.978868214503073E1    -9.519006271812691E1     1.408404487975183E2
                        -3.090662479786591E1    -1.440008820386337E2    -3.090024547974919E-1   -1.093758792282563E2    -9.047821842316895E1     4.638838879002331E1    -8.291961697377187E1    -8.873172224033729E1
                        -7.131309816255848E1    -1.644165977766896E1    -8.834957408692581E1     1.738138316314459E2    -1.433504489652234       1.315531162904149E2    -8.847592487451287E1    -1.553129546326917E2
                        -8.693503946897516E1    -1.120460320537195E2    -8.580288307598218E1     5.868245490638385      -8.928846451263475E1     1.188486099117641E2    -1.375164554957453       1.260425837744001E2

 4.775175000000000E7    -2.702003692604150E-1    5.133990560488859E-1   -3.081854422014154E1    -1.443300829618651E2    -6.861102062616773E1    -2.883245208515666E1    -9.091262826422977E1     4.269774315789640E1
                        -3.100338300047482E1    -1.440483005896618E2    -3.131267458111592E-1   -1.093561648256050E2    -8.792285716736302E1     5.369181099084300E1    -8.505489838842431E1    -8.957182580378979E1
                        -7.179917481697225E1    -2.130848192242587E1    -8.673497465587832E1    -1.263079423246207E2    -1.431849149445911       1.315672347183134E2    -8.107929532627819E1     1.175949280137848E2
                        -9.247613095623910E1    -1.269687639912944E2    -8.258381133301035E1     1.046087410990816E2    -8.736524536242712E1     1.487610055638561E1    -1.375780372399278       1.260146541842788E2

 4.775200000000000E7    -2.713163415483377E-1    4.864152789345202E-1   -3.085581186002116E1    -1.446391009091112E2    -7.148659855468569E1    -1.847829639335783E1    -8.901017370541379E1     1.754914954501888E2
                        -3.096632198229239E1    -1.440110837089818E2    -3.123342704774849E-1   -1.093833865818729E2    -9.146493618471696E1    -2.976171761778439E1    -8.825574744389250E1     1.778832815820430E2
                        -7.074427237588321E1    -2.618243751676006E1    -9.610608750514543E1     1.301069261491417E2    -1.434552248314970       1.315687088742883E2    -8.569100359563726E1     8.040114190558366E1
                        -9.988718026858903E1    -1.340333335544817E2    -8.759704296832427E1     9.525948013642453E1    -8.946827887106443E1     8.354169961181992E1    -1.383957804029424       1.260643446338662E2

 4.775225000000000E7    -2.660230482601802E-1    4.668292752484446E-1   -3.087239279739279E1    -1.444146225277077E2    -6.930364475318581E1    -2.404840590481356E1    -8.262986522457445E1    -1.630775616999834E2
                        -3.091610206348402E1    -1.440576596177455E2    -3.105650649823915E-1   -1.093789803842591E2    -8.428494359329237E1    -7.279154669047634      -9.380841031119709E1    -1.650710170536778E2
                        -6.950969199075921E1    -2.648542707112583E1    -8.178211457414184E1    -4.234308844114069E1    -1.434484291120115       1.315540239119630E2    -8.203969793935423E1    -7.619926477758246
                        -8.359049002304603E1    -2.998405858963471E1    -8.171612689982943E1     1.151065440254472E2    -9.741874527457185E1     1.490192422950442E2    -1.379051538209453       1.260485034758969E2

 4.775250000000000E7    -2.678393529875372E-1    4.943621867179420E-1   -3.087728140844890E1    -1.446236508699974E2    -7.093088284726994E1    -2.875231509914644E1    -8.411347236616098E1     1.898211678292366E1
                        -3.092107959431978E1    -1.443696570936262E2    -3.057471734618098E-1   -1.093876593412632E2    -9.449560827530527E1     8.942942589237198E1    -9.485432561054857E1    -2.453053784723296E1
                        -7.046488665031937E1    -2.940732491010751E1    -8.930507811298428E1     9.445589962408199E1    -1.435266098595638       1.315523976260891E2    -1.006493527744887E2    -9.252654445001978E1
                        -8.266586149419732E1     5.573518413546778E1    -8.730800583206448E1     1.222406664997842E2    -8.800531717184056E1    -5.169102708485850E1    -1.377522255271432       1.260481358066535E2

 4.775275000000000E7    -2.666764155368180E-1    4.411798057720536E-1   -3.091160246610107E1    -1.446845234081048E2    -7.134021662468057E1    -2.535471041818978E1    -8.208257033501738E1     6.999507436539770E1
                        -3.083490626058940E1    -1.444032469866746E2    -3.160725157193148E-1   -1.093820538312831E2    -8.303563341164470E1    -1.030225725548433E2    -8.181682351430410E1     1.317576236232308E2
                        -7.100652946854335E1    -2.769994212562942E1    -1.027832981404182E2     3.210825127611539      -1.432780508110630       1.315399081386677E2    -8.903236268893407E1    -1.751739171213834E2
                        -8.866409532025635E1     9.798137396422754E1    -8.896865707407484E1     8.105414607852991E1    -8.267698715893735E1    -1.434503015298149E2    -1.376181075810593       1.260444659445234E2

 4.775300000000000E7    -2.621380767566434E-1    4.344009806487136E-1   -3.087761823822237E1    -1.444056847642136E2    -7.107436294628869E1    -1.964212453617448E1    -9.416584950690668E1    -5.884788568760380E1
                        -3.094454222628634E1    -1.438294202537273E2    -3.026970653129320E-1   -1.093778749188422E2    -8.713915341159216E1     6.632068656742858E1    -9.090134446872793E1     1.471378972492032E2
                        -6.971344996273334E1    -3.482312162228771E1    -8.306837283754888E1    -6.846672130695871      -1.431221543447258       1.314953937337872E2    -8.787121395588223E1     6.316777363498788E1
                        -9.567641708775602E1    -3.364076596610492E1    -9.504744845920185E1    -1.339773353934214E2    -8.941583865266611E1     4.940728422264203E1    -1.377514807505450       1.260497820504488E2

 4.775325000000000E7    -2.694401974772760E-1    4.300684842647916E-1   -3.079428429971490E1    -1.442158258490745E2    -7.335733810285579E1    -3.067906211959057E1    -1.008717352441355E2    -1.731410876416381E2
                        -3.087674396079708E1    -1.437056654256708E2    -3.103730645130012E-1   -1.094004190048908E2    -8.180496438183579E1    -2.729215519671952E1    -8.304822310409728E1    -1.589344954146414E2
                        -7.045713508873567E1    -2.849305160952933E1    -8.845816275987107E1     9.257045121788746      -1.430728928430668       1.315425059890901E2    -8.414570166630384E1     9.066740356450936E1
                        -8.924807850700574E1     2.220282743590661E1    -8.237899266384068E1     6.999401437034400E1    -8.285996110145644E1    -5.532018414121284E1    -1.375667432243574       1.260505118305532E2

 4.775350000000000E7    -2.662148443044466E-1    3.832421378201971E-1   -3.083012773494071E1    -1.442830764271372E2    -7.021277693334423E1    -2.588508318799168E1    -8.714535670451102E1     6.995093724523112E1
                        -3.086741646392913E1    -1.448255579238876E2    -3.035291621950359E-1   -1.094109585135649E2    -8.563781859616350E1     1.036408011412475E2    -9.021407453397389E1     8.237564181986753E1
                        -6.850032944792164E1    -2.184240308067188E1    -8.541674997997745E1    -1.234449040618051E2    -1.433953069333405       1.315238280879590E2    -8.075727525806386E1    -8.007237007789269E1
                        -8.422071580448585E1    -5.831680781791975E1    -9.939444162502110E1     1.354864103773586E2    -8.469656620686649E1    -3.203131767576402E1    -1.376435627232723       1.260333531033893E2

 4.775375000000000E7    -2.675042326580174E-1    3.665643364261308E-1   -3.086599679545486E1    -1.447953583059019E2    -7.324576979564327E1    -5.912053343350148      -8.896858264887783E1    -8.188012091180691E1
                        -3.099708122968380E1    -1.444756432720621E2    -3.100493599746825E-1   -1.093960018920402E2    -9.150821547136941E1    -1.127301482063602E1    -8.877482008325154E1     1.258668901382296E2
                        -7.070331032306423E1    -7.512141848329780      -8.266740594357687E1     1.656561867573186E2    -1.429970887146103       1.315232937631825E2    -8.667803613697811E1    -1.711832581665062E2
                        -9.022129674986239E1     2.890852751086679E1    -9.585075046393904E1    -9.520225340855632E1    -8.454246904890839E1    -9.113021180922134E1    -1.379269532826286       1.260331037777785E2

 4.775400000000000E7    -2.685976900572762E-1    3.747710423329790E-1   -3.080957132621682E1    -1.446924161258202E2    -6.845942157689970E1    -1.554812994615479E1    -8.344708919138348E1     1.120586595844050E2
                        -3.095584134190600E1    -1.436586430768064E2    -3.086678805374667E-1   -1.094158851752390E2    -8.464925615553929E1     1.011603745315845E2    -9.120871283939790E1    -1.688903085603898E1
                        -7.235358231619540E1    -1.992232414957993E1    -8.005099116345342E1    -7.899273844999881E1    -1.430369277216656       1.315183544580615E2    -8.680324030148874E1    -8.408750683407250E1
                        -8.121630404788013E1     6.346017200586363E1    -9.114154473641291E1    -1.799329114490237E2    -8.112549771733733E1    -1.393002047686195E2    -1.378648831313148       1.260260588741738E2

 4.775425000000000E7    -2.694513759964238E-1    3.466771789680403E-1   -3.088701965822484E1    -1.446213856744495E2    -7.039516033791345E1    -2.040317451172983E1    -8.665203892682114E1     6.435990460866064E1
                        -3.086370361219980E1    -1.447096267253744E2    -3.106893679819070E-1   -1.094269783697644E2    -8.705685296176803E1    -1.210000218327138E2    -8.145069538274868E1    -1.553767352695671E2
                        -7.080767066739755E1    -2.759088759160364E1    -9.139055858853253E1     1.234675536799688      -1.432397968685120       1.314798613038996E2    -9.801166591238601E1    -1.576678388796263E2
                        -9.315552707908650E1    -1.430449108886380E2    -8.415556519089243E1    -9.640562945263659      -8.637940637179753E1     8.411936902170010E1    -1.378229723003537       1.260380516804011E2

 4.775450000000000E7    -2.652255008200828E-1    3.151777812611791E-1   -3.085105686101054E1    -1.446586928241800E2    -7.089293706887037E1    -2.696423856424407E1    -8.381736498507749E1     9.495300719459500E1
                        -3.086362110539484E1    -1.437104848436716E2    -3.128111024925807E-1   -1.094048455756973E2    -8.100394768801831E1     2.702934950799944E1    -9.992429266451157E1     4.200915353200931E1
                        -7.074608392117723E1    -2.876362250042801E1    -9.100855119745359E1     3.206148878312940E1    -1.433864009198671       1.315170513470538E2    -8.221286347733228E1    -3.057581820345600E1
                        -9.085028692515178E1    -4.913980158119277E1    -8.310155610148999E1    -1.427936214389600E2    -1.060341378624560E2     5.034053504391361E1    -1.379339965770412       1.260188869784701E2

 4.775475000000000E7    -2.653340328646858E-1    3.199443581442151E-1   -3.092131728712686E1    -1.446771927441268E2    -7.076176919674801E1    -1.248269440835295E1    -8.293800009547759E1    -2.792016890819641E1
                        -3.081035924259066E1    -1.442473355049943E2    -3.093502345533534E-1   -1.093959646081156E2    -8.950724700553452E1     1.189812381361472E2    -8.298689757688906E1     1.516934481671093E2
                        -7.078186187112931E1    -2.277022928956166E1    -8.244472220881653E1     2.985047183097327E1    -1.431839476448062       1.315025535363523E2    -8.319096687830451E1     1.589169152481824E2
                        -8.902625747723917E1    -1.459466235020349E1    -8.243741207032920E1     1.683072623114133E2    -9.027575617472527E1     6.326325665323118E1    -1.380203228870594       1.260375758977663E2

 4.775500000000000E7    -2.658082374787183E-1    2.714440896324851E-1   -3.096013828205848E1    -1.444936654915630E2    -7.183057985962327E1    -2.732337382645052E1    -8.435317385786293E1     1.273869680914881E2
                        -3.086119840373687E1    -1.443324177597383E2    -3.105576580175206E-1   -1.094044144831251E2    -9.033703766493289E1    -9.638300830241028E1    -7.998628482232718E1    -4.631801908801891E1
                        -7.218889306374292E1    -1.636540169628677E1    -9.056320568920393E1    -1.309610107139747E2    -1.428005443302811       1.315405577820594E2    -8.370102751259084E1     1.529825971220489E2
                        -8.870695539405055E1    -2.639464444130868      -8.068659860214736E1     1.163213625255472E2    -8.634918669881350E1    -1.265886802141942E1    -1.379125471412621       1.260043844803838E2

 4.775525000000000E7    -2.694169728162449E-1    2.822020700331715E-1   -3.090225005431089E1    -1.446127830372730E2    -6.944302493042659E1    -3.148802072685191E1    -7.826834245399277E1    -2.896600123332363E1
                        -3.090522147243072E1    -1.440844972756524E2    -3.130921001723641E-1   -1.094135838853519E2    -8.630834667486668E1    -1.140031816764350E2    -8.397223847739795E1    -1.273526590892974
                        -7.139492242935123E1    -2.499283248192575E1    -9.142639529043350E1     1.214382207898251E2    -1.434718141003671       1.315121698597183E2    -8.379752003529751E1     8.534019454515774E1
                        -9.469336548485862E1     6.250021505850788E1    -9.084043525929783E1     1.594033010720185E2    -8.801753049666807E1     1.514335033487666E2    -1.376089819274337       1.260022373064697E2

 4.775550000000000E7    -2.708755177544374E-1    2.503501313744366E-1   -3.095796138663716E1    -1.438507607310459E2    -7.291159343184479E1    -7.652442267243333      -9.972668563411867E1    -1.175083890789050E2
