#  HZ   S   DB   R     50.00 
! Rohde & Schwarz Vector Network Analyzer 
! Rohde-Schwarz,ZNB8-4Port,1311601044102961,2.82
! Created: UTC 2/13/2019, 9:55:32 AM
! freq[Hz]                db:S11                  ang:S11                 db:S12                  ang:S12                 db:S13                  ang:S13                 db:S14                  ang:S14
!                         db:S21                  ang:S21                 db:S22                  ang:S22                 db:S23                  ang:S23                 db:S24                  ang:S24
!                         db:S31                  ang:S31                 db:S32                  ang:S32                 db:S33                  ang:S33                 db:S34                  ang:S34
!                         db:S41                  ang:S41                 db:S42                  ang:S42                 db:S43                  ang:S43                 db:S44                  ang:S44
! 
 3.000000000000000E7    -2.721940467040945E-1    1.015223639166578E2    -6.907690770282001E1     1.537505875617779E1    -9.512315220914003E1     3.888250981778647E1    -8.351812247306397E1     9.459409313894841E1
                        -7.000993744525064E1     1.045018991078897E1    -2.716106132356755E-1    8.991400447279956E1    -9.608170240654212E1     1.135743626480693E2    -8.735401215228160E1     1.190780549374816E2
                        -8.780759122125113E1    -1.739428550051404E2    -8.329902411100602E1     9.160135677712569E1    -9.309418982083195E-1   -1.141054694069552E1    -7.935127445985708E1     8.275197027532093E1
                        -9.549842872239199E1     6.758974337829945E1    -1.056619029313208E2    -4.761304416120940E1    -1.057962512150695E2    -9.713091480774777E1    -9.371084004179408E-1   -1.642789409413707E1

 3.002500000000000E7    -2.748154546748865E-1    1.012615018165631E2    -6.845794481712429E1     8.358164905061123      -8.614695925940099E1    -1.535767058095620E2    -8.099610105868756E1    -1.124410396895428E2
                        -6.881406312506351E1     1.576749986448620E1    -2.784272058424177E-1    8.955219541189045E1    -8.995142609788098E1    -7.367744706845484E1    -7.982122456680789E1     5.901759559289302E1
                        -8.471821994908723E1    -1.036700908480693E1    -8.402761483113027E1     3.120360809376824E1    -9.271577939250929E-1   -1.174165140160689E1    -9.330719730710534E1    -6.030272213596619E1
                        -8.374084757873975E1     1.225877235227467E2    -8.150246409043356E1     1.502924724109029E2    -7.924767748523055E1    -1.105071056832750E2    -9.398830292905369E-1   -1.676701692726797E1

 3.005000000000000E7    -2.783910325986199E-1    1.009558636456641E2    -6.782200363323527E1     7.398265709511203      -8.222544419950344E1    -1.134489890245573E1    -8.237932534505526E1     6.163642249747053E1
                        -6.965346151318553E1     5.803311609636781E-2   -2.685727107953909E-1    8.916783726375165E1    -8.612793047600246E1     1.186791120121670E2    -8.839174284625251E1     7.008427283021200E1
                        -9.118373550579941E1     1.648821904859456E2    -8.990170222774891E1    -6.857506815683433E1    -9.331055609544332E-1   -1.200952081964881E1    -8.266965869493794E1    -1.387052592325046E2
                        -8.645422042861783E1     1.311984971642232E2    -9.233107300452870E1     1.031377432320960E2    -8.945594651431219E1    -7.075010750373498E1    -9.382580253103180E-1   -1.709518942815891E1

 3.007500000000000E7    -2.753871887167261E-1    1.006399354794251E2    -6.796857693838480E1     1.153696811508871E1    -9.444087028004151E1    -8.614586449107070E1    -8.450539272437119E1     1.063040889294329E2
                        -6.935630623340724E1     1.981884226368192      -2.726780157766505E-1    8.876589335901045E1    -1.125065794873733E2    -1.279068442536888E2    -7.915614228488704E1     8.797857194237980E1
                        -8.470176290827479E1     1.492504807853240E2    -8.348424609978045E1    -9.462683699614651E1    -9.283809611021289E-1   -1.236344696106734E1    -8.371447388052206E1    -1.421710930740196E2
                        -8.378970169217627E1     1.008362250792535E2    -8.807780125225654E1    -1.133836746447724E2    -8.219136151617660E1    -5.135003864271447E1    -9.396241270390865E-1   -1.738811951116103E1

 3.010000000000000E7    -2.765335818652091E-1    1.003722631446164E2    -6.765911277534482E1     1.765771590208095E1    -9.252691374283920E1     7.548297270868113      -8.672890117530073E1     7.406024345028710E1
                        -6.826265637382535E1     8.792239193924011      -2.703642196685610E-1    8.840377221956939E1    -8.947343090872180E1    -1.494718781921099E2    -8.502285836170299E1     8.815040622621810E1
                        -8.713151731311116E1     6.896821585988862E1    -8.071632302239898E1     1.135529084689391E2    -9.249512438157213E-1   -1.263740950780221E1    -8.590924368821726E1    -6.047796889705553E1
                        -1.084024024857615E2     1.241391031195388E2    -8.849522365306270E1     1.261901877934892E2    -1.053981809244038E2     1.426422375905518E2    -9.412345105017597E-1   -1.768544720365581E1

 3.012500000000000E7    -2.702721548152460E-1    1.000401237346786E2    -6.825488687637751E1     1.114174489343657E1    -8.323978809175662E1    -6.996843677197435E1    -8.503036580664988E1    -1.727803272724586E2
                        -6.686720430431612E1     1.196715692724402      -2.701270912409701E-1    8.807058252094781E1    -8.936717281104600E1    -5.562917666941387E1    -8.478319705143036E1     1.026497411527389E2
                        -8.555831487628838E1     3.477920953512133E1    -9.558110748002528E1     4.349636127114232E1    -9.279347309617292E-1   -1.295288269586352E1    -8.708538019872208E1    -4.933706056053897E1
                        -1.191229144119667E2    -1.389686386985516E2    -8.940833803837930E1     1.345182803400073E2    -8.763892468016466E1    -3.176439904903359E1    -9.425997652266632E-1   -1.804060804709889E1

 3.015000000000000E7    -2.762625063466015E-1    9.976032458673549E1    -6.738988104903704E1     1.139636015757271      -9.135739287099045E1     1.649371111790547E2    -8.323758373988865E1     1.386179162342786E2
                        -6.828343252262030E1    -1.756790178339929      -2.771102597104730E-1    8.770433259632705E1    -8.665461115519472E1    -1.485647087963981E2    -8.479773595996015E1     2.550922041402879E1
                        -9.151154720011370E1     1.058297025063290E2    -8.432125643680419E1     1.298585124794818E2    -9.344490004031079E-1   -1.324928389631358E1    -8.584298088254286E1    -9.203785133682182E1
                        -9.391816348976590E1    -1.088601947797755E1    -8.409994419250725E1    -1.380418582714221E2    -8.786295611698694E1     1.183706861775950E2    -9.412716514016228E-1   -1.830421060493186E1

 3.017500000000000E7    -2.709389934046972E-1    9.944401819707895E1    -6.668274015159683E1    -7.856268670527999E-1   -8.526161109341317E1    -1.595759385488327E1    -9.305942460818292E1     1.189149852045631E2
                        -6.759266694539163E1     7.940723332993662      -2.682808230142207E-1    8.724148345040830E1    -1.129557889161580E2     1.293799500759542E2    -8.942476935564115E1    -1.268261237260322E2
                        -9.561389878671150E1    -8.143056641160986E1    -8.266732755829275E1    -1.525390142478917E2    -9.238098059981350E-1   -1.360988083510741E1    -8.445615779813460E1     6.947699958859437E1
                        -9.300068270468725E1    -1.961504926025351E1    -9.633578875329400E1    -5.003553287185815E1    -1.008755681332024E2    -2.276718925025395E1    -9.364206619255180E-1   -1.865273837220912E1

 3.020000000000000E7    -2.765322032328354E-1    9.919950133094187E1    -6.889671257176408E1    -1.143475586436964      -8.179531656426889E1    -3.946034300058982E1    -8.010798409261895E1     1.696633116871619E2
                        -6.857154480496038E1     3.768773664626702      -2.656090434684608E-1    8.694173264033223E1    -8.410708057642545E1    -1.499082511970236E2    -8.784808640029688E1    -1.486221015787923E2
                        -8.496234261094503E1    -1.011286564560255E2    -7.982548175383897E1    -5.801531370660719E1    -9.260806072602578E-1   -1.387938251945114E1    -9.086233555741487E1     1.232576434880766E2
                        -7.868820456170781E1    -1.182964604424970E2    -8.267560569496362E1    -1.690141424079539E2    -9.801640291855129E1     1.357483498013890E2    -9.371493701487749E-1   -1.899040306676780E1

 3.022500000000000E7    -2.770082784366191E-1    9.885954036137612E1    -6.736879452192778E1     2.072398241901513      -8.239889735581664E1     8.454508400582620E1    -8.982968993810987E1     9.072925015865637
                        -6.774259387838397E1     9.613967921110728      -2.675416533154278E-1    8.658314787877148E1    -8.865473973013957E1     1.712521488780116E2    -8.596211181370654E1     1.240720629094311E1
                        -8.891304203817293E1     1.368691954506740E2    -8.308795384179689E1     3.479152695758754E1    -9.304105377338148E-1   -1.417369432895389E1    -8.150620127788805E1    -2.636954081187393E1
                        -8.728652288845923E1     7.745102223038637E1    -8.614939348121041E1    -5.005146797763491E1    -9.338226615314429E1    -1.080063787236619E2    -9.413124372315546E-1   -1.923881096374246E1

 3.025000000000000E7    -2.707244230618495E-1    9.857631802516568E1    -6.833465198266343E1     1.721904121375136      -8.940044792722729E1     6.093820765954475E1    -8.391211026519665E1    -1.441837273114973E2
                        -6.949817947696599E1     2.648270670333492      -2.761749074453293E-1    8.616517920793822E1    -8.369950166954919E1     2.858846851085544E1    -9.740471138842663E1     7.313437601632873E1
                        -9.534544000140970E1    -1.091378601436975E1    -9.918063076453221E1    -6.507924608238176E1    -9.254402247086886E-1   -1.449830703403390E1    -7.780541659131171E1    -1.148124811755858E2
                        -8.405410840147013E1    -1.379596582711747E2    -8.950342100099229E1     1.279083504029064E2    -9.321772266354759E1     1.731392550892549E2    -9.457989788854365E-1   -1.960920743167002E1

 3.027500000000000E7    -2.651606884498985E-1    9.830815867405684E1    -6.755788831543387E1     8.019413869408108      -8.285823366845867E1     7.351988362347110E1    -8.666436665877805E1    -1.052047713541010E2
                        -6.686688970142646E1    -2.356314419543721      -2.576612677602261E-1    8.577237167788893E1    -8.552178678164455E1    -7.217048126827163E1    -9.122316821584208E1     1.728038144962353E2
                        -8.273305596626022E1    -1.382878494175858E2    -8.442203579805562E1     1.442187817342657E2    -9.276014138014642E-1   -1.481919843394594E1    -8.202449882674617E1     1.273225849107946E1
                        -8.127601773283757E1     5.126285451020982E1    -9.057830580996635E1     1.775327324537662E2    -8.496260370732028E1    -1.298453842264848E2    -9.401879375274207E-1   -1.988455075121371E1

 3.030000000000000E7    -2.741067512176741E-1    9.800282207208214E1    -6.745980971540642E1     9.840897868368448E-1   -1.026689040272108E2    -1.341333830094775E2    -8.292075369707737E1    -1.282945306774447E2
                        -6.811351484977041E1     6.541752862879172      -2.770447907226646E-1    8.545154384702404E1    -9.667575861478397E1    -1.543110737007247E2    -8.801622728377771E1    -5.168108272157665E1
                        -8.900667426544169E1    -9.868784087434442E1    -8.642899968931079E1    -1.708224295068808E2    -9.277576535088884E-1   -1.512102580666570E1    -8.635096477848276E1    -5.954427994377965E1
                        -8.713189949398647E1     1.762469893502110E2    -8.682022553408575E1     1.438378523989346E2    -8.635151703019082E1     8.656383776188024E1    -9.386189563164156E-1   -2.020750670943761E1

 3.032500000000000E7    -2.693323793676224E-1    9.772079370263862E1    -6.682171317806277E1     4.020770699709841      -8.952723880357902E1    -2.630335308168844E1    -8.477642068089830E1    -1.196945254296970E2
                        -6.926531061034721E1     7.545987688948995E-1   -2.637739349397108E-1    8.503929791176070E1    -8.313337557722147E1     1.542353820757134E1    -8.364954652234917E1    -7.089704964758761E1
                        -8.260628008091486E1     6.188323644236513E1    -8.535324105906429E1    -2.328790474366291E1    -9.313888055969382E-1   -1.541246755183359E1    -8.785716231117448E1    -1.220709727542911E2
                        -9.458429243750985E1    -1.670178961206604E1    -7.991372361682143E1    -1.482798800567943E2    -1.012898762349522E2    -3.934949222473416E1    -9.364038725325954E-1   -2.051433308265122E1

 3.035000000000000E7    -2.660747820021866E-1    9.746729962878092E1    -6.792412187341984E1     2.368296825639428      -8.451787889190985E1     1.287019300802318E2    -8.695998636055258E1     9.610392366816971E1
                        -6.784604665570660E1     6.201742869558717      -2.635510037621757E-1    8.462918259251909E1    -8.615854289478669E1    -6.425952216065888E1    -8.141633666528419E1    -6.692684280979483E1
                        -8.762807767803113E1    -1.074769392604170E2    -8.313753547611972E1     1.655963866892020E1    -9.281564560360074E-1   -1.573357617358377E1    -8.625579184997901E1    -3.914049328539621E1
                        -8.447135584247090E1    -9.203593439591774E1    -9.102874080336468E1    -1.762835359897123E1    -8.779492112441633E1     3.910242683135532E1    -9.407211494558021E-1   -2.082225082076084E1

 3.037500000000000E7    -2.659525332035662E-1    9.712716980790752E1    -6.850765255577039E1     4.614332311664862      -8.048336728295959E1    -3.373843606929260E1    -9.303307769744282E1    -1.703655260385263E2
                        -6.777527411457297E1     8.188526364153731      -2.712497123884873E-1    8.429009029298071E1    -9.233535158541672E1     2.163837721938885E1    -8.138692043287797E1     1.502406236942596E1
                        -8.579773291585136E1     1.034102456918304E2    -8.400428514433057E1     1.319246012080771E2    -9.327205295129997E-1   -1.600226302866781E1    -8.911912821605969E1    -8.148158113012794E1
                        -8.612856703879088E1     1.070549720704423E2    -1.010779908846340E2    -1.690107693648805E2    -9.753650188529576E1    -1.009466844206101E1    -9.403441743157968E-1   -2.116775689922519E1

 3.040000000000000E7    -2.641337870362400E-1    9.681694184201855E1    -6.982013457013052E1    -3.348228103595627      -8.332523210707016E1    -4.808831209518161E1    -7.803344711393349E1    -5.818510597943316
                        -6.712687134226800E1    -1.801714266620179      -2.672984826660493E-1    8.388284745438342E1    -9.142824370796126E1    -4.961366903597901E1    -8.175386861986075E1     9.317656965921755E1
                        -9.397013685149850E1     2.314973278184139E1    -8.409462484827351E1     6.122306825657743E1    -9.350982598492065E-1   -1.633060228731387E1    -8.186334879206392E1    -5.557510047131675E1
                        -8.659620014019734E1    -8.696586967386061E1    -8.816110847950810E1    -1.731910681799811E2    -9.410934797364989E1    -4.354325728287810E1    -9.423979711930614E-1   -2.147962177225085E1

 3.042500000000000E7    -2.648398406543259E-1    9.652464472143704E1    -6.904505269133084E1     5.555378747411824      -8.177901736925044E1    -1.299953889516749E2    -9.257143614593474E1    -8.434639072430298E1
                        -6.704166891814194E1    -1.424077021370742      -2.645411900730739E-1    8.356151047147731E1    -9.230688354896196E1    -1.802298672592435      -8.736680538438984E1    -5.732854961834332E1
                        -8.668665464228323E1     7.642891536045163E1    -9.184572227693069E1     1.622587398624294E2    -9.260061600670959E-1   -1.667246734495206E1    -9.268764188965221E1     6.158933499768900E1
                        -8.435318159728750E1     9.512741229807403E1    -8.982524391226632E1     1.015890982996601E2    -8.216713561066072E1     2.728645239385348E1    -9.366554294486827E-1   -2.177791786817410E1

 3.045000000000000E7    -2.678019582884251E-1    9.621848631090242E1    -6.812815192570450E1    -2.495718957013648      -8.714602256533480E1    -1.758450197568791E2    -9.109188063836643E1    -8.800621016961376
                        -6.749320160486940E1    -3.770112697378152      -2.683181937327130E-1    8.310643533244246E1    -8.656017446463059E1     6.134058457648597E1    -8.663836910406106E1    -4.107440648433933E1
                        -8.113175771533059E1     1.068438137294884E1    -9.681132537424446E1    -8.313635884022180E1    -9.259022366463801E-1   -1.691455311673297E1    -9.233430023759379E1    -7.123329318930767E1
                        -8.875182335045280E1     1.749858521815129E2    -8.774201487204130E1    -3.905015466596836E1    -7.906739452850775E1    -1.110917305300348E2    -9.435120187069125E-1   -2.210743108954878E1

 3.047500000000000E7    -2.685911861392251E-1    9.594645811765849E1    -6.669327250704134E1    -6.488078802442161      -8.002061240621731E1     1.000603016676666E2    -8.147547538359090E1     1.586378843726917E2
                        -6.645731025782477E1    -3.453577759084566E-1   -2.629288291554685E-1    8.275567107001352E1    -8.767804916993825E1     4.635309356450512E1    -8.683125855359691E1    -6.596338347871010E1
                        -8.036826220430656E1     1.431801506026036E2    -8.375280896305733E1     1.646365113667797E2    -9.334300684455965E-1   -1.722756289771108E1    -8.692893319238149E1     1.682244226221293E2
                        -8.720617538654595E1    -3.501222103635478E1    -8.623517393779193E1     1.171090828293414E2    -7.956840979619454E1     5.121175440548298      -9.463264059638903E-1   -2.239019884272752E1

 3.050000000000000E7    -2.721836603584922E-1    9.565112172327413E1    -6.825818144687636E1    -1.871749005619247      -8.268716616704636E1    -5.587524839593901E1    -8.187908813482994E1    -1.780381519395439E2
                        -6.763444725409948E1     6.475854024911300E-1   -2.543595375704045E-1    8.236392113146580E1    -8.631378711121654E1    -1.106484325769442E2    -8.490593559739536E1     1.069439472096899E1
                        -8.234021315783872E1     1.612585845427206E2    -9.642809716600215E1     1.525156134809198E2    -9.319839651170936E-1   -1.754170821401061E1    -9.501951195989982E1     5.673586364482924E1
                        -8.330519002020529E1    -1.506212035367810E2    -8.574354637576313E1    -7.192383431734069E1    -8.442667647578028E1     3.277029579858577E1    -9.423872023002182E-1   -2.272744851946738E1

 3.052500000000000E7    -2.650379710059867E-1    9.535987315311500E1    -6.813401232349884E1     1.157673516401994      -8.217728528314885E1    -8.927092894562243E1    -8.702575556429858E1    -1.270273977148531E1
                        -6.868977233334564E1    -1.374375895510588      -2.624840562348275E-1    8.204548266531964E1    -8.671761480069100E1    -3.549673196194092E1    -8.688701625818641E1     3.720047939282003E1
                        -8.757291429473555E1    -4.627965192103071E1    -7.972281810035072E1     1.492984730947570E2    -9.228857707489235E-1   -1.783764546467816E1    -8.629002464019615E1     8.343914220734636E1
                        -8.114798239503608E1    -1.551266620585845E2    -8.697138179797830E1    -3.024839606008598E1    -8.269324760008547E1    -5.091032581626676E1    -9.362679996891681E-1   -2.305076933641380E1

 3.055000000000000E7    -2.620501900223213E-1    9.505266825546195E1    -6.823742766759614E1    -4.348763651955716      -8.161519392802985E1    -1.162211688437393E2    -9.771659733799952E1    -1.616359331607201E2
