#  HZ   S   DB   R     50.00 
! Rohde & Schwarz Vector Network Analyzer 
! Rohde-Schwarz,ZNB8-4Port,1311601044102961,2.82
! Created: UTC 2/12/2019, 11:35:41 AM
! freq[Hz]                db:S11                  ang:S11                 db:S12                  ang:S12                 db:S13                  ang:S13                 db:S14                  ang:S14
!                         db:S21                  ang:S21                 db:S22                  ang:S22                 db:S23                  ang:S23                 db:S24                  ang:S24
!                         db:S31                  ang:S31                 db:S32                  ang:S32                 db:S33                  ang:S33                 db:S34                  ang:S34
!                         db:S41                  ang:S41                 db:S42                  ang:S42                 db:S43                  ang:S43                 db:S44                  ang:S44
! 
 4.775000000000000E7    -2.344405543845066E-1    4.315364746304786E-1   -3.008565838665744E1    -1.448849801924481E2    -9.835496546477599E1     7.159574785533344E1    -7.109757505495726E1    -2.412138521669445E1
                        -3.011563624191458E1    -1.441350359382901E2    -2.882774408937128E-1   -1.092084467029064E2    -8.707585734766811E1    -5.325377803078757E1    -9.411355519198180E1    -1.449645650279568E2
                        -8.743233857208435E1    -2.062436125092626E1    -7.889865514654956E1     5.686141103785909E1    -1.435711949213538       1.315215380393803E2    -8.669899479825051E1    -2.131960570107869E1
                        -7.084467865878169E1    -3.599337328586955E1    -1.002489228679589E2     8.503117470504705E1    -8.869247878146405E1     6.477377895498802E1    -1.375559278669780       1.259375618980913E2

 4.775025000000000E7    -2.341658694920448E-1    4.059130221154539E-1   -3.010956091850361E1    -1.441253481553077E2    -8.328784522051201E1    -2.108472002780881      -6.963537775074460E1    -3.019886054652892E1
                        -3.005939461126010E1    -1.445459638718021E2    -2.844753516365140E-1   -1.091761657879516E2    -8.794972412451882E1    -1.653202052784561E2    -9.741207530966923E1     1.085929226042839E2
                        -8.838012613710886E1     1.134706054894767E2    -8.027187925172306E1    -1.452218803462257E2    -1.432722672355279       1.315043433150077E2    -8.158242505364760E1     4.354470358136597E1
                        -7.231525165308054E1    -1.889872729015072E1    -1.009448243865326E2     1.154977862286440E2    -9.816169775893273E1    -2.908472491423924E1    -1.379950943565683       1.259336682956008E2

 4.775050000000000E7    -2.360591998789796E-1    3.812123690004897E-1   -3.005903167840434E1    -1.446783802797889E2    -9.048193578257889E1     8.621357076690936E1    -7.095884949929480E1    -3.329105057579842E1
                        -3.012362175178912E1    -1.451255803975853E2    -2.880592249044220E-1   -1.091907776255762E2    -9.413777161339324E1    -1.209684235969892E1    -8.533703175134336E1    -1.340064546626304E2
                        -9.119024453632152E1     6.386761330946902E1    -8.753835889869151E1    -1.301657081660634E2    -1.440244320837266       1.314886926378487E2    -8.625106894517882E1    -1.782605578866449E2
                        -7.302071007256018E1    -2.036920871628422E1    -9.071814454609026E1    -1.578404701192088E2    -8.636179598729976E1    -6.080133733070028E1    -1.379809257745865       1.259358205537436E2

 4.775075000000000E7    -2.380045925343669E-1    3.705396465145237E-1   -3.004769902077115E1    -1.445261107187222E2    -8.472795869047239E1    -4.069878352782969E-1   -7.208544241077954E1    -1.489756829098383E1
                        -3.015927692503922E1    -1.447063701199907E2    -2.847526453766886E-1   -1.091838767243950E2    -8.254823831094159E1    -1.578975713003518E2    -8.341492286208919E1     1.486331975192559E1
                        -9.451838526890070E1     1.176668519835599E2    -8.844392369550482E1     1.263342422044896E2    -1.438438035141815       1.315037073870569E2    -8.172418192549267E1    -6.544725071542852E1
                        -7.098635658193720E1    -1.476199371026297E1    -8.923517493991326E1     1.370558666069918E1    -8.500761759434069E1    -1.610164455798649E2    -1.379464726909873       1.259292698793468E2

 4.775100000000000E7    -2.283193130001708E-1    3.771505935772676E-1   -2.996221703751967E1    -1.448003628372233E2    -8.499896752460634E1    -4.354791135242620E1    -7.165253552213829E1    -3.140633064543801E1
                        -3.018295358983241E1    -1.449735116234897E2    -2.888245082657900E-1   -1.091730353565889E2    -7.866960430413630E1     1.718934131736681E2    -1.049679904708668E2     8.803110901987733E1
                        -8.416627057320750E1     1.191575400843092E2    -8.589218673029282E1    -1.367925662772223E2    -1.438272505963851       1.315108639936633E2    -8.535170294144442E1     1.152850096450676E1
                        -7.234677144102695E1    -4.415681864230601E1    -9.637456825729853E1    -1.733900871516526E2    -8.966409775814555E1    -1.299135618806861E2    -1.381700819248021       1.259323169576204E2

 4.775125000000000E7    -2.377877735553146E-1    3.270996883346406E-1   -3.005340930634958E1    -1.442396260245149E2    -8.073018284150390E1     9.716608206698645E1    -7.388260137363898E1    -1.893043494201757E1
                        -3.009712156923502E1    -1.443974303689737E2    -2.906930995435012E-1   -1.091702097265599E2    -9.014849511226021E1    -4.637490284205298E1    -9.150646215452980E1     1.334029545582266E2
                        -8.335871696520307E1     9.901136546366074E1    -8.902798944363417E1     8.791045963117000E1    -1.436018150959862       1.315045266860695E2    -8.361240506479020E1     3.958842024404831E1
                        -7.121506694243733E1    -4.529873869577062E1    -8.776072288438924E1    -5.788176059852688E1    -8.466171119695601E1     8.647429417507132E1    -1.377963008992990       1.259498654018246E2

 4.775150000000000E7    -2.396805140651644E-1    3.039596599502920E-1   -3.011275769012967E1    -1.450098655435167E2    -8.317125108031250E1     1.514803809089083E2    -7.378141840824212E1    -2.085501005336107E1
                        -3.005780171408548E1    -1.445858395192477E2    -2.869815772798678E-1   -1.092171229713493E2    -9.117293551751013E1    -5.314667295974711E1    -8.251628694533473E1    -1.626398534241905E2
                        -9.416329972334425E1     1.708740311962713E2    -8.129685760923090E1     1.143932207963354E2    -1.432643043405351       1.314671149722876E2    -9.157099090496376E1    -1.302563312009351E2
                        -7.305665594377575E1    -1.967337269237311E1    -8.288403253361719E1     1.142516006615262E2    -8.742889158114549E1     1.021790594185247E2    -1.380638834601557       1.259463386757397E2

 4.775175000000000E7    -2.349087722043461E-1    3.160444886966304E-1   -3.000269571630962E1    -1.447892804365947E2    -8.375797860774713E1     1.260290456508815E2    -7.230395109581305E1    -1.906646973276509E1
                        -3.009513217093227E1    -1.444210306854181E2    -2.848122305344895E-1   -1.092207837652579E2    -8.015827456592773E1    -1.388647740466512E2    -8.818839351596844E1     1.140114161076734E2
                        -9.122273628936092E1    -1.788187834482264E2    -9.340044579570727E1    -8.724164020260571E1    -1.437441725830950       1.314638544735427E2    -9.401271930127012E1     1.466114524750544E2
                        -7.091889967484495E1    -3.016902540962676E1    -8.663652145526264E1    -1.447344527299458E2    -9.889457944602769E1    -1.599903461902534E2    -1.377198691712458       1.258953827286138E2

 4.775200000000000E7    -2.354482786722879E-1    2.985720596756565E-1   -3.004640101987490E1    -1.446742201811892E2    -8.302358115747801E1    -5.082177944832324E1    -7.291161668036877E1    -3.385620361816642E1
                        -3.014172577047917E1    -1.443778158151579E2    -2.871060460404294E-1   -1.092004361223264E2    -8.597231569565787E1    -1.454763083333711E2    -8.350284406244876E1    -1.007506600376676E1
                        -8.408682487935229E1    -1.560676660929379E2    -7.941320073488235E1    -9.191364449077349E1    -1.438608195458566       1.314550265794437E2    -8.991073174562403E1     1.772074261149164E2
                        -7.464296443266497E1    -2.085650390018016E1    -9.609147842696432E1     1.678339027533127E2    -9.552190405363739E1    -3.086691803817403E1    -1.375999436566082       1.259321968080956E2

 4.775225000000000E7    -2.343779937517430E-1    2.460015046770254E-1   -3.005490067085664E1    -1.446604320267658E2    -9.794550694811143E1     4.018171065498946E1    -7.113730169300105E1    -2.520377797509563E1
                        -3.013990001145905E1    -1.440308098818829E2    -2.876751685947872E-1   -1.092258862930304E2    -8.804487824488282E1    -1.520413440761959E2    -8.281991388934186E1    -1.222041281145028E2
                        -8.330831772907166E1     3.074494373947148E1    -8.045797199598852E1    -1.334053912997884E2    -1.430589907372347       1.314789938935751E2    -9.732045289880833E1    -1.002835377572403E2
                        -6.994058271855162E1    -2.478140195648581E1    -9.402248176500250E1    -1.460753342993444E2    -9.022404810969098E1     7.747734747889720E1    -1.379578481353870       1.258827808725642E2

 4.775250000000000E7    -2.357342864015702E-1    2.521870914832056E-1   -3.016756634793905E1    -1.439224658266940E2    -9.519177440422990E1     2.204250818289827E1    -7.249666616660139E1    -8.214303921032187
                        -3.008385008168783E1    -1.443793969126940E2    -2.861781274535417E-1   -1.092210714851698E2    -8.797857333654817E1    -1.510624489825134E1    -8.340912703053388E1    -1.368200079737614E2
                        -8.355485551501130E1     6.824948427050830E1    -8.175709612238181E1    -1.075303446259704E2    -1.433909660046206       1.314517518780150E2    -9.033504414684721E1     3.074855437676705E1
                        -7.469900187065080E1    -4.058554090762807E1    -8.761003761949701E1    -5.827382440181307E1    -8.765209955789825E1    -1.002091215571666E2    -1.382272430712079       1.259022465049441E2

 4.775275000000000E7    -2.360103596242514E-1    2.061691162021193E-1   -3.008026052323815E1    -1.438086352574112E2    -8.425102721457725E1     1.519612437464686E1    -6.930650646990114E1    -3.910878091157787E1
                        -3.011417687096237E1    -1.445744836028364E2    -2.866801799927120E-1   -1.092309986246604E2    -9.298759423642034E1    -4.897608913169582E1    -8.160650851791125E1     9.508748325546763E1
                        -1.019942741419847E2    -3.660181168376521E1    -8.738755632689077E1    -9.855611419049875E1    -1.439520261516849       1.314640474769347E2    -9.025541274437016E1     1.716170416861222E2
                        -7.146835275929207E1    -2.920449283760978E1    -8.496257929746000E1    -1.305730805908407E2    -8.840576775025579E1    -3.273525457123701E1    -1.380688003523447       1.258891041335909E2

 4.775300000000000E7    -2.375755030958490E-1    2.157170448290924E-1   -3.010700583875793E1    -1.442230150482915E2    -8.200064835022872E1    -1.052222481804913E2    -7.143730577723204E1    -2.274375830201077E1
                        -3.009374496128640E1    -1.448992645436636E2    -2.872232368200737E-1   -1.092443345520926E2    -8.628476733308885E1     1.678210569227868E2    -9.897253481404545E1     9.782807092041875E1
                        -8.861334013105319E1    -1.545425809666526E2    -9.023063975491127E1    -1.259486428689899E2    -1.440383072325198       1.314747884826207E2    -8.892888062936366E1     5.935448478244388E1
                        -7.253212119785258E1    -2.462608074956010E1    -9.031036805286095E1    -6.292474143513418E1    -8.576883303460251E1     1.225063416635521E2    -1.378425801397288       1.258909191449488E2

 4.775325000000000E7    -2.367441689568223E-1    2.163867336246569E-1   -3.011820491254818E1    -1.447316315866120E2    -8.234342432440378E1    -9.076286148968253      -7.002233717296411E1    -3.824177045916886E1
                        -3.001933291597801E1    -1.444461792862028E2    -2.877214977228075E-1   -1.092399354007255E2    -9.053105188197769E1     1.715313189169429E2    -9.234396140770789E1    -2.722640783380512E1
                        -8.196636202894990E1     3.455209659507438E1    -8.075300778005435E1    -6.988293380102614E1    -1.436567302801639       1.314862810447051E2    -8.663545013183924E1     1.653365468562266E2
                        -7.085303201293725E1    -3.230294315048925E1    -8.954404048270895E1     1.220959505047359E2    -8.147319233103845E1     8.527511471417984E1    -1.379224099350021       1.259015264243558E2

 4.775350000000000E7    -2.338818306708625E-1    1.882470421474699E-1   -3.009282125954108E1    -1.440717660015712E2    -8.513037686745705E1    -1.558129414401242E2    -7.131050347395001E1    -2.419522497185886E1
                        -3.004313043090294E1    -1.448531488794216E2    -2.880398213149229E-1   -1.092866541866568E2    -9.265519156532393E1    -5.001703641905182E1    -8.636747589617413E1     9.089720459542785E1
                        -8.045943653190955E1    -1.471775018363315E2    -8.400368119137096E1     1.007099733187518E2    -1.433199521900416       1.314710824745585E2    -8.768049261844402E1     1.422332173335550E2
                        -7.370767668880454E1    -1.959333760700621E1    -9.145266091462233E1    -1.258744776998007E2    -9.135862891332459E1    -7.322710051678638E1    -1.379354274889240       1.259177870116551E2

 4.775375000000000E7    -2.391476872541561E-1    1.458062456871461E-1   -3.005166872377991E1    -1.443411055899181E2    -8.278955374653373E1     1.810805423714668E1    -7.466280550655188E1    -2.975721285125282E1
                        -3.011120001157930E1    -1.448072829856512E2    -2.917704568596560E-1   -1.092584670106928E2    -8.681018139419845E1    -1.449536081330968E2    -9.021900886812176E1    -5.978104628775522E-1
                        -7.854699765063320E1    -1.190858704193065E1    -1.006779681425252E2    -9.484827097001666E1    -1.433692047844625       1.314747228362227E2    -8.888070602957939E1     1.749660511207331E2
                        -7.375987953782358E1    -2.652498310292270E1    -1.110664389205754E2    -1.449317170484677E2    -9.374326683831752E1     1.667284354838824E2    -1.380526062802773       1.258983870766233E2

 4.775400000000000E7    -2.357583441310802E-1    1.365400680711078E-1   -3.012713442469173E1    -1.450475473775384E2    -8.781989198517684E1    -1.142565471757205E2    -7.263461774860070E1    -2.778490756151802E1
                        -3.002817738093635E1    -1.446943276020188E2    -2.890479918104439E-1   -1.092676177573590E2    -8.338246409084059E1     1.502358705247113E2    -8.432413538809240E1     5.864204165392485E1
                        -8.798309070946623E1     1.067488312222206E2    -9.106129069054350E1     5.908175661902190      -1.431924166454460       1.314433662053095E2    -8.322045033196444E1     3.712566731809742E1
                        -7.177013315445694E1    -3.278376030838264E1    -8.552372436138995E1     1.636178592997509E2    -8.711701138322879E1    -1.649285438431589      -1.378950778110414       1.258755468900757E2

 4.775425000000000E7    -2.407339885914149E-1    8.210397787787593E-2   -3.009045120357801E1    -1.442681558339918E2    -8.211235109987187E1     6.420131996481682      -6.980910801732640E1    -3.025623448723921E1
                        -3.005403804298420E1    -1.447091050476198E2    -2.905706674974434E-1   -1.092633226020700E2    -8.725198300866336E1     2.017157016884932E1    -9.282030358135900E1    -1.126599906088650E2
                        -8.872542905642894E1     3.513129894284683E1    -8.256318415506891E1    -1.734144248669127E2    -1.429895653966629       1.314386767004372E2    -8.464328626970706E1    -8.238680436857787E1
                        -7.209122799628999E1    -2.742937895157986E1    -8.744622764888851E1     1.207541626065309E2    -9.584258651645959E1     3.722363642249258E1    -1.375782093179315       1.258974132779823E2

 4.775450000000000E7    -2.402539236110985E-1    1.167238645908536E-1   -3.002494763614445E1    -1.446741474625455E2    -8.178218883969865E1    -3.707662964727730E1    -7.203911495321600E1    -2.536830227045406E1
                        -3.010660121052202E1    -1.446257016105388E2    -2.862920770982048E-1   -1.092605079419185E2    -8.435720023232415E1     6.476179108833726E1    -8.538581707932478E1    -1.113197953725734E2
                        -9.327517778169775E1    -8.602813381170026E1    -8.611455409117332E1     1.152722635993875E2    -1.431927504186933       1.314385843574069E2    -9.214650025331761E1    -1.504744895429052E1
                        -7.272641013864129E1    -3.121156344505986E1    -8.309242228952300E1     1.419609179116559E2    -8.560813000582543E1     8.936946017527212E1    -1.380065598132775       1.259147711264452E2

 4.775475000000000E7    -2.375752515350214E-1    7.521695465593635E-2   -2.999223727488652E1    -1.440161995974872E2    -8.346604930562613E1     4.618077700357382E1    -7.109010031432005E1    -1.869157240050443E1
                        -3.021979926173433E1    -1.456774287797514E2    -2.855156071260105E-1   -1.092771415063449E2    -8.544410307311360E1    -1.741423746227095E2    -8.303346243412670E1    -7.384249412035362E1
                        -9.718951806402188E1     4.315056668784116E1    -8.244888658166369E1     9.239602174662166E1    -1.434440731679295       1.314576783090001E2    -9.199126748969658E1     2.813372612797230E1
                        -7.118504815176901E1    -2.995381744264316E1    -8.612663862720478E1     8.887446168015219E1    -1.065013230215968E2     8.566053228480921E1    -1.378456730001523       1.258862321594473E2

 4.775500000000000E7    -2.334010697208541E-1    5.213452521290131E-2   -3.007754254262077E1    -1.447726495719838E2    -9.207793058496290E1     1.606139355686861E2    -7.284274907442199E1    -4.904492039596730E1
                        -3.023208111482999E1    -1.442859241387178E2    -2.901700114642358E-1   -1.092846330983025E2    -8.667663943792411E1    -9.591692271654121E1    -1.012998048458066E2    -1.066043864126334
                        -1.012197440967077E2     1.710299907550634E2    -8.628013673589429E1     9.896601843728708E1    -1.432161187381225       1.314287009589805E2    -8.727028329080864E1    -9.307765923762609E1
                        -7.297705192469773E1    -1.293054649474719E1    -8.569275414583063E1    -9.871481820459071E1    -9.291258310361113E1    -2.522282505145973E1    -1.376898308844204       1.258599720547262E2

 4.775525000000000E7    -2.348858982883263E-1    4.501399779951465E-2   -3.011756503717763E1    -1.449936276053720E2    -8.271118011085248E1    -1.154478204939945E2    -7.191072560468432E1    -3.017107962215765E1
                        -3.015366594380270E1    -1.441203554740309E2    -2.856530203954224E-1   -1.092918038615656E2    -8.868173286674688E1    -9.829230936799615E1    -8.783065173864428E1    -5.989910028325526E1
                        -9.848447306317485E1     5.126288990282709E1    -9.472770323436849E1     7.659759543939831E1    -1.432844890810156       1.314463017715457E2    -9.321927023941947E1    -8.722048230629611E1
                        -7.195820070952792E1    -1.686318005876063E1    -8.617831995532397E1    -1.023093468480875E2    -8.064190703460864E1     1.297966362487127E1    -1.380790607185571       1.258838513626294E2

 4.775550000000000E7    -2.339425485679287E-1    5.101484958795603E-2   -3.014372504344969E1    -1.448729213014916E2    -1.031111981315692E2    -1.400533395422516E2    -7.203197093917633E1    -3.058712043964734E1
