#  HZ   S   DB   R     50.00 
! Rohde & Schwarz Vector Network Analyzer 
! Rohde-Schwarz,ZNB8-4Port,1311601044102961,2.82
! Created: UTC 2/13/2019, 9:50:23 AM
! freq[Hz]                db:S11                  ang:S11                 db:S12                  ang:S12                 db:S13                  ang:S13                 db:S14                  ang:S14
!                         db:S21                  ang:S21                 db:S22                  ang:S22                 db:S23                  ang:S23                 db:S24                  ang:S24
!                         db:S31                  ang:S31                 db:S32                  ang:S32                 db:S33                  ang:S33                 db:S34                  ang:S34
!                         db:S41                  ang:S41                 db:S42                  ang:S42                 db:S43                  ang:S43                 db:S44                  ang:S44
! 
 3.000000000000000E7    -2.848302923664756E-1    1.014924262643173E2    -6.849966360829562E1     2.481017561822218      -8.636076616863909E1    -1.185935844032473E1    -8.916626873252503E1    -1.094173844870555E2
                        -6.741085464617905E1    -1.836750162561660      -2.724880925703301E-1    8.984173153041364E1    -9.294805957137356E1    -4.100443389850936E1    -8.683249912882110E1     8.047140450034087E1
                        -8.622590698321476E1     1.007565076431351E2    -1.013587905867040E2    -3.718201330961333E1    -9.342287289554380E-1   -1.145628258911365E1    -8.926148461384165E1    -1.692350451504518E2
                        -8.980061558191449E1     2.657408309061671E1    -8.333421855169704E1    -8.000543947104950E1    -8.548909300066798E1     1.706041618802312E2    -9.404754667978522E-1   -1.643222745648511E1

 3.002500000000000E7    -2.804341740479843E-1    1.012076338567895E2    -6.929782983081707E1     8.231375279463467      -8.080525966309246E1     6.898692725061740E1    -8.518661240015456E1     1.429017949236229E2
                        -6.988707085667235E1     6.205711791129262      -2.819379954614115E-1    8.947254669661722E1    -8.377148763970298E1    -1.311041145469602E2    -8.299235705196790E1    -5.776706283149097
                        -8.985703492182714E1     5.566165947836957E1    -8.498533742448396E1     3.783184952049131E1    -9.373628888210002E-1   -1.175200041659814E1    -8.145375042606062E1    -1.565276939356778E2
                        -9.765325843364528E1    -5.699511611750978E1    -1.117711194906880E2    -1.612100619491189E1    -1.088170534499951E2    -1.212804174118091E1    -9.402579108572612E-1   -1.673577156929701E1

 3.005000000000000E7    -2.854345157135773E-1    1.009433736025971E2    -6.870016085350629E1     1.405221871106418E1    -8.218396271046987E1     3.241898303268962E1    -8.972456421489511E1    -1.668560994558182E2
                        -6.780367833283844E1     1.125173138402945E1    -2.708597809177692E-1    8.912063059453554E1    -9.414052983628615E1    -8.112199322355737E1    -8.208579359513790E1    -1.065750022975606E2
                        -8.575325989286186E1     8.382165889616560E1    -9.452261908314461E1     2.493638916403991E1    -9.265438866987141E-1   -1.203522452383045E1    -8.697563162134975E1    -1.606119454235157E2
                        -8.556443180962734E1    -9.712779674961892E1    -9.083363997450726E1    -1.385713511246075E2    -9.786077209595874E1    -6.479138677286935E1    -9.407318679484223E-1   -1.708451241767547E1

 3.007500000000000E7    -2.850158477596700E-1    1.006311115649257E2    -6.995130930802642E1     6.209240867657359E-2   -8.361938203583526E1    -2.473192426958785E1    -8.541174340292662E1    -7.123659101838271E1
                        -6.899717301306033E1     8.625709925554546      -2.755172717080778E-1    8.870802797170707E1    -8.620573660250288E1    -1.034164208574028E2    -8.250744783554586E1    -1.152524216820421E2
                        -7.910605342462637E1    -4.815081105302622E1    -9.271105442950626E1    -1.790827055000662E2    -9.287280151831895E-1   -1.237464190037987E1    -8.248142169500906E1    -1.279451828675061E2
                        -8.284312850339420E1    -1.758148134061915E1    -9.189726905122828E1    -5.762207160382241E1    -9.647075812027667E1     1.033218747928080E2    -9.480678354805862E-1   -1.735989001062240E1

 3.010000000000000E7    -2.772514840061955E-1    1.003469538179846E2    -6.875925432481169E1     1.955409511283938E1    -8.567409422383010E1    -1.177819162199200E2    -9.616186365994068E1    -1.154981863038737E2
                        -6.886407939018369E1     1.680150793289822E1    -2.800247494435842E-1    8.837914030182337E1    -8.395545926535507E1    -1.741483240246118E2    -9.131535670746828E1    -1.060344112847941E2
                        -9.037556115424800E1    -1.235884634830304E2    -8.562343990584493E1     9.361980328256746E1    -9.313363405605692E-1   -1.264261883068937E1    -8.780559097896686E1     5.659720512680781E1
                        -9.054976800612424E1     4.597906703305062E1    -8.787095362843346E1     1.419573689022638E2    -8.960182288132242E1     1.785790852621903E2    -9.413372021667501E-1   -1.770292497917052E1

 3.012500000000000E7    -2.768801683279176E-1    1.000040622766427E2    -7.196381082477012E1    -1.437570900201176      -8.475222768436919E1     1.539847101548290E2    -8.451319736170868E1    -1.425826910237546E2
                        -7.149032006659793E1     9.112210249771893      -2.762288487414146E-1    8.796448363337061E1    -9.286768432139546E1     9.780919091686752E1    -8.224932941230016E1     1.125368259870302E2
                        -9.209601229735499E1     7.035966833853372E1    -8.489833743722642E1    -7.388094275102501      -9.242960093471575E-1   -1.293786372512526E1    -9.593321950563893E1     1.704634335747597E2
                        -8.789454712779582E1    -7.202258226234133E1    -8.324507822756553E1     1.738569173757163E2    -8.988023457909807E1     7.871330131541248E1    -9.393491239149777E-1   -1.800838792440514E1

 3.015000000000000E7    -2.753787326900268E-1    9.973181033528482E1    -6.891626632478501E1     4.639597104843505      -8.531026334732887E1     9.017738867096784E1    -8.983808007603128E1     1.494914395011926E2
                        -6.770014401077225E1     8.242420996040492      -2.742198202490323E-1    8.761495757556151E1    -8.341306893296112E1    -1.479615648629446E2    -9.340578925352739E1     8.522598000688217E1
                        -9.745557186861801E1     1.156593001126720E1    -8.580215042683362E1     1.203020920683888E1    -9.327853876638582E-1   -1.326206228130159E1    -8.404512407376799E1     7.518286279695406E1
                        -8.769405613639093E1    -1.533346480524611E2    -8.911641264567571E1     1.757215251805390E2    -8.585520953119490E1     5.195116804108750E1    -9.384461775052920E-1   -1.831895038317831E1

 3.017500000000000E7    -2.746256918269955E-1    9.945391714898820E1    -6.962671586207382E1     9.637177480683471      -8.440660108170496E1    -2.401926551831401E1    -8.735687276979023E1     3.473462253386414E1
                        -6.732696550840531E1    -1.302669512033286      -2.724859910901329E-1    8.724220524629008E1    -8.227318833135573E1     1.026578301666492E2    -7.718829942752483E1    -4.414757390587671E1
                        -8.915534009504022E1    -5.804639349682210E1    -8.158292091717308E1     1.882373451098548E1    -9.279742101984387E-1   -1.353105015471981E1    -9.246034773294362E1     4.279706136761273E1
                        -8.700912350508642E1    -5.846162163329027E1    -8.144861628879082E1     1.944036019550335E1    -8.608930881298250E1     1.612111401287191E2    -9.466826768489378E-1   -1.866542192438034E1

 3.020000000000000E7    -2.660218147622475E-1    9.913182010957279E1    -6.957120550635175E1     3.812609781552511      -8.677763573899073E1    -6.395699692921064E1    -8.941439995864700E1     8.248851579354604
                        -6.750951688635394E1     1.374600704826055      -2.739046057432809E-1    8.687583847448980E1    -8.412033367033126E1    -9.117027589771739E1    -8.624622065599911E1    -1.351627530352077E2
                        -8.636655527263540E1    -1.565685916072980E2    -7.984434813067773E1     1.712745160692055E2    -9.309385364885197E-1   -1.389566321770745E1    -8.718145344258717E1    -1.608317486609455E2
                        -9.133954204233312E1    -5.232524387046261      -1.119147546520145E2     1.062731028367432E2    -8.789204166763058E1     1.101420543279559E2    -9.395789082071370E-1   -1.899194187403417E1

 3.022500000000000E7    -2.854041475017413E-1    9.887508867235974E1    -6.896827609048012E1     7.632753661571901      -8.489234693571805E1    -1.912022704489921E1    -8.214829482772902E1    -1.677306333669610
                        -6.749492470809392E1     8.582189962757994      -2.750747815321831E-1    8.648932988315541E1    -9.353757368509726E1     1.314585438674604E2    -1.026189590894087E2     1.998389135327096E1
                        -9.183893128055104E1     1.116480543307651E2    -8.214705679481894E1     4.405100642293719E1    -9.268747694581234E-1   -1.417006204916473E1    -7.716157449252957E1    -1.116802054078137E1
                        -8.413247941710503E1     1.127579867583137E2    -7.866067514838042E1    -8.900935833415484E1    -8.257612541989323E1    -1.643986921556646E2    -9.413848981300370E-1   -1.925731872444888E1

 3.025000000000000E7    -2.768268097721321E-1    9.853463692825751E1    -6.970846188783769E1    -7.048957551891566      -8.855395524738970E1    -1.584097337175417E2    -8.288160123062333E1    -9.181829241187607E1
                        -6.671775077177523E1     1.261844282412804E1    -2.921726511944313E-1    8.612392823428966E1    -9.147668537526045E1    -7.333979967258144      -8.533107385659811E1    -1.510347180696775E2
                        -8.673100030637343E1    -7.922258788753776E1    -8.973087538223427E1    -1.172828090496503E2    -9.222944594995171E-1   -1.450623755631434E1    -8.827673319359028E1    -5.660508385931612E1
                        -8.852730454550826E1     1.577501872526593E1    -9.468287160961833E1    -1.024703093699635E2    -9.040531222710838E1     1.271562229231513E2    -9.466049456414060E-1   -1.959013506740888E1

 3.027500000000000E7    -2.749956530988650E-1    9.825980756647400E1    -6.860397788174913E1     1.729348970922543      -9.093139524714934E1    -8.284612763962797E1    -9.412322486645203E1     7.418884634903057E1
                        -6.693101438471835E1     6.404389197288455      -2.632929321455112E-1    8.571175756444281E1    -8.598040581854875E1    -7.540821046667831E1    -8.852831319540131E1    -7.474735074735509E1
                        -7.963140498564360E1    -1.336586167783007E2    -8.676373988782439E1    -1.377827534654589E2    -9.300616356954227E-1   -1.477854937643253E1    -8.309544489284177E1    -1.693536429417891E2
                        -9.066523879089618E1     1.362563104610867E2    -8.777619850896321E1    -1.743234185335458E2    -9.143129516836669E1    -6.635868613766729E1    -9.429231718112312E-1   -1.990904952829292E1

 3.030000000000000E7    -2.681048092077666E-1    9.795650366435332E1    -6.863835570717248E1     5.283372683643258      -8.511629451776540E1     9.010527082073217E1    -8.734633189465028E1    -8.564393518903749
                        -6.741456897902394E1     4.479652393928788      -2.779142755696570E-1    8.537438080872909E1    -9.529860451129233E1    -1.640801741911249E2    -8.838118811515754E1     1.231682679777548E2
                        -7.975075236665821E1     4.231424362039554E1    -8.697844791518872E1     1.912589056277836E1    -9.333884578330653E-1   -1.509697707951756E1    -9.197623061185119E1    -6.362109237673341E1
                        -8.425914700621010E1    -1.581260080734236E1    -8.169031666262553E1     8.466931979764576E1    -8.640873749470174E1     4.340202330760191      -9.421718575214054E-1   -2.020426379890553E1

 3.032500000000000E7    -2.732921551223393E-1    9.765553344007515E1    -6.749108212350032E1     2.757317441999466      -7.887611142743970E1     1.056354532435296E1    -8.069869912730908E1    -1.742940887203821E2
                        -6.769401941898853E1     6.467578601002392      -2.602861035847529E-1    8.494498941944104E1    -8.156327960608614E1     7.806165174123296E1    -9.384989431631442E1    -1.193776218685594E2
                        -8.552284005301110E1    -1.540086239659132E2    -8.781338056732012E1    -2.344220550803276E1    -9.300779633124794E-1   -1.544738434467380E1    -9.135735423658278E1    -2.008597519471503E1
                        -8.716264037511846E1    -1.101047677096390E2    -8.585912519760021E1    -1.079893592991403E2    -8.422959633973517E1     1.138376934264164E2    -9.388258973989734E-1   -2.051127291150794E1

 3.035000000000000E7    -2.667894234977937E-1    9.736702500318529E1    -6.933490571755549E1     4.697976354182835      -8.637322675587642E1    -1.257772880704423E2    -8.579639023616636E1     1.402327496984777E2
                        -6.823466821221214E1    -6.412996012251615      -2.646798581851489E-1    8.458399513291447E1    -8.233351172385292E1    -1.501139729046505E2    -9.410701835099221E1     3.040565577251640E1
                        -8.460028570334572E1     1.880346558840660      -8.636696378456608E1     7.676045974923859E1    -9.301920995206625E-1   -1.574830585595413E1    -8.287421436324196E1     1.547610950027730E2
                        -1.011516022314242E2     9.601704170133286E1    -8.382256486338869E1    -3.247661348742557E1    -9.449527099330973E1     6.639121261780227E1    -9.408057996657849E-1   -2.086533255321371E1

 3.037500000000000E7    -2.688241333645335E-1    9.707315460053735E1    -6.916552259483625E1     2.715962284913561      -1.026780631048480E2    -7.380282390282967E1    -8.139169157888060E1     1.101510800247362
                        -6.934262649191393E1     6.763602158586202      -2.771812969006970E-1    8.421073086242373E1    -8.216093543473234E1    -6.250049528106425E1    -8.180420896984248E1     1.736954565825174E2
                        -8.545344834955012E1    -1.264139822455530E2    -8.889847817220314E1    -1.012160984214645E2    -9.298609102925116E-1   -1.602748876843674E1    -8.702851216454954E1    -1.320129775584347E2
                        -8.678093691043664E1     1.165653372029057E2    -9.523706399945556E1    -7.498366657302518E1    -8.426558430984841E1    -4.651340196551706E1    -9.369963128758430E-1   -2.117721003508526E1

 3.040000000000000E7    -2.751517769503851E-1    9.680643490838698E1    -6.791733106768184E1     6.719313823579804      -1.065965958858479E2     1.425604453646476E2    -9.054273324512947E1    -1.417978952473730E2
                        -6.742016694561305E1    -1.578720087852753      -2.763163033538264E-1    8.388380099184415E1    -9.169419266021941E1    -1.774868209190029E2    -8.119706315688123E1     6.633828668259092E1
                        -7.899907800975664E1    -1.500021911650677E2    -8.937782816818852E1    -8.651012511381006E1    -9.272048743246686E-1   -1.631224861506693E1    -9.482133735688481E1     1.634963354253235E2
                        -9.151805312602063E1    -6.880982646897276E1    -7.780039081042071E1     1.669528662800821E2    -8.416204269416159E1    -1.255338347362956E2    -9.336441627186630E-1   -2.147294354865706E1

 3.042500000000000E7    -2.675258956758635E-1    9.647589119258868E1    -6.774553170638468E1     1.072017323794609      -8.270287890606441E1    -3.788833492922927E1    -9.259843544704651E1     9.862278916814924E1
                        -6.900852395170244E1    -4.655414978702303      -2.706341738467094E-1    8.355844719538875E1    -8.395123355559933E1    -3.281309792337932E1    -8.376144754583478E1    -2.594600560760251E1
                        -8.968137880787057E1     1.787393173063703E2    -9.121039041259712E1    -7.527496719348963E1    -9.275511684144093E-1   -1.661456150081786E1    -8.599842459829659E1    -3.274010184572827E1
                        -8.236795005847795E1     1.643700115547050E2    -8.737549650608506E1    -1.611365398661703E2    -8.705116779439420E1    -1.683308491860835E2    -9.411082525942225E-1   -2.180514155236720E1

 3.045000000000000E7    -2.673399389435376E-1    9.617802407114669E1    -6.697223480930295E1     7.085847449203635      -8.970997681460534E1     1.603077186627454E2    -8.373520718456275E1     2.380198787608822E1
                        -6.653710806838960E1    -6.417301747561493      -2.736708038120799E-1    8.305657251517562E1    -9.270442109145918E1    -1.179780741130266E2    -8.202109527588311E1    -2.086340162843797E-1
                        -8.237113769802073E1     7.687610682470088E1    -9.105506299030009E1     9.942303574922730E1    -9.289070715564300E-1   -1.689017201962142E1    -9.063623669464347E1    -1.007251603711199
                        -8.184981106068732E1     1.086205704293395E2    -8.929235862864103E1     1.570001933239756E2    -8.106001456462407E1     2.757029129321995E1    -9.375932912320838E-1   -2.209503253531354E1

 3.047500000000000E7    -2.685087926838938E-1    9.589828027196174E1    -6.826308972376259E1    -2.120569810169815      -8.664277977007494E1     4.301674885275432E1    -8.408607886608937E1     1.605965874886513E2
                        -6.814211988301688E1     7.554256359919746      -2.658762583077445E-1    8.270674455278343E1    -8.592718588156410E1    -1.459553605627661E2    -9.039041528939544E1    -1.697726248566645E2
                        -8.047041568318433E1    -1.415046160753541E2    -8.513196438459274E1    -3.864190923552570E1    -9.301981123873354E-1   -1.722289464189559E1    -8.828140991227977E1    -8.073681258382437E1
                        -8.568945361420454E1    -5.066571827823783      -9.195343870347558E1    -3.632242104767865E1    -8.557965417989037E1     8.177740577802067E1    -9.420000687046154E-1   -2.245714302261392E1

 3.050000000000000E7    -2.722674225849516E-1    9.563191547033227E1    -6.796907027781585E1    -2.861256257563653E-1   -9.399488885295236E1     4.344800159132184E1    -8.204654416631307E1    -9.503892837675345E1
                        -6.701854541297971E1    -1.145705288723628E1    -2.730787529324767E-1    8.229543935494411E1    -8.205918397803180E1     1.419327760201072E2    -8.259579479177064E1    -8.807373097671024E1
                        -9.181170668659374E1    -1.056826829895386E2    -8.876370622529731E1     4.036838288595665E1    -9.274619754109372E-1   -1.757662279867374E1    -8.334519282193122E1    -4.489821482183263E1
                        -8.699784382840120E1     1.616040532309590E2    -8.141223334497570E1     2.090614486782928E1    -8.570596999102219E1    -1.665759072119587E2    -9.457765640608891E-1   -2.274214340328669E1

 3.052500000000000E7    -2.635224839748365E-1    9.530547618826101E1    -6.609044382947707E1     6.174986591346008      -8.731800617419374E1     1.793684752105648E2    -8.385150503425840E1    -7.940917339501556E1
                        -6.790957646839958E1    -7.147992119503652E-1   -2.726201625440557E-1    8.193075431630000E1    -8.570692704100404E1    -7.247673770697953E1    -9.291844231550307E1     1.646563304893900E2
                        -8.651021053101147E1     1.357937335011108E2    -9.385431443473914E1     1.135774985609297E2    -9.327320385423211E-1   -1.783425280039085E1    -8.470718786293588E1    -6.220837627020484E1
                        -8.176361538289893E1    -1.124897356288937E2    -8.905187837001293E1     6.486124655300834E1    -9.367104489856052E1    -1.054968079694346E2    -9.446949211138199E-1   -2.304912217481598E1

 3.055000000000000E7    -2.672429700720772E-1    9.497579730911167E1    -6.881757546078325E1     7.965342273471702E-1   -8.864930446446628E1     1.248236305099418E2    -7.785585702545214E1    -6.011197902366222E1
