#  HZ   S   DB   R     50.00 
! Rohde & Schwarz Vector Network Analyzer 
! Rohde-Schwarz,ZNB8-4Port,1311601044102961,2.82
! Created: UTC 2/12/2019, 12:11:06 PM
! freq[Hz]                db:S11                  ang:S11                 db:S12                  ang:S12                 db:S13                  ang:S13                 db:S14                  ang:S14
!                         db:S21                  ang:S21                 db:S22                  ang:S22                 db:S23                  ang:S23                 db:S24                  ang:S24
!                         db:S31                  ang:S31                 db:S32                  ang:S32                 db:S33                  ang:S33                 db:S34                  ang:S34
!                         db:S41                  ang:S41                 db:S42                  ang:S42                 db:S43                  ang:S43                 db:S44                  ang:S44
! 
 5.525000000000000E7    -4.082534024437002E-1   -1.076043327362118E2    -2.893091056115117E1     8.671571418410895E1    -8.301195565174422E1    -1.476355307835973E2    -6.916149317223599E1    -1.408112724989931E2
                        -2.899020732572424E1     8.649264118160788E1    -3.123539632544583E-1    1.012774651708935E2    -8.955621371257956E1     2.787571553318724E1    -8.311464633399551E1    -8.634351353093186E1
                        -9.347433714974625E1     1.032175694390168E2    -9.708818762887421E1     1.349819239022931E2    -1.384398001520080       4.181678017563983E1    -9.209251824164532E1     1.590459919744485E2
                        -6.773453027595811E1    -1.293033052920051E2    -9.461375191394033E1     1.319640380717435E2    -1.031447279018615E2    -6.864854931756577E1    -1.375373612954185       3.539204345623867E1

 5.525025000000000E7    -4.109332098224705E-1   -1.075983919686618E2    -2.895690716086472E1     8.635041513909781E1    -8.056312173359740E1    -6.682998845207972E1    -6.682786568803338E1    -1.336155180694367E2
                        -2.892780143183665E1     8.645400484406176E1    -3.082061777475084E-1    1.012815796797608E2    -8.141889280422967E1     1.129707987630733E2    -8.728056607887764E1     1.227145903714472E2
                        -8.629763136392150E1    -1.423564386960374E2    -8.521549720180607E1    -8.852414651956163E1    -1.385194510617831       4.181267440226039E1    -8.125610298913607E1    -7.739659301747615E1
                        -6.785376976923460E1    -1.258037943149215E2    -9.178420385754565E1     5.175903628604212E1    -8.699618285338875E1    -9.262789290764120E1    -1.372023722878424       3.541732846773752E1

 5.525050000000000E7    -4.100299474153266E-1   -1.076556699425794E2    -2.902945933503931E1     8.678730734566578E1    -8.398679318577936E1    -5.926732586707378E1    -6.671589427481041E1    -1.384516401917136E2
                        -2.908026969973717E1     8.633347985638177E1    -3.091563685482371E-1    1.012660443459814E2    -8.309670494294485E1     3.344781591712078E1    -8.063906855220473E1    -3.783818268976653E1
                        -8.945695929552272E1     1.516431576841907E-1   -9.387660422633593E1     1.291861615319821E2    -1.385080529820025       4.181204808953410E1    -8.716012238422637E1    -1.218243234685340E2
                        -6.776532249937107E1    -1.326352525539196E2    -8.848761737087004E1     5.920771982239519      -8.939068306862110E1     4.121708092754367E1    -1.377009055327329       3.539736175971267E1

 5.525075000000000E7    -4.106615871159524E-1   -1.076558685590950E2    -2.892152513799665E1     8.658832286884019E1    -8.333925915138083E1    -1.173700177797706E2    -6.774560400538272E1    -1.272351500870199E2
                        -2.899287102730854E1     8.677273031451844E1    -3.128790634009021E-1    1.012596303967158E2    -8.257933142368209E1     3.873054507802015E1    -8.905296554833709E1    -1.660779050530888E2
                        -8.541594781280820E1    -4.934153038637394E1    -8.956409563261386E1     1.429917118426387E2    -1.382033807271278       4.177988076825866E1    -8.521216335116408E1     1.436299208073290E2
                        -6.785527012043953E1    -1.255486966316355E2    -8.705157663736731E1    -1.992045940606655E1    -8.396417548451922E1     2.475377581665063E1    -1.374087836743780       3.543360539824043E1

 5.525100000000000E7    -4.076547209456872E-1   -1.076745759353809E2    -2.895131385628260E1     8.626689214687217E1    -8.567493306475230E1    -1.220100771763373E2    -6.827399488102427E1    -1.280695921421886E2
                        -2.904609400203773E1     8.618120083848682E1    -3.027450663394272E-1    1.012632889820535E2    -7.989563007054113E1     2.343675912301750      -9.186620135472496E1     1.341578633787573E2
                        -8.050805895285627E1    -8.711666455131689E1    -9.850811148530647E1     8.597514589627572E1    -1.380395753482231       4.179349297723985E1    -8.867861308037158E1    -4.640671227784515E1
                        -6.944006105709104E1    -1.306621796343650E2    -9.107404399175141E1     1.211473689995693E2    -8.513220141591640E1    -1.539744416869968E2    -1.375297251169792       3.539039356388820E1

 5.525125000000000E7    -4.075800114254092E-1   -1.077125759975233E2    -2.892193906415107E1     8.628429793952013E1    -8.641808156604897E1    -1.796472762071286E2    -6.755255541296475E1    -1.371320553790096E2
                        -2.894429844714259E1     8.601985494937212E1    -3.103725892006657E-1    1.012221153941529E2    -9.063500889243656E1     2.505339844257881E1    -8.688593747154350E1     8.453556483922701E1
                        -8.451276035634149E1    -1.496737907369297E2    -8.664957660267605E1    -7.249301474371086E1    -1.378412690563865       4.176957760023498E1    -9.056211526715606E1    -4.817095304775422E1
                        -6.800149082390428E1    -1.304292206850192E2    -8.610235187129914E1     1.445587606145547E2    -8.869306906649042E1     1.395751806350128E1    -1.376570162213055       3.540726815790166E1

 5.525150000000000E7    -4.111509640978734E-1   -1.077644338299403E2    -2.894023499423974E1     8.607706872517258E1    -8.629458977516231E1    -9.556114902022243E1    -6.805191455579630E1    -1.328556276858758E2
                        -2.905574512710578E1     8.656044828265522E1    -3.061908955610938E-1    1.012273309767536E2    -8.895983075524528E1     1.431596286821739E2    -8.571848231000496E1     1.511841214490280E2
                        -8.635331205237287E1     2.083657100023641E1    -8.388859083753212E1     9.294649326575390E1    -1.385210798788909       4.176831916138660E1    -9.692662815583530E1     5.782385760779470E1
                        -6.881809795019957E1    -1.257185205048177E2    -8.831016120358029E1    -3.197104923749488E1    -8.960268158214322E1    -8.708840877042199E1    -1.375403142764371       3.540016324704961E1

 5.525175000000000E7    -4.084130811472085E-1   -1.077375790313466E2    -2.898207167985590E1     8.640557733040136E1    -9.611182304770767E1     8.754638015324632E1    -6.791062880275037E1    -1.238907777021896E2
                        -2.894989008500900E1     8.653025566654809E1    -3.071922673207598E-1    1.012855195786086E2    -9.380600581092068E1    -8.633217479080781E1    -9.241306511881261E1     4.095008028946021E1
                        -1.153827788663812E2     7.624274837594709E1    -9.018748778412926E1     1.569843674992112E1    -1.382795238745421       4.179395031685207E1    -9.511308025318488E1    -5.807380631189176E-1
                        -6.958277418429609E1    -1.273352152661195E2    -8.683637294167664E1     1.503805339140739E2    -8.518832483660573E1     5.746677139597165E1    -1.375265087851457       3.538051251811664E1

 5.525200000000000E7    -4.094706838927857E-1   -1.077466348627241E2    -2.896260515057509E1     8.605005737167923E1    -8.676800628159499E1    -9.999395741476955E1    -6.803467239763762E1    -1.311809638116350E2
                        -2.910587880638175E1     8.613534781440789E1    -3.058987001513782E-1    1.012591301108414E2    -8.481726073229461E1     8.876210284767970E1    -8.499107788288329E1     6.929289278351179E1
                        -8.696085156113475E1     8.334517215315250      -8.027545207180447E1    -1.185632194453571E2    -1.385824970215374       4.175281600245776E1    -8.602896288320785E1    -1.175123346564464E2
                        -6.791568403176321E1    -1.272020946033473E2    -8.737388683819184E1    -4.668792585857290E1    -8.503497928582354E1    -1.636777224604146E2    -1.373996198815381       3.536840964377810E1

 5.525225000000000E7    -4.140417184263454E-1   -1.078198871747635E2    -2.899739733436524E1     8.674019775844123E1    -8.156547128649662E1    -3.789223543040882E1    -6.747648410419285E1    -1.233914304858292E2
                        -2.889846974175818E1     8.669847711842047E1    -3.060208404001642E-1    1.012232300426350E2    -8.523426831268638E1    -3.281041926659806E1    -8.466818696166691E1    -1.536254225123928E2
                        -8.487875345458703E1    -1.276902256070433E2    -1.020038901653817E2     1.316226540952173E2    -1.382721899775113       4.176233988722427E1    -8.614963669577436E1    -1.107139580951169E2
                        -6.731032271714761E1    -1.319082285284850E2    -9.273945007191546E1     1.067510149943014E2    -8.265593162741979E1     1.555059995784103E2    -1.370723111206817       3.537214742252193E1

 5.525250000000000E7    -4.122400357464926E-1   -1.078297096947854E2    -2.897623689696356E1     8.625374042037642E1    -8.382865291252075E1     1.792923957529507E2    -6.763354120680235E1    -1.370540543815473E2
                        -2.898232357920302E1     8.616220671145098E1    -3.030640127285038E-1    1.012249313128191E2    -7.939667295868630E1    -3.039086137303243E1    -8.559716717713734E1     1.591025805807113E2
                        -8.391082226870637E1    -1.386288915234192E2    -8.379805066493198E1     5.930024653495004      -1.381023950896321       4.175792144992153E1    -9.340915820916892E1    -2.235111290259115E1
                        -6.897869589295712E1    -1.245980425223852E2    -8.528675059811683E1    -1.284895018494284E2    -9.144713087100222E1    -8.916363081631451      -1.375679554651039       3.540701453337351E1

 5.525275000000000E7    -4.114463367114833E-1   -1.078514571251864E2    -2.904508576752955E1     8.559315329143763E1    -9.346074716154540E1     1.067594952574425E2    -6.783448368439575E1    -1.248418730611979E2
                        -2.901910693588885E1     8.579580343726420E1    -3.095123957630178E-1    1.012309374290557E2    -8.416190261855938E1     1.892252422905678E1    -9.861931298587307E1    -4.772574925991746E1
                        -8.146602236127509E1    -1.046724027042064E2    -8.922118532510801E1    -7.664759501705797E1    -1.379976201662053       4.176899594714215E1    -9.898912324819987E1    -1.520429588381900E2
                        -7.047553141954127E1    -1.244495260639142E2    -8.427021172337828E1    -9.569120539496258E1    -9.481580900273073E1    -1.782974043644434E2    -1.375737069886792       3.537189058491794E1

 5.525300000000000E7    -4.108431876173837E-1   -1.078784259770047E2    -2.897835671326698E1     8.644076589645667E1    -8.715050137117800E1     5.298445239402071E1    -6.702944322683254E1    -1.275950901474510E2
                        -2.897528346126375E1     8.620793175439339E1    -3.075518928826566E-1    1.012248489403648E2    -8.608094961075278E1    -1.115689443958440E2    -8.472868184047820E1     5.068281011137285E1
                        -8.169791672767386E1    -6.633381189989125E1    -8.924036934930585E1    -9.460777035770946E1    -1.383151822119260       4.175992831738633E1    -8.226623384072114E1     7.920081180588237E1
                        -6.819980399058656E1    -1.251198981779325E2    -8.683022831339315E1     2.674672574896798E1    -9.016397310880144E1    -7.309449010403563E1    -1.370244194982800       3.536055311670209E1

 5.525325000000000E7    -4.139651421365235E-1   -1.078936836140478E2    -2.898101312695482E1     8.579244080622357E1    -8.341306991915479E1     1.460091622382566E2    -6.884409625546302E1    -1.460518352921390E2
                        -2.900524551392454E1     8.590277290457505E1    -3.085798616252968E-1    1.012443460364420E2    -9.152806307194398E1    -3.537977680869103E1    -8.325900841608598E1    -3.846197801468259E1
                        -7.859368612296156E1    -7.795503069239966E1    -9.412959400593704E1     1.695669795874956E2    -1.379875434087126       4.179589242596947E1    -9.665405146142922E1    -2.758210431250162E1
                        -6.851006118634616E1    -1.238869876235227E2    -9.426331639345483E1     4.828158106445761E1    -9.082614054514495E1     3.573897861348040E1    -1.371273434914010       3.538750598293848E1

 5.525350000000000E7    -4.131157753007207E-1   -1.079137082552716E2    -2.895455485898578E1     8.606206740864822E1    -9.349835518532147E1    -4.031961493934138E1    -7.012757024704976E1    -1.272751390873683E2
                        -2.898193239803703E1     8.613302105450426E1    -3.090157488915915E-1    1.012019487097638E2    -8.873038005175474E1    -4.447321050937244E1    -7.989057859601554E1    -1.776326977835694E1
                        -8.221771006364826E1    -1.020427737769532E2    -8.926476465101038E1     1.742587997999901E2    -1.386148042882182       4.175480383470934E1    -9.717011774534640E1     2.411770129655162E1
                        -6.937008330636695E1    -1.258088343904488E2    -8.269498609878028E1     4.768480629106641E1    -8.553417846325647E1    -2.409214031511472E1    -1.373142251310329       3.534108472315160E1

 5.525375000000000E7    -4.099625398179491E-1   -1.079457116252892E2    -2.892590577093833E1     8.637121996030274E1    -8.369457326482943E1    -4.885384580134471E1    -6.739931963599554E1    -1.350433072399533E2
                        -2.897953555038586E1     8.621513272103999E1    -3.084408295748307E-1    1.012008421592422E2    -8.154102091738713E1     6.054249834266604E1    -9.750469930330573E1     1.108021604930756E2
                        -8.199964169550897E1    -1.346046698317097E2    -8.793294427780722E1     1.083834615539409E2    -1.384093074051527       4.174429589952394E1    -9.179625116092224E1    -1.284763385401464E1
                        -6.913286403544264E1    -1.386465705279646E2    -8.789391004170381E1    -1.381121382471206E2    -8.973559530279992E1    -5.740421639237234E1    -1.368645993998805       3.536263919542314E1

 5.525400000000000E7    -4.129609410429187E-1   -1.079475984106772E2    -2.893230776343469E1     8.645036578219433E1    -8.977860066163902E1    -7.051836008472192E1    -6.901409272711135E1    -1.285020965174265E2
                        -2.895561223401676E1     8.614477390083472E1    -3.036015267463766E-1    1.012099695081826E2    -9.393056273530220E1     6.787817011484799E1    -8.717618479507785E1    -1.228026973326327
                        -8.573003867650469E1    -3.400873344287982E1    -8.273765338530123E1    -1.202232023172169E1    -1.385482858258260       4.175581984391401E1    -8.480111583832260E1    -6.020622549967161E1
                        -6.681883340565602E1    -1.288659223148507E2    -8.572287659478562E1     1.679614783758139E2    -9.549657271286080E1     1.192516534783793E2    -1.374975668393474       3.534730276888344E1

 5.525425000000000E7    -4.110475625821292E-1   -1.079564582542254E2    -2.899688517351486E1     8.616726784775422E1    -8.647413389107467E1     1.855103898177752E1    -6.956954612744045E1    -1.298224708501239E2
                        -2.890930651601261E1     8.618663282876271E1    -3.028441315853278E-1    1.011735606653019E2    -8.719274842705192E1     1.910948267583654E1    -8.418061557330823E1    -9.089222855347290E1
                        -9.019431640486772E1     5.232713580597433E1    -8.222691433573590E1     1.043454585721029E1    -1.386104937789338       4.174513202918481E1    -9.212368902439093E1    -5.608842922882263E1
                        -6.728006393464094E1    -1.204913773301339E2    -9.320759938285768E1     1.207211578120312E2    -8.783269987558592E1     8.898125536735545E1    -1.371348392528652       3.536194990474216E1

 5.525450000000000E7    -4.131366038423726E-1   -1.079939053072966E2    -2.889600528047600E1     8.640730691268806E1    -8.630749344173866E1    -1.525217452207274E2    -6.867696819984222E1    -1.210395364764986E2
                        -2.894777654853077E1     8.601870538607439E1    -3.052447859095614E-1    1.012159175434237E2    -9.818343730476023E1    -1.267040808527676E2    -8.912788936318268E1     5.605366412471287E1
                        -8.455820000139062E1     1.158190758582849E2    -1.012995203655609E2    -1.116120808076072E2    -1.380723875481349       4.174357721879645E1    -8.708594666729087E1     8.260813128574016E1
                        -6.830900853734597E1    -1.277230651985124E2    -8.718375070316660E1    -5.036192491992584E1    -1.101711987396125E2     1.014067109611582E2    -1.371410274105628       3.533601187861844E1

 5.525475000000000E7    -4.139090567869260E-1   -1.080247487789923E2    -2.897425192553926E1     8.662998378685968E1    -8.301634414718581E1     1.409085274352370E2    -6.900360355824442E1    -1.224522893208680E2
                        -2.898762668187629E1     8.641593324143423E1    -3.085168167422958E-1    1.011901480507578E2    -8.669986909996328E1    -1.495174658393654E2    -8.548843842155121E1    -6.527580914295869E1
                        -9.070977339683266E1     8.258655981759476E1    -9.122546172501839E1     1.298546900683162E2    -1.379770134676038       4.172803669822667E1    -8.469042562671635E1    -9.879180991397845E1
                        -6.879488536450553E1    -1.264477158307181E2    -9.424805595975928E1     5.619373338105080      -8.426091033116732E1     1.013144272944415E1    -1.372056844838250       3.533216785046244E1

 5.525500000000000E7    -4.148096302819374E-1   -1.080428969705202E2    -2.889736563643078E1     8.614303095429291E1    -7.892503432765393E1    -9.006257375099038      -6.684573191037104E1    -1.274532228894777E2
                        -2.899820147833171E1     8.626559586682915E1    -3.075639053528452E-1    1.011841173853438E2    -8.358934015063713E1    -1.064484159263671E2    -8.245054053075093E1     1.789671913380006E2
                        -8.687552364103551E1    -9.531443307309462E1    -1.022181810413811E2     6.357371194130510E1    -1.379279095042139       4.172965720998469E1    -8.834625751665786E1    -1.689695297103018E2
                        -6.873292468968475E1    -1.366184070630569E2    -8.999718715267717E1     5.454071866627176      -9.202980973014617E1     7.995441919180276      -1.371654371315222       3.536082060521236E1

 5.525525000000000E7    -4.126340331320751E-1   -1.080335348974991E2    -2.904210511806086E1     8.595535458606602E1    -8.217940589352685E1    -1.082827392874383E2    -6.831479950155884E1    -1.334307636987766E2
                        -2.897987428864747E1     8.592650425213459E1    -3.120190373343681E-1    1.011975916339523E2    -8.041448004234640E1     9.276748742373849E1    -8.656686225238113E1    -1.126170075037076E2
                        -8.715901208243221E1     8.559860212415525E1    -9.118390566267108E1    -4.002920235317651E1    -1.384327642647053       4.174315828215205E1    -9.032904672168320E1    -1.003605623992049E2
                        -6.805879770392649E1    -1.309104986580950E2    -8.773421565215691E1     1.257483039486917E2    -9.155812616774041E1    -6.584792641866866E1    -1.372057303145321       3.533812213387404E1

 5.525550000000000E7    -4.123389020875576E-1   -1.080811649374511E2    -2.900267818249724E1     8.578225054164396E1    -8.062358448539371E1    -1.389465366746423E2    -6.865677459507833E1    -1.347554128637006E2
