#  HZ   S   DB   R     50.00 
! Rohde & Schwarz Vector Network Analyzer 
! Rohde-Schwarz,ZNB8-4Port,1311601044102961,2.82
! Created: UTC 2/13/2019, 9:37:39 AM
! freq[Hz]                db:S11                  ang:S11                 db:S12                  ang:S12                 db:S13                  ang:S13                 db:S14                  ang:S14
!                         db:S21                  ang:S21                 db:S22                  ang:S22                 db:S23                  ang:S23                 db:S24                  ang:S24
!                         db:S31                  ang:S31                 db:S32                  ang:S32                 db:S33                  ang:S33                 db:S34                  ang:S34
!                         db:S41                  ang:S41                 db:S42                  ang:S42                 db:S43                  ang:S43                 db:S44                  ang:S44
! 
 5.525000000000000E7    -1.563557619689887      -1.356095177479815E2    -3.070365451512061E1     7.128215192344631E1    -6.493364584886227E1    -1.444674670666431E2    -7.619183770197955E1    -2.192755608154231E1
                        -3.074805864274505E1     7.191942407904639E1    -3.363073571550911E-1    9.410301530646427E1    -8.546961207225542E1     1.320507838827228E2    -9.107200265077398E1     1.385367540865519E2
                        -6.634278064669061E1    -1.517774779411861E2    -8.426148843839705E1    -1.267071835632663E2    -1.392762861536176       3.486528532166746E1    -8.386174226395490E1     7.579024043404534E1
                        -7.449719019961381E1     1.103873093413585E1    -8.289477873252847E1     1.529032928759162E2    -9.157253197401394E1     6.939355655894172      -1.383741928195381       2.847562056089096E1

 5.525025000000000E7    -1.562064586761904      -1.356536877741513E2    -3.072537381226186E1     7.108752472045204E1    -6.528712702527753E1    -1.417723381053047E2    -7.475121032293443E1     1.747188889661629E1
                        -3.079140540047395E1     7.122322924246205E1    -3.337032364278357E-1    9.413538993090661E1    -8.128073617420290E1    -1.278525012092081E2    -8.552926139724741E1    -7.747186130864294E1
                        -6.502947031619578E1    -1.444599791904639E2    -8.523742086846352E1     1.312319195877508E1    -1.393936717413429       3.488222198525316E1    -9.163597597625457E1     1.161157623680274E2
                        -7.690314121758087E1     2.207461423143526      -9.522609092832161E1     2.326613173169261E1    -8.447605928738602E1     1.679923764254817E2    -1.386322294400332       2.842787566212579E1

 5.525050000000000E7    -1.569590234275109      -1.356801650033223E2    -3.067490238764688E1     7.064090759730961E1    -6.573615804234409E1    -1.504210411066443E2    -7.575131871335933E1     2.210223638534973E1
                        -3.079269204300340E1     7.121737607528293E1    -3.341153131950433E-1    9.410219761859439E1    -9.900815198219993E1     1.612282949675453E2    -8.707631748630470E1    -9.432527008983037E1
                        -6.563312476441976E1    -1.458573963393887E2    -8.575627111378587E1     1.671945368973060E2    -1.388263052064684       3.487140287372116E1    -8.414896888441211E1    -4.355874447453646E1
                        -8.076496512390021E1    -5.018833705385831      -8.905132663219602E1    -7.440096304934801E1    -8.253248131308489E1     1.127252777622634E2    -1.380423183474118       2.843736717005444E1

 5.525075000000000E7    -1.569747774483454      -1.357477689090928E2    -3.063510265853217E1     7.151398767811398E1    -6.524181360486696E1    -1.445900905299860E2    -7.570187754762890E1    -5.209970859276080
                        -3.073088247013200E1     7.147692991728209E1    -3.366219250418833E-1    9.408102847505360E1    -8.120283881148319E1     9.662971191276894E1    -8.114522287908871E1    -2.203393479421522E1
                        -6.475151208115727E1    -1.530109022658494E2    -1.003709152584331E2    -8.072371771805503E1    -1.389325716306946       3.487185474753700E1    -8.973576719726835E1     6.193928127497406E1
                        -8.040112887754420E1     2.505644861951698E1    -8.932889903248695E1    -1.794280615971227E2    -8.101044021301206E1    -6.393962992511793E1    -1.383405982540768       2.842679754485617E1

 5.525100000000000E7    -1.567820280609425      -1.357815408669972E2    -3.064955661084080E1     7.128754656279493E1    -6.496542564224068E1    -1.543014415591612E2    -7.407347897792394E1     1.535264921677318E1
                        -3.074684543496934E1     7.081899198136469E1    -3.357598489438372E-1    9.408459821990823E1    -8.540803744219485E1     1.242080070994241E2    -8.390788932457807E1     1.406825032004175E2
                        -6.559350472319419E1    -1.485168956086181E2    -1.020574625223166E2    -1.054053636054445E2    -1.389719447985193       3.486068388741975E1    -9.166056515205973E1     4.941421810501677E1
                        -7.820157206771140E1    -2.260257103881506      -8.231275445274574E1     5.227130992294635E1    -9.281233688411302E1     5.039698057437420E1    -1.381107205562946       2.847891190400720E1

 5.525125000000000E7    -1.569554568766296      -1.358237611464841E2    -3.067445056101140E1     7.107568787206617E1    -6.473234248368618E1    -1.511102504238388E2    -7.662169303384846E1    -9.254481887935217
                        -3.070767130970172E1     7.129834323328579E1    -3.318831249555985E-1    9.411605783603640E1    -8.787452360227336E1     1.462875687299337E2    -7.903111662548213E1     1.495192190574263E2
                        -6.530034961436371E1    -1.459116750515876E2    -9.158030734721416E1    -6.614826755669549      -1.390357930332833       3.487445152979720E1    -1.025216496535015E2    -1.042525466472425E1
                        -7.461807331140668E1    -8.141754503471780      -7.849549865119050E1    -1.617227037900773E2    -8.249888373804056E1     4.408758330600880E1    -1.383989316451433       2.844349619569251E1

 5.525150000000000E7    -1.579014700040391      -1.358201068694324E2    -3.070079886026014E1     7.106339281540629E1    -6.451285896578274E1    -1.504078729010899E2    -7.620844192980472E1    -3.151758300670256E1
                        -3.073385982546176E1     7.135013653630600E1    -3.346459489854847E-1    9.407228394618079E1    -8.475643285025876E1     9.425807414085536E1    -7.971546040501718E1    -4.036731445939997E1
                        -6.415449125198489E1    -1.493291325097808E2    -8.778694704620762E1     1.508557832840320E2    -1.391822735110857       3.487235336925402E1    -8.452595588727093E1     4.281063941940810
                        -7.720569708543401E1    -1.624543060366467E1    -9.414823353053242E1    -9.430655908838239E1    -8.510356754121347E1    -1.140021345930792E2    -1.384387409147989       2.844623137963444E1

 5.525175000000000E7    -1.575790388263858      -1.358968820019992E2    -3.073527425066574E1     7.161128820190156E1    -6.592176945899281E1    -1.591608665483153E2    -7.882856651285917E1    -1.548546940372854
                        -3.079570377777329E1     7.160925059933140E1    -3.368023528121075E-1    9.408175137718025E1    -7.808865527375116E1    -1.047087115154519E2    -8.253955792322802E1    -1.326595620990902E2
                        -6.525739055894478E1    -1.516652560719892E2    -8.344936879697535E1    -1.222961073800800E1    -1.391074799884784       3.487459838969367E1    -8.432454927844523E1     7.642139230550972
                        -7.459614110730036E1    -2.829911660029491      -8.913219255722574E1    -4.479029844181891E1    -9.705025024439351E1     4.646321455191761E1    -1.380542275140054       2.846364912876490E1

 5.525200000000000E7    -1.577773989794783      -1.359326534049561E2    -3.065261932431812E1     7.176195106035775E1    -6.520528748403935E1    -1.486245605755427E2    -8.207003066014359E1    -4.174235614241194E1
                        -3.070525256801718E1     7.202619790664005E1    -3.344775793316740E-1    9.405236564117838E1    -9.434597474864275E1    -7.602487623858393E1    -9.029673144679134E1    -1.017440828938496E2
                        -6.530392971636434E1    -1.426787410715406E2    -1.022255281558433E2    -2.344980565277144E1    -1.398739064341610       3.487750946244042E1    -8.731504469507317E1     1.423323677799740E2
                        -7.705461256322633E1    -1.635448998699219E1    -8.412192361426557E1    -1.213896085490367E2    -8.528273119447889E1    -1.621157959644359E2    -1.378786092482294       2.845918698299502E1

 5.525225000000000E7    -1.575015255531050      -1.359553958705703E2    -3.068853887711152E1     7.146048478824942E1    -6.536742339054949E1    -1.485021448358506E2    -7.636209719538459E1     1.819924354336706E1
                        -3.069575633856806E1     7.125524183887335E1    -3.331804428853959E-1    9.407875818507196E1    -8.816591127231152E1     1.039672491990814E2    -9.583658664324142E1    -1.652129997503215E2
                        -6.570849047890582E1    -1.509778577768623E2    -8.942589997774385E1    -6.636039182213843E1    -1.393631749242909       3.485021949912975E1    -9.243265843880261E1    -3.044671756232940E1
                        -7.672095303872878E1    -2.076545042960828      -9.289318242621816E1     4.065485030158295E1    -9.006039055638010E1     1.794681487479696      -1.382262628890844       2.842612019736907E1

 5.525250000000000E7    -1.582811134453133      -1.359943852942667E2    -3.076009359230583E1     7.128994050279049E1    -6.483084243961942E1    -1.436597583400756E2    -7.729212141592497E1     1.770701959636595E1
                        -3.077190701807163E1     7.141678469388391E1    -3.293087326659972E-1    9.408314128816562E1    -9.831623652630184E1     1.293348127172553E2    -8.151968192163315E1    -1.467522742960121E2
                        -6.604749594244558E1    -1.489905994510322E2    -8.423840741132274E1     7.481771596715063E1    -1.390858778484746       3.483641630711361E1    -8.490764992056316E1    -1.746035874876340E2
                        -8.064793678243204E1     2.175928458419964      -9.853313804775641E1     1.649531382298182E1    -8.441718031091887E1     1.074775846598880E2    -1.381136611945252       2.843677054047252E1

 5.525275000000000E7    -1.585617921374829      -1.360189356455902E2    -3.061123390452741E1     7.115682345936874E1    -6.496316809715698E1    -1.637199089191124E2    -7.494687920208607E1    -1.605861159353353
                        -3.074500954460412E1     7.034514724735008E1    -3.347843358975979E-1    9.403546096011841E1    -8.571115554703999E1     4.088059507324928E1    -8.587405689917632E1    -1.428576032602287E2
                        -6.485931211631930E1    -1.477754197401477E2    -8.203029535476419E1     1.029447220278620E2    -1.390246884795400       3.483001742425703E1    -9.323453072509041E1     1.866940593656987E1
                        -7.724411066786539E1     9.851890717694159      -8.477420833433486E1     8.927348083130493E-1   -9.247562323462545E1    -1.826896262291444E1    -1.377461505925265       2.840142144567150E1

 5.525300000000000E7    -1.587804654607610      -1.360871673383000E2    -3.071320556152420E1     7.149810008015143E1    -6.527697534951750E1    -1.532977193529873E2    -7.818055160531127E1    -1.778315744960516
                        -3.083124910475461E1     7.197346168782759E1    -3.350150380306535E-1    9.404438474646670E1    -8.458155826751856E1    -9.943583393920457E1    -8.367820235586834E1     1.435884422718525E2
                        -6.533669623777904E1    -1.474985269011623E2    -8.825547123529235E1    -7.695173226464806E1    -1.389022094462418       3.486745271359228E1    -9.307510468943562E1    -2.655383424481484E1
                        -7.549166399719262E1     1.251018396685028E1    -9.247982050257555E1     1.697191148671802E2    -8.619107018125688E1    -4.950064742964721E1    -1.379911271152046       2.843844360134199E1

 5.525325000000000E7    -1.592650565791540      -1.361152601309148E2    -3.072900842030282E1     7.127845732314863E1    -6.596551232502223E1    -1.500640173970789E2    -7.284493426662381E1    -2.098152140293974E1
                        -3.079756659162408E1     7.102825399007342E1    -3.375937626778124E-1    9.407573860476566E1    -8.362978877451499E1    -2.061303942593234E1    -8.016363510195089E1    -1.596918218641920E2
                        -6.658696772058805E1    -1.478603430401568E2    -8.438031300279781E1     2.653967874759826E1    -1.391772946020983       3.486363621386681E1    -8.777124083209721E1    -1.118936263479345E2
                        -7.820904129748845E1    -3.037632882634739E1    -9.157528176027533E1    -3.159156565240874      -9.244431238614418E1    -3.169575318829801E1    -1.379390100638753       2.842537835126460E1

 5.525350000000000E7    -1.587923190290179      -1.361529725158250E2    -3.073134106877656E1     7.131283188081213E1    -6.529435667788937E1    -1.543246532356341E2    -7.812203756663568E1    -7.111564102810237
                        -3.071505717650552E1     7.131959443797973E1    -3.350298041223088E-1    9.403684714794771E1    -8.614158983266286E1     9.305108794167275E1    -8.210347788067821E1     1.625979837846718E2
                        -6.553219037413689E1    -1.484385331418579E2    -8.788472113925752E1     2.111481265757066E1    -1.394797956426229       3.484666113421286E1    -9.500509601187233E1     3.071027089669029E1
                        -8.262754738194789E1    -7.607553389773765      -8.134811223675605E1    -1.671494007325774E2    -8.468744085681180E1     7.385606830391733E1    -1.379128611028060       2.839909543154631E1

 5.525375000000000E7    -1.596450417039395      -1.361741516323370E2    -3.075947316136703E1     7.106926592953458E1    -6.559923005646719E1    -1.546499976059168E2    -7.390134828367562E1    -5.120589635414286
                        -3.074461220081373E1     7.113792912856707E1    -3.286782898561225E-1    9.403490760881671E1    -9.252418284219290E1    -2.555969945780601      -9.256942881960769E1     1.492969796447484E2
                        -6.556708221648748E1    -1.541553269435691E2    -8.741118733808521E1     3.053814183724484E1    -1.389384337461276       3.483366661442990E1    -9.205535896018296E1    -1.077209968773799E2
                        -7.337160777137018E1     8.052678302589715      -8.189253045604104E1     1.387744624609921E2    -8.482534603685770E1    -5.584717121579203E1    -1.379437906441486       2.837580048842266E1

 5.525400000000000E7    -1.595788073991263      -1.362276438576952E2    -3.068851374611118E1     7.124599370355459E1    -6.646897680525497E1    -1.517438750109709E2    -7.521536901897036E1     1.330350932250082
                        -3.074366847609196E1     7.120819496754051E1    -3.340606516160950E-1    9.402000190920532E1    -8.578402126054577E1    -5.555669440605821E1    -8.217359590335735E1     1.668137211557971E2
                        -6.539258557234638E1    -1.567194200829536E2    -8.244998000082950E1     1.326997700972121E2    -1.393201947407918       3.483020039620275E1    -8.891754799531638E1     5.698638648715911E1
                        -7.433276265661111E1    -1.617249693488028E1    -9.120449417594992E1     1.615551816833961E2    -7.900890412427999E1    -3.099591587197946E1    -1.380511313572869       2.839447425967659E1

 5.525425000000000E7    -1.593892746047885      -1.362867141206045E2    -3.071168358785816E1     7.102651051604440E1    -6.619780741688433E1    -1.445860174730082E2    -7.640582012688365E1     7.772467449741781
                        -3.073851877182698E1     7.144802592773523E1    -3.323374076347146E-1    9.402619490523632E1    -8.759686286186684E1     1.748680074646501E2    -8.649415699882395E1    -6.841368559773333E1
                        -6.624936186533523E1    -1.525891207009419E2    -8.719524073150751E1    -6.539585325765647E1    -1.388039226231365       3.484080817948216E1    -8.082930810546189E1    -1.027065474275062E2
                        -7.608065891600292E1     2.840905746847463      -8.396032014697353E1    -1.451985800036531E2    -8.552217116753346E1    -1.319184849772501E2    -1.381450228463045       2.840570059366096E1

 5.525450000000000E7    -1.596490825165917      -1.363177403976830E2    -3.076909328802641E1     7.130287086057544E1    -6.488054499769913E1    -1.498457681000170E2    -7.531831271334357E1    -4.375996225959223
                        -3.083015583849461E1     7.097617752175626E1    -3.381725277678986E-1    9.403439095266691E1    -8.380000094085153E1    -2.398305010073755      -8.755319181610334E1    -1.319995426819747E2
                        -6.501976348083400E1    -1.455810469650253E2    -9.795619834749928E1     1.710897940751466E2    -1.393280444021978       3.485104904761336E1    -9.307037950033809E1     3.529668268341926E1
                        -7.651248124214563E1     1.245464700150928E1    -1.033180124074910E2    -8.535875956237014E1    -8.901116246725499E1     2.545300010206531      -1.381332761196045       2.840306215276772E1

 5.525475000000000E7    -1.599032117522659      -1.363837171722509E2    -3.081482524203184E1     7.054396675144389E1    -6.544635218440499E1    -1.482709415480576E2    -7.420575905808164E1     1.997805353269006E1
                        -3.078124427305213E1     7.061541564556258E1    -3.317162316623607E-1    9.404502785017574E1    -7.698706248392647E1    -3.627814506951084E1    -8.735638089414007E1    -1.573868685853093E2
                        -6.465816303343767E1    -1.515857585271895E2    -9.610550821973899E1    -6.992890948049944E1    -1.393528406682068       3.482448393626747E1    -8.677418502912660E1    -1.574219251116556E2
                        -7.907154401906942E1     2.131872112263876E1    -8.710003729989180E1    -7.028696068126747E1    -8.374984644811094E1    -8.392355560850157E1    -1.380864784029146       2.841112477138580E1

 5.525500000000000E7    -1.606640719109817      -1.363936014405395E2    -3.077370710541538E1     7.066433524079392E1    -6.426973168754616E1    -1.443037376439209E2    -7.376353809748731E1    -1.576540280689973E1
                        -3.087756057242735E1     7.120878710643476E1    -3.391934271765770E-1    9.402520589992734E1    -8.715763921087536E1     1.220597195155968E2    -8.843892562960490E1     6.353856377410501E1
                        -6.510930735729680E1    -1.523727301819087E2    -1.017690002234917E2     5.265313101519617E1    -1.389206700675915       3.482060967580231E1    -8.827953015865377E1    -3.358888522237085
                        -7.627338656391621E1     6.267612742133427      -8.156311452418377E1    -5.811613852498883E1    -9.033258967805816E1     1.112782908982387E2    -1.379493205856611       2.840931627004025E1

 5.525525000000000E7    -1.607738608118212      -1.364620351260547E2    -3.071899963808740E1     7.106038217661319E1    -6.479932631752349E1    -1.484066739968249E2    -7.935103884179580E1     2.922569738131081E1
                        -3.083842313638385E1     7.180605308983041E1    -3.400549009251389E-1    9.405458666804540E1    -8.341037989169222E1     1.562227955550977E2    -8.539767068692262E1    -1.332212197681378E2
                        -6.592789695819150E1    -1.409269838772881E2    -8.337660774298185E1    -1.403426903998459E2    -1.388324199132507       3.482956583163035E1    -8.561113081873128E1    -1.838548014329782E1
                        -7.357212752667975E1    -1.908242196683643E1    -8.237778648586762E1    -1.351057075590148E2    -8.961803425813258E1     5.390504552380705E1    -1.380715813609713       2.840003679788141E1

 5.525550000000000E7    -1.606901642632569      -1.364616213619034E2    -3.078174139296162E1     7.124433508269375E1    -6.389603692223653E1    -1.585976034537403E2    -7.509239258826230E1     1.709930135387372E1
