#  HZ   S   DB   R     50.00 
! Rohde & Schwarz Vector Network Analyzer 
! Rohde-Schwarz,ZNB8-4Port,1311601044102961,2.82
! Created: UTC 2/12/2019, 1:27:04 PM
! freq[Hz]                db:S11                  ang:S11                 db:S12                  ang:S12                 db:S13                  ang:S13                 db:S14                  ang:S14
!                         db:S21                  ang:S21                 db:S22                  ang:S22                 db:S23                  ang:S23                 db:S24                  ang:S24
!                         db:S31                  ang:S31                 db:S32                  ang:S32                 db:S33                  ang:S33                 db:S34                  ang:S34
!                         db:S41                  ang:S41                 db:S42                  ang:S42                 db:S43                  ang:S43                 db:S44                  ang:S44
! 
 3.000000000000000E7    -2.728939526042628E-1    1.055260412211392E2    -6.947786643223176E1     1.620186300213846E1    -9.234133077750947E1    -1.568790677397531E2    -8.479412109555794E1     1.623460214299712E2
                        -7.069756383931750E1     1.741613841528510E1    -2.089782898497959E-1    9.396184605239588E1    -9.244716323068991E1     1.130041617087602E2    -9.106195211866225E1    -1.506770783827491E2
                        -8.609557459239755E1    -2.584610630109354E1    -8.675922747702258E1    -5.615029366506076E1    -9.226377156061943E-1   -7.611311239683847      -8.833812370732386E1     1.153580384652756E2
                        -8.371219017388476E1    -3.125633734946160E1    -8.762199142672370E1    -1.334724015136193E2    -7.981881633526579E1     1.112744271659776E2    -9.327431247103958E-1   -1.258892737362886E1

 3.002500000000000E7    -2.773697047457936E-1    1.052209372550346E2    -6.802726869783017E1     5.601159880165500      -8.019516810175553E1     1.379857568122728E2    -9.270046122325235E1     1.262657327058939E2
                        -6.815888914500398E1     6.183647932856366      -2.186192700299869E-1    9.358329047809743E1    -8.721307351022284E1     2.598445254454917E1    -8.630898011628736E1     1.607126980951992E2
                        -8.350673365972807E1    -2.230874645316154E1    -8.520066425372770E1     1.309880601657743E1    -9.233334389739800E-1   -7.891452209845025      -1.043363778093041E2    -7.887400774755254
                        -9.012402307978914E1    -1.110394874563686E2    -8.488941445746650E1    -2.335245740982337E1    -9.093138024911518E1     1.263240271055294E2    -9.307657269990788E-1   -1.284842260879032E1

 3.005000000000000E7    -2.782242959326223E-1    1.049324696759267E2    -6.883650706978325E1     1.378466764785794      -9.739228369617609E1     3.846715658881922E1    -8.762777123709867E1    -8.831358408830459
                        -6.947211639087205E1     1.467825330892538E1    -2.157757968656455E-1    9.329234862684513E1    -7.933405975766024E1    -2.889857348593251E1    -8.429384221634798E1     8.515287097235182E1
                        -8.671364675485832E1     5.489667303511883E1    -8.648205692614233E1     6.272839821847015E1    -9.256912966012448E-1   -8.197762426461138      -8.337622085908747E1     1.394192303207405E2
                        -9.208969892285403E1    -1.603120128370143E2    -8.199631972126664E1    -1.510779644986116E2    -8.128729979544529E1    -1.224781913184246E2    -9.284522500193473E-1   -1.317625259735603E1

 3.007500000000000E7    -2.723985178681786E-1    1.046097004167432E2    -6.858667745725221E1    -2.373338565135228      -8.771420084796210E1     1.798206387325249E2    -9.436280740423112E1    -1.008161006230006E2
                        -6.757548341073955E1     1.036084050702381E1    -2.152451940450941E-1    9.288225451749291E1    -8.561759374841199E1     1.439971799775327E2    -9.345000632958701E1     4.581116818293371E1
                        -8.455363220958228E1    -1.441559704487288E2    -9.298216604154720E1    -8.914271676621566E1    -9.241479827065711E-1   -8.554483012369342      -8.582951124076368E1    -1.547900847018506E2
                        -9.318531559157705E1    -6.116928041933588E1    -9.575717672446559E1     1.677433082291000E2    -8.198009101410190E1    -7.608204684249473E1    -9.335180435797907E-1   -1.345743365785947E1

 3.010000000000000E7    -2.731571174461757E-1    1.043644110171242E2    -7.014377658436156E1     6.911133576630800      -8.234209923601584E1     6.908356957534798E1    -7.878022069371892E1    -8.073560766616545E1
                        -6.960736420611856E1    -1.759916933275536      -2.159319112906505E-1    9.247546149688823E1    -9.484761550433917E1    -1.200654743141019E2    -8.532234114002081E1    -1.598093299521112E2
                        -8.255265369897066E1     9.281375197938779      -7.983414404612705E1     1.056215106401304E2    -9.181299526994252E-1   -8.786707274620891      -8.835524430547889E1    -1.307956773930044E2
                        -9.050316491087139E1    -8.125908406753915E1    -8.576118136389309E1    -7.955372742007624E1    -8.196059349369541E1     3.514335504310707E1    -9.300159691175515E-1   -1.376053688215088E1

 3.012500000000000E7    -2.699264839610991E-1    1.040604068222452E2    -7.014294646093816E1     1.534322836972464E1    -8.124158624285374E1    -9.870698188048569E1    -8.469977280202046E1    -7.532816292795611
                        -7.025427591620516E1     1.148898142370438E1    -2.188144362243543E-1    9.212989068797320E1    -8.356559967825346E1     1.405214629343489E2    -8.331902253228498E1    -1.270410290132210E2
                        -9.964136507501010E1     2.054203069960950E1    -9.073138597548072E1     8.790168208270093E1    -9.238806104932195E-1   -9.126357104454714      -8.773991823972237E1    -6.632329013087926E1
                        -8.820657278581463E1     5.827479780999349E1    -8.783308501893302E1     1.510346722961478E2    -8.468221743478591E1     1.550300440865792E2    -9.302647395768069E-1   -1.410387800426437E1

 3.015000000000000E7    -2.708766822136127E-1    1.037477388481399E2    -7.135826629880950E1     7.851169139905419      -9.179484841789483E1    -3.973752081161463E1    -9.287181071142757E1     6.409961142026029E1
                        -7.068262293560422E1     5.260649883169733      -2.153955175309127E-1    9.167416868862736E1    -8.136458431990914E1     6.425744627887416E1    -8.493367901970996E1    -1.250477563643485E2
                        -9.540445977516299E1    -1.242498802762198E2    -8.413292659598008E1     4.561352866590944E1    -9.255241162225294E-1   -9.415185973569383      -8.168390394307892E1     1.066501840624808E2
                        -8.522928401493712E1    -4.690363279635356E1    -9.369332629203406E1     2.055183221460100      -8.845839406759444E1    -5.499108713403714E1    -9.303149060497452E-1   -1.437045135487533E1

 3.017500000000000E7    -2.665519931472920E-1    1.034359170087894E2    -6.874326420979952E1     4.824520739144739      -9.706139048694405E1     3.287204900831885E1    -8.873999474232551E1     1.076334141821879E2
                        -6.895338882780344E1     1.092780932132972E1    -2.075156570557868E-1    9.137097810442305E1    -8.797885149613863E1    -9.756893210656055E1    -8.630511628012555E1     1.796084971557854E2
                        -9.428265868178160E1    -1.159845673472531E1    -8.186084727726677E1     1.257462104612631E2    -9.204845337628586E-1   -9.662184089559833      -8.329508892862509E1     9.841313933926617E1
                        -9.586515652780068E1    -1.293325159758714E2    -8.475001740293358E1    -1.328205688126945E2    -1.000310899132695E2     9.584631496599702E1    -9.286332573542901E-1   -1.471415467947417E1

 3.020000000000000E7    -2.671964904794837E-1    1.031864206357959E2    -6.860655161985092E1     1.792073591505059E1    -9.364938261850242E1     3.602018202070752E1    -8.004461582288420E1     1.542301431982022E2
                        -6.942010357577175E1     1.355634788982991E1    -2.067719320233837E-1    9.098915573681306E1    -9.253723288327296E1     1.136493656143405E2    -9.608085755182216E1    -4.719773814119438E1
                        -8.767578709867868E1    -1.719792712095797E2    -8.095692319540848E1     8.874198980189004E1    -9.207659870894158E-1   -1.001338299255667E1    -1.067836570379757E2    -3.526567467888132E1
                        -8.467335030127514E1     4.641742951735486E1    -9.140087556008001E1    -1.576905114725388E2    -9.510428058370736E1     1.573290708254490E2    -9.304764159746949E-1   -1.505297573740429E1

 3.022500000000000E7    -2.752202384792387E-1    1.028978615992650E2    -6.802541972943691E1     8.300504713921052      -8.576577341666226E1     8.314714851292932E1    -8.128656704214670E1     1.588799179543897E2
                        -6.832914605148737E1     9.211375636189967      -2.121399751450052E-1    9.065793198890988E1    -9.165800001517783E1    -1.140622018074699E2    -9.336260791397405E1     6.324647602112970E1
                        -8.523871622637802E1    -1.465713713981750E2    -7.981932862397616E1     1.341322414384173E2    -9.210867382087705E-1   -1.031237623196186E1    -9.238337269546329E1     1.732643686203852E1
                        -8.919748056300273E1    -8.642758909564886E1    -8.127147491724207E1    -9.198887217140422      -9.180466841534221E1     1.644375892823627E2    -9.278087997088440E-1   -1.534635939144529E1

 3.025000000000000E7    -2.746846574062492E-1    1.026165034849377E2    -6.948035256359519E1     8.451429655567186      -8.925832561098383E1     5.472710981023135E1    -8.506525984410447E1     5.968234063924064E1
                        -7.009337763363698E1     6.046556708477907      -2.201988840487268E-1    9.026247663029825E1    -8.167668018200153E1    -1.702915363293537E2    -8.607261946403506E1     1.219231825540306E2
                        -9.574409075564554E1    -1.161986775462017E2    -8.598140308591619E1    -5.604173096698348E1    -9.183770241217532E-1   -1.059592290329647E1    -8.451664820854910E1    -3.650597814284013E1
                        -8.654332523412181E1    -1.780330317683214E2    -8.639367325381289E1     3.478559020379682E1    -1.079978950636939E2     1.598108734216609E1    -9.278527717273212E-1   -1.565880045616898E1

 3.027500000000000E7    -2.663427066688356E-1    1.022797094750103E2    -6.678977577748603E1     6.957863856503154      -7.724367796590512E1    -4.033967611081610E1    -9.379975506911310E1     1.450768170067589E2
                        -7.023561151110141E1    -4.990402946040934E-1   -2.020438204486844E-1    8.989803188708569E1    -8.769428880702233E1    -1.516640204116428E2    -8.138372373702492E1     8.029626240474379E1
                        -9.889319545724818E1     1.258386103414428E2    -8.728840217583678E1     1.710234481085731E1    -9.188596677896338E-1   -1.094829202135886E1    -8.720349662451235E1     7.636443086513317E1
                        -9.120176594089895E1    -3.762870528722662E1    -9.625718030713489E1    -1.664619226845841E2    -8.890483360974901E1    -5.162940769319533E1    -9.308494285999375E-1   -1.596519025648141E1

 3.030000000000000E7    -2.716640631426510E-1    1.020263918675955E2    -7.036272396717354E1    -1.178281231699034E1    -1.009557205543842E2    -1.608058082411021E1    -8.105248450914164E1    -6.411777819630453E1
                        -6.900152669612484E1     1.540163030438359E1    -2.144825131705078E-1    8.954422419850833E1    -8.462715025919664E1     5.113669903750434E1    -7.667176185177928E1     1.189733969780590E2
                        -7.916756710665949E1    -4.228133731623475E1    -9.756312915426577E1     8.074714181431226E1    -9.248262325038269E-1   -1.122599476964121E1    -1.111845976406082E2     2.988404346950932E1
                        -8.199100788196378E1     1.233227202829236E1    -9.070781727320343E1     8.153472499928319E1    -7.907310193504014E1    -1.028577298013066E2    -9.219610712484820E-1   -1.626263438919757E1

 3.032500000000000E7    -2.704227693658480E-1    1.017456588509016E2    -6.910844974474216E1     7.054626154507643      -8.624717051293722E1     4.585599774116135E1    -8.085121914794112E1     1.145046110915151E2
                        -6.910675009115778E1     3.461360853001088      -2.106634881513796E-1    8.914870725793712E1    -8.761810121074093E1    -1.082150429823603E2    -8.590491658604532E1    -1.736129146490914E2
                        -8.413207888779604E1    -5.415496516567143E1    -8.464033548301362E1    -1.266251334958723E2    -9.258139437764683E-1   -1.152238241190185E1    -8.371086534160666E1     7.179929447959924E1
                        -8.692773878782846E1     8.688003107317151E1    -1.002720224767258E2     1.147963583837397E2    -8.373364824203328E1    -1.464600767903898E2    -9.236517644650512E-1   -1.658727165373245E1

 3.035000000000000E7    -2.681902101147402E-1    1.014481164949958E2    -6.731279943875290E1    -5.577955619241471      -9.299086907599259E1     1.671683224785637E2    -9.358976144547215E1    -1.351840990484780E2
                        -7.004721701861790E1     5.476456308612582      -2.085284444291049E-1    8.880143457958420E1    -7.647851742215798E1    -8.430650922305827E1    -8.758841766377455E1    -9.060402549981735
                        -8.539072531120982E1    -7.061314708442258E1    -8.782654952659448E1    -1.791344981335101E2    -9.225721094443340E-1   -1.185142216761673E1    -8.555605553983513E1     1.646555890933541E2
                        -9.140556715698595E1    -1.673454607553265E2    -8.334178314495667E1    -4.418393960086412E1    -1.040620136821103E2    -1.525890651168924E2    -9.308841998996170E-1   -1.687420732513511E1

 3.037500000000000E7    -2.614865471217182E-1    1.011453590505689E2    -6.817252520994457E1     6.034702388643735      -8.747254906852788E1     9.558219178021403E1    -7.877495042139708E1     2.323838714863568E1
                        -6.913648989257665E1    -6.531207523960875      -2.149836274361175E-1    8.840407593907999E1    -9.319058766377313E1     7.837546945654594      -8.558609605124781E1    -6.146768851055561E1
                        -8.280079815218046E1     2.721457835556220E1    -8.137324014930928E1    -1.402644906119390E2    -9.272810685236297E-1   -1.207764726325531E1    -9.422197432526856E1    -5.723376515819754E1
                        -8.195749456069808E1    -6.088730852402767E1    -9.117901545104294E1    -9.268859828368028E1    -8.877892697787347E1    -1.523534277530849E1    -9.298071913962798E-1   -1.718527910577828E1

 3.040000000000000E7    -2.659489486910544E-1    1.008612444947139E2    -7.082909250258115E1     4.969815090699457      -8.376936205371761E1     9.761353044280060E1    -8.487235398705253E1     1.287866211108922E2
                        -6.896448561324510E1     6.112249722966875      -2.128018075139490E-1    8.803918378782649E1    -9.683212114027116E1    -1.401392912993439E2    -8.321535292722993E1    -1.665819257056439E2
                        -9.143088696757486E1    -2.443215378603864E1    -9.584914882152992E1     2.348661323121896E1    -9.218828685138534E-1   -1.241678316663385E1    -8.894741960913277E1    -1.060805524633694E1
                        -9.167041589439087E1     9.978347719146103E1    -8.818487656009056E1    -7.525570890845859E1    -9.495323047531544E1    -3.812960056154778E1    -9.322704740006083E-1   -1.747587686345232E1

 3.042500000000000E7    -2.611470522483301E-1    1.005719868238718E2    -6.841015863052718E1    -2.884891215541332E-1   -8.752004237320472E1     1.288010893262505E2    -8.523552774039708E1     1.151776819608839E1
                        -6.878106186126115E1    -6.476380241486534E-1   -2.046220043448248E-1    8.770494664403582E1    -8.969733474823553E1     4.657361691507907E1    -9.544960983650140E1    -5.325758719377070E1
                        -8.901543340902045E1    -1.611457741841828E2    -9.212059875289548E1    -8.694950084717277E1    -9.170832969454980E-1   -1.271850076261180E1    -8.928370141362315E1    -7.487488648771132E1
                        -8.963913052020288E1    -5.091505103115463E1    -8.342333349962013E1     1.487441764755295E2    -8.531557391938756E1     6.789619430879334E1    -9.294808217425779E-1   -1.782265562715119E1

 3.045000000000000E7    -2.618637335683184E-1    1.002251264834060E2    -6.894315953297289E1     6.180959141385907      -8.937707493600685E1    -2.950748653734720E1    -8.414773124459831E1     1.815949087501915E1
                        -6.979888617329043E1     4.563080796499194      -2.032807882776476E-1    8.727837754547878E1    -8.300605509616459E1     3.646889141317953E1    -8.581119304596683E1     7.180548925493476E1
                        -7.812801980886998E1     1.566149438724715E2    -8.592311920629058E1    -2.417102609746495E1    -9.221417779216695E-1   -1.306720594932099E1    -9.247020909263813E1     1.317742274115410E2
                        -8.944178443997545E1    -1.063005855588462E2    -8.343231275701804E1     8.870055940775862E1    -1.002343505168414E2    -5.841033526094810E1    -9.289483501329948E-1   -1.805067028785185E1

 3.047500000000000E7    -2.649641014455347E-1    9.998068861906654E1    -6.897771134264946E1     6.854234735101870      -9.350533438277080E1     1.227167362467833E2    -9.321700179733200E1    -1.186996787298461E1
                        -7.006759841225416E1     1.361870853517406E1    -2.035485171523094E-1    8.693379088128296E1    -8.953656584417352E1    -1.535770651377613E2    -9.994906783797524E1     1.717773287634817E2
                        -8.451013073299329E1    -8.303900368676077E1    -8.197006376570649E1    -2.120156167557400E1    -9.166159221601223E-1   -1.331099531896610E1    -1.019216476225304E2    -5.821726776868995E1
                        -9.239585174831460E1    -5.991765949603059E1    -8.378881495916916E1     1.278342449082870E1    -9.044645103265120E1    -1.021404566388653E2    -9.313769037641559E-1   -1.841386555892287E1

 3.050000000000000E7    -2.697112498414930E-1    9.964344001194964E1    -6.773684043381780E1    -1.018203483061595      -9.288806471242515E1     1.762722848362041E2    -8.777705512377396E1     1.177018193495170E2
                        -7.012189084100733E1     9.658895649508841      -2.044264471749815E-1    8.649726240241658E1    -8.409810180688183E1     2.343228509680387E1    -8.990936441097674E1     4.025843825318799E1
                        -8.630237420988752E1     1.265184743527752E2    -8.490653591604345E1     9.529078138180205E1    -9.216098121147044E-1   -1.361855721469936E1    -8.539041071070804E1     8.558478095137996E1
                        -8.592657958587327E1     1.099812919088967E2    -9.030173682086351E1    -1.604305354071718E1    -9.280833767049315E1    -1.036194781044781E2    -9.314063402900806E-1   -1.870068913558830E1

 3.052500000000000E7    -2.616281520458274E-1    9.935455119449422E1    -6.856983508838424E1     4.437985843049261E-1   -8.632329984508732E1    -1.609897203620985E2    -9.176277662478779E1     9.362729445094416E1
                        -6.812423803439486E1    -3.791489635801817      -1.985124637624683E-1    8.618384051656076E1    -8.061760806222240E1    -6.200260919267237E1    -8.501931818999822E1    -1.490389348008400E2
                        -8.899737517175190E1     9.891478488490826E1    -8.856396421916038E1     9.933467382325765E1    -9.189595196891792E-1   -1.390458015654437E1    -8.333082601047438E1     1.281936038376290E2
                        -8.112524066208519E1    -2.929810572407201E1    -8.878550765705994E1     1.374177958955553E2    -9.077253427268485E1     7.376611015849773E1    -9.341524098223440E-1   -1.903242866914869E1

 3.055000000000000E7    -2.604044330545158E-1    9.905827271445961E1    -6.780982172161727E1     5.692705202000101      -8.784287276147006E1     3.219176613389450E1    -8.898308659110519E1    -1.749572862947513E2
