#  HZ   S   DB   R     50.00 
! Rohde & Schwarz Vector Network Analyzer 
! Rohde-Schwarz,ZNB8-4Port,1311601044102961,2.82
! Created: UTC 2/12/2019, 1:37:54 PM
! freq[Hz]                db:S11                  ang:S11                 db:S12                  ang:S12                 db:S13                  ang:S13                 db:S14                  ang:S14
!                         db:S21                  ang:S21                 db:S22                  ang:S22                 db:S23                  ang:S23                 db:S24                  ang:S24
!                         db:S31                  ang:S31                 db:S32                  ang:S32                 db:S33                  ang:S33                 db:S34                  ang:S34
!                         db:S41                  ang:S41                 db:S42                  ang:S42                 db:S43                  ang:S43                 db:S44                  ang:S44
! 
 3.000000000000000E7    -2.690748894273399E-1    1.071885869975140E2    -7.899971726526081E1    -8.271767106160150      -8.892550467220761E1     1.680620470340766E1    -8.760215464959197E1     1.443747033247772E2
                        -8.914219157067443E1     1.607524812237930E1    -2.028113541485438E-1    9.400584098986133E1    -9.187299158773114E1    -1.553731838535293E2    -8.353372721180352E1    -1.337488774516366E2
                        -1.026510802953629E2     4.430738112516516      -8.250522285015335E1    -1.708507114116961E2    -9.217687875093940E-1   -7.594029311557352      -9.407658852408112E1    -7.433492584387132E1
                        -8.387911254664903E1    -1.241131796918295E2    -9.098335345109392E1    -1.385818619535405E2    -8.147244076969956E1     1.536739975133048E2    -9.331128033308163E-1   -1.253873330270420E1

 3.002500000000000E7    -2.731497693070573E-1    1.068963720165281E2    -8.912220319734318E1     7.532152629565688E-1   -8.179723631019715E1    -1.538850020671365E2    -8.628686369654801E1    -1.089933262055141E2
                        -8.293206161156029E1     1.114211393453540E1    -2.112932892729605E-1    9.361554783221672E1    -8.720826057387282E1    -1.043854170522811E2    -9.567157466697601E1     1.041714031207736E1
                        -8.429710306558265E1    -1.782360499696616E2    -8.701341671703941E1    -1.067616762441685E2    -9.249288902404418E-1   -7.886465223672866      -9.276006281754513E1     1.676460186600031E2
                        -9.006953844235027E1     1.174298838728354E2    -8.734200822231853E1     2.497553530902007E1    -8.645344828330605E1     1.055876476562539E1    -9.305148207464380E-1   -1.290957932438627E1

 3.005000000000000E7    -2.762200154615226E-1    1.066407547122080E2    -7.937988621852351E1     6.236286233174232E1    -8.914807397745287E1    -7.519467152309710E1    -9.413750344450784E1    -1.476592996909881E2
                        -7.897055609091187E1     2.333275218141684E1    -2.037108869019229E-1    9.333793222692005E1    -7.956290642481133E1     1.970350499956665E1    -8.643956486422263E1    -3.379255465205524E1
                        -8.740867589419091E1    -9.721251444571138E1    -8.802005557017219E1    -1.368245058700319E2    -9.220314309384942E-1   -8.189346153745747      -8.535192264808208E1    -3.311220097808096
                        -8.246580960063358E1    -5.080455870339394E1    -8.835319542847422E1     8.055540602166466E-1   -7.942834071867655E1     6.756125912932410E1    -9.272050409032360E-1   -1.319905564754089E1

 3.007500000000000E7    -2.687192454521857E-1    1.063346543842002E2    -8.295182448021456E1     9.024116676537544      -8.460763619950605E1     8.669837226229326E1    -9.525980502180438E1    -1.380551717235645E2
                        -8.766130730728209E1     1.427022872580041E1    -2.031245652151309E-1    9.291408112161719E1    -8.336747163509651E1    -9.816791748473158E1    -8.837270832220241E1    -1.189317445853819E2
                        -8.625003849590837E1     6.941272918565238E1    -9.250359846414108E1     8.916355388131454E1    -9.274309046636229E-1   -8.543381642492115      -8.404637848928698E1    -1.092601880609013
                        -8.644848715801898E1     1.276090397321566E2    -8.247837685086638E1    -1.618729938666012E2    -8.229899530079102E1    -1.283671852855196E2    -9.304893080994464E-1   -1.348812061875401E1

 3.010000000000000E7    -2.723386834246617E-1    1.060231910982142E2    -8.058641195229603E1     1.568771391285737E1    -9.333352072310682E1     1.186061600375350E2    -8.618408772426891E1     1.244012694098105E2
                        -8.216560845437691E1    -2.577880705453171E1    -2.062865083320846E-1    9.254272825618530E1    -9.029521742497445E1     3.663826808747699E1    -8.152836043048608E1    -1.129987725363414E2
                        -8.068558094914431E1     5.163412447330580E1    -8.575421423797322E1     7.812687066272646      -9.246302266009656E-1   -8.778525242820122      -8.810778394997089E1    -1.616678687195014E2
                        -9.286876721622875E1    -1.054380256192813E2    -7.883639092061793E1     1.170772441239830E2    -8.237402549984459E1    -9.033463373546938E1    -9.301834513638989E-1   -1.380669023016715E1

 3.012500000000000E7    -2.649085495673849E-1    1.057850503980365E2    -7.516358776091386E1     1.412558761393947E1    -9.082399120110981E1    -3.122508993933301E1    -9.154717996341346E1    -8.959575983929575E1
                        -8.230084588295867E1     5.821715125093869E1    -2.074114414660482E-1    9.224047672651192E1    -8.630408164376009E1    -3.247429621809420E1    -8.346426006342539E1     6.402324101056971
                        -9.436797761253617E1     1.088384475659809E2    -9.046254744912051E1     6.863120756253301E1    -9.274792596096790E-1   -9.137751942049667      -9.513317796274120E1    -1.024851797458585E1
                        -8.523377191026552E1     1.796306032880925E2    -8.193931020017602E1     4.172499933777552E1    -9.377049634279011E1     1.165701368939505E2    -9.259126886499214E-1   -1.411145995804484E1

 3.015000000000000E7    -2.679870131802269E-1    1.055114237681686E2    -9.451805444462354E1    -1.634501389701036E2    -8.326588408321881E1    -3.657744940715609E1    -8.079243157117847E1     1.371647986160148E2
                        -8.011418416824668E1     1.072634537303748E-2   -2.042951559416207E-1    9.179872578896811E1    -8.690848950554788E1    -1.178241937634905E2    -9.079674423542683E1    -1.044315476415385E2
                        -8.619538385835557E1    -4.680553665146986E1    -8.151543181557743E1    -1.019311434581958E2    -9.273435592554398E-1   -9.410732115541133      -8.527272596256269E1    -2.584946779054030E1
                        -8.811397107096221E1     1.126303388382495E1    -8.796832490679148E1     6.046299002345721      -9.524040345004174E1     4.117274889923667E1    -9.325667863378311E-1   -1.442323306527853E1

 3.017500000000000E7    -2.605553758588239E-1    1.051846480296373E2    -8.260376912139509E1    -5.337326746341134      -8.950204773138381E1     5.813886125901018E1    -9.064670612971898E1     1.200565359216165E2
                        -8.247547446732865E1     4.191140608715027E1    -1.992032949941411E-1    9.148957545711870E1    -8.352589633933621E1    -4.973363626663696E1    -8.669812103271410E1     5.508060699338705E1
                        -8.669141787046009E1    -4.389710707327993E1    -8.573757981703488E1     1.096730932109605E2    -9.277333820632183E-1   -9.722555519028470      -8.240586324491083E1    -1.694287391800627E1
                        -8.619933939423450E1    -1.140608705508078E2    -9.884373141762103E1     1.711147135479197E2    -8.682320167694041E1    -8.142958893930751E1    -9.313433170292460E-1   -1.475341828059951E1

 3.020000000000000E7    -2.672435161762426E-1    1.048809119415698E2    -8.261661902680982E1    -2.309196161023689E1    -8.516149162971732E1    -1.293742978770606E2    -9.511067355356288E1     6.292606491202999E1
                        -8.776701024245533E1     1.763189707172022E1    -1.976120607189975E-1    9.105245454806878E1    -8.737602715765669E1    -1.009274287795001E2    -1.008585526967157E2    -1.492094191081977E2
                        -8.801425620982587E1    -3.460422887047375E1    -8.924463934707168E1    -1.227594276836258E2    -9.260989873828540E-1   -1.000823310752124E1    -9.458382586003816E1    -1.170481357673115E2
                        -8.657437249337954E1    -1.581198279092019E2    -9.338568913017851E1    -1.052583635971271E2    -1.038926682830407E2    -3.462226431457955E1    -9.333630851987009E-1   -1.503410549708364E1

 3.022500000000000E7    -2.660588357357272E-1    1.045878459878049E2    -8.627653816763839E1    -4.513337667451792E1    -9.367633972112370E1    -1.094662035496016E2    -8.079093435898346E1     1.060707687530615E2
                        -7.909776848442745E1     3.184224431884424      -2.013904987532433E-1    9.068881911971342E1    -8.135612516363307E1    -1.394808201594351E1    -8.521871564158636E1    -1.194559623588080E2
                        -8.532013140933307E1     1.017815053939103E2    -7.924614910203397E1    -7.323976564567130E1    -9.267649746665387E-1   -1.025707690602286E1    -9.527122087681777E1    -1.538046032523117E2
                        -8.146286781269482E1     5.135982231706387E1    -9.022517231336350E1     3.486660954581344E1    -8.560738056415106E1    -7.430134825131191E1    -9.324795550025606E-1   -1.535942396402186E1

 3.025000000000000E7    -2.714550202858042E-1    1.043585045715353E2    -8.435160114515091E1    -8.287068409853613E1    -7.856974270164281E1    -2.350224960090230E1    -1.062013601801535E2     7.041008756453695E1
                        -8.437701025991451E1    -1.434773953107002E1    -2.082491436046718E-1    9.034715764428613E1    -8.975674746878218E1     1.780796398902086E2    -9.037661925974355E1     9.847365020406381
                        -8.363854180677720E1    -1.320669527351795E1    -9.709180197119167E1     1.632650718724704E2    -9.220048472084687E-1   -1.060646230504174E1    -8.548135386710258E1    -1.590812616481391E2
                        -9.945479997887604E1    -9.827456409429573      -9.173433127858276E1    -6.870371630396612E1    -8.636496875586369E1    -2.853458725731275E1    -9.292746907230445E-1   -1.564794763826634E1

 3.027500000000000E7    -2.613344956320463E-1    1.040330685716887E2    -7.566981920168742E1    -1.047753245519726E1    -8.567427875595094E1    -5.253964126770121E1    -8.462920657768036E1     1.965240580977350E1
                        -7.669379930339025E1    -7.711696432684086      -1.919059041694223E-1    8.998775072758326E1    -8.397626267850443E1     5.526988331014128      -9.006571440884659E1     1.534128485591890E2
                        -8.525437243435064E1     1.315658158920812E2    -7.977684241170296E1     9.588667465768900E1    -9.275972153738737E-1   -1.092950894714157E1    -8.370929264640056E1     1.732881231671590E2
                        -9.266875764278208E1     1.068068979015070E2    -8.357496718559263E1    -9.528787916209707      -9.048376924360227E1     1.017672958114444E2    -9.271696798213349E-1   -1.595309536333752E1

 3.030000000000000E7    -2.700178631865418E-1    1.037940879375004E2    -8.650449531578998E1     4.868236256878810E1    -9.556952603257109E1     1.525668954641080E2    -9.297742693736772E1    -3.572292477039161E1
                        -8.951798365060922E1    -1.169643691205048E1    -2.026024699666457E-1    8.958247714076846E1    -9.789883246389907E1    -1.553615150669938E2    -9.561232055745590E1     6.575684377588739E1
                        -8.981971814707677E1    -1.624176353196332E2    -8.507416397260769E1    -1.961713948793922E1    -9.245849038549545E-1   -1.119654891725514E1    -9.888806654082001E1    -6.331133872089537E1
                        -9.022259162083957E1     7.921950163649842E1    -8.342123817545021E1    -6.210177859659031E1    -9.435636324075134E1    -8.606265426262476E1    -9.284710367330494E-1   -1.625214199750108E1

 3.032500000000000E7    -2.661894762974411E-1    1.034574393535170E2    -7.490128860921649E1    -3.415544174783786E1    -8.119714896498856E1     7.590120489637697E1    -8.348391491880281E1    -8.931725044502461E1
                        -8.111745131635053E1     5.162635381125625      -1.965462030312895E-1    8.921320505037703E1    -9.134350832550467E1    -9.796152615605166E1    -8.953859054640009E1    -4.565332906863836E1
                        -8.955513073374220E1     1.527301323614029E2    -8.377543046311041E1    -1.337643591166663E1    -9.272780032762708E-1   -1.153928799280474E1    -8.839528970782878E1     9.968632058014657E1
                        -9.124254982267874E1    -5.559879477292781E1    -9.128246724557648E1     1.441980335256640E2    -9.070161493948505E1    -1.253484362802744E2    -9.292281696960526E-1   -1.654537263229636E1

 3.035000000000000E7    -2.649904526598327E-1    1.031648475755501E2    -7.719999150935655E1    -2.738273317220568E1    -8.387415515023020E1     1.117587809952334E2    -8.211574718484332E1     1.405071972627153E1
                        -7.697249887039793E1     7.032636282998349      -1.951997086147212E-1    8.885881441892259E1    -8.638036281655494E1     1.502098625913518E2    -1.080948284710634E2    -7.491815788529139E1
                        -8.253062510671168E1     2.107556309339468E1    -8.974437571737064E1    -1.382421589110099E2    -9.213213798858237E-1   -1.184710263384772E1    -9.707443433692347E1     9.802521171838221E1
                        -9.170626856808303E1    -6.995261373909234E1    -8.251741657677394E1     3.348200261803963E1    -9.128481169369371E1    -1.417604641330539E2    -9.357530574652939E-1   -1.687848076112406E1

 3.037500000000000E7    -2.647439460213396E-1    1.028611961435218E2    -7.811640709375239E1     2.810096385450262E1    -8.804793770099386E1    -3.217328001039559E1    -9.267276198167903E1     1.378517415112373E1
                        -1.104322358821659E2    -5.714607771086504E1    -1.998845776246842E-1    8.844138463105689E1    -8.298284746999147E1    -2.609150349834060E1    -7.911298897471409E1    -3.682434225418663E1
                        -8.087050640851537E1     1.028566354944683E1    -8.296189755010353E1     1.166139954312984E2    -9.201803820064161E-1   -1.212366743672268E1    -9.152641065904433E1    -5.933107653216194E1
                        -8.876581167088153E1     1.353782068712522E2    -8.731357657957680E1     3.919654032958027E1    -9.762968923773784E1    -1.006634527101835E2    -9.272652321916894E-1   -1.715962369151672E1

 3.040000000000000E7    -2.650788370258376E-1    1.025749714455232E2    -7.919739265769208E1    -5.379800271768577      -8.489809090995661E1    -1.808214561013520E1    -8.274331308511938E1     7.957199951652891E1
                        -8.468937293442482E1    -1.874318674035790E1    -2.035157763529358E-1    8.813341150453547E1    -8.643741712465641E1    -3.303538744120434E1    -8.315553541003462E1     9.233807126715222E1
                        -8.771320180798738E1    -8.202983912755241E1    -8.516816841215680E1    -2.678932188169353E1    -9.256676636033139E-1   -1.241477555552964E1    -8.244869810643378E1    -1.715313764449699E2
                        -8.739411448282020E1     8.237691430109555E1    -8.759183582921301E1     2.589013830148357E1    -8.436316937146194E1     1.374323342514680E2    -9.305383438503756E-1   -1.747223890167444E1

 3.042500000000000E7    -2.634055976162423E-1    1.023192738436061E2    -7.876539633645463E1    -5.752916989009985      -8.175383375694108E1     1.213337474358431E2    -8.735192062410071E1    -9.936500927047959E1
                        -8.526318019531038E1    -1.159933473761915E1    -2.004240250042797E-1    8.769942061443508E1    -9.408693199836600E1    -1.193610628534547E2    -8.147768443496206E1    -1.677069315532631E2
                        -8.873276645537834E1     1.248221001839920E2    -8.334909088875172E1    -1.551963998667733E2    -9.209949343921340E-1   -1.268230161061025E1    -9.242304764105812E1    -6.952242823590106E1
                        -8.430050794325261E1    -2.198196246250482E1    -9.106884806873984E1     9.384316514108176E1    -8.394462324523666E1    -3.526778862741358E1    -9.282056953463833E-1   -1.780425006926361E1

 3.045000000000000E7    -2.661233293923340E-1    1.019974865756675E2    -8.010232715275308E1     4.887062762421332E1    -8.379148409356401E1     9.567680506416325E1    -1.033595701557754E2    -1.661658437400739E2
                        -7.852458366763779E1     1.913149260167800E1    -1.946642747547940E-1    8.732014396864756E1    -8.566781117712479E1     9.411220782889410      -8.304047527675913E1    -6.318201314388797E1
                        -9.222400685898276E1    -8.647956168282413E1    -8.997380872451308E1     3.828072852583662E1    -9.187407758858122E-1   -1.301876741918644E1    -8.383059544032196E1    -8.963540421866115
                        -9.381836260741682E1     1.729210682477696E2    -8.498190876778989E1    -1.749327165564788E1    -8.938034541432401E1     6.468862477569552E1    -9.338547620537723E-1   -1.808952266767559E1

 3.047500000000000E7    -2.619612109305771E-1    1.017179727390275E2    -8.074396133223073E1     5.197515726143902E1    -8.658832254000772E1    -3.365773987580513E1    -9.356152318080231E1    -1.156933607006077E1
                        -8.054024128795648E1     6.344995762209673E1    -1.931401038269364E-1    8.696671817635678E1    -8.008426212072500E1    -1.365113231365636E2    -9.038926159847202E1    -1.752540916446191E2
                        -9.671927266900788E1     4.671284979652261E1    -8.398253426906008E1    -9.752157800574595E1    -9.236335977571047E-1   -1.331368309563465E1    -8.949565874085670E1     9.708951417029836E1
                        -1.012860325953303E2     1.113785033712299E2    -1.006584585710156E2     2.238819504870470E1    -8.313120560624411E1    -1.750513392660230E2    -9.317886088953120E-1   -1.842628343959072E1

 3.050000000000000E7    -2.681369856526935E-1    1.014466166049254E2    -8.810058007104337E1     5.282947435663880E1    -8.333522915330275E1     4.374992209454207E1    -7.950333239448466E1    -1.045123168902216E2
                        -7.576335930543716E1     1.619095062687562E1    -1.898820210859726E-1    8.655563698494613E1    -8.717293146721831E1     1.245502834243470E2    -8.254471000445113E1     9.280944277536565E1
                        -8.581868479246283E1     1.642123275491049E2    -8.859873200840298E1     9.182817607469842E1    -9.274876820631064E-1   -1.362800594654671E1    -8.354838352687315E1     9.443426641635870E1
                        -9.248468075480412E1     2.248855149557090E1    -8.264279165299053E1    -9.946468292200159E1    -8.480821336941055E1    -6.044914283356219E1    -9.311733510565077E-1   -1.867878874418220E1

 3.052500000000000E7    -2.592476596862751E-1    1.011796204989324E2    -8.024526057509767E1     4.647551369829987E1    -8.771729077495309E1    -6.839023447121254E1    -8.529451992540116E1    -2.559521921292103E1
                        -8.896668942183564E1     3.049276527667960E1    -1.920370020824002E-1    8.617193305454543E1    -9.518509849375994E1    -7.459701212791981E1    -8.206602328481658E1    -1.395283589082536E2
                        -8.270106395424632E1     1.278961366224528E2    -9.253058269816370E1    -1.749125597813578E2    -9.234021860631564E-1   -1.392493911677321E1    -8.692687275036892E1     9.153033102791129E1
                        -8.074198296638235E1     3.063423757157095E1    -9.103338059711740E1     1.246325561704360E2    -9.016510798922441E1    -7.383968670797098E1    -9.326357668934537E-1   -1.900084279496394E1

 3.055000000000000E7    -2.573630972817632E-1    1.008343068260843E2    -1.037292230250883E2    -1.538975972308891E2    -8.915579501046051E1     1.289315629469767E2    -8.596980783285012E1     1.483943139970922E2
