#  HZ   S   DB   R     50.00 
! Rohde & Schwarz Vector Network Analyzer 
! Rohde-Schwarz,ZNB8-4Port,1311601044102961,2.82
! Created: UTC 2/12/2019, 1:42:25 PM
! freq[Hz]                db:S11                  ang:S11                 db:S12                  ang:S12                 db:S13                  ang:S13                 db:S14                  ang:S14
!                         db:S21                  ang:S21                 db:S22                  ang:S22                 db:S23                  ang:S23                 db:S24                  ang:S24
!                         db:S31                  ang:S31                 db:S32                  ang:S32                 db:S33                  ang:S33                 db:S34                  ang:S34
!                         db:S41                  ang:S41                 db:S42                  ang:S42                 db:S43                  ang:S43                 db:S44                  ang:S44
! 
 3.500000000000000E7    -1.205423997717736E-1    1.962690733855380E1    -3.268137050946882E1    -8.993085828706390E1    -9.128351943684002E1     2.484829267625121      -8.071659350761506E1    -4.670336408187318E1
                        -3.269998203406516E1    -9.040525091888523E1    -1.577215860697402E-1   -1.838801608913863E1    -8.511336035852290E1    -1.193488705397074E2    -8.437451439192500E1    -9.825483214375225E1
                        -8.595892763348206E1    -1.354167916830484E2    -8.563008560502905E1     1.718867025498177E2    -9.818479963342666E-1   -6.836473494202821E1    -8.656393300785304E1    -1.097550709923911E2
                        -7.775985087365720E1    -7.021989358309295E1    -8.467952533293114E1    -6.844294315389324E1    -8.190702028914329E1    -1.403257530923210E2    -9.951754335029162E-1   -7.453888232003121E1

 3.500250000000000E7    -1.211630009321210E-1    1.957236378145416E1    -3.277487788675339E1    -8.957710885100767E1    -9.349201565814735E1    -9.104484827659566E1    -8.269015577501398E1     9.912425068533398E1
                        -3.270910815796042E1    -9.008869849005917E1    -1.542072678048135E-1   -1.847572814250134E1    -8.413225420496030E1     1.029166430324921E2    -8.631445841436542E1     1.741785551114545E2
                        -8.541309883598697E1    -5.449523078468560E1    -9.031054926781701E1    -1.395296291786050E2    -9.801921549788601E-1   -6.837751245700129E1    -8.532793901379365E1    -6.140064437723694E1
                        -8.568287742416490E1    -1.361256310473195E2    -8.872934349068734E1    -9.677287635452106E1    -8.101022082350073E1     1.342695600902690E2    -1.004534190324463      -7.457637905045696E1

 3.500500000000000E7    -1.220227264891010E-1    1.951634311107859E1    -3.268424419799374E1    -8.957993402018515E1    -8.479489807720984E1     1.749086841857581E2    -8.261885175663515E1    -1.158792651721814E2
                        -3.267592389127042E1    -8.995070145034188E1    -1.540423933594832E-1   -1.861146921657311E1    -9.469407613975447E1     1.573063535246316E2    -8.259224424753316E1    -2.868618651948156E1
                        -8.679983942425173E1    -1.537520697985545E2    -1.043438467500559E2     1.525741998947212E2    -9.840852686436363E-1   -6.838081172118470E1    -9.575365984585278E1    -1.516431921389734E2
                        -8.801420419601402E1    -7.258373113205963E1    -9.575891648070366E1     9.972601212869590E1    -8.348064738071089E1    -7.975140938806382E1    -1.001342430827471      -7.460335352133937E1

 3.500750000000000E7    -1.173564350387230E-1    1.945124715218929E1    -3.260010695984215E1    -9.001095948653607E1    -8.030199393742394E1    -1.553829010990970E2    -8.642666662338696E1     1.396842498721018E2
                        -3.256545465200822E1    -8.958522005500497E1    -1.562054115163030E-1   -1.872344028932353E1    -9.266152979784935E1     2.152725282061600E1    -8.035193987417004E1     4.686399040262928E1
                        -8.854726151523133E1     1.773996916615435E2    -9.475567792958925E1     2.754491302069845E1    -9.783150051561157E-1   -6.846910740844798E1    -8.159573229814805E1     5.276496536759649E1
                        -9.228575767582539E1    -8.652632688289395E1    -8.957490541451855E1     1.382442241548060E2    -8.853061852590903E1     4.372418665724065E1    -1.002366453655037      -7.467361416366498E1

 3.501000000000000E7    -1.240655799340548E-1    1.938318323177693E1    -3.266209426061131E1    -9.043853868777168E1    -7.773592980289496E1    -9.791757540140198E1    -8.453025658250566E1    -7.804166908556239E1
                        -3.261222975999542E1    -9.025782962517876E1    -1.608683061566560E-1   -1.885598456703604E1    -8.795954817352632E1    -1.731524552657291E2    -8.591900761506713E1    -8.491599541646586E1
                        -8.657039022013285E1    -1.759404001177119E2    -8.690378544771571E1     5.347137988933572E1    -9.835855018868402E-1   -6.847413461880863E1    -1.016494807404258E2    -9.309277832274334E1
                        -9.300038141537752E1    -1.019823768570984E2    -8.214177465575347E1    -5.501629248023332E1    -8.623271822552951E1    -4.487789858171053E1    -1.000869770459659      -7.465756186543889E1

 3.501250000000000E7    -1.215548443700994E-1    1.931970754185226E1    -3.265139772485911E1    -9.033894570931065E1    -9.132299657018376E1    -6.119810935687914E1    -8.244561903228123E1     1.784501957894605E2
                        -3.264616652732856E1    -9.017213618767448E1    -1.558299298684497E-1   -1.899358660575731E1    -8.340452271272837E1     4.356439334689617E1    -8.150336392320986E1     1.668672538492202E2
                        -7.984533050793255E1    -8.739135946137446E1    -8.560642037973879E1     3.089807663915364E1    -9.810765973729279E-1   -6.852454542956227E1    -9.831519305653799E1     4.803750276021772E1
                        -7.922172177370828E1    -8.784313082935472E1    -8.991444225164725E1     3.464055897354877E1    -9.124795442783842E1     4.174433691484419      -1.002678100914105      -7.470199912890871E1

 3.501500000000000E7    -1.219173764868489E-1    1.927569445112146E1    -3.263276127716188E1    -9.064446809262850E1    -9.156208789362051E1    -9.093869272278330E1    -9.460110933136843E1    -2.519518995606799E1
                        -3.261816579947858E1    -8.984442673189273E1    -1.548423700732672E-1   -1.908697620542168E1    -9.199178233340498E1    -8.194475509369919E1    -8.421251988820215E1    -1.628879697648371E2
                        -9.047535166889495E1    -1.681099635892412E2    -9.579420189824700E1    -1.207344729768426E2    -9.824162507184595E-1   -6.857862137006418E1    -8.965423190497791E1    -6.738750072673379E1
                        -8.033033815100541E1    -9.926225699212218E1    -8.926145847201150E1     1.147943487184278E2    -8.225787035062027E1    -6.039726356117768      -1.000204515834009      -7.470410129329997E1

 3.501750000000000E7    -1.244429416348186E-1    1.921884473953458E1    -3.251729959205041E1    -9.023375178602866E1    -8.318321537190417E1    -1.434716995951260E2    -7.981341084564258E1     1.780672200272990E2
                        -3.265555357253036E1    -9.148850181670505E1    -1.580228090419855E-1   -1.922792313365065E1    -8.891334619356941E1    -4.290962132562778E1    -8.873411522350102E1     8.600620837897036E1
                        -8.780760875582779E1     2.181975796720101E1    -8.801867798109447E1     9.167540159928360E1    -9.813251894646258E-1   -6.858403887859649E1    -9.805739725791922E1    -1.315113156903118E1
                        -8.376094293655164E1    -9.559098726241257E1    -8.486457649189609E1    -3.217815314165975E1    -8.015529589473391E1     1.265260077727787E2    -1.001659299169569      -7.475227203844619E1

 3.502000000000000E7    -1.178686432220856E-1    1.916439074200907E1    -3.258851761967479E1    -9.093657160078143E1    -8.247771838930061E1    -1.139783368909868E2    -7.982722911687219E1    -3.216460387814080E1
                        -3.258737344786230E1    -9.076812851046437E1    -1.537120246829043E-1   -1.936996379078925E1    -8.570489044041867E1     9.023070862862146E1    -8.435845546383615E1    -8.080576331949072E1
                        -8.381543061402326E1     9.000570290628438E1    -8.277818574220602E1     5.146835577005013E1    -9.801256453465499E-1   -6.861005911005157E1    -8.126020290046333E1     9.940691827758268E1
                        -8.409903539717114E1    -1.353718072364817E2    -8.613884562530330E1    -4.374293386729638E1    -8.312600256743858E1     9.979354177503085E1    -9.981167171533716E-1   -7.478174954649381E1

 3.502250000000000E7    -1.232141012450433E-1    1.907437231663658E1    -3.251618795371294E1    -9.091932218164892E1    -7.914431698723514E1    -1.092942732070615E2    -1.030028478114474E2     6.658566586892772E1
                        -3.263443358228879E1    -9.014899096131219E1    -1.578876919384478E-1   -1.948192435986476E1    -9.081880501614043E1     5.611098077538257E1    -9.619692369976087E1     1.717548852256425E2
                        -8.836227996873961E1    -1.748829402223259E2    -9.072960557162985E1    -3.063394456616282      -9.802007906656076E-1   -6.865858323508219E1    -9.989029953924302E1     1.150262888432228E2
                        -8.667469873929531E1    -1.311350602609639E2    -7.854578874607635E1     9.476999491570956E1    -9.281072226680054E1    -1.415990360298495E2    -9.938677079409976E-1   -7.481806011019843E1

 3.502500000000000E7    -1.217207454942050E-1    1.906040366056299E1    -3.264090530001861E1    -9.116901067712603E1    -8.032635906450892E1    -1.396626678092349E2    -8.646962503864282E1    -8.794640291282519E1
                        -3.261904368840184E1    -9.127900726914814E1    -1.571057190635776E-1   -1.959324753022159E1    -8.735214765074579E1     1.258783429367879E2    -8.027358361645780E1     7.114904917013507E1
                        -8.180334665564854E1    -1.002715487854957E2    -8.404958353374533E1    -8.535150836373988E1    -9.803201448513367E-1   -6.865898832148417E1    -8.639529522465010E1    -1.106164928241230E2
                        -9.530561505131281E1     1.530428420908736E2    -8.690706412118912E1    -5.042872697130116E1    -1.189829269803349E2    -1.631890513670908E2    -9.955889946969975E-1   -7.483144442617486E1

 3.502750000000000E7    -1.210752758754876E-1    1.898180443262297E1    -3.255959626719903E1    -9.094176730201038E1    -7.952797747715820E1    -1.310111238224348E2    -8.488093370228675E1    -1.582731402735106E2
                        -3.256993921508740E1    -9.067442679651974E1    -1.568597760245796E-1   -1.968435848784151E1    -8.697598737144070E1    -3.267574796693612E1    -8.272347636974479E1    -8.312334274982986E1
                        -9.151225304865336E1    -8.543378114332131E1    -8.249278047545175E1    -1.498439361044382E2    -9.779433065362269E-1   -6.869665297361038E1    -8.455181797939861E1     8.225809121630795E1
                        -8.635356007880944E1    -1.445327052892789E2    -8.533983685036858E1     2.019077103196348      -9.584805275518148E1    -4.820158675736663E1    -9.997324221885098E-1   -7.489929721016335E1

 3.503000000000000E7    -1.210962822116337E-1    1.891539940410450E1    -3.261678032542206E1    -9.094015314458821E1    -8.608717700181433E1    -1.215799399890436E2    -8.784480986783576E1    -1.478187704760246E2
                        -3.251699629475601E1    -9.095488696783572E1    -1.607682685498851E-1   -1.985864668279553E1    -9.163359585335755E1    -6.721484076853881E1    -9.556993995794457E1    -4.336521926004029E1
                        -8.654654652340092E1    -8.109071673039082E1    -8.220315909052809E1    -1.746586298785131E2    -9.769917392357848E-1   -6.872027829632643E1    -8.930821019133850E1    -9.054684074128012E1
                        -8.691475368420251E1     1.021178529544936E2    -8.690759341530161E1    -1.574979715923606E2    -8.447490444775576E1     8.891576586085101E1    -1.003405741847385      -7.492214350990335E1

 3.503250000000000E7    -1.205647545089350E-1    1.886075359348965E1    -3.249293761053450E1    -9.101307351898603E1    -9.726391820431323E1    -3.124852250401541E1    -8.201771217998365E1    -9.210435289677831E1
                        -3.245268970079139E1    -9.036757394132455E1    -1.576594883113693E-1   -1.996771373273598E1    -8.592736979493424E1     6.175891426735667E1    -8.221690553504160E1     9.895182773361600E1
                        -8.941296762024129E1     1.548897894564854E2    -8.545303216899470E1    -8.545333552284036E1    -9.786842959028941E-1   -6.875011560734966E1    -9.030679455726809E1    -4.773325435921077E1
                        -9.461170207656400E1    -1.835189930090506E1    -8.307317640320555E1     3.888594537883630E1    -9.227925367415764E1    -9.128209839047158E1    -9.966516008196786E-1   -7.493165628405194E1

 3.503500000000000E7    -1.242881235694701E-1    1.881956973890749E1    -3.246725193562578E1    -9.071064226761624E1    -8.334228764816157E1    -1.211195180428921E2    -8.939479148752172E1    -1.106471302991569E2
                        -3.247412518607917E1    -9.089725202474210E1    -1.591123150628444E-1   -2.006921775932969E1    -8.547751493179376E1     1.589522253548104E2    -8.223925177681792E1    -1.368492686162374E2
                        -8.165362959579178E1    -1.083243890376180E2    -8.857422532036171E1     1.552930529695140E2    -9.805540555108803E-1   -6.879500790076925E1    -8.955729684746802E1     1.200142057642869E2
                        -8.383151428300700E1    -7.427645008963516E1    -9.635196714135500E1     1.448912062819742E2    -8.923914521015205E1    -1.262288673811555E2    -1.000890708125612      -7.494910062914775E1

 3.503750000000000E7    -1.211195239102316E-1    1.874999772469312E1    -3.248842550308791E1    -9.092842207316504E1    -8.408824993241814E1    -5.528296915333146E1    -7.950605936035088E1    -9.348483052856172E1
                        -3.240477051723306E1    -9.052068826377891E1    -1.592362470164457E-1   -2.020289611236126E1    -8.276621083540954E1    -8.904100774979213E1    -8.909691264383200E1    -1.343773198269699E2
                        -8.355836441836972E1    -1.180132442642402E2    -8.493979200449515E1     1.721412232244422E2    -9.822578423296311E-1   -6.878813575838483E1    -8.892287880115639E1     2.022420806208316
                        -8.862436326987910E1     3.796697859707771E1    -8.486371842446832E1     5.404856586651444      -8.228212893169629E1    -8.966924007156634E1    -1.002129656822320      -7.501055054056103E1

 3.504000000000000E7    -1.173241717271979E-1    1.868581867490834E1    -3.250763768794170E1    -9.233881545345929E1    -8.418487923196099E1    -7.160953237906686E1    -1.002499340001311E2    -3.420898928977626E1
                        -3.257822888951202E1    -9.167187257849923E1    -1.567668272102079E-1   -2.033757734720912E1    -8.533686513926016E1     7.192959660382267E1    -8.319392089617696E1     1.279885469024980E1
                        -8.960161842124016E1    -1.387932752000401E2    -9.362051802420200E1     1.155899242863996E2    -9.764674388812512E-1   -6.885468260923408E1    -8.390651789824837E1    -1.085984611940084E2
                        -9.812243372811865E1    -4.753759722768478E1    -9.991920301326653E1    -1.014606641457465E2    -9.338125968126076E1    -6.154143146189474E1    -1.003291677845893      -7.502556735617561E1

 3.504250000000000E7    -1.208573750223604E-1    1.861958764169217E1    -3.242963669921709E1    -9.151796105190374E1    -8.009730326221707E1    -1.129173138387341E2    -8.830636648359499E1    -1.486884786345883E2
                        -3.249082350318206E1    -9.197441236835793E1    -1.603750806150671E-1   -2.044419081468546E1    -8.863804923867791E1    -1.007330567723673E2    -8.452219277608363E1     1.660272121329950E2
                        -7.975312113414640E1    -1.026941386663802E2    -8.139687296385819E1     9.007149797401797E1    -9.859784313878990E-1   -6.887646611623188E1    -8.506103809735913E1    -1.610977459471474E2
                        -8.753619749972538E1    -8.503162748603499E1    -8.458342372994706E1    -1.062256903113914E2    -8.128409844401810E1     1.233175930368643E2    -1.000571998319347      -7.504410502921787E1

 3.504500000000000E7    -1.237044886002520E-1    1.857179215671046E1    -3.232858190196207E1    -9.185449154902719E1    -8.220307310725724E1    -1.295070953225486E2    -9.196609325677582E1     1.418864852150742E2
                        -3.254074661269630E1    -9.152231654584648E1    -1.548166549391127E-1   -2.056946633712180E1    -8.967967462223629E1    -1.474706344648786E2    -9.440863055960776E1     1.020088052914301E1
                        -8.356654091294311E1    -1.433864009962859E2    -8.419211460444073E1    -1.337629512079240E2    -9.795475122529564E-1   -6.890206328744856E1    -8.274085592350637E1     6.859390627030024E1
                        -9.243098822766774E1    -8.536624528515304E1    -8.753913203923474E1    -3.562340505362383E1    -8.343405228557479E1    -5.393529030514809E1    -1.003251392682266      -7.509248335861057E1

 3.504750000000000E7    -1.175711334077097E-1    1.853375041830876E1    -3.246002102398218E1    -9.180219874833063E1    -8.827201807501020E1    -1.746394187787312E2    -8.508240304217878E1     1.013069401706673E2
                        -3.241131677076521E1    -9.222696052910558E1    -1.555517879854672E-1   -2.067313311451885E1    -8.656587744097328E1     1.554785922758113E2    -8.449783950624082E1    -5.764150157966331E1
                        -8.969005618576544E1    -1.651904064323470E2    -8.726666479006367E1     8.442941395694957E1    -9.821435155277081E-1   -6.893100207342472E1    -8.504394090236227E1     1.163080508294320E2
                        -8.132503243794275E1    -1.405646674287024E2    -8.304868617349382E1    -9.924234971338626E1    -8.976501380902809E1     1.672782624920280E2    -9.993664780861911E-1   -7.515289397670553E1

 3.505000000000000E7    -1.228155468485292E-1    1.844953127894280E1    -3.244359103548615E1    -9.179859353083310E1    -7.725838226677138E1    -1.373242621940254E2    -7.969395805040179E1    -8.202476315169444E1
                        -3.233151349478854E1    -9.169523502777425E1    -1.610110807025995E-1   -2.081407906906915E1    -8.746236569781817E1     1.510827691291316E2    -8.298889871695438E1    -5.884424374630166E1
                        -8.365493631611659E1     1.678463618148645E2    -8.216566687173054E1    -3.358862367412784E1    -9.815024754330124E-1   -6.895384439393739E1    -8.211254094864800E1    -8.259538891465380E1
                        -8.332375758185108E1    -1.613183400123860E2    -8.882272478448796E1    -7.927483404266690E1    -1.082020260511852E2    -6.690876668252929E1    -1.001695801424069      -7.515617346072008E1

 3.505250000000000E7    -1.259588161562441E-1    1.839256513599421E1    -3.226671562785291E1    -9.127074041182236E1    -8.437804085611296E1    -1.230872502512771E2    -9.621079622539253E1     2.392857550842510E1
                        -3.233402432827923E1    -9.264225730623673E1    -1.570619309511352E-1   -2.094878882643506E1    -8.559808046663413E1     6.088497535305218      -8.437337943685594E1    -9.474132392086044E1
                        -8.330539680429276E1    -1.197938625568915E2    -8.236143873122089E1    -8.737661420588962E1    -9.762216326562646E-1   -6.901078034538129E1    -8.054256908542794E1     7.496673871065377E1
                        -7.992849247698777E1    -1.657916079406853E2    -8.741667683384405E1    -1.778356858706393E2    -8.873256671920697E1    -1.164009282985531E2    -1.000774788672452      -7.519294071412476E1

 3.505500000000000E7    -1.220312943832251E-1    1.831251430776226E1    -3.236693625348868E1    -9.165781411821325E1    -1.114139661289769E2    -5.146561458066305E1    -8.110491624193186E1    -1.185017801087790E2
