#  HZ   S   DB   R     50.00 
! Rohde & Schwarz Vector Network Analyzer 
! Rohde-Schwarz,ZNB8-4Port,1311601044102961,2.82
! Created: UTC 2/13/2019, 9:08:14 AM
! freq[Hz]                db:S11                  ang:S11                 db:S12                  ang:S12                 db:S13                  ang:S13                 db:S14                  ang:S14
!                         db:S21                  ang:S21                 db:S22                  ang:S22                 db:S23                  ang:S23                 db:S24                  ang:S24
!                         db:S31                  ang:S31                 db:S32                  ang:S32                 db:S33                  ang:S33                 db:S34                  ang:S34
!                         db:S41                  ang:S41                 db:S42                  ang:S42                 db:S43                  ang:S43                 db:S44                  ang:S44
! 
 5.525000000000000E7    -3.623837674253385      -1.526025653286561E2    -3.220478444152973E1     7.012500167012446E1    -6.533410343268571E1    -1.656305380601417E2    -7.276993360381081E1    -1.235622248725133E1
                        -3.230101707337784E1     6.993086190983637E1    -3.568441831800690E-1    9.401676383873792E1    -8.402970264432041E1    -9.879283582715974E1    -9.607545609070866E1    -1.185894971624252E2
                        -6.599078064696876E1    -1.649136139341536E2    -9.451445256426517E1     2.135741510509862E1    -1.386911278454263       3.490603800243939E1    -9.337259134264033E1    -5.033608682492211E1
                        -7.454356069705132E1    -2.937539057653926E1    -9.023609923332053E1    -7.793676922174683E1    -9.012410441253807E1    -8.693683613806743E1    -1.380858275327332       2.849098559247272E1

 5.525025000000000E7    -3.624541912186857      -1.526785353460386E2    -3.216069329719291E1     7.123987409505003E1    -6.543316542477251E1    -1.674281213851396E2    -7.420276082730770E1    -8.011793687109234
                        -3.231727684374788E1     6.987949739569019E1    -3.535983468813378E-1    9.399695271394677E1    -8.695116688820697E1    -6.976070683719091E1    -8.912460349674511E1     1.167824481658706E2
                        -6.515538560665401E1    -1.608197516435346E2    -1.027614518535304E2    -1.510566214187509E2    -1.389712945635056       3.487025404682589E1    -9.274085112587423E1    -7.910633630565043E1
                        -7.265673850997389E1    -8.326452308731518      -8.125351792035627E1    -1.662807222012555E2    -8.107647764926492E1    -1.736446630392825E2    -1.380832275044016       2.844978060012399E1

 5.525050000000000E7    -3.630510162278340      -1.526728898557359E2    -3.209808642696914E1     6.957239549291884E1    -6.541954850237867E1    -1.637693119880740E2    -7.391623065794843E1    -1.339796748074716E1
                        -3.222816078855081E1     7.080219582377958E1    -3.533623190509624E-1    9.402473185298915E1    -9.629713186859695E1    -1.094070632552117E2    -8.449115381699770E1     1.449953517459076E2
                        -6.557702927817887E1    -1.577126193263695E2    -8.699912946843924E1     9.356905295419000E1    -1.388839021599891       3.488969926301495E1    -9.356129991920726E1     7.278234281440503E1
                        -7.256664091237334E1    -1.990915683263977E1    -8.978810847910398E1     1.000807409469753E2    -8.626568933901689E1     1.164782777855813E2    -1.382933487083633       2.844711631370467E1

 5.525075000000000E7    -3.635778658042570      -1.527079293172815E2    -3.231155492160405E1     7.022240384326125E1    -6.513910120722449E1    -1.616843142878429E2    -7.290793638119106E1    -1.106727800607690E1
                        -3.228796142974107E1     7.022070152997058E1    -3.538904940072260E-1    9.400843886687551E1    -8.474610755971781E1     9.110895377613973E1    -8.768834096756505E1    -9.443183311211225
                        -6.481068182469110E1    -1.652328394341489E2    -8.271178115365507E1    -1.057804592590768E2    -1.391140373982580       3.487323826552937E1    -9.106493305782061E1    -4.157843998851779E1
                        -7.425521798078484E1    -3.582056412354000E1    -9.044643491767869E1     1.319563304561893E2    -8.619123187415796E1     5.954794542796027E1    -1.381074780402873       2.845662706808661E1

 5.525100000000000E7    -3.639535761658934      -1.527752801392304E2    -3.220527931155331E1     7.096115369391150E1    -6.597927492748542E1    -1.583703158733932E2    -7.433278773533064E1    -1.587151136005387E1
                        -3.226821767270810E1     7.029366309103239E1    -3.590277637154082E-1    9.400350270388127E1    -9.192842333132080E1    -1.011027372858143E2    -8.186232146488506E1     1.474259871380900E2
                        -6.572424046723751E1    -1.622569887898143E2    -7.934847642659175E1     2.942967017667030E1    -1.390859330675640       3.486746907477671E1    -9.026690452744327E1    -1.557481094463792E2
                        -7.425576759173465E1    -1.839595275748727      -8.267901960926180E1     4.971597601510510E1    -9.985725186392403E1    -7.532014056739726E1    -1.378796907366558       2.843470119965287E1

 5.525125000000000E7    -3.646204227507321      -1.528367109366040E2    -3.224359558457898E1     6.977058347332904E1    -6.508560772521106E1    -1.627008934028569E2    -7.591269968864653E1    -2.089133029560528E1
                        -3.219988118868933E1     6.989780867564001E1    -3.475987575045901E-1    9.396964164900648E1    -8.733055904967635E1     1.081243804721627E2    -8.427351566862404E1    -1.390926760887096E2
                        -6.505638447913673E1    -1.556433962882255E2    -8.510810544202984E1     5.629804555031137E1    -1.393445104060905       3.488502771564491E1    -9.043154343429652E1    -7.851303912650386E1
                        -7.485182893473515E1    -2.267957243244794E1    -8.483816238886905E1     2.394681740211830E1    -8.119139741860931E1    -1.151958904122963E1    -1.383161328266096       2.845505411666644E1

 5.525150000000000E7    -3.651978090318635      -1.528845060147970E2    -3.219728889400064E1     6.997281317242454E1    -6.618904481183775E1    -1.636542259019190E2    -7.189955351082365E1    -1.124584128250898E1
                        -3.218402102215081E1     6.953832736432763E1    -3.551392468545034E-1    9.398178457394300E1    -8.409973497033226E1     1.089198026431844E2    -9.033985763336418E1    -1.072855561162052E2
                        -6.546205066657329E1    -1.611693727258571E2    -8.145548479071877E1     5.445084932173508E1    -1.387119785495145       3.486704042618675E1    -8.402453390713905E1    -4.958463351525089E1
                        -7.474474135722019E1    -7.769734001441504      -8.974422474995974E1    -1.548965999797814E2    -8.477753705865575E1    -4.711752147843025E1    -1.384698261007842       2.843771420319099E1

 5.525175000000000E7    -3.652836879366139      -1.528776387455657E2    -3.223542314882383E1     6.973928709266026E1    -6.497900924424266E1    -1.604125870119448E2    -7.198661686345074E1    -1.511034301331990E1
                        -3.236344349644209E1     7.011759935129791E1    -3.512658452541870E-1    9.396963128167641E1    -9.318378013858774E1     9.098178632161300      -8.640883252094153E1     7.324921356989419
                        -6.599979951511921E1    -1.684643048616507E2    -8.350614571322366E1     7.210996520990727E1    -1.391127404418845       3.486996085944813E1    -9.691351402333412E1    -1.202668800921793E1
                        -7.457946865584027E1    -2.818670002694755E1    -8.891102685691239E1     1.535722562893184E2    -8.078097113852832E1    -1.116167913195864E2    -1.379489749284682       2.846265022166905E1

 5.525200000000000E7    -3.660373605306510      -1.529167416485180E2    -3.215642909844469E1     7.001698705714978E1    -6.540769580954675E1    -1.603431482281962E2    -7.284964059276740E1    -1.199767744224000E1
                        -3.227138984801472E1     7.005489720397563E1    -3.505457694991281E-1    9.401211673495891E1    -8.185544296894344E1     3.827645364993144      -8.621418800678831E1     8.496355492732567E1
                        -6.686788937761817E1    -1.673324993317387E2    -8.543756371806964E1    -2.577594047574724E1    -1.388708883548697       3.487868396847792E1    -8.891353103547328E1     1.115395997346854E2
                        -7.414036631814803E1    -7.737311815990302      -8.325945867796162E1    -2.777121213473384E1    -8.275162977120438E1     1.595044992775816E2    -1.379653219767840       2.845749631503325E1

 5.525225000000000E7    -3.664365625358989      -1.530284906189565E2    -3.222885369522333E1     6.963007036888286E1    -6.526723771667793E1    -1.696436159824827E2    -7.279525357295324E1    -2.387402203892187E1
                        -3.237515434169855E1     7.003470447187056E1    -3.518735909765435E-1    9.396338190198934E1    -8.337945626163150E1     1.552482508679012E2    -1.248434280677389E2    -1.195978441809194E2
                        -6.620755570976557E1    -1.686834064106641E2    -8.278276231375830E1    -2.857685721813418E1    -1.395226072380486       3.484951280644055E1    -8.395651483837256E1     1.334094654754671E2
                        -7.447362847270331E1    -7.391932061812851      -8.258421504117537E1     1.770281790509644E2    -9.928349088079223E1     2.092242518498715E1    -1.378555101438065       2.843285659904451E1

 5.525250000000000E7    -3.671149362381109      -1.530246913733716E2    -3.226568342341979E1     6.975264702834780E1    -6.583113547061275E1    -1.645702190068764E2    -7.188599190929429E1    -1.461545844855609E1
                        -3.226161757202996E1     7.132192117142017E1    -3.529643306646751E-1    9.396103572033120E1    -8.722892025318897E1     1.479154570900321E2    -8.648542861417737E1     4.085473155004463
                        -6.632112091041009E1    -1.659906098617376E2    -8.445285417437330E1     2.104726035929687      -1.392681813164760       3.487312575070614E1    -8.847282883182253E1     9.352989051556085E1
                        -7.491443084911987E1    -1.612310809254414      -9.148363007806266E1     1.170708439957974E2    -8.382553621153831E1    -5.305335728759539E1    -1.378425080903905       2.844184409029823E1

 5.525275000000000E7    -3.673664222374831      -1.530873369945401E2    -3.219423105819620E1     6.993667345151873E1    -6.474393719810749E1    -1.616075842914066E2    -7.479092758861917E1    -1.640085276319853E1
                        -3.232915704356282E1     7.011496092416999E1    -3.540821502366544E-1    9.396686312049502E1    -9.584424844604672E1     1.212764983526195E2    -8.779081099731502E1    -1.750365907840787E2
                        -6.571161480344918E1    -1.599728415012771E2    -1.043417727676340E2     1.657843126286907E2    -1.385907920146987       3.485024221654015E1    -8.852737072580185E1    -1.033721062813314E1
                        -7.385765443641630E1    -1.836951115041255E1    -8.263708280136521E1     4.367640739593774E1    -8.761591057666495E1    -1.364084638746451E2    -1.383044480620129       2.845745564600334E1

 5.525300000000000E7    -3.676978597422025      -1.531449280627986E2    -3.228560323394395E1     7.000655552025818E1    -6.542835154942596E1    -1.622831438127141E2    -7.241635864132135E1    -1.439842000143925E1
                        -3.222927730463369E1     7.038637924768497E1    -3.490036523341178E-1    9.395598772724860E1    -8.928360165610989E1    -8.599050267660461E1    -8.829642100129318E1     1.733210041438732E2
                        -6.522600544338637E1    -1.613237875912130E2    -8.351705257537161E1    -4.041301415271645E1    -1.390595841746374       3.481997851567738E1    -8.333706495331185E1     1.128140262738795E2
                        -7.450965572940734E1    -1.178978337849645E1    -9.403527755304437E1     1.382936620897977E2    -8.252674225647959E1     6.744847183218165E1    -1.380163942321804       2.842081754768663E1

 5.525325000000000E7    -3.684267349722984      -1.531923024407458E2    -3.222892109558831E1     6.955811655358134E1    -6.608362698191594E1    -1.639932239945781E2    -7.279645299966356E1    -1.103635013644093E1
                        -3.227777516092412E1     6.926419060204540E1    -3.549229780946431E-1    9.393380468122375E1    -8.448187190092698E1    -4.551591715428968E1    -9.087621157191337E1     1.627033600655643E2
                        -6.491862381407627E1    -1.625967096599376E2    -8.723650194680717E1    -1.798957111108421E2    -1.390440321247812       3.486452399722153E1    -9.847774013167833E1    -1.199667594102338E2
                        -7.449220010684670E1    -1.665373253216885E1    -8.267446265750515E1    -1.778931251767864E2    -9.547728545308766E1     1.582622955351430E2    -1.387068334981363       2.843428583532297E1

 5.525350000000000E7    -3.685199490617553      -1.532285926621105E2    -3.225358152624660E1     6.945487660674054E1    -6.551746823736353E1    -1.658541756383135E2    -7.406707038642441E1    -3.215641876777652E1
                        -3.226910105306870E1     7.052393048152945E1    -3.516122030727871E-1    9.397533008002610E1    -9.157304822344401E1     4.007364615413787      -9.284213510561852E1    -1.275622889727590E2
                        -6.562753605335645E1    -1.670007562899906E2    -9.048689353989430E1    -2.801368146256610      -1.391292547684740       3.484296829006220E1    -1.007118264257234E2    -1.169635248197397E2
                        -7.260745059854229E1    -3.158109173845378E1    -8.685373574543981E1     1.294045917137241E2    -9.060356797843353E1     1.082313629160245E2    -1.379486570105111       2.842142597209316E1

 5.525375000000000E7    -3.690846985199352      -1.532678121993830E2    -3.222216299607575E1     6.937412353006337E1    -6.459394128879043E1    -1.683792317418151E2    -7.486822512662978E1    -1.824679934631697E1
                        -3.232067353527321E1     7.014240713412220E1    -3.597941861237375E-1    9.394993475957783E1    -1.001995385441405E2     1.790613338588279E2    -9.101891464299280E1    -1.795214084731444E2
                        -6.557785590493805E1    -1.673675373468743E2    -8.217045510144821E1    -3.008036112122572E1    -1.388011895763967       3.485052975836263E1    -9.923131193317570E1     4.063804401301407E1
                        -7.335292195537460E1    -1.244735722779848E1    -9.049596036951515E1    -1.757975308862669E1    -8.620780195826188E1     1.580094366297289E2    -1.377086753900120       2.840294170895897E1

 5.525400000000000E7    -3.694871902740173      -1.532584082459310E2    -3.218505250414133E1     7.006729225658945E1    -6.503659314291974E1    -1.648031417085323E2    -7.501845247506856E1    -1.304437898622387E1
                        -3.226257965673924E1     7.058275540196095E1    -3.521613442399990E-1    9.396015166596372E1    -8.267991635830092E1     1.330894021973838E2    -8.464292264934022E1     1.756829529062060E2
                        -6.503352237716021E1    -1.612612717688725E2    -9.060514320561354E1     9.554464760225838E1    -1.390373070346731       3.486058803952636E1    -8.425598114566880E1    -1.500952128925771E2
                        -7.345731220399438E1    -9.904756652343856      -9.062487294526717E1     3.542106313524180E1    -8.521322495254276E1     7.202897654804684E1    -1.382143609836848       2.842728538856352E1

 5.525425000000000E7    -3.702152021548729      -1.533033063349915E2    -3.223492403893634E1     6.997329821533457E1    -6.484598802617879E1    -1.580630956926896E2    -7.398444569228707E1    -2.189712455339812E1
                        -3.236919086577480E1     6.940481592196882E1    -3.552322746326844E-1    9.396100940342318E1    -8.253156076851857E1     4.512093687289384E1    -9.554375248582480E1    -6.724585785294639E1
                        -6.574093973490216E1    -1.647772077054858E2    -8.587270840637709E1    -1.709230599975399      -1.389318815288116       3.485970460952885E1    -8.233556029182404E1    -1.363625098048243E2
                        -7.171381921140076E1    -2.994231222492836E1    -8.805971075390445E1    -1.375657815751852E2    -9.522301068157850E1     7.284959856944681E1    -1.384146048279215       2.840837558965752E1

 5.525450000000000E7    -3.702657447513266      -1.533682612266756E2    -3.220551397185582E1     7.025565125539444E1    -6.555783644221873E1    -1.646411858470719E2    -7.285779595907287E1    -2.765083344340734E1
                        -3.235783064720376E1     7.018160318419380E1    -3.551276319088025E-1    9.395586377729646E1    -9.776180073925069E1    -1.108963018976382E2    -7.534068985574066E1     1.491691763643486E2
                        -6.496987714810699E1    -1.595180091454351E2    -9.257457241349228E1    -8.564009307724717E1    -1.390477283371479       3.482814315960010E1    -8.619056831440780E1     1.028551102957294E2
                        -7.206978758892626E1    -3.707516000438326E1    -8.548785577259972E1     7.783302827075801E1    -8.941211384169696E1     1.789255027341255E2    -1.381436465288673       2.841722969940416E1

 5.525475000000000E7    -3.707076761987458      -1.534327397665728E2    -3.221530861630828E1     6.910714578229700E1    -6.435959426760120E1    -1.667186824485093E2    -7.211480055376472E1    -7.899058733219215
                        -3.227621204167944E1     6.948220698698363E1    -3.533391831471639E-1    9.389277382410646E1    -9.053794672645635E1    -1.741052083618615E2    -9.930905378932997E1    -7.912817882890668E1
                        -6.477197021532544E1    -1.615139193365423E2    -8.449224042290551E1     4.609892897571427E1    -1.392789774066852       3.483229251322682E1    -9.838793195287011E1     1.245064999979612E2
                        -6.987346136221069E1    -1.023147941724070E1    -8.225036701695018E1    -1.251095965429852E2    -8.700624555266118E1    -1.282747696183522E2    -1.383951980592464       2.839555363308406E1

 5.525500000000000E7    -3.711265998774625      -1.534526422894637E2    -3.229378687106640E1     7.001474505191575E1    -6.551480218243466E1    -1.642968959459215E2    -7.524929644532237E1    -3.771510150289832E1
                        -3.240900848434683E1     6.991919613798785E1    -3.528575269165449E-1    9.393558616552110E1    -8.916806681213845E1     5.081101529270179E1    -8.427811277697859E1    -8.638200634590676E1
                        -6.505271145693665E1    -1.701981299270956E2    -8.296158874887925E1    -7.972387093806339E1    -1.389865210649001       3.481013975603841E1    -8.392975805677368E1    -1.298612212273399E2
                        -7.115913132907652E1    -2.520455774794919E1    -8.264788883922437E1    -1.186391503374029E2    -8.776340589154503E1     9.359346157479378      -1.381659664783498       2.838269753931622E1

 5.525525000000000E7    -3.717249620309070      -1.534956034359425E2    -3.225913190838004E1     6.954217111575458E1    -6.517566227062552E1    -1.660652584433865E2    -7.179260935842187E1    -1.783248868838615
                        -3.239005956931395E1     6.898091003487713E1    -3.569943964098847E-1    9.393783950977344E1    -8.867380060732717E1    -9.223581169111992E1    -8.220084441452534E1     8.470853982507678E1
                        -6.527691302460839E1    -1.604803097445148E2    -8.670785559476130E1     2.151895244201228E1    -1.388681308814149       3.480901414190313E1    -8.718081705635493E1    -8.365069012832855E1
                        -7.262270206115885E1    -2.429893960453589E1    -8.876412813346910E1    -1.132671327810511E2    -8.428984098383825E1     1.635343117983272E1    -1.378075366044729       2.843870930736952E1

 5.525550000000000E7    -3.727269088900613      -1.535267035492971E2    -3.228217563743998E1     6.980193860442185E1    -6.487613149794679E1    -1.686585721886736E2    -7.180071973910034E1    -3.593114962574413E1
