#  HZ   S   DB   R     50.00 
! Rohde & Schwarz Vector Network Analyzer 
! Rohde-Schwarz,ZNB8-4Port,1311601044102961,2.82
! Created: UTC 2/13/2019, 9:27:30 AM
! freq[Hz]                db:S11                  ang:S11                 db:S12                  ang:S12                 db:S13                  ang:S13                 db:S14                  ang:S14
!                         db:S21                  ang:S21                 db:S22                  ang:S22                 db:S23                  ang:S23                 db:S24                  ang:S24
!                         db:S31                  ang:S31                 db:S32                  ang:S32                 db:S33                  ang:S33                 db:S34                  ang:S34
!                         db:S41                  ang:S41                 db:S42                  ang:S42                 db:S43                  ang:S43                 db:S44                  ang:S44
! 
 3.000000000000000E7    -2.792515528564781E-1    1.014616736006349E2    -6.839322313614716E1     4.203167965378539      -8.907462887410902E1     4.281465093117331E1    -8.540447960561444E1    -1.367006427212098E2
                        -6.857423042086433E1     9.335614695432074      -2.790390880692572E-1    8.981417440663272E1    -1.065191727041804E2     1.335940685041617E2    -8.511206092527959E1     1.292465780619636E2
                        -9.165622966237618E1    -2.055553990548530E1    -9.497213731767957E1    -1.825660526878705E1    -9.260582589159329E-1   -1.144368603915545E1    -8.055071758245043E1    -1.532948290996876E2
                        -8.613283547487643E1    -1.719262406446524E2    -1.038044082732856E2     1.497957586578431E2    -8.606938099671842E1    -7.893535327187513E1    -9.368140520697657E-1   -1.644769710267724E1

 3.002500000000000E7    -2.807133356275925E-1    1.012138000001249E2    -6.935163074783380E1    -1.244923617626153E1    -8.253003114289649E1    -1.783415127480782E2    -8.888310574042615E1     5.683746449781321E1
                        -7.018822348595406E1     6.643134808932803      -2.855227421814147E-1    8.946155910530041E1    -9.156640187262724E1     4.150760305097765E1    -1.024779088002645E2     1.131772324669900E2
                        -8.292094653443341E1    -1.639082646862704E2    -8.548577524477489E1    -1.270965618939343E2    -9.279365862106294E-1   -1.172050054506623E1    -8.930276840963300E1    -1.467585593587210E2
                        -8.894151717404557E1     8.050863929573703E1    -8.238299426742961E1     7.707896286623945E1    -8.167972126333368E1     1.134439713945182E2    -9.360473604008599E-1   -1.676677144427288E1

 3.005000000000000E7    -2.775494508291557E-1    1.009121958396621E2    -6.901626879679570E1     6.373672532371597      -8.382043278765706E1    -1.474908736316413E2    -8.788846222578833E1    -1.620904489974187E2
                        -7.008667139686750E1    -2.562797578135033      -2.752609403434384E-1    8.910577377237823E1    -8.442925106458358E1    -5.970010790095891E1    -9.488425533960321E1    -2.669835582605906E1
                        -8.964763408392372E1     1.100171272382154E2    -8.758863784404386E1    -5.483882762976730      -9.314774398877077E-1   -1.200983973540330E1    -9.365158573877474E1     1.621863119466960E2
                        -8.436269722007060E1    -1.462774094988244E2    -8.326976807102287E1     1.071867027690311E2    -9.080251919035861E1     1.048448548816209E2    -9.422996258350971E-1   -1.707753479720742E1

 3.007500000000000E7    -2.813820323307407E-1    1.005857200836688E2    -6.835185844034162E1    -4.756309961008290      -9.483752692802119E1    -1.258743463201636E2    -8.913057932206841E1    -4.721826009998988
                        -6.767124345594417E1     1.079266410836675E1    -2.759283909085307E-1    8.868630369928641E1    -8.419993026867716E1     1.239249849598217E2    -8.875989264033245E1    -1.615992000717332E2
                        -8.370109267948621E1    -3.762010220319993E1    -9.028079953434060E1    -4.915955558239180E1    -9.322059830898835E-1   -1.238632640921317E1    -8.720897924559195E1    -4.966349971306418
                        -9.450255358688870E1    -8.113543884806192E1    -8.692086586406208E1     2.202728229023178E1    -9.042296096625114E1    -1.566482704222049E2    -9.415158761017833E-1   -1.737098600456497E1

 3.010000000000000E7    -2.758234686016434E-1    1.003111600238600E2    -6.788672960345475E1     8.445859775569694      -8.570885816012864E1    -7.495962862888234E1    -9.359586179608164E1     1.458318518087197E2
                        -6.755947293664244E1    -3.867713156384497      -2.848069126991679E-1    8.834239401478972E1    -8.187594813856381E1     9.493163946197685      -9.048490196044556E1    -1.557433932114914E2
                        -8.401272542112473E1     1.350384928386916E2    -9.430911504160690E1    -1.607595462383144E2    -9.243662739746998E-1   -1.265821528972540E1    -8.814408740147584E1     6.498692546504041E1
                        -8.175177084954362E1    -6.028151852168388E1    -8.237369105416698E1     1.115202250649528E2    -8.749307078823273E1     1.129030843289737E2    -9.402388845527887E-1   -1.771100950007080E1

 3.012500000000000E7    -2.707713516404949E-1    1.000172321484058E2    -6.998763909554089E1     8.888338156289306      -8.449266719448869E1    -6.385826946010823E1    -8.305016286663458E1    -8.839683552479220E1
                        -6.890536120649931E1     1.428672262906108E1    -2.738567853723097E-1    8.798023737789018E1    -8.276126586413682E1     1.430655797576193E2    -8.571419201885129E1     9.202696128047076E1
                        -8.688899687963416E1    -9.298629069759396E1    -9.955245247936063E1     1.029339206484434E2    -9.347494962757924E-1   -1.296871113108020E1    -8.438014652050003E1    -3.080623046612523E1
                        -8.667783740068487E1     2.879048933124052E1    -8.635063059351779E1     2.891257818834986E1    -8.553092170055530E1     1.768050498745479E1    -9.407325746906690E-1   -1.805986406449053E1

 3.015000000000000E7    -2.723610646429480E-1    9.970188035917657E1    -6.977133913037261E1    -6.753684135893509      -8.206799008931534E1    -3.840824801050870E1    -8.227696175352907E1     8.563488239208068E1
                        -6.798733527955747E1    -2.022397376772817      -2.793228448372993E-1    8.756125788972760E1    -9.603295583904986E1     1.826785952916194E1    -9.232418513288354E1    -8.681766908853109E1
                        -8.624508861073244E1     5.719882482817057E1    -9.792796615802183E1    -1.502673671235761E2    -9.280826216312498E-1   -1.327587528228197E1    -8.620926886810554E1    -3.037165800977230E1
                        -9.137873509437748E1    -1.734483829578361E2    -8.346476219905271E1    -3.815309209909536E1    -1.037868622177350E2    -1.954728003098435      -9.365894739027976E-1   -1.830004241364349E1

 3.017500000000000E7    -2.725622794954987E-1    9.940424687415727E1    -6.873311441407732E1    -2.863248315933499      -8.098258486437413E1    -1.639212111153993E2    -8.650881674627719E1    -9.717229662141402E1
                        -6.855987478255526E1     4.582671094091479      -2.706487719390506E-1    8.722026666559462E1    -8.711677244394105E1    -1.278865598955598E2    -8.910814285691423E1    -8.279904787385948E1
                        -8.411645393479441E1     6.675716212205535E1    -9.654005560818544E1    -1.452939853933830E2    -9.251139972936157E-1   -1.357225030190600E1    -8.604697709362492E1     1.540415901545910E2
                        -8.988097652648625E1    -1.783563419764859E2    -8.273744128735068E1     3.634074701241170E1    -8.472921050275309E1     1.287378232185708E1    -9.382331530523960E-1   -1.864317406543241E1

 3.020000000000000E7    -2.654570866893809E-1    9.913198026482857E1    -6.836647927346255E1     1.450997076263688E1    -8.420412129319722E1     1.306836334460520E2    -8.393407959100203E1     4.920295143287767
                        -6.861055385322098E1     9.947866280478918      -2.770950187572266E-1    8.686040334565300E1    -8.949268806104615E1     8.147352168766582E1    -8.013008179550619E1    -1.469477708238775E1
                        -8.992480651975038E1     1.471337911220340E2    -8.580374308907483E1     1.370368424382535E2    -9.272967384078262E-1   -1.388077358909233E1    -1.075960926756550E2     6.170014871785734E1
                        -8.380487639477767E1     2.135594240517262E1    -8.383367003286296E1    -1.307353612384413E2    -9.795952293637069E1    -5.856575417633358      -9.397972851522450E-1   -1.898361281406198E1

 3.022500000000000E7    -2.781450425094373E-1    9.881552828175789E1    -6.861197476161919E1     1.821058373286285      -9.929857950637361E1    -5.319202310840201E1    -8.230431898778228E1     7.447394564981781E1
                        -6.859496790268655E1    -5.087341375448792      -2.800749083458345E-1    8.646613770332941E1    -9.822031901792941E1    -3.114893733890174E1    -9.404665823981048E1    -7.828609829227564E1
                        -8.580407361910396E1    -3.288590629627621E1    -8.326090937755511E1     5.678602782638850E1    -9.284149134076278E-1   -1.420354538808808E1    -8.719288881502833E1     6.916688725559588E1
                        -8.741771233676050E1     1.272303589638814E2    -8.891992503585959E1    -9.127867719439314E1    -8.444201020056556E1     1.279777517944165E2    -9.384391715181840E-1   -1.924663225188400E1

 3.025000000000000E7    -2.745417037606364E-1    9.855234169200016E1    -6.864492863106887E1     6.831557962562075      -9.044217600793314E1    -9.769078011595997E1    -8.925829476257792E1     1.240484437557868E1
                        -6.774033126268321E1    -2.152825599043374      -2.811857562554986E-1    8.610773766147594E1    -8.607848216788730E1     5.244551132654322E1    -8.059204651915317E1    -1.973656869933242E1
                        -8.860410945069246E1     1.084460231674203E2    -9.632402011063108E1    -1.124416343040181E2    -9.282730149151608E-1   -1.450162137632995E1    -8.286671258782235E1    -5.028787872396372E1
                        -8.300036787605228E1    -6.791677615282717E1    -7.861937222441439E1    -2.888530042392063E1    -9.196331937986750E1    -1.793244384502795E2    -9.454987659445084E-1   -1.956238435021267E1

 3.027500000000000E7    -2.679484896811871E-1    9.823077789113196E1    -6.816365890131121E1     9.494730641129555      -9.004441236686141E1    -1.751528884490247E2    -9.619737520221977E1    -3.800418922526468E1
                        -6.727045262999398E1     5.831968623042350      -2.630716842843304E-1    8.571640689497812E1    -9.231208269168953E1     5.663756288009644E-1   -9.114982232393601E1    -9.851740256540555E1
                        -8.088388714946612E1     8.030158079121213E1    -8.440597650733872E1     1.570164916998449E2    -9.262023971247744E-1   -1.480812293640593E1    -8.519629676045767E1     5.958261265484615E-1
                        -8.915811622634210E1     9.956368164421204E1    -8.749994022175665E1     1.417237329671284E2    -8.954715557350562E1     9.352568018741778E1    -9.360461018837134E-1   -1.988676983666385E1

 3.030000000000000E7    -2.788992708488063E-1    9.794502151090438E1    -6.871303452136073E1    -2.305619368052357      -9.051917208894938E1    -4.670756593253782E1    -8.415546275748523E1    -1.236013864587773E2
                        -6.818364748783938E1    -5.581355682715507      -2.779853641010655E-1    8.535566586027713E1    -9.541659163778601E1    -9.278913560487997E1    -8.290156610006557E1     6.234463224290711E1
                        -9.267214446069964E1     8.283354373856946E1    -8.227920957228584E1     5.133077026533061E1    -9.295666995448133E-1   -1.510492105419164E1    -9.336940839213676E1    -1.158204461391385E1
                        -8.855692092242734E1    -2.595604519626471E1    -9.547146601739406E1    -4.769931027000221      -8.290153321303569E1    -1.682649638807774E1    -9.353972567424258E-1   -2.020228970194336E1

 3.032500000000000E7    -2.734166128687323E-1    9.766048333788891E1    -6.738847330588493E1     1.077066947830634E1    -8.077311008897678E1     1.687107180146398E2    -8.724103663965771E1     1.000104378304483E2
                        -6.864174647375008E1     1.799045473448264      -2.623840088567891E-1    8.489466511230334E1    -1.002832169228896E2    -1.787336984454846E2    -8.333203980341150E1    -3.199773505169938E1
                        -8.396023188519385E1     8.183687393004232E1    -9.904006899055975E1     9.674033227972640E1    -9.287588524976822E-1   -1.543042901484972E1    -8.705114952365173E1     1.775500280525616E2
                        -8.584646523615032E1     5.221994123810988E1    -9.010659515084242E1    -1.276656177195410E2    -8.408288090465027E1    -1.479838612149849E2    -9.383538339264586E-1   -2.051211527385043E1

 3.035000000000000E7    -2.666712883952410E-1    9.738969162166372E1    -6.750961612973157E1     1.747432195292772E1    -8.273764152058271E1    -6.598655342087925E1    -9.934383023209983E1    -6.419564409099933
                        -6.906342007884572E1     2.521495906700037      -2.674934389061413E-1    8.456844782974382E1    -8.850644694494071E1     2.218800863745917E1    -8.605725214138552E1     1.025118696231798E2
                        -8.572443606922283E1     1.071650109071854E2    -8.527934726836799E1    -1.345393678593230E2    -9.327696745110099E-1   -1.574624613108761E1    -9.666651360640481E1     1.597375763925810E2
                        -8.997904402317970E1     1.484235453573218E2    -9.568294568600059E1     7.854261845643359E1    -8.974900143113121E1     8.671055296835856E1    -9.390088919980426E-1   -2.081776675872154E1

 3.037500000000000E7    -2.644482000517031E-1    9.705168373428543E1    -6.865942665124504E1     2.108523205044821      -8.709196827583405E1    -1.210069985363091E2    -8.058293794871128E1    -2.368348554332586E1
                        -6.861449171485579E1     3.557137081555459E-1   -2.803156137793092E-1    8.419932459603075E1    -8.052681057107293E1    -1.391869845805840E2    -8.368348848438102E1     1.309640386050926E2
                        -9.150317838811139E1     1.052065739735030E1    -8.628720278074495E1    -1.343122784563620E2    -9.250718785903944E-1   -1.597381645293572E1    -9.018106257384306E1    -7.136446856285130E1
                        -8.323556737647363E1     3.083818057793039E1    -9.161983973246754E1     6.624138761372691E1    -8.586828841144649E1    -1.362327640465250E2    -9.435841118898030E-1   -2.112522566385350E1

 3.040000000000000E7    -2.708445797734410E-1    9.675903471087773E1    -6.807232100943264E1    -6.200825583930504E-1   -7.817976727860830E1     8.770463102393539E1    -9.584744711343836E1     3.787202644795756E1
                        -6.802269286330622E1     3.253130427292828      -2.773456145057395E-1    8.383328309673443E1    -8.847255147442725E1     5.793978790078953E1    -8.596317782105547E1    -1.105595553467513E2
                        -8.073202547972572E1     3.841346670509510E1    -8.636253637191827E1     2.475751267536284E1    -9.265156823721664E-1   -1.629349216590699E1    -8.748676084307559E1     1.498571165622481E2
                        -9.081211458222036E1    -1.250440766714233E2    -9.342970533216770E1    -1.509085288423784E2    -8.155513438320767E1     7.929854851680179E1    -9.346777118171494E-1   -2.145322677052091E1

 3.042500000000000E7    -2.658821971489593E-1    9.649858131012890E1    -6.742451470301531E1    -4.098704875086129      -9.519615112718904E1     1.715375542043096E2    -1.001602849836500E2    -1.196194780228927E1
                        -6.749861427264793E1     2.301072577699562      -2.711149857642168E-1    8.348018987305002E1    -1.013977242061427E2    -1.527801072703336E2    -8.267465248569464E1    -1.018391092986896E2
                        -9.542229160558532E1    -1.167605363303779E2    -8.800261506235501E1     1.814260069059092E1    -9.274606800017187E-1   -1.667901752984098E1    -9.604589288409892E1    -1.279155153122911E2
                        -8.666757895364353E1    -4.046803511231713E1    -9.953460933363053E1     1.100979569109985E2    -9.732975169154118E1    -1.576992103011877E1    -9.411821205803952E-1   -2.177699032808465E1

 3.045000000000000E7    -2.670636255154100E-1    9.616293311942353E1    -6.736123230263968E1    -2.742740337057593      -9.645758711542621E1     7.543195066979369E1    -8.877492679176743E1     1.588865961825180E2
                        -6.901888529419460E1     4.830414375442496      -2.723749970786997E-1    8.308974390707955E1    -8.144492388114205E1    -1.244473890016174E2    -8.514742890864832E1     7.289912319128264E1
                        -8.377838173692594E1     8.621099893771140E1    -8.346848055904701E1    -4.888778140555891E1    -9.306137620488788E-1   -1.692143614421070E1    -8.967808454998350E1    -8.031478342810051E1
                        -8.979604861687498E1     6.866265580973251E1    -8.930452769927010E1    -7.892283439019079E1    -9.660244133583521E1    -1.450840585764061E2    -9.418570386231041E-1   -2.207270680132341E1

 3.047500000000000E7    -2.719035982098956E-1    9.589427966315829E1    -6.713126755785125E1     3.785779311772468      -9.479162848986073E1    -3.753479816092374      -9.745697232848772E1     6.528819011030148
                        -6.957574802566914E1     1.468616689587062      -2.748617814402692E-1    8.265976697725213E1    -8.583089226981009E1     1.431317796994020E2    -8.864381327212057E1    -9.081224414059702E1
                        -8.334229319847941E1     1.259518368553384E2    -8.931392887930312E1    -1.299548185594960E2    -9.333500539939261E-1   -1.722901537369719E1    -8.674582699960256E1     3.700175880537811E1
                        -8.715153026907655E1    -1.100545701486234E2    -8.584306521288045E1    -1.647642052343168E2    -8.575980111548773E1    -1.717618256985436E2    -9.447118122438025E-1   -2.244236213882589E1

 3.050000000000000E7    -2.717477683574880E-1    9.558553682089979E1    -6.774731880534657E1     6.222376023850360      -9.266325523796559E1     1.274087138465054E2    -8.370391496638335E1    -1.209373015622171E2
                        -6.844979526670937E1    -3.740614751079048      -2.733968511699717E-1    8.229861392942941E1    -8.902719705820226E1    -1.001435750525747E2    -1.011001727182176E2    -8.622222419276683E1
                        -7.866013429354091E1     1.549427988940863E2    -9.493786383955310E1    -1.021000803847334E2    -9.268102599220394E-1   -1.754955842839386E1    -8.540951529147742E1     1.174164214479155E2
                        -1.059920589991497E2    -8.078959627223249E1    -9.293491250999045E1    -7.102044539257217E1    -8.400199342932872E1     5.197258679835411E1    -9.396068781230037E-1   -2.272831542282632E1

 3.052500000000000E7    -2.680071451529723E-1    9.529058337350848E1    -6.688758510624466E1     6.748578531725701      -8.518884843460533E1     7.073922033067544E1    -1.033945454568582E2     3.838592648098425E1
                        -6.759900367676573E1    -6.431635546196869      -2.717468266037042E-1    8.194075032382798E1    -8.901588560277423E1    -4.175015788850143E1    -8.956890487335939E1     1.644888349852388E2
                        -8.931341976108530E1     2.010405306237997E1    -8.966366632271675E1    -1.647894045379642E2    -9.316238010326693E-1   -1.786683275510179E1    -8.413472146708038E1     5.076152807580317E1
                        -8.743685330239765E1     1.759100945235724E2    -8.735902917018876E1    -4.092085452684395E1    -8.070334234639032E1    -6.262774932761124E1    -9.446901346637084E-1   -2.304927310465330E1

 3.055000000000000E7    -2.603806389837938E-1    9.500206959054422E1    -6.730247675383232E1    -3.828810641719669      -9.295852937494429E1    -9.972447343254861E1    -8.237117317614869E1    -1.209066051608160E2
