#  HZ   S   DB   R     50.00 
! Rohde & Schwarz Vector Network Analyzer 
! Rohde-Schwarz,ZNB8-4Port,1311601044102961,2.82
! Created: UTC 2/13/2019, 8:57:48 AM
! freq[Hz]                db:S11                  ang:S11                 db:S12                  ang:S12                 db:S13                  ang:S13                 db:S14                  ang:S14
!                         db:S21                  ang:S21                 db:S22                  ang:S22                 db:S23                  ang:S23                 db:S24                  ang:S24
!                         db:S31                  ang:S31                 db:S32                  ang:S32                 db:S33                  ang:S33                 db:S34                  ang:S34
!                         db:S41                  ang:S41                 db:S42                  ang:S42                 db:S43                  ang:S43                 db:S44                  ang:S44
! 
 3.000000000000000E7    -2.510861637736912E-1    1.015512840086139E2    -6.944133788537786E1     1.182122724748723E1    -8.361057493817867E1     8.638733195780523E1    -8.547088516859725E1     1.556136626856535E2
                        -6.975434865036134E1     1.009043407931254E1    -2.637968418723226E-1    8.983818522428682E1    -9.516608514144289E1     1.752618246009186E2    -8.352267867181587E1     4.602261915424862E1
                        -7.882316808087809E1    -4.111247068321512E1    -8.268212924433686E1     1.330784663265890E2    -9.225006031922300E-1   -1.144612899468708E1    -8.845097914258041E1    -7.685878127208329E1
                        -8.902795690678646E1     1.204366642556747E2    -8.499718297833960E1    -7.766713810737080E1    -9.279442058173531E1    -8.460148932434829E1    -9.343246498282919E-1   -1.646252168995260E1

 3.002500000000000E7    -2.516799857968144E-1    1.012998001896467E2    -6.857814474001579E1     9.458123358722558      -8.356654783728442E1    -1.398243506635249E2    -9.407411771103526E1    -1.746086095523314E2
                        -6.848243055636223E1     1.805744527423628E1    -2.699908212691708E-1    8.944226406494762E1    -8.759708846165847E1     4.425936302692241E1    -8.542424490104843E1     1.796171278399611E2
                        -8.309288049028532E1     3.941807339833554E1    -8.529373814461150E1    -5.793525617932910E1    -9.276908579392489E-1   -1.173293921983011E1    -8.321852369379242E1     7.616043755971040E1
                        -8.532714760144692E1    -2.489826177901414      -8.608550710979813E1    -1.732415254416803E2    -9.179103345462335E1     8.205337590229769      -9.342796980538769E-1   -1.673921707212383E1

 3.005000000000000E7    -2.516871052737396E-1    1.009842883507302E2    -6.965892551033488E1     8.632721354852249E-1   -9.275958793354583E1     1.118212923516713E1    -8.409000253247554E1     9.889845060611677
                        -6.725108318806916E1     1.889786020854399E1    -2.658655041675831E-1    8.914313456530778E1    -8.265712463872538E1     1.635394516688864E2    -8.264067504127893E1    -1.796687104110286E2
                        -9.321375934829814E1     9.576717307135534E1    -8.567059383923831E1     1.297274568452950E2    -9.210750786341739E-1   -1.206684174800952E1    -8.679685428478868E1     5.774008265534991E1
                        -8.402447154074559E1     1.043333941085451E2    -8.693536129385640E1    -1.588833530243897E2    -8.838607191982956E1    -1.561161747453884E2    -9.342406815228392E-1   -1.709937571553648E1

 3.007500000000000E7    -2.465781544587997E-1    1.006892158103314E2    -6.890760089017489E1     1.303816925983734E1    -8.303347226087186E1     1.665274846764160E2    -8.651399921129340E1     1.268890383276896E2
                        -6.859598813015909E1     5.267406053615892      -2.574631466600205E-1    8.872633650464660E1    -9.420333746859917E1    -1.692285374457848E1    -8.166053262826723E1    -5.964513916867808E1
                        -1.022652970935279E2    -9.313263227366835E1    -8.493739595639312E1    -1.016852444659202E2    -9.296231479017781E-1   -1.234643453444070E1    -8.578632139801529E1    -9.548305065383627E1
                        -9.817801259308240E1    -4.221465139705949E1    -9.053483787823271E1     8.747751666170434E1    -9.683825783796593E1    -2.268040197715011E1    -9.411579470457916E-1   -1.741117672907148E1

 3.010000000000000E7    -2.491173499817154E-1    1.004143333153454E2    -6.886011370768745E1     3.107644865056712E-1   -8.884568802531953E1    -3.601581977630231E1    -8.036640915116642E1    -4.682533979678959E1
                        -6.767819139964823E1    -1.483909391014756E-1   -2.734061814494251E-1    8.839184492677309E1    -8.505527491790603E1    -9.652134757216282E1    -8.832251371756246E1     1.772603837153159E2
                        -8.805834614701163E1    -1.370365521964191E2    -8.065755102664937E1    -3.833519936113597E1    -9.231830895972879E-1   -1.262474858976927E1    -1.012625319651706E2     1.210930096394044E2
                        -8.413061713619526E1    -5.567556337443362E1    -8.835612124143182E1    -5.286086615818714E1    -8.373281743964400E1     1.043746716867725E2    -9.388596561489280E-1   -1.772294240146051E1

 3.012500000000000E7    -2.470595373647399E-1    1.001116004381499E2    -6.743762809834735E1     3.282239975826283E-1   -8.654794337174673E1     1.171504522896515      -9.745838990278247E1    -3.733881723134354E1
                        -6.865610372159520E1     4.600800016141180      -2.684376527609216E-1    8.798412153475859E1    -9.179565430356161E1     7.570862745613701      -9.348460814746402E1    -1.624539213092709E2
                        -8.428420839987233E1     8.824659252095326E1    -8.792129415375881E1     1.716781311882049E2    -9.292558804898167E-1   -1.295707448296816E1    -8.747269247883185E1     1.107900337050058E2
                        -1.005465797390906E2    -1.461589202381901E2    -9.174261004460792E1     2.616836747853655E1    -8.372476968979599E1     4.867734142160784E1    -9.412792642656285E-1   -1.803663315607153E1

 3.015000000000000E7    -2.474433965823983E-1    9.979359351032272E1    -6.869628393396035E1    -1.284426477221026      -8.338154753141446E1    -7.337560339274771E1    -9.140553745881475E1     1.627812251573883E2
                        -6.962771985499349E1     9.934350634870365      -2.620097150047017E-1    8.763896477104315E1    -8.448083179070883E1     1.155179883152651E2    -8.306036530287393E1     1.649929422038903E1
                        -8.339103075424976E1    -1.281264164297634E2    -9.556212873232158E1    -1.270112595676280E2    -9.314015157252963E-1   -1.325565099172666E1    -8.897827605495615E1    -3.560933307145991E1
                        -9.021786328721780E1     1.539657465012132E2    -8.685208339540350E1     7.691069891014827E1    -8.946472552318639E1     1.237773102799381E1    -9.376401111070765E-1   -1.832474076574645E1

 3.017500000000000E7    -2.420425928199074E-1    9.951067651844581E1    -6.899548289118239E1     6.129140866197533      -9.086587821595238E1     5.580375910737980E1    -1.020170073777339E2    -1.067102089769002E2
                        -6.801436288676059E1     7.273338158363204E-1   -2.616523083104186E-1    8.717131561199682E1    -8.142178331115343E1    -1.119298789832035E2    -8.495134065717636E1    -1.409931918068523E2
                        -9.186613507309319E1     7.864119162171703E1    -8.650593248148992E1    -3.248165268515273E1    -9.244834119155608E-1   -1.354812549552398E1    -8.607373984487289E1     2.535816249657329E1
                        -8.996775940724379E1    -1.292432594684445E2    -9.581796880235883E1     2.202071195578740E1    -8.844498258315002E1     1.751324769803739E2    -9.362525529954012E-1   -1.865792712027837E1

 3.020000000000000E7    -2.407662255336192E-1    9.922887440331598E1    -6.860289842589106E1     1.453017014456446E1    -8.805924815316567E1    -5.258897746361885      -8.705274760512721E1    -9.986730665320998E1
                        -6.934779574354201E1     4.125675256427225      -2.622192962728542E-1    8.687514149591966E1    -8.150920561391902E1    -1.513603196692112E2    -8.329514183058163E1    -1.961313469572695E1
                        -8.827517827740246E1     6.803984791599956E1    -8.025594240165761E1     1.487833958197088      -9.272145926369974E-1   -1.388738308779015E1    -8.256113186964322E1    -1.144051976991921E2
                        -8.288035235949687E1    -2.945915702205523E1    -7.744362303483700E1    -4.067874885394227      -8.258563793531454E1     1.405679646521495E2    -9.419195896146205E-1   -1.896016674184636E1

 3.022500000000000E7    -2.512614577127567E-1    9.887895218703609E1    -6.743764228587469E1    -3.213880758138054      -1.038062663820691E2    -1.133396417044526E2    -8.310105096481210E1     1.505361012621662E2
                        -6.771173293697687E1     1.481872845397682E1    -2.630139427617869E-1    8.650408570210155E1    -8.687801734515534E1     1.320888101826514E1    -8.878990406429321E1     1.025167214207493E2
                        -8.619558114032225E1    -8.865334069611137E1    -8.562258794680567E1    -1.244957917868534E2    -9.268278360943487E-1   -1.419993880098174E1    -8.217342388355981E1     1.694966973104152E1
                        -8.345544224045405E1     4.566864978654760E1    -8.568781623039074E1    -1.427403911045367E2    -8.489210531328553E1     1.795625487422499E1    -9.371149367191873E-1   -1.926062511428137E1

 3.025000000000000E7    -2.497172038801428E-1    9.864784899471059E1    -6.834054357609035E1    -1.575836391024165      -8.131013570525477E1    -1.406875228183801E2    -7.985819743343663E1     8.543978483138531E1
                        -6.830791677517480E1     1.133235630062126E1    -2.765535850618525E-1    8.612663663768925E1    -8.490533588485592E1    -3.075551421253533E1    -9.632772647941648E1    -6.055660230578706E1
                        -9.111418521823603E1    -5.890936898577873E1    -8.502285192908802E1    -5.675529734674243E1    -9.272729131364249E-1   -1.450355236804443E1    -8.530160159211157E1     1.590980392961670E1
                        -9.862297756375233E1     1.616981784095028E2    -9.636269662182748E1    -1.053235138824703E2    -8.977707128407452E1    -8.231325876780824E1    -9.423753866749979E-1   -1.956931914946820E1

 3.027500000000000E7    -2.429634849817815E-1    9.835199135363104E1    -6.778962267344846E1     4.066910753996133      -7.949173422133029E1    -1.338580998126895E2    -8.763782612915318E1     1.127870637426687E2
                        -6.761008872443584E1     1.148713231038388E1    -2.558618436193550E-1    8.575034250651738E1    -7.992914238219993E1     1.612685487420277E2    -8.690315456303786E1    -3.217056672449563E1
                        -1.035051533384003E2     6.908049382374072E1    -8.473900192308925E1     1.726575900677373E2    -9.241525439004640E-1   -1.481395326744321E1    -8.708421056631556E1    -9.982471159300999E1
                        -8.393018680594756E1    -1.370910324094335E2    -8.853682110183108E1    -1.288495527582253E2    -7.907651413273752E1    -9.631427765213209E1    -9.392413164977238E-1   -1.992547580378272E1

 3.030000000000000E7    -2.369988516901218E-1    9.807618915929220E1    -6.630063745284653E1     7.279432233075392      -8.248868230416663E1    -3.744856733872379      -9.311432671262051E1    -8.660642638359302E1
                        -6.772179796335509E1     5.335649860216135      -2.660566059376720E-1    8.535661682262050E1    -8.804981095113270E1     1.593421277788969E2    -8.851963474602360E1    -1.460960103276481E2
                        -8.920406016436169E1    -1.134858371724715E2    -8.206957227911420E1     3.729158167110129E1    -9.276260528141171E-1   -1.510854053322730E1    -8.049291415131225E1    -3.417852764998249E1
                        -8.899466063409967E1    -2.387411973595953E1    -8.535462432775282E1    -1.053979085202816E2    -9.035216905751807E1     1.172255564292406E2    -9.382435361774131E-1   -2.022517224730748E1

 3.032500000000000E7    -2.463306506003991E-1    9.774100458037229E1    -6.913506971164455E1     1.093885957315924E1    -8.415299601711629E1    -4.411203384521361E1    -8.164319421389658E1    -9.627322652534519E1
                        -6.816512722233648E1     1.010865005106823E1    -2.575806178703439E-1    8.496038353120134E1    -8.714675390362464E1    -1.708853736812837E2    -8.294636622361946E1    -1.065583974445818E2
                        -7.927980820011152E1    -1.203100508699318E2    -8.282383616018402E1    -1.272776941178166E2    -9.309070989782574E-1   -1.539828468363028E1    -8.566850112111067E1     1.507731552901457E2
                        -9.104800102479538E1     1.118102573994638E2    -8.485205039491639E1    -8.592407388676703E1    -8.267434148739588E1     1.276796772283797E2    -9.429306063763758E-1   -2.054337324710087E1

 3.035000000000000E7    -2.340542502910374E-1    9.749302694188594E1    -6.810419288357852E1     8.765631403257265E-1   -8.429872873046095E1     4.468162763243539E1    -8.583840246360857E1     1.134615294757863E2
                        -6.808904067770651E1     1.113194395790317E1    -2.602307651129082E-1    8.460105325753784E1    -9.058215773961001E1    -8.151995853103924E1    -9.410125714559648E1    -1.661831413674240E2
                        -8.427298129218605E1    -9.521189231963781E1    -8.978993213866281E1     3.354395916314193E1    -9.245693570940561E-1   -1.574344566157091E1    -8.373703271471931E1     7.248253923504755E1
                        -9.151886096010153E1     1.163081969551309E2    -8.360266258399150E1    -1.644168757844620E1    -8.558981953516476E1     3.531624969828505E1    -9.349005936196376E-1   -2.081977773505922E1

 3.037500000000000E7    -2.376820370581508E-1    9.716845115346547E1    -6.869811776992650E1    -6.893607427464200      -8.487618402684836E1     9.934160118025551E1    -8.702328368798375E1    -1.222324301325649E2
                        -6.710961505137381E1     7.000847661813737      -2.617399637208209E-1    8.419775297119840E1    -8.866332700877129E1     4.426390796138539E1    -8.336979681352433E1     1.624848833798655E1
                        -8.697193016591284E1    -2.106545190441733E1    -9.247484075949862E1     1.748873970673263E2    -9.298081502583384E-1   -1.596387075248091E1    -8.517898181914154E1    -7.636272105378781E1
                        -9.369243907771642E1    -1.404673596246694E2    -9.426573753997259E1     1.459416685544512E1    -9.415075935218465E1     9.178685551156339E1    -9.351694193229514E-1   -2.115717755981662E1

 3.040000000000000E7    -2.387060503917582E-1    9.688019100023068E1    -6.827140922982356E1     5.392708135869368      -9.216513066905912E1     9.816554167601379E1    -8.591473905346479E1     1.641427668329068E2
                        -6.814187391979641E1    -2.179561778980738      -2.599689826283254E-1    8.384938418434808E1    -8.586177755968832E1     1.663831224999899E1    -9.464051413934455E1    -6.638897094160325E1
                        -8.565989307074122E1    -1.246631688032831E1    -8.695867961698571E1     9.016705294193764E1    -9.233120534623709E-1   -1.632091900944170E1    -9.176081586026946E1     6.547286082334176E1
                        -8.379685797121030E1    -1.360276594507783E2    -9.839045395345914E1     3.329903850865509E1    -8.948055210610009E1    -1.547640314931773E2    -9.424751550895766E-1   -2.144812203964577E1

 3.042500000000000E7    -2.379821587252804E-1    9.658059691063959E1    -6.945128386479644E1    -6.890887874783190      -8.915301427067605E1    -1.140877561052338E2    -9.092327356244527E1     5.157464274528355
                        -6.780571138610114E1     3.096958244875088      -2.636956889682717E-1    8.348345549009898E1    -8.652032084191052E1     1.422477937913029E2    -9.143121913303159E1     7.919651226832151E1
                        -8.438994464505259E1    -1.607799068964792E2    -9.927387142198499E1    -1.713271205181590E2    -9.252566359783382E-1   -1.667471704787219E1    -1.031862639432963E2    -3.198147838847364E1
                        -8.387045257741329E1    -1.550045356825335E2    -9.451278297656948E1     7.847535857190552E1    -9.085834426506932E1    -8.121395680207201E1    -9.393137147530608E-1   -2.181947749445891E1

 3.045000000000000E7    -2.421799149272937E-1    9.625846216701901E1    -6.847361791579164E1     9.324871828500406      -8.869152765644090E1     3.210923692730108E1    -9.143874427892662E1     1.491636035600767E1
                        -6.751492674777435E1    -7.052861383973846E-1   -2.564042609374253E-1    8.306650267499445E1    -8.584919962490164E1    -1.191089472376650E2    -9.766349091871047E1     1.333883635876064E2
                        -8.966318900763233E1     6.019955237026784E1    -8.757775415020112E1    -6.891984917755976E1    -9.261857376473841E-1   -1.696849085480945E1    -8.283659100277410E1     1.062568036542693E2
                        -8.373658228121488E1     1.218896469649984E2    -8.903335726370172E1     2.283617301919166E1    -8.939256683763378E1     1.537516433766864E1    -9.382863416348947E-1   -2.209565203814119E1

 3.047500000000000E7    -2.425880932174970E-1    9.596370626160454E1    -6.853505253000294E1     4.353819412469225E-1   -9.156397294887570E1     6.345736039404023E1    -9.322065952214479E1    -1.423738703365924E2
                        -6.791952077267038E1     4.993768778846576      -2.615832837771480E-1    8.272028209127176E1    -8.613791144023567E1     1.024221570198809E2    -9.106745785581191E1     1.740867501547793E2
                        -8.302137083734174E1     9.694594454700770E1    -9.232114917427390E1    -4.758317300236839E1    -9.270331624409217E-1   -1.722396453951162E1    -8.762546899236226E1    -1.227826393275493E2
                        -9.059954910042140E1    -2.975698300818614E1    -8.612386800358780E1     1.457992553338327E2    -8.908899915457374E1    -1.435172288081511E1    -9.404447310804364E-1   -2.242695767534550E1

 3.050000000000000E7    -2.354415200241895E-1    9.570179615478882E1    -6.762964120254419E1     2.592725094745008      -8.411901159311503E1    -1.388240599385526E2    -9.208547590607736E1    -1.717135626862913E2
                        -6.643775678068107E1     6.898672117208345      -2.608649208591915E-1    8.229929345041718E1    -8.465614677832562E1     1.176027092608593E2    -7.935087160655723E1     1.597691681176462E2
                        -8.432576173220012E1    -1.865483740848159E1    -8.593006353268747E1    -4.486709107485937E1    -9.267063463586742E-1   -1.752221040091463E1    -8.508773271601656E1    -1.386430548641091E2
                        -9.067557857412488E1    -1.730708048737725E2    -8.933644719432982E1    -3.204308207178598E1    -8.641856735375292E1     5.560001262176172E1    -9.422191143320179E-1   -2.271371437725538E1

 3.052500000000000E7    -2.393258513822750E-1    9.538141598629971E1    -6.655693115492309E1     5.101584424531248      -8.162870615770746E1     1.431920890918311E1    -8.956151492270513E1     2.206310608071113E1
                        -6.793510313492899E1     8.907849010651376      -2.592680400732024E-1    8.199044554553153E1    -9.021764319509551E1     1.347047320020368E2    -8.707206651794144E1    -4.645617452095328E1
                        -8.711058280437661E1    -1.152986865377799E2    -8.417469660231787E1    -1.135725217451453E2    -9.240713750448343E-1   -1.784819398437541E1    -9.100442339908641E1     6.979878877272721E1
                        -8.517109336052047E1    -5.958857602950765E1    -8.789652200063244E1     1.678562835952687E2    -9.232252933739579E1    -2.015902865625693E1    -9.407984480969760E-1   -2.302956356320719E1

 3.055000000000000E7    -2.372457205478080E-1    9.504846622703822E1    -6.693627520271927E1     6.423034227442252      -8.806157250606816E1    -1.238365849201893E2    -8.100355475045036E1     1.592203736189483E2
