#  HZ   S   DB   R     50.00 
! Rohde & Schwarz Vector Network Analyzer 
! Rohde-Schwarz,ZNB8-4Port,1311601044102961,2.82
! Created: UTC 2/13/2019, 9:21:35 AM
! freq[Hz]                db:S11                  ang:S11                 db:S12                  ang:S12                 db:S13                  ang:S13                 db:S14                  ang:S14
!                         db:S21                  ang:S21                 db:S22                  ang:S22                 db:S23                  ang:S23                 db:S24                  ang:S24
!                         db:S31                  ang:S31                 db:S32                  ang:S32                 db:S33                  ang:S33                 db:S34                  ang:S34
!                         db:S41                  ang:S41                 db:S42                  ang:S42                 db:S43                  ang:S43                 db:S44                  ang:S44
! 
 3.000000000000000E7    -2.506300967508323E-1    1.015864700869877E2    -7.194034561987840E1     1.066806048964999E1    -8.874287662453610E1    -1.556025593369783E2    -8.424343442389743E1     1.188706420626732E2
                        -6.829923921987013E1     7.494850989790256      -2.704658936204036E-1    8.994994370028681E1    -8.598151059249187E1     4.838643098184032E1    -8.718492646594396E1     9.088457571847867E1
                        -9.358233638041595E1    -9.082207473692526E1    -8.661752996018934E1     1.171890941791678E2    -9.240433267847753E-1   -1.142817523873088E1    -8.293264775826447E1     2.036323517400113E1
                        -8.974951472694416E1    -1.534709144206656E1    -9.020736231073767E1     1.316293170627842E2    -8.662650871126184E1    -1.299393305357790E2    -9.432133658835807E-1   -1.644022633304856E1

 3.002500000000000E7    -2.586621723468205E-1    1.012926033884550E2    -6.874877379521477E1     1.413929902344857E1    -8.151076068845497E1    -3.453896059809726E1    -8.292114649720531E1    -5.223913844154140E1
                        -6.847992928829999E1     5.168112774634289      -2.636390084247196E-1    8.956597682578121E1    -8.964834841148119E1     2.875859444851965E1    -8.860866476822207E1     1.165741976922897E2
                        -9.723562712480104E1    -7.227040613925443E1    -8.477766592373203E1    -8.640535856118788E1    -9.258453593096999E-1   -1.172292705131975E1    -9.404176510497776E1     3.346949164489541E1
                        -8.491221782577100E1     1.541447728734275E1    -8.515946123832495E1    -1.334127544026358E2    -9.014655954638896E1     1.446821041334520E2    -9.428779803707594E-1   -1.677088346171696E1

 3.005000000000000E7    -2.575365540069550E-1    1.009607463279506E2    -6.734275704327006E1     1.117082015611447      -8.817679824581667E1     1.717293798399776E2    -8.884418269616027E1    -3.731571767806668E1
                        -6.871147043786972E1     6.347840678704967      -2.587617809522499E-1    8.918421711418142E1    -8.744032882654739E1    -1.429797020162259E2    -8.321800913148596E1    -5.633024086500145
                        -8.988819835654402E1    -4.421865595583657      -9.169470535478590E1    -3.344949004623182E1    -9.298820357918789E-1   -1.204603590400381E1    -8.395043895781387E1     2.099173098399087E1
                        -8.522093933670951E1     1.628597203357690E2    -9.625465234698007E1     8.473561781106960E1    -8.730995781479356E1     8.539645429826867E1    -9.407528706872443E-1   -1.709110272056513E1

 3.007500000000000E7    -2.545392655225788E-1    1.006839718280163E2    -6.888962370917933E1     2.569701504643262      -9.426858741246934E1    -2.630623278319871E1    -8.364481101407864E1    -3.072697216374575E1
                        -6.745647774446913E1     6.808280089347396      -2.593377486703631E-1    8.880561844086887E1    -9.160864391521378E1    -1.086331710402784E2    -8.661172513204861E1     1.462850443774541E2
                        -8.775426954609985E1     1.052164763726525E2    -8.632527824306141E1     9.478198997922772E1    -9.248296066822493E-1   -1.239091994854910E1    -8.295130754150223E1     1.321208335378744E1
                        -8.815698749615082E1    -1.195231176971486E1    -8.358691019554600E1    -3.503547876993515E1    -8.832527294751230E1     1.004091478540001E2    -9.381904451144590E-1   -1.739367294138159E1

 3.010000000000000E7    -2.562603005885741E-1    1.003895796325618E2    -6.857432529356154E1     1.551862181628743      -9.015836056488665E1    -1.429184695985402E2    -9.218158725572700E1     7.130314683932340E1
                        -6.725687588539967E1    -3.070921432534670      -2.609893429449594E-1    8.844288530876152E1    -8.512043304173874E1    -1.729629710236946E2    -1.048154772930313E2     1.659677413865529E2
                        -8.565890898965265E1     1.263549766786423E2    -8.596438938382703E1    -6.987877669794932E1    -9.277085870229471E-1   -1.263222498991326E1    -8.384708622647753E1    -1.669704165013303E2
                        -8.592228788948100E1     1.355544508760425E2    -9.930037048575258E1    -1.603678019484544E2    -7.949863605619754E1    -8.514972136826032E1    -9.402121074937202E-1   -1.769499535521796E1

 3.012500000000000E7    -2.492183597932595E-1    1.001077485948311E2    -6.832534467242340E1     4.535218727314337      -9.412944523770834E1    -1.671951560287891E2    -8.553800179567210E1     4.123531862541200
                        -6.803930066161843E1     4.406865487870016      -2.639969887987951E-1    8.809163670917411E1    -8.634436863600371E1    -8.384773598623639E1    -7.844814830770842E1    -1.668338478309020E2
                        -8.704322297077437E1     1.943817804963230E1    -8.424118377767937E1    -9.352284298992367E1    -9.349957340109014E-1   -1.296775653686433E1    -8.148538332730314E1     1.337245520319302E2
                        -8.089906401981573E1    -1.378749724932673E2    -9.439854125927448E1     9.648427660653881E1    -9.012478399991127E1     1.158839746592363E2    -9.404890476903306E-1   -1.805691411433745E1

 3.015000000000000E7    -2.550570146731236E-1    9.981555421243373E1    -6.913055995252006E1     6.526088306726853      -9.616777480786143E1     1.118333811877224E2    -8.735113029835702E1     1.470186147127669E2
                        -6.936174724877000E1     6.018371539748388      -2.631588270493158E-1    8.771042280988048E1    -8.778135969176644E1     1.747173485082829E1    -8.062840342757788E1     8.421766422415381E1
                        -8.534813102308556E1    -8.477721292572930E1    -8.217189325316420E1    -9.399917305848609E1    -9.342901979282705E-1   -1.328637889098931E1    -8.222100980781980E1    -1.492174726104676E2
                        -9.604034097373393E1     5.250843203662878E1    -8.229404306246585E1     1.104516424609885E2    -8.592306396530316E1     1.756694813909707E2    -9.393212698305864E-1   -1.832463714583447E1

 3.017500000000000E7    -2.443908565935285E-1    9.949709220522607E1    -6.884332791374648E1    -1.920067547265322      -8.631699014388190E1    -1.678628834755815E2    -8.454908095122589E1    -1.339751764883660E2
                        -6.863344729472539E1     1.024721203280626E1    -2.591745843875353E-1    8.734657850787387E1    -8.532998546008408E1    -5.928901671720529E1    -8.959377054074203E1    -5.074267854772705E1
                        -8.874356603828743E1    -8.323787198121602E1    -9.091614885628134E1     3.194493418340598E1    -9.315993497883968E-1   -1.354604914778042E1    -9.103059808145817E1     1.563473744650530E2
                        -8.791618394331806E1    -8.459200445079863E1    -8.797986648429759E1     1.313995958657104E2    -8.635948263620691E1     8.954440366995833E1    -9.482478154570841E-1   -1.862181152687564E1

 3.020000000000000E7    -2.469265310850196E-1    9.922945668341325E1    -6.739981722989404E1    -7.719898160427133      -8.249539157798395E1     1.089800017839574E2    -9.225088192737127E1     1.222596190967178E1
                        -6.790105290404833E1    -3.669436891563949      -2.592265928757371E-1    8.697890356994448E1    -8.339864846700542E1    -1.767142372217491E2    -9.458331918155251E1    -1.581130584183446E2
                        -8.579029654996009E1    -1.120623395115977E2    -8.473648764675494E1     4.023962073707453E1    -9.240073487135414E-1   -1.388937681000373E1    -8.508146070398701E1     1.289320667857205E2
                        -8.312268593765994E1     8.951926701196747      -8.918957135402542E1     6.920466047970068E1    -8.459342320816857E1    -4.859734793711249E1    -9.427133530676217E-1   -1.896791449188677E1

 3.022500000000000E7    -2.529726171712505E-1    9.894048907702370E1    -6.798739602347214E1    -5.301839296625769      -8.647120236150796E1    -1.177876145087749E2    -8.234903276806277E1     1.333597461729810E2
                        -6.756413365719892E1     6.838857164217754      -2.590271169211729E-1    8.659220107242194E1    -8.574633770464894E1    -1.333270451881071E2    -8.823387778548722E1     1.109205772403134E2
                        -7.957310303634442E1     1.625468761327764      -9.693427155904874E1    -4.191067689890276E1    -9.302740890164754E-1   -1.416936881543043E1    -9.061760623734919E1    -8.431821750632180E1
                        -9.509173244063356E1    -1.313982996110395E2    -8.677902545646434E1     4.390913592805241E1    -8.319284143572878E1    -1.432711264602874E2    -9.406621671346385E-1   -1.926406680440581E1

 3.025000000000000E7    -2.530603142833987E-1    9.861919638909166E1    -6.842309817449868E1     1.162805287789541      -7.914315918531261E1    -1.670202965578539E2    -8.244665208995716E1     1.413676719881074E2
                        -6.838087581312492E1     1.906188921152872      -2.743372655651100E-1    8.618528243271443E1    -7.960558063935902E1    -6.973336498241397E1    -8.671212148653552E1    -1.328229805184560E2
                        -8.442542382508593E1     1.417366553585409E2    -9.494440185303080E1    -1.490678341865635E2    -9.287459795130164E-1   -1.441903680239785E1    -7.965963871540691E1    -2.712778527962103E1
                        -8.157700226029184E1     1.277136460915195E2    -9.704560775579621E1    -1.757692206347045E2    -9.126142151766487E1     6.036834663599222      -9.401619863950341E-1   -1.960558237583252E1

 3.027500000000000E7    -2.495056733578505E-1    9.833458045529228E1    -6.792984121967238E1    -4.125018669726602E-1   -8.840394870553399E1     6.981174317363774E1    -8.763893310549122E1    -1.137879238701383E2
                        -6.745906148942355E1     5.732658888947671      -2.539577674318224E-1    8.581583581976489E1    -8.637758136943583E1    -1.186021655394859E2    -8.367661434022466E1    -1.349113853455642E2
                        -9.108567777041472E1    -1.161872750663547E2    -8.157595268396642E1     5.784576455293510E1    -9.196755058476325E-1   -1.477545609080734E1    -9.325252486846738E1     8.823277129656458E1
                        -8.584466062933073E1    -9.317381881249442E1    -9.692058699262937E1     1.620663326898691E2    -8.901828496462807E1     3.221547344040961      -9.411701609756041E-1   -1.992608537320590E1

 3.030000000000000E7    -2.534423841352325E-1    9.802991964583522E1    -6.704905247635908E1     8.349094948441836      -9.124882680846812E1    -1.027899841812539E2    -8.547052025413530E1    -2.718397910991178
                        -6.838626799202847E1     3.133345306326266      -2.540886086903937E-1    8.546534272197638E1    -8.229674667525437E1     5.019661165190794E1    -9.616834024701426E1     6.746007643249702E1
                        -8.444023976428518E1     7.655910527225007E1    -9.026376620321179E1     9.838365040544163E1    -9.326362747932659E-1   -1.509373749351242E1    -8.458999149890288E1    -5.750282079627456E1
                        -8.709572941517297E1     1.721011789907292E2    -9.081200269581630E1     6.647621811587183E1    -8.246934827562095E1    -6.267069890078870E1    -9.422783817812225E-1   -2.021318408829346E1

 3.032500000000000E7    -2.541103940088230E-1    9.775514545676414E1    -6.838377636478410E1    -5.973904103427787      -8.399062666557768E1     1.216160332464857E2    -8.601469967672351E1     1.118181251635516E2
                        -6.767514801877981E1     2.712253051987057      -2.557793704409695E-1    8.505498747632073E1    -8.647336171067849E1    -1.511246367143402E2    -1.003244557297421E2     4.421647591262770E1
                        -8.495302430299795E1    -1.014609145447440E2    -9.336697547297989E1    -9.321352140969262E1    -9.286737851594420E-1   -1.541988495617505E1    -8.136986501756356E1     8.454557529466675E1
                        -1.003033967163069E2     2.818293215755693E1    -9.066195723949934E1    -1.651348434154639E2    -8.643127787951167E1     3.892765867378459E1    -9.375147197622378E-1   -2.049614009086751E1

 3.035000000000000E7    -2.452921801958856E-1    9.744010177774322E1    -6.720611115853940E1     1.334364152490289E1    -8.841743732975394E1    -2.820382667525498E1    -9.271370181534954E1    -1.016302991741569E2
                        -6.777060338472677E1    -7.762430230001841      -2.555869141666829E-1    8.468816452051951E1    -7.828147539766624E1    -1.151150322705763E2    -9.467602496217589E1     7.813488770151677E1
                        -9.373228790439882E1     1.357266515965703E1    -8.145803610794306E1     1.004967318644463E2    -9.255253806402746E-1   -1.573247640611093E1    -8.361972893708153E1     1.486466081067415E1
                        -9.722654611054239E1     5.401107716990546E1    -8.223432323265895E1     1.697134934334785E2    -9.012449811206645E1     1.462999027229104E2    -9.407464024273935E-1   -2.085870695380544E1

 3.037500000000000E7    -2.455441017457487E-1    9.713863924537183E1    -6.764475015868393E1     8.320023406818294E-1   -9.116025209409767E1     1.629913921351295E2    -9.572483839126474E1     8.899816757562206E1
                        -6.956596920947337E1     8.618834961581475      -2.631952162371696E-1    8.431338276594121E1    -8.042405890320190E1     1.084011275244818E2    -8.534283795775087E1     1.652854927069881E2
                        -9.353559149436883E1    -1.041352349978323E2    -8.657449353914055E1    -1.150438513974882E2    -9.301107107573701E-1   -1.599043174714075E1    -8.827365916178781E1     1.661436042172492E2
                        -8.870403739222294E1    -3.784750971468421E1    -9.678382614771770E1    -3.263534264808373      -8.832746263743033E1     9.430911298316555E1    -9.395910631853146E-1   -2.116810774093555E1

 3.040000000000000E7    -2.460709110105478E-1    9.689385702884582E1    -6.726215815555952E1     6.215792598604687      -8.511463888399265E1    -1.519367644750827E2    -9.480817888088359E1    -9.401860738552425E1
                        -6.710044427359570E1    -4.374027363244900      -2.597945130662931E-1    8.392925584414975E1    -8.657712141747444E1     1.647516268698179E2    -8.529424192559753E1     2.876358931568523E1
                        -8.176782372594977E1    -5.591910423919539E1    -9.112145167702032E1    -7.397215789466891E1    -9.294015837374705E-1   -1.632153939566200E1    -8.376863955910733E1    -1.539526063423581E2
                        -8.914990795214209E1    -4.569927807537007E1    -9.395570559449496E1    -6.378808679178705E1    -9.531148672968112E1    -5.000491459195271E1    -9.439945710901765E-1   -2.146996383710386E1

 3.042500000000000E7    -2.454193494828408E-1    9.656603906685551E1    -6.838916115633359E1     1.242806905614437E1    -8.130102307448865E1    -1.243657605996468E2    -9.917797154606929E1    -1.518067956441788E1
                        -6.763520029570408E1     5.347782815690457      -2.543072457391474E-1    8.360637049077597E1    -8.346263005538381E1     5.752905897063598      -7.953517857212381E1     1.790344272460368E2
                        -8.323979406778115E1    -7.402521380735048E1    -8.443657226766298E1     7.265864529763506E1    -9.258962343422048E-1   -1.665569407770183E1    -7.957453204837509E1     1.097381733711546E2
                        -8.635897989925118E1    -3.934817558565502E1    -8.357061181601615E1    -1.149603232097208E2    -9.476948787079023E1    -6.384091761826870E1    -9.362750389872955E-1   -2.175758934827066E1

 3.045000000000000E7    -2.418237612882736E-1    9.626656683310179E1    -6.666878740332300E1     5.470549856021610      -7.920616301277639E1     1.274216311614814E2    -8.278780772292392E1     2.817150431016193E1
                        -6.701981450663581E1    -3.232876183516179      -2.552000499920252E-1    8.320394566860722E1    -8.346279065759445E1    -7.689556310479577E1    -8.980798290784975E1    -2.637821001776425E1
                        -8.040334019432245E1    -1.625274078288171E2    -8.925043198438992E1     1.470890046275172E2    -9.308371502050170E-1   -1.695721986898901E1    -9.332601563893019E1    -1.630947130540616E1
                        -8.808882436140677E1    -1.526129116122877E2    -8.223858987500421E1     5.239723317119891E1    -8.172993043748747E1    -6.691106360621588E1    -9.368132241711911E-1   -2.213007118390846E1

 3.047500000000000E7    -2.474691082972953E-1    9.594899988713789E1    -6.798618663509325E1    -1.287223512975927E1    -9.065169809476869E1    -2.343660411365406E1    -8.666222562318473E1     7.081702825627806
                        -6.761664689598212E1    -2.896473289274424      -2.482686178039645E-1    8.281980199486570E1    -8.999372652528695E1    -1.018906601322992E2    -1.090635925182807E2    -1.067144547247074E2
                        -9.786762992048388E1     5.236738159644121E1    -9.458975251111679E1     5.875098381352784E1    -9.249465722494232E-1   -1.722688475342557E1    -9.679301024152039E1     1.199049336254030E2
                        -8.413251857801554E1     8.996482474081041E1    -8.595302940337800E1     4.265880473683746      -8.163004871731948E1     1.298499822306660E1    -9.408299121542573E-1   -2.240170277943342E1

 3.050000000000000E7    -2.506211358090437E-1    9.568894744389169E1    -6.829105620920402E1     8.330064052379399      -8.427918407588857E1    -1.100312387816560E2    -8.751877729354703E1    -1.208411710398841E2
                        -6.915499722174734E1    -1.317515098594631E1    -2.486772584838285E-1    8.239570754517770E1    -8.530182483563949E1     1.135491803447254E2    -8.663620707588740E1    -8.872956139046620E1
                        -8.485172547685764E1     1.631489431777016E2    -8.479312510119220E1     1.190091696580667E2    -9.258676348737333E-1   -1.749795147938541E1    -8.874583921308013E1    -1.668319806989548E2
                        -9.256792146157363E1    -1.218393976213309E2    -9.300551886777436E1     8.659703760304993E1    -9.169155481794493E1     1.778628770524972E2    -9.358254104579520E-1   -2.272747886191642E1

 3.052500000000000E7    -2.386316748267637E-1    9.540694977241736E1    -6.718385628856430E1    -8.796046629490002      -9.029770067416145E1    -7.599769450644439E1    -8.036795191496680E1    -3.632622227808262E1
                        -6.598932163960642E1     2.858095971098151      -2.553241470498011E-1    8.204206750443164E1    -9.545110809791711E1    -5.152134512256601E1    -8.338520141763583E1     2.146484907083365E1
                        -9.567000536749843E1     3.984517105982769E1    -8.213211937438811E1    -3.837346091482842E1    -9.307865164204959E-1   -1.784466453653602E1    -8.310490168291750E1    -7.484850576372814E1
                        -8.611106254443598E1     5.893182060303282E1    -9.159945867671152E1     1.099314286011471E2    -9.613064350350818E1     1.767695029393863E2    -9.411258601713446E-1   -2.303772603883435E1

 3.055000000000000E7    -2.406546980346458E-1    9.506461013310045E1    -6.651625618531894E1    -7.037515396121276      -9.345410636108248E1    -1.192111304745308E2    -8.489332676561719E1    -5.313534493739540E1
