#  HZ   S   DB   R     50.00 
! Rohde & Schwarz Vector Network Analyzer 
! Rohde-Schwarz,ZNB8-4Port,1311601044102961,2.82
! Created: UTC 2/13/2019, 9:01:49 AM
! freq[Hz]                db:S11                  ang:S11                 db:S12                  ang:S12                 db:S13                  ang:S13                 db:S14                  ang:S14
!                         db:S21                  ang:S21                 db:S22                  ang:S22                 db:S23                  ang:S23                 db:S24                  ang:S24
!                         db:S31                  ang:S31                 db:S32                  ang:S32                 db:S33                  ang:S33                 db:S34                  ang:S34
!                         db:S41                  ang:S41                 db:S42                  ang:S42                 db:S43                  ang:S43                 db:S44                  ang:S44
! 
 3.000000000000000E7    -2.483043914437010E-1    1.015726633677533E2    -6.850093106139659E1    -5.622763689858228      -9.650068909545098E1    -1.385189118887433E1    -8.529871689475952E1    -4.509180399128893E1
                        -6.864658723297028E1     3.575198431665561      -2.506267165407377E-1    8.995690588819922E1    -8.438106055964482E1     5.204279707482100E1    -8.457252882826957E1     1.033977757147625E2
                        -8.719810280434332E1    -1.251253672741284E1    -8.126726566211963E1    -4.493445008673253E1    -9.240079596128834E-1   -1.145214674407288E1    -8.888465261603298E1     7.372743909589379E1
                        -8.097321890988613E1    -1.598343232208007E1    -8.622445543896245E1    -6.647427211265446E1    -9.922212492251359E1     8.725954667091386E1    -9.325929560567035E-1   -1.642780503686419E1

 3.002500000000000E7    -2.481944070820217E-1    1.012973257015529E2    -6.801411519145557E1     1.366588925773869E1    -8.290768997280165E1    -3.034863547588931      -8.902727906788492E1    -7.689053752701840E1
                        -6.981331575396312E1     8.846306989083580      -2.534568537920053E-1    8.956666366395945E1    -8.767936516657687E1    -1.412195544168940E2    -9.040914464370158E1    -1.650545676762644E2
                        -9.173050516394312E1     6.712742513148978      -8.854714349939245E1     1.679249282545682E2    -9.271851277092746E-1   -1.173384597279607E1    -8.172610724056344E1    -4.532668160717571
                        -8.270294659772701E1    -5.590548855873615E1    -9.226579388418081E1    -8.740298091989526E1    -8.873155849896024E1     4.028661552490976E1    -9.352733376142755E-1   -1.675721051030910E1

 3.005000000000000E7    -2.527451557124865E-1    1.010338803533388E2    -6.895855532490656E1     1.754694847068106      -8.698426099613673E1    -1.486028204441022E2    -8.723656946239552E1    -1.625260792331792E2
                        -6.708563870830439E1     9.961562593115431      -2.511405224656773E-1    8.923479508382845E1    -8.425988737300166E1    -1.076255886330608E2    -8.868902487868124E1     1.730248999605596E1
                        -8.687461208886992E1    -1.492393380763592E2    -9.122144274294207E1     2.349202033027769      -9.305864912563621E-1   -1.206476253470617E1    -8.626595831269685E1     1.608859192593029E2
                        -9.516304073259596E1    -5.513641432109489E1    -9.168737810913414E1    -1.017923046376250E2    -8.874919606966010E1    -2.833275907027777E1    -9.382739921378885E-1   -1.706124580631938E1

 3.007500000000000E7    -2.493753525795848E-1    1.006934590809505E2    -6.753078171291301E1     1.182680222057888E1    -9.762251208912119E1    -1.271146109198357E2    -8.930293612396721E1     6.279100230279400
                        -6.989553791715180E1     1.090235103547126E1    -2.483243432244509E-1    8.884049424922945E1    -7.728033105730791E1    -1.583991314652694E2    -9.035429554422136E1    -1.405745871264178E2
                        -8.489559661529449E1    -1.392189459005040E2    -8.594194789185424E1    -1.087155290773526E2    -9.283871187112907E-1   -1.236298673764050E1    -9.094764640672749E1     9.534920981862099E1
                        -9.917067459083826E1     1.276246946525666E2    -9.137831832490238E1    -3.525005138447830E1    -9.676304869038563E1     1.225240120441581E2    -9.389821791332296E-1   -1.736858581459461E1

 3.010000000000000E7    -2.437507456981947E-1    1.003904446620743E2    -6.882346624107325E1     1.103462074889853E1    -8.477745542871439E1    -1.366385948115111E2    -8.734813468132673E1     1.630980883494380E2
                        -6.940371704586977E1     7.799274698755870      -2.552454242471984E-1    8.844996026373119E1    -9.378281961080160E1    -1.523844397606859E2    -8.235505755472897E1    -5.658868139052722E-1
                        -9.591660416331094E1     1.794691378083861E2    -9.026714134240352E1     1.301853557343088E2    -9.289729497686328E-1   -1.266114658058986E1    -8.831430645151458E1    -6.220519564680406E1
                        -9.073881496109519E1     1.647216524472197E2    -9.031517384136791E1    -5.259460404924996E-1   -8.841144772649835E1     8.497134020007196E1    -9.344814954709696E-1   -1.770386900443204E1

 3.012500000000000E7    -2.383669589214634E-1    1.000998991578364E2    -6.992553990486746E1     1.499759563056704E1    -8.426086348198189E1    -4.635375697142176E1    -8.608203662944649E1    -1.580891160920962E2
                        -6.872423493416382E1     3.469347330622339      -2.480877811792929E-1    8.814311105298597E1    -8.402884781878554E1    -1.638637244162430E2    -9.408157273832512E1     1.062324877523832E2
                        -7.881865963296029E1     9.236126615243774E1    -8.254928963078099E1     3.183855597902572      -9.313372539000131E-1   -1.296071593122875E1    -9.344064274163053E1     1.227844790596085E2
                        -9.583557581122804E1     7.983978500389361E1    -1.041255157255725E2    -8.349043793672011E1    -8.724144164168052E1     1.585156717744421E2    -9.365265934228434E-1   -1.803700580337208E1

 3.015000000000000E7    -2.472045303031601E-1    9.980866075077201E1    -6.861676634209263E1    -4.426462348165399      -8.383662148572158E1    -5.102049572965290E1    -7.974679642360682E1     8.724258557860894E1
                        -6.880538385506978E1     1.650831234237145E1    -2.540282005845211E-1    8.772572584857674E1    -7.984811755381826E1    -1.488012115147439E2    -8.751084112050810E1     8.672337004085195E1
                        -9.545709656338559E1     1.545857905987170E2    -9.190638498788286E1    -1.022735530599135E2    -9.323322324150596E-1   -1.330587194882809E1    -8.853973053554505E1    -6.152761015646917E1
                        -9.799887376805900E1    -7.086506497948616E1    -8.299877063602948E1     1.603131239991189E2    -8.447680570112524E1    -1.209422301266659E2    -9.391350677146905E-1   -1.830099828727417E1

 3.017500000000000E7    -2.407838560382871E-1    9.952922366445050E1    -6.840235551464987E1     5.647762607746751      -8.857593850101900E1    -3.500342935821883E1    -9.127422387160098E1     1.145762456474607E2
                        -6.911089540262159E1     2.914310291064182E-1   -2.436126209744535E-1    8.731562573940019E1    -8.772309217719729E1     2.226537949882687E1    -9.018172991213146E1    -4.354412201586425E1
                        -8.946556051787894E1     4.190763016729543E1    -9.225986551741393E1     6.943353673340478E1    -9.272387641349669E-1   -1.355129735361134E1    -1.029904376981621E2     1.297941623784431E2
                        -9.567896378048005E1    -7.279647818024890E1    -9.110272001018556E1     1.524286694981696E2    -8.297807780545894E1    -3.965717696605498E1    -9.413320539439917E-1   -1.863216716884644E1

 3.020000000000000E7    -2.384889955579035E-1    9.921594734488026E1    -6.865147948751203E1    -2.398870945806331      -9.421345576383294E1     4.803851167630332E1    -8.151929740583130E1     3.183348340349770
                        -6.801441751001565E1    -1.308244630439653      -2.469620003566054E-1    8.700961112922042E1    -8.313586612091449E1    -9.744925123777931E1    -8.533722233984398E1    -5.741484782082480E1
                        -8.424088383635224E1     1.234713098089814E2    -9.351490385526762E1     1.059213627759460E2    -9.309542613160824E-1   -1.389720721824719E1    -8.961780184685915E1     1.441574820659418E2
                        -9.834903346916009E1    -1.018632274552710E2    -8.529772438598278E1     1.703074978493787E2    -9.270949554485178E1     1.818044821979352E1    -9.441730768620398E-1   -1.897250416522429E1

 3.022500000000000E7    -2.476187399604096E-1    9.893991152109331E1    -6.720518812002095E1     3.339989249137248      -8.486343816227161E1    -4.529945505687842E1    -8.007046721714779E1    -2.070673877812862E1
                        -6.835393295850130E1    -2.415760480187760      -2.480027648105685E-1    8.663495025199536E1    -8.989139618488156E1     9.370482672693692E1    -9.524834219255376E1    -1.124342390947413E2
                        -8.692590638435610E1     1.368484625691803E2    -9.008564107719553E1     1.108299767036190E2    -9.305898778536088E-1   -1.416708850875991E1    -7.935819900433130E1    -9.184309022676811E1
                        -8.442278119386855E1    -9.593818123150417E1    -8.450289190304191E1     1.910933392061137E1    -8.191007721781817E1    -1.367846293395533E2    -9.386719877431622E-1   -1.929380161308319E1

 3.025000000000000E7    -2.461030875152477E-1    9.862511875861469E1    -6.768652528094833E1    -3.759473350214235      -8.352951328035212E1    -1.583565785290863E2    -8.403539570345232E1     5.416129878898668E1
                        -6.913843872022352E1     6.812595256950064E-1   -2.652969552970038E-1    8.629123624771584E1    -8.288785020630047E1    -1.276229236506929E2    -8.130570108953643E1    -1.084491019048886E1
                        -8.346831738502669E1    -4.408263362709611E1    -9.205999684232020E1    -1.417157057392357E2    -9.230585286559836E-1   -1.449600144204459E1    -8.640984598075023E1     7.841589723875879E1
                        -8.217865569179325E1     7.539610728136515E1    -8.215106959230360E1    -6.707409707052847E1    -8.727686154101670E1    -8.978372639829574E1    -9.379819225904906E-1   -1.960752616627107E1

 3.027500000000000E7    -2.402170635423204E-1    9.833562379052199E1    -6.907304686796525E1     4.987529292763245      -8.484619692976679E1     8.049869520456626      -8.462662340097808E1    -8.890757532633738E1
                        -6.793858061127290E1     5.762494848173306      -2.406316938325582E-1    8.580717845375820E1    -8.408745179086330E1    -1.583922737301224E2    -9.064548898648938E1    -1.322000560844790E2
                        -8.595410604597208E1    -1.254888989363451E2    -9.586721026567349E1     2.102724603265865E1    -9.221103397612535E-1   -1.478883942364492E1    -9.247236984249760E1    -3.591552198071269E1
                        -9.825464614308410E1     9.632464526643285E1    -8.545265265205245E1    -1.477338557895871E2    -8.805648923212816E1     1.665604444538071E2    -9.373828592610933E-1   -1.990281008587323E1

 3.030000000000000E7    -2.431425641248607E-1    9.808569300386287E1    -6.668598033139644E1    -5.733770192903055      -9.839501103086462E1     1.612085546184767E2    -9.866840115419107E1    -5.274972170821044E1
                        -6.802449747269247E1    -5.805892657965810E-1   -2.495207480711179E-1    8.551825792323824E1    -8.905512799249138E1     5.002846545638849E1    -8.243647689213729E1     1.302263166887705E2
                        -8.869399537758481E1    -1.613954601372683E2    -8.166242230497736E1     1.488597615780151E2    -9.270546642306150E-1   -1.512347738367227E1    -8.376511733655875E1     4.741821467097584E1
                        -8.054044907014743E1    -1.432507966153085E2    -8.468998057827052E1     1.719636903152596E2    -9.555926588812419E1     1.015291413327544E2    -9.444943170042173E-1   -2.020783119608688E1

 3.032500000000000E7    -2.399043092649191E-1    9.772266989668779E1    -6.753993774190943E1    -1.155053955574537      -8.220446610232862E1    -1.987815140500703E1    -9.304320810238876E1    -1.617585524848738E2
                        -6.830972034414552E1     1.508576848478831E1    -2.443681535899549E-1    8.511855751985971E1    -8.430157034438848E1     1.251958927268399E2    -9.300425826579578E1     1.741350842865380E1
                        -8.584444898397913E1     6.555127003892319E1    -9.498769322450357E1    -4.189839651237094E1    -9.318030855340940E-1   -1.543329404242482E1    -8.897687116715360E1     1.023191056388207E2
                        -8.030374049299844E1     1.443457241066959E2    -8.923631419117629E1     1.135333911987932E2    -9.495606317687393E1     1.336706100387140E2    -9.407128207710527E-1   -2.053122327342608E1

 3.035000000000000E7    -2.336283195391171E-1    9.746363062813350E1    -6.688223215416187E1     1.393250909526006E1    -1.223113817303462E2     1.994712687568318E1    -9.840318592690159E1     1.162207864140410E2
                        -6.711087911119043E1     3.739860691828935      -2.442075089477130E-1    8.475878282082928E1    -8.645542104314266E1     1.391033502006342E2    -8.457496954600380E1     8.922784622032772E1
                        -8.086117479024711E1     1.112755088903914E1    -8.873991943139599E1    -1.553855742562101E2    -9.241786209656444E-1   -1.572256060020199E1    -9.033990999659881E1    -1.262690678954512E2
                        -9.778094321847249E1    -1.214956326291173E1    -8.426517975603116E1     1.045580043858373E2    -8.192191686542978E1     4.605231051039130E1    -9.414347361893073E-1   -2.082490878896861E1

 3.037500000000000E7    -2.369142569422422E-1    9.714696930782999E1    -6.826563784971727E1     3.080148969937243      -9.638073865505747E1    -6.370041564827999E1    -9.273135440012362E1     1.379736741052877E2
                        -6.863280317017561E1     1.090739856902523E1    -2.473917227680071E-1    8.432159093629268E1    -8.344241080706703E1    -1.587911945574190E2    -8.380521118598615E1     1.328525317911070E1
                        -8.713200727810431E1    -6.764297671353617E1    -8.861985172743960E1    -1.338803598443005E2    -9.252565882744884E-1   -1.599227562129258E1    -8.635688983479868E1     8.818186054649742E1
                        -9.274905846600142E1     1.240344298083428E2    -8.084085836255495E1    -1.212445423074615E2    -8.784354977005167E1    -5.652672104705433E-1   -9.451087714012838E-1   -2.114317247323959E1

 3.040000000000000E7    -2.409369858048637E-1    9.689126737926787E1    -6.890368631027977E1     4.450995874243776      -9.470512074850402E1    -4.907750842940067E1    -9.064071373302033E1     6.438384319947981E1
                        -6.599898401613092E1     3.719875877605354      -2.402229498405283E-1    8.396707636777208E1    -8.676200374956956E1    -1.148329632746909E2    -8.672608761522483E1     1.199318523615649E2
                        -8.661528636877094E1     6.667966069925291E1    -8.288529850634092E1    -1.446968671657575E2    -9.298885083101304E-1   -1.629018871767822E1    -8.492578810909848E1     1.320373745972447E2
                        -8.942025387117043E1     6.667003879983214E1    -9.907636487273315E1     4.026237912505498E1    -9.271403490464584E1    -1.135275908795248E2    -9.386214336628618E-1   -2.150223355097426E1

 3.042500000000000E7    -2.322935769970787E-1    9.658219753672756E1    -6.925557390489807E1    -3.331442327931615      -9.197389849975572E1     7.939164320168818E1    -9.193378895919906E1    -7.349247886117590E1
                        -6.711309357672090E1     3.960349811086577      -2.438018937320526E-1    8.365235224194882E1    -8.680130554938729E1     7.570160411370262E1    -8.199584541010394E1    -1.391011948330380E2
                        -9.120138130007032E1    -1.249813191292812E1    -8.192862046251665E1    -1.073813562627863E2    -9.332604552662365E-1   -1.662617922758946E1    -8.705150581761944E1    -1.011374642898835E2
                        -9.092321413484120E1    -7.882682150823490E1    -9.106898572719499E1    -2.324352345776727E1    -9.292422948204818E1     7.845374267004428E1    -9.361965055355348E-1   -2.180507250337820E1

 3.045000000000000E7    -2.341514158754731E-1    9.627704462557480E1    -6.791609915854988E1    -6.029079388969077      -8.861263233223765E1    -1.793289982773767E2    -8.484188855229257E1     9.761516242604697E1
                        -6.715540511043101E1     1.062123656327792E1    -2.473969142598069E-1    8.320288103286678E1    -8.263857339217546E1     1.514774674615191E2    -9.384718185916312E1    -1.184594444879941E2
                        -8.505315730406004E1    -5.388882877509816E1    -8.315386529091428E1     6.538485832984377E1    -9.237283682834551E-1   -1.691957717325071E1    -8.497733606956616E1     6.423160217493390E1
                        -8.711071699318859E1    -1.159356986963115E2    -8.307576838815940E1     5.535489669469342E1    -8.449319058336860E1    -6.720566724917255E1    -9.341639191925945E-1   -2.206719035734558E1

 3.047500000000000E7    -2.375027904096780E-1    9.596376435996191E1    -6.866056665205389E1    -4.622179620983650      -8.767839429144721E1    -4.565719231979916E1    -1.182517429737385E2    -3.657835911726819E1
                        -6.785601478026889E1    -2.612158532618794      -2.439700707342529E-1    8.287613619609643E1    -8.309330749129316E1     3.913643657447661E1    -8.861843592945674E1    -3.885480006255730E1
                        -8.317403925367577E1     9.665353047072496E1    -8.285647919989735E1    -1.723786753041819E2    -9.256233152376364E-1   -1.728876397699006E1    -8.471720237437256E1    -5.203927159348047E1
                        -9.147655313402409E1     3.558584288148705      -8.635132077627779E1    -4.507692740908164E1    -9.097934317309651E1     9.963608912726069E1    -9.441242428997865E-1   -2.240143577169181E1

 3.050000000000000E7    -2.430838046110487E-1    9.570458703271461E1    -6.768211532870204E1     3.306190877282215      -8.713826997955360E1     2.591155176433953E1    -8.945686692891867E1    -1.103816960688937E2
                        -6.815043149163387E1     1.541258623676407E1    -2.448926357681169E-1    8.245640151521812E1    -9.532415961781626E1    -1.046339930072935E2    -8.855702937036696E1     1.421372904800598E2
                        -8.728242857280959E1     1.363723324526298E2    -9.573529230281336E1    -8.697205889655281E1    -9.297230784937896E-1   -1.751627566667001E1    -8.748719535603456E1    -8.592685609614563E1
                        -8.667188077622089E1    -4.676126556110120E1    -8.601468501295102E1    -4.209623746612793E1    -9.967526409854060E1    -1.569550835156152E2    -9.395174060546749E-1   -2.271743172442081E1

 3.052500000000000E7    -2.330720492431512E-1    9.540660280392731E1    -6.669661617720352E1    -3.134904200035490E-1   -8.721404237128419E1    -1.367066851266583E2    -9.230313339980974E1     4.740058789302946E1
                        -6.745469629533000E1     5.021905941354154      -2.405841035912131E-1    8.211899679615760E1    -8.772063534085646E1     1.394072663994550E2    -9.059177812758321E1    -1.046119349146161E2
                        -8.949238131147909E1    -1.150075108552760E2    -9.063064848034379E1     1.429650727146802E2    -9.315377837649601E-1   -1.786749262858494E1    -8.574567458939846E1     1.179073536051386E2
                        -8.602388964735195E1    -1.244024742450099E2    -9.781123429096979E1    -1.269059120438778E2    -8.845810251941325E1     1.474068771888215E2    -9.360261562377638E-1   -2.304803412024786E1

 3.055000000000000E7    -2.264369151054425E-1    9.508254652313124E1    -6.752145718200774E1     3.238773356101174      -8.382972714300378E1    -1.603462820129401E2    -9.694495413706582E1    -3.730096987681574E1
