#  HZ   S   DB   R     50.00 
! Rohde & Schwarz Vector Network Analyzer 
! Rohde-Schwarz,ZNB8-4Port,1311601044102961,2.82
! Created: UTC 2/13/2019, 9:23:45 AM
! freq[Hz]                db:S11                  ang:S11                 db:S12                  ang:S12                 db:S13                  ang:S13                 db:S14                  ang:S14
!                         db:S21                  ang:S21                 db:S22                  ang:S22                 db:S23                  ang:S23                 db:S24                  ang:S24
!                         db:S31                  ang:S31                 db:S32                  ang:S32                 db:S33                  ang:S33                 db:S34                  ang:S34
!                         db:S41                  ang:S41                 db:S42                  ang:S42                 db:S43                  ang:S43                 db:S44                  ang:S44
! 
 5.525000000000000E7    -2.270254065743826      -1.417884965705892E2    -3.117099633079715E1     7.050740250953035E1    -6.518206296807090E1    -1.536537269666059E2    -7.274463077012241E1     4.925829983739578E-1
                        -3.123419356301568E1     7.144748837658325E1    -3.227230612975575E-1    9.421170169980194E1    -8.633033177384421E1     1.474543788311673E2    -8.773774218795587E1     4.710233856761191E1
                        -6.580925734331056E1    -1.530523233141383E2    -9.202819103027676E1     1.082486601021583E2    -1.389313143229417       3.488015899409176E1    -8.969405959363591E1    -2.999430464393925E1
                        -7.475161499506288E1    -1.403606348773511E1    -8.704249973356582E1     1.068059218340288E2    -9.597659749954761E1     2.154142805239475E1    -1.383258090143442       2.848504894715803E1

 5.525025000000000E7    -2.271400361587758      -1.418294966791117E2    -3.125204436042462E1     7.029699094886529E1    -6.568427689991235E1    -1.545261513488204E2    -7.461678692214760E1     1.196831076661182E1
                        -3.124016633649839E1     7.069604994909072E1    -3.192182221619980E-1    9.422511862260286E1    -8.495180054526075E1     7.335368370571143E1    -9.140935870516671E1     5.666986911018157E1
                        -6.520963313426040E1    -1.555546973752056E2    -8.483486279978231E1     1.205459990377784E2    -1.389377684921289       3.487453308384792E1    -9.302636669461626E1     1.479380796967793E2
                        -7.811705700718191E1    -2.955245115618669E1    -9.516510948238425E1    -3.284688614176124E1    -8.752110157904374E1    -3.091128065773924E1    -1.383248194510034       2.847870972264905E1

 5.525050000000000E7    -2.277094894096658      -1.419073884707699E2    -3.130877310917362E1     7.052733980976355E1    -6.673172903471546E1    -1.578838243797479E2    -7.397162288864551E1     3.913614895846746
                        -3.124001413996984E1     7.022524647229258E1    -3.152676388488158E-1    9.420583376045519E1    -8.627209806288398E1    -1.568227438870228E1    -8.059431073451253E1     9.842949844000970E1
                        -6.564231702726542E1    -1.474379469671510E2    -8.375769625190982E1    -1.189265138763515E2    -1.385692329799848       3.487409647778969E1    -9.128436963709687E1    -1.643419281477358E2
                        -7.851799262067533E1     1.034491135130321      -8.552701307538483E1    -1.744996501517013E1    -9.085293283515716E1     7.581106005337041E1    -1.380501105820064       2.845654676707055E1

 5.525075000000000E7    -2.275010115378740      -1.419154291608570E2    -3.123248653400598E1     7.012398038898321E1    -6.488142296407790E1    -1.531524426726457E2    -7.811528808231722E1    -1.531391731342758E1
                        -3.115638363469932E1     6.988089273217845E1    -3.221330971788569E-1    9.421014706355511E1    -8.037109749187570E1     1.688916763069241E2    -9.590971527175822E1     1.063164472247055E2
                        -6.473473571113755E1    -1.545313890808882E2    -9.034791095811050E1    -9.055045185600953      -1.392390732549551       3.486172546366777E1    -8.302829043516455E1     1.079428755172090E2
                        -7.754475404233662E1     5.179122901946875      -8.498614457709857E1     1.133533071045155E2    -9.002893293398327E1     8.266373085328995E1    -1.382009107146279       2.843902590060452E1

 5.525100000000000E7    -2.278810559507577      -1.419574483186107E2    -3.126553534115734E1     7.073199151778542E1    -6.476196384600402E1    -1.587960753320951E2    -7.419327680344404E1     2.685170002138236E1
                        -3.125534465957043E1     7.024696788231594E1    -3.206349012550485E-1    9.422248867896025E1    -9.124977451630898E1     6.540735749787345E1    -9.772215061511234E1    -4.416328774722854E1
                        -6.616388434263817E1    -1.492212781334376E2    -8.843111084900129E1     5.759876199083145E1    -1.387454263456152       3.487711710419114E1    -9.501480078983013E1     7.249566984547481E1
                        -7.475324551088373E1    -9.389107289834426      -8.462048919261812E1     2.406755577176030E1    -8.748038151384884E1    -2.834893511916770E1    -1.384279532452031       2.845327921037488E1

 5.525125000000000E7    -2.287513467757492      -1.419952278056963E2    -3.119953785831034E1     7.058500944832893E1    -6.538186735357182E1    -1.592480730534421E2    -7.350608229404519E1    -2.709789242572796E1
                        -3.124278514054688E1     7.026052064389553E1    -3.180577678035263E-1    9.419560580515405E1    -8.981216294126041E1     6.741960729485020E1    -8.824665369272762E1     1.220524823305682E2
                        -6.512552638932432E1    -1.534176682123054E2    -9.813298220246763E1    -1.135086654864221E2    -1.393392177801324       3.487172960344308E1    -8.773937186680209E1     1.023606882883736E2
                        -7.545140295865346E1    -6.927044568871786      -8.981333172900625E1    -8.839207207515301E1    -9.567280798461680E1    -6.497133371612259E1    -1.382680250519630       2.843433883298364E1

 5.525150000000000E7    -2.282653889173729      -1.420479325700900E2    -3.117331532864737E1     7.037384208069148E1    -6.584533456052232E1    -1.618465259373034E2    -7.381888913729961E1    -6.389736095630887
                        -3.128092933953740E1     7.002116892356547E1    -3.202691098497243E-1    9.417433855282262E1    -8.225919670211370E1     3.226303997188039E1    -9.144341274140348E1     9.159440255445309
                        -6.526574103426738E1    -1.537884949356395E2    -8.819403287662010E1    -5.957229123228485E1    -1.389426529980831       3.486829150600777E1    -9.515915196437780E1    -3.076305712611579E1
                        -7.686494957628408E1     1.015035993272784E1    -1.100967800318318E2     1.468294620590057E2    -8.770725511462531E1    -1.031158883531839E2    -1.379476700306737       2.845352197053398E1

 5.525175000000000E7    -2.286797630859657      -1.421032215285518E2    -3.126929671006053E1     7.049627996161611E1    -6.499313632412240E1    -1.564873568962645E2    -7.681960363228892E1    -1.078229589134198E1
                        -3.117441222784262E1     6.978732091813738E1    -3.165276993139565E-1    9.418925792238362E1    -8.491044936124044E1     1.718402660370605E2    -8.006085136498453E1    -1.551150558453412E2
                        -6.528978890771539E1    -1.545548553896610E2    -8.579866975852573E1     1.172760220241609E2    -1.394626508551086       3.489145191673008E1    -9.517266326434242E1     7.693143775602565E1
                        -7.584044351064631E1     4.539204886713910      -9.444209838665006E1    -3.838286114446564E1    -9.310666317480342E1     6.549486404800798E1    -1.382666176999121       2.844175742566403E1

 5.525200000000000E7    -2.289805029023016      -1.421342114332417E2    -3.121821568506462E1     7.041689428593250E1    -6.555549799816700E1    -1.567751558327086E2    -7.708319701922279E1    -1.170471412351319E1
                        -3.133020142255275E1     6.953942096653005E1    -3.214261186833167E-1    9.419543403019736E1    -8.852361126260875E1    -7.771544356154371E1    -8.356200514260395E1     7.626394603411245E1
                        -6.575769490921235E1    -1.581054462234583E2    -9.627103873306089E1     1.796985601816730E1    -1.391962019518553       3.483254289058126E1    -9.350607756132243E1    -8.690687040260470E1
                        -7.659145756475002E1    -1.418687185538760E1    -8.163462773057049E1     1.029977871455655E2    -9.455044501296587E1     7.864368184862525E1    -1.380110097682147       2.844989947750920E1

 5.525225000000000E7    -2.292515685040616      -1.421907858631587E2    -3.126227258979277E1     6.996947439277146E1    -6.542647288965677E1    -1.579328656402192E2    -7.533663687591979E1    -2.091367216945330E1
                        -3.134016167442707E1     7.044116447459864E1    -3.199867439733677E-1    9.418539995288367E1    -9.177302510340923E1    -1.581190176259614E2    -8.928071307043120E1    -9.088854797287053E1
                        -6.628202624651225E1    -1.583947053931844E2    -9.074179840080900E1     1.291294462379979E2    -1.393712571103458       3.487929711655656E1    -8.460158500957709E1     4.382292825560379E1
                        -7.514246353913306E1    -5.604763798559639      -8.837326873231189E1    -2.230199508625735E1    -9.016376704972500E1    -3.408069962376788E1    -1.382130530701026       2.844149234373822E1

 5.525250000000000E7    -2.294931812436950      -1.422185926175267E2    -3.120407865790806E1     7.028246550052781E1    -6.540750950924956E1    -1.619922960787175E2    -7.415531123308783E1    -3.187927215082586
                        -3.118192358301246E1     7.047736213679355E1    -3.209576296800835E-1    9.419250258538710E1    -8.526003872638583E1     1.444070788082856E2    -8.783475471366636E1     1.417063215385399E2
                        -6.447684470371344E1    -1.568193570870675E2    -1.068572471064263E2     7.014191277523487E1    -1.394795726221340       3.485184633443615E1    -9.092261512108918E1     6.609372781370253E1
                        -7.328360760196860E1     1.565296742458545E1    -9.093772443709148E1    -7.525543903408669E1    -8.771309382666955E1     7.419362134007152E1    -1.381507291621068       2.842521500929518E1

 5.525275000000000E7    -2.299120489306711      -1.422348947581048E2    -3.135391208319693E1     7.007147211364419E1    -6.487883886903686E1    -1.641730841566032E2    -7.611295703539915E1    -6.956154175536402E-1
                        -3.128172906066272E1     7.023979122838983E1    -3.228988168888331E-1    9.418714819177257E1    -7.954540818095838E1     1.316782482619664E2    -9.128600725365986E1     1.737206700148178E2
                        -6.425812824845404E1    -1.612373068974038E2    -8.244125595755452E1     3.223322257899696E-1   -1.393571853144898       3.485895790584124E1    -1.034116978810459E2     6.472436012951468E1
                        -7.395394691656219E1    -2.299478023588088      -9.195474507386864E1     1.131409084243164E2    -7.974036316022361E1     4.632265228590350E1    -1.380217952217119       2.841692953550576E1

 5.525300000000000E7    -2.296379819302475      -1.422881238954257E2    -3.128687480623576E1     7.018013707559645E1    -6.507537217810972E1    -1.560274405170007E2    -7.433004429825031E1     1.739747681923287E1
                        -3.122311072733573E1     7.054025935006926E1    -3.237313010938234E-1    9.417869721213852E1    -8.772359249941873E1     2.628612823589056E1    -9.209616772203611E1    -6.674079400389843E1
                        -6.451554508224886E1    -1.479634790808565E2    -8.203612163663775E1     1.089726350559868E2    -1.390739600060061       3.486174629194612E1    -8.845039813321944E1     1.035302913127857E2
                        -7.418180276224173E1    -1.711078991991986E1    -8.429061267312186E1     1.701452946277058E2    -9.729223526578971E1     1.552114079035948E2    -1.383765942294261       2.843745343589708E1

 5.525325000000000E7    -2.303738059130184      -1.423573226830379E2    -3.117727459126453E1     7.001574635369511E1    -6.460413493594382E1    -1.529751263731536E2    -7.562897980451812E1    -5.388066263250729
                        -3.115246120907640E1     7.160369289863986E1    -3.177507993837822E-1    9.417193218309686E1    -8.889095997998010E1    -1.554366634915116E2    -8.420381480542147E1    -4.223527974619791E1
                        -6.522500288607392E1    -1.509216087014766E2    -8.916592874950753E1    -6.541090073743209E1    -1.391903015340307       3.484136647799324E1    -8.711453713899930E1     9.356582178133676
                        -7.491317110716288E1    -1.980413061318292E1    -9.948684112039010E1    -6.512752201655044E1    -8.836895299977161E1     6.439731379759607E1    -1.382757028782438       2.845224840576334E1

 5.525350000000000E7    -2.306074894974215      -1.423725702800155E2    -3.129993680806566E1     6.988476144970059E1    -6.470794680693632E1    -1.505765786501031E2    -7.293843736459698E1     1.275706744155106E1
                        -3.129531587500598E1     7.095505025873668E1    -3.202474627321228E-1    9.416624706395513E1    -8.544927288033053E1    -1.110320425067849E2    -8.397534273145266E1    -3.612883518747907E1
                        -6.593878571355113E1    -1.564260806227033E2    -9.566548083128501E1     1.768923352234787E2    -1.393836281113060       3.483784467121150E1    -8.385974847009558E1     1.475655647286322E2
                        -7.786018038846277E1    -8.089586768495613      -8.775743921173876E1    -1.464529544718727E2    -8.205660425302656E1    -7.893244779984237E1    -1.384002892573759       2.843629633759644E1

 5.525375000000000E7    -2.314368472085461      -1.424297418394275E2    -3.128958693504774E1     7.022240549810682E1    -6.493650448376000E1    -1.537778257633091E2    -7.366213525474623E1     9.048939830946901
                        -3.138246405264551E1     6.947361255301902E1    -3.179405176902389E-1    9.418038758754764E1    -8.245582568139483E1     1.677011534925515E2    -8.453136593306580E1     8.286159621083823E1
                        -6.446581439206098E1    -1.584607515023705E2    -9.365622237713657E1    -8.991806576639938E1    -1.387135741607300       3.483937121420760E1    -9.180135286802678E1    -5.420165781803490E1
                        -7.682001479401498E1     8.015199230951135      -8.401170424006597E1     1.026096968643323E2    -8.144964290698113E1    -4.040972735395975E1    -1.381332999828404       2.842076223093654E1

 5.525400000000000E7    -2.309903398259272      -1.424741493441123E2    -3.124767343707480E1     7.078372219364670E1    -6.563340624092416E1    -1.648228105701866E2    -7.501200090693263E1    -9.254374337296248
                        -3.131066144721754E1     7.030868809207520E1    -3.150782822876169E-1    9.413105726631792E1    -8.438536553640725E1     1.534213289085892E2    -8.397375933384494E1     1.710113521225607E2
                        -6.532692274920808E1    -1.542328147598159E2    -8.798169227547832E1     3.782785954828038E1    -1.389340431565375       3.486253596169482E1    -8.895227050905922E1     8.540371492367865E1
                        -7.331744196249727E1    -1.440806328571961E1    -9.712624355720840E1    -2.120840824458991E1    -8.640996026374188E1     2.052702777841162E1    -1.386369348193872       2.841036902680613E1

 5.525425000000000E7    -2.319197832512630      -1.424612115001949E2    -3.120625715308561E1     7.016637238952266E1    -6.507243468374188E1    -1.566566879320740E2    -7.181272597562767E1    -9.638667023833930
                        -3.134334329042556E1     7.052327681413696E1    -3.203523268686210E-1    9.416949241628143E1    -9.199172305042893E1     1.197383721869439E2    -9.429716968981566E1     1.582345026174598E2
                        -6.484204649800282E1    -1.517985954114418E2    -9.086272429329742E1     1.080856549014467E2    -1.387418077702038       3.483111977091174E1    -8.537844765708277E1     1.696180696371186E2
                        -7.584771241527524E1     1.078036873264005E1    -9.660610319594542E1    -5.295372977993917E1    -9.046370375885263E1     6.953274107588223E1    -1.382990973219493       2.841303146487760E1

 5.525450000000000E7    -2.321405890350590      -1.425586888574977E2    -3.115991057760464E1     7.004465540131706E1    -6.515545478402736E1    -1.609407588477890E2    -7.343410992347337E1    -1.022794346491975
                        -3.137992663147526E1     6.947885602259306E1    -3.239102074432966E-1    9.417297415819779E1    -8.724890092499072E1    -1.457583594227432E2    -8.115588435482424E1    -1.097163770063182E2
                        -6.472877425261851E1    -1.624689685941542E2    -8.361393455575185E1     1.439619616960251E2    -1.388743412073137       3.482069640060109E1    -8.780705342591780E1     1.742893854166860E2
                        -7.564803970800921E1    -6.218637879937678      -9.725553892775409E1     1.255541282473460E2    -9.724029039615303E1    -9.476535404462336      -1.380829571540936       2.841684047986067E1

 5.525475000000000E7    -2.319596805189468      -1.425975820413866E2    -3.129897240054107E1     6.974022762858364E1    -6.543652225631463E1    -1.505727252383450E2    -7.856193677988135E1    -2.028501419101389E1
                        -3.128109212147551E1     7.038847798733207E1    -3.199483089586385E-1    9.412990676582116E1    -9.777046818754671E1     3.961117312170465      -8.254021373767696E1    -1.607714454028670E2
                        -6.474312047107036E1    -1.523625046487718E2    -9.991901490465315E1     1.456331763547391E2    -1.387533313888044       3.484275705737635E1    -8.869936216429434E1    -1.335404804306218E2
                        -7.475207332262718E1    -1.503165629361961E1    -9.174232867345586E1     4.637134438621513E1    -8.996447170465612E1     1.592891190103746E2    -1.382432842826415       2.840207991796891E1

 5.525500000000000E7    -2.326598376135185      -1.426364483048515E2    -3.134473652463824E1     6.998615963484264E1    -6.577561798459381E1    -1.554399500237982E2    -7.313556345314466E1     7.862083398204217E-1
                        -3.121593061186943E1     7.021569323582875E1    -3.220798032123351E-1    9.411257558098964E1    -8.997773809912658E1     2.852371048554396E1    -8.721279136670003E1    -5.297121655266454E1
                        -6.431534925092680E1    -1.598894515881729E2    -8.490732830456935E1    -1.974270700169125E1    -1.386475756854534       3.484875701237250E1    -8.357774628265078E1    -1.116607394237003E2
                        -7.099133442703915E1    -7.966112630990204      -9.107291331675813E1     2.519525721869858E1    -8.016149843256322E1    -6.515314059528457E1    -1.381586581251406       2.840326697070556E1

 5.525525000000000E7    -2.328529000458163      -1.426759917223336E2    -3.117175737202233E1     6.955792517732580E1    -6.597088381428050E1    -1.528119727043715E2    -7.730864027797087E1    -1.068545389741087E1
                        -3.133849019952519E1     7.016861066988334E1    -3.206919762607485E-1    9.413343050897993E1    -7.884227832207701E1    -1.647836777329939E1    -9.129131358817028E1    -5.232574378584955E-1
                        -6.633349735045981E1    -1.445710364914019E2    -9.069833427709463E1     1.108540345378979E2    -1.390490732263140       3.483833030452557E1    -9.321686930217996E1    -1.244474902127725E2
                        -7.429331800816948E1    -2.141620069095306E-1   -8.961464398819780E1    -7.172206965418785      -8.026970601092698E1    -4.333267388488800E1    -1.383200031031933       2.844700234465575E1

 5.525550000000000E7    -2.336747310920631      -1.427093338311049E2    -3.120485517432864E1     7.021298437206664E1    -6.499167949655642E1    -1.544160322912047E2    -7.280255959704961E1     1.742577237481429
