#  HZ   S   DB   R     50.00 
! Rohde & Schwarz Vector Network Analyzer 
! Rohde-Schwarz,ZNB8-4Port,1311601044102961,2.82
! Created: UTC 2/13/2019, 9:50:06 AM
! freq[Hz]                db:S11                  ang:S11                 db:S12                  ang:S12                 db:S13                  ang:S13                 db:S14                  ang:S14
!                         db:S21                  ang:S21                 db:S22                  ang:S22                 db:S23                  ang:S23                 db:S24                  ang:S24
!                         db:S31                  ang:S31                 db:S32                  ang:S32                 db:S33                  ang:S33                 db:S34                  ang:S34
!                         db:S41                  ang:S41                 db:S42                  ang:S42                 db:S43                  ang:S43                 db:S44                  ang:S44
! 
 5.525000000000000E7    -1.194518843390110      -1.297403046759604E2    -2.917260135836447E1     7.209327060852837E1    -7.728490286079038E1    -1.915567963623181      -6.693961978185310E1    -1.506897086684044E2
                        -2.919766210732804E1     7.121590512962320E1    -3.200622218420249E-1    9.419731866946057E1    -9.399196166088498E1     1.370561914552611E2    -8.603924807019014E1     1.232442749433899E2
                        -7.909649051498951E1     2.139666304863991E1    -9.085646930156881E1     9.700780536561112E1    -1.391749179312305       3.486817650411699E1    -8.507201773307635E1     1.459181419446905E2
                        -6.753674074736948E1    -1.518460936377606E2    -8.408676783325136E1    -1.721248487712581E2    -8.182623538033637E1    -1.707814323946525E2    -1.381434793695771       2.844629042763412E1

 5.525025000000000E7    -1.195258248025874      -1.297802728226551E2    -2.910597606994755E1     7.184685287287175E1    -8.123568203781439E1     3.488351101759358E1    -6.530064903685863E1    -1.500349443470003E2
                        -2.913438388721997E1     7.174602121412369E1    -3.219498128674286E-1    9.415475849334069E1    -8.733205660056657E1    -1.794624253817676E2    -9.513096035075319E1     1.069182712770406E2
                        -7.758066543146516E1    -3.295618684129387E1    -9.293589258591850E1    -2.300079283592773E1    -1.395742222278973       3.486556315613838E1    -9.169995749211111E1    -1.543308794572843E2
                        -6.519151447038261E1    -1.570190520449397E2    -8.968027945966267E1     4.925308777801637E1    -8.043122223721879E1    -1.620464515427354E2    -1.384022166771555       2.844744216078808E1

 5.525050000000000E7    -1.200429814539294      -1.297944462202081E2    -2.902489188768631E1     7.184823099479704E1    -7.702693378783748E1     3.031130379571216E-1   -6.571978878258281E1    -1.568809892878088E2
                        -2.914241630796379E1     7.250408660892151E1    -3.203196891788123E-1    9.418508035657750E1    -8.914135868871466E1     9.377390582940294E1    -8.423944609086385E1     9.994239292514804
                        -7.507249155216010E1     1.927801903004726E1    -8.925209001560990E1    -4.657028004046241E1    -1.392736754836667       3.487690414249695E1    -8.501161632945276E1     4.726559976478571E-1
                        -6.655876126182646E1    -1.525859234058680E2    -8.686337936602043E1     3.518192846616261      -8.744198525340951E1    -3.368175557137711E1    -1.384708040254569       2.845268520555754E1

 5.525075000000000E7    -1.196659934484147      -1.298261797832016E2    -2.918663105322809E1     7.157930265065907E1    -8.070594087411649E1     2.434360020309354E1    -6.603657214523095E1    -1.466008774598787E2
                        -2.912177283273434E1     7.220350214350077E1    -3.224838296413539E-1    9.418505999461961E1    -8.056094312480455E1     6.616545773537139E1    -9.086792875932434E1     9.115075230917192E1
                        -8.251104751297964E1     6.399000735738254      -1.005305535635990E2     7.386613800512733E1    -1.388462842589533       3.487799482299699E1    -9.504811728962383E1     1.173908129659748E1
                        -6.616944061038657E1    -1.570544967641209E2    -8.156344646655533E1    -7.582024990247115E1    -8.296381103524698E1    -1.141937282911280E2    -1.381621259628360       2.843652313981770E1

 5.525100000000000E7    -1.201063744125648      -1.298703319611380E2    -2.915839970166671E1     7.169320039428268E1    -8.421946638673285E1     2.326136289566257E1    -6.586493715090643E1    -1.487299373293738E2
                        -2.924641948650684E1     7.204336845850966E1    -3.204485318297256E-1    9.416736943411208E1    -9.708397776217522E1     1.336949479272077E2    -9.328689230912627E1    -1.591098648077835E1
                        -7.516047388695077E1     8.236226631602216      -8.648942663926877E1    -1.034549784502045E2    -1.389345529515269       3.486732522954153E1    -8.654637836032811E1     8.967271796659924E1
                        -6.615882875899288E1    -1.376196225617600E2    -9.358428825278787E1     1.352120509137840E2    -9.516388240694631E1     1.451457000288476E2    -1.384416200567195       2.845033410260135E1

 5.525125000000000E7    -1.199958841900487      -1.298915269413060E2    -2.913219662487866E1     7.159099890788805E1    -8.040618946917299E1     3.855189645832336E1    -6.618808093445394E1    -1.494559020661864E2
                        -2.915992859625268E1     7.134883883069675E1    -3.210731274728715E-1    9.418532038037171E1    -9.446059652455743E1     1.412877943006334E2    -9.256472008324246E1    -1.616075300995360E2
                        -7.597581361541502E1     1.104949303592828E1    -1.033014472406383E2     1.685097797188530E2    -1.389799918456983       3.486289549352691E1    -8.724489383615560E1    -3.617497417176460E1
                        -6.628409180867664E1    -1.447656348532151E2    -8.189186015763750E1     3.380845840534034E1    -8.794430790709706E1     8.060149336945177E1    -1.381189932099953       2.846233385464073E1

 5.525150000000000E7    -1.204304750710375      -1.299289416086770E2    -2.916838542721840E1     7.243192280358383E1    -7.955147650467353E1     3.344674160846410E1    -6.804733251883374E1    -1.415284939421769E2
                        -2.914672724917798E1     7.200397352395027E1    -3.226499431039051E-1    9.414981778152232E1    -9.193683945399812E1     1.108188329901388E2    -8.100494244187078E1    -4.657736083694861
                        -8.521165188879363E1     4.269134747217188      -1.069579706241359E2     1.677452627168897E2    -1.385101642681856       3.487497526241187E1    -8.903833260082762E1     1.447983220021229E2
                        -6.614937080784831E1    -1.528203197749760E2    -8.824639896776634E1     4.412680674777516      -8.843194416488431E1     8.103506281795281E1    -1.384010581004435       2.843500417198638E1

 5.525175000000000E7    -1.207489813436954      -1.299431956826819E2    -2.911126321577028E1     7.166961248969305E1    -7.395167820467898E1     1.425709035487402      -6.654671866167567E1    -1.490583548539953E2
                        -2.917539691315293E1     7.210187145148782E1    -3.180046929457481E-1    9.416115552347777E1    -9.107142951123271E1    -1.342812992107988E2    -9.147556170098257E1    -6.215282279953620E1
                        -7.947401241053343E1    -1.770163574549574E1    -8.774855463499996E1    -1.461401803795253E2    -1.390025477304383       3.484701773792799E1    -8.950709913915432E1    -1.099798695560026E2
                        -6.622809260623454E1    -1.458975962858648E2    -9.359295230713678E1    -1.686493059681724E2    -8.772433328883999E1    -1.154901043019348E2    -1.384031018573221       2.845006963493431E1

 5.525200000000000E7    -1.207678077217297      -1.299961515098722E2    -2.914568823794319E1     7.223349068681382E1    -7.981289974224940E1     3.242782821834930      -6.538198310824095E1    -1.456355155690421E2
                        -2.914613357872014E1     7.181184785419028E1    -3.248926347855793E-1    9.414775086446926E1    -8.782091522148363E1    -8.064279459653933E1    -8.418324187869500E1    -2.573427895271760E1
                        -7.655693075803330E1     4.056102660402498E1    -8.201842721815405E1     8.332535234128807E1    -1.388426543047866       3.485996305019514E1    -9.677814869191748E1    -2.699203946516200E1
                        -6.575209271352270E1    -1.478301143894954E2    -9.288484930890731E1     5.888119297698930E1    -8.595526512066384E1     1.701348449641536E2    -1.384546916470304       2.843095531231192E1

 5.525225000000000E7    -1.214053644695215      -1.300509512301504E2    -2.925729806573895E1     7.194302922417265E1    -8.355999805114874E1     5.901204303334189E1    -6.593619242796287E1    -1.503524994530571E2
                        -2.911699088135503E1     7.195432488494656E1    -3.257036460046923E-1    9.414616257503680E1    -9.399297944832627E1     1.767161970596351E1    -8.823369345664804E1     4.069323110814425E1
                        -7.865128197100478E1     1.961934753045016E1    -8.883460892863377E1     8.187650860742939E1    -1.385595401765949       3.484843642989250E1    -8.283371575476907E1     1.970055844435840E1
                        -6.613581491190847E1    -1.490474868067993E2    -8.859772762821967E1     7.666990800213118      -8.870092549066035E1     1.569677008364768E2    -1.378204923493784       2.842418069583004E1

 5.525250000000000E7    -1.212983656877545      -1.300653626691731E2    -2.922187054398614E1     7.149929771075078E1    -8.280686987491164E1     4.471463133756917      -6.651516225045717E1    -1.435602362901178E2
                        -2.917536815135165E1     7.213214198499706E1    -3.211632100309394E-1    9.416310328885561E1    -8.798943214393981E1     1.487331209813080E2    -8.314445656993453E1     1.285183065105672E2
                        -7.547644603214960E1     2.288817155674479      -9.532444408565242E1    -4.812960991465069E1    -1.388568123693635       3.487415666220019E1    -8.400132589320101E1     1.138939385069655E2
                        -6.662170407675397E1    -1.473504703648232E2    -8.132318980113539E1     2.882342368013208E1    -8.360907489542800E1     3.680741925788730E1    -1.385238430153573       2.843152427486382E1

 5.525275000000000E7    -1.213123698414539      -1.301143846548951E2    -2.914839055651697E1     7.208715594397677E1    -7.650508798112537E1    -1.359438709354262E1    -6.507118249680426E1    -1.526419641142967E2
                        -2.910870032749438E1     7.180535796829399E1    -3.234357623370174E-1    9.412609267299021E1    -9.166537952772215E1    -7.673675649085854E1    -8.384037673302126E1     5.171525478154874E1
                        -8.287155601504439E1     1.778102561733929E1    -8.379755213616119E1     1.782299198555957E2    -1.391100526561478       3.485375580558505E1    -9.743756675785477E1    -3.987798160192126E1
                        -6.562848285317179E1    -1.567180455959196E2    -8.335221999832476E1     1.056605032275386E2    -8.730945888128913E1    -3.715038971123950E1    -1.379957157981575       2.842715114068630E1

 5.525300000000000E7    -1.215528444414295      -1.301469896084134E2    -2.914003418634614E1     7.204203390906838E1    -7.813917016957939E1     3.846964376197840E1    -6.566143771368823E1    -1.526316666643498E2
                        -2.914516082510687E1     7.191154131886594E1    -3.169606121343149E-1    9.415788061247505E1    -8.738141044549036E1     1.795136994772450E2    -9.912071791965670E1    -1.327362267047318E2
                        -7.601765424266714E1     1.401270799047436E1    -9.696044142677521E1     9.183818703064851E1    -1.388803968550251       3.482815310083655E1    -8.760003687962521E1    -8.926515098431122E1
                        -6.709337104282088E1    -1.522652621753436E2    -9.792347373440535E1     1.321853430952596E2    -9.150987960246930E1     1.309027021891810E2    -1.380349746204713       2.842076715896543E1

 5.525325000000000E7    -1.216307757154083      -1.301882719847813E2    -2.912593301716009E1     7.204813559903987E1    -8.091228418824785E1     4.182341496228401E1    -6.638403844673991E1    -1.405348802272401E2
                        -2.916875278395764E1     7.190306275272232E1    -3.209618726361128E-1    9.417582253367895E1    -8.593987810937426E1    -8.048303641485325E1    -9.359754288439333E1     1.556550515930686E2
                        -7.802691603921446E1    -2.682982307367848      -8.303885009909865E1     8.272527017783000E1    -1.388125660738440       3.486141554863227E1    -8.710008165529436E1    -1.652639506750580E2
                        -6.643565796691273E1    -1.522690808154375E2    -1.078337571696011E2     1.380002628475847E2    -8.324462289176194E1    -6.323675822235306E-1   -1.378762839611889       2.842298307832954E1

 5.525350000000000E7    -1.217501901078792      -1.302123612512677E2    -2.916464837166163E1     7.213016067931649E1    -8.380794460143051E1    -4.396003906876011E1    -6.615305834739259E1    -1.587405775429348E2
                        -2.923870395167230E1     7.136764347566654E1    -3.250008954867739E-1    9.409483764751661E1    -8.815961755119588E1     2.567944171576257E1    -8.705010385923224E1     8.678033199711082E1
                        -8.069012264980431E1     1.363282004109544E1    -9.418301471523517E1     1.381981081884704E2    -1.386844091005152       3.486089593843288E1    -1.013293069408898E2    -4.268357137838112E1
                        -6.615995508646424E1    -1.467228994965439E2    -8.912361507748783E1     9.993885263489749E1    -8.636975835889125E1    -2.579080039615715E1    -1.381907381918868       2.840331388300459E1

 5.525375000000000E7    -1.216565070006292      -1.302778800364482E2    -2.913137906033602E1     7.204360515869141E1    -7.956821149846067E1    -4.186279962849962E1    -6.673562302786198E1    -1.434672206691594E2
                        -2.922350668451649E1     7.245639248760412E1    -3.238669465951323E-1    9.416120878742905E1    -7.931164902423060E1    -9.647056062021350E1    -9.452111649624825E1     5.426975069584719E1
                        -8.035220709021567E1    -1.991533831917975E1    -8.119388613357131E1    -1.253095077202076E2    -1.394488121816721       3.482569020227503E1    -9.079265545756316E1     4.818102483254600E1
                        -6.721639057418646E1    -1.545730191608306E2    -8.676161750331869E1    -1.371373396279969E2    -8.723253015781495E1    -1.439204339042045E1    -1.384556082836298       2.842624330394932E1

 5.525400000000000E7    -1.217481558005844      -1.302750534499693E2    -2.915612510914675E1     7.195420089961706E1    -7.877952926824737E1     1.764603772639492E1    -6.578979148580078E1    -1.500812859171905E2
                        -2.914503097303905E1     7.211569293393404E1    -3.197565756192203E-1    9.411839417924273E1    -9.205892049417338E1     5.574216330615412E1    -8.056232551190568E1     1.302620135893081E1
                        -7.652449091526223E1     1.324751488523648E1    -8.520774507665890E1    -4.370649858577386E1    -1.386861287849166       3.485065605074456E1    -9.204629871616592E1    -1.383721784857835E2
                        -6.592748366338992E1    -1.509891216238836E2    -9.913969672493215E1     1.155696653316483E2    -8.318460605986829E1     7.596731772350721E1    -1.383741781167410       2.841546735488691E1

 5.525425000000000E7    -1.222978823251700      -1.303019242976182E2    -2.905855451513213E1     7.144030241640934E1    -7.474139599815248E1     1.068288226143511E1    -6.599550417693202E1    -1.441912607817974E2
                        -2.918262717759463E1     7.179283074770292E1    -3.220819544875878E-1    9.415341510009188E1    -8.676964032734064E1     3.745698651068017E1    -8.663246573602737E1    -3.253427757942612
                        -7.438027516416554E1     3.650647913277494E1    -8.833820005845901E1     1.271504451884739E2    -1.388158699356425       3.483818338164710E1    -9.723499929172242E1     1.494150999832424E2
                        -6.735638168430498E1    -1.410290286851849E2    -8.640558082623628E1     1.494967670166765E2    -8.497021628255502E1     5.474707208158883E1    -1.381443692243429       2.841077999000877E1

 5.525450000000000E7    -1.221210729771500      -1.303654511204011E2    -2.906589439311983E1     7.153180777896166E1    -7.729000317237927E1    -1.598418729301521E1    -6.708420453549421E1    -1.355138023888505E2
                        -2.912877695356747E1     7.165195471348704E1    -3.217162364427287E-1    9.409021357316502E1    -9.107565714162715E1     3.925135029209209E1    -9.344751020385614E1     2.056230457671688E1
                        -7.519353821389261E1     2.951846710013152      -8.708826454056270E1    -1.302743161098131E2    -1.392604721717239       3.484374439623959E1    -8.501338092321882E1     5.894267521925915E1
                        -6.673305382713240E1    -1.542090189916967E2    -8.797960567423547E1     7.540503957341711E1    -8.287201942179493E1     1.507309286448310E2    -1.381845222540375       2.838307737086180E1

 5.525475000000000E7    -1.222588575506417      -1.303741724059007E2    -2.911926023400820E1     7.193909742947606E1    -7.793485815436522E1     9.226684786979877      -6.693371678522153E1    -1.568971441539295E2
                        -2.916979872567050E1     7.159989204242282E1    -3.198077632745997E-1    9.412336129827521E1    -8.142237035807119E1     1.705424167275571E2    -8.869561214523074E1    -8.577359667301967E1
                        -7.654526427090356E1    -1.312605082054218      -8.088854590496956E1     1.418590660646840E2    -1.389372594128728       3.482353337498156E1    -9.429479279988443E1    -1.370112420247839E1
                        -6.624221818253821E1    -1.456567911676996E2    -9.318358071033399E1     7.751478687931632E1    -8.473514631569130E1     2.811525916956828      -1.383107144894831       2.839342820932896E1

 5.525500000000000E7    -1.229100621728882      -1.303839929292437E2    -2.908586445482911E1     7.200908736849469E1    -7.784926243673833E1    -3.554817809832925E1    -6.625342756592755E1    -1.515391275459486E2
                        -2.924821429239749E1     7.144151496282416E1    -3.194058303236803E-1    9.410184150472675E1    -9.303424931987701E1    -6.357975358823181E1    -9.445086495434694E1     3.951338270422354E1
                        -7.705294267094902E1     3.319435808591982E1    -8.558603180291307E1    -7.062012013679569E1    -1.389784664482108       3.481318595875128E1    -8.934964678719939E1     8.217073374890258E1
                        -6.690965908295755E1    -1.477281455676609E2    -9.209202980914515E1     1.435484210866411E2    -9.737719227298561E1    -9.909194384571120E1    -1.380880083954061       2.839809059492311E1

 5.525525000000000E7    -1.227260332922435      -1.304724527157029E2    -2.920393539732825E1     7.170777900638834E1    -8.748643446886669E1    -2.466330988733860E1    -6.669328700936457E1    -1.518975703044858E2
                        -2.913302861524485E1     7.192977861914915E1    -3.251046162912631E-1    9.409610896193256E1    -9.190661411549102E1     1.703026124142541E2    -8.738112748855036E1     3.584388299967154E1
                        -7.858200877179883E1    -7.372683146474528      -8.630489310166907E1    -1.423909945282266E2    -1.390182364239244       3.482749879969842E1    -8.768847954227447E1     1.690060456941743E2
                        -6.722146594617657E1    -1.496412181144101E2    -8.702664242656142E1     1.069399226331830E2    -8.206797554118504E1     1.149146376655989E2    -1.378872999093333       2.837928178533516E1

 5.525550000000000E7    -1.229080248891751      -1.304732456034699E2    -2.913869294489965E1     7.139447323056335E1    -7.539747999938675E1     3.498948666241514E1    -6.692880793760821E1    -1.503942114515486E2
