#  HZ   S   DB   R     50.00 
! Rohde & Schwarz Vector Network Analyzer 
! Rohde-Schwarz,ZNB8-4Port,1311601044102961,2.82
! Created: UTC 2/12/2019, 5:01:15 PM
! freq[Hz]                db:S11                  ang:S11                 db:S12                  ang:S12                 db:S13                  ang:S13                 db:S14                  ang:S14
!                         db:S21                  ang:S21                 db:S22                  ang:S22                 db:S23                  ang:S23                 db:S24                  ang:S24
!                         db:S31                  ang:S31                 db:S32                  ang:S32                 db:S33                  ang:S33                 db:S34                  ang:S34
!                         db:S41                  ang:S41                 db:S42                  ang:S42                 db:S43                  ang:S43                 db:S44                  ang:S44
! 
 5.525000000000000E7    -8.596476302166257      -1.688163306921203E2    -3.090207037115886E1     6.844424283511302E1    -7.280790738691339E1    -2.613225039668284E1    -6.718798577498166E1     1.748893522181847E2
                        -3.095279234853145E1     6.794636449681643E1    -3.671040140285070E-1    9.420705724120727E1    -8.523451404117530E1    -1.400659695739166E2    -7.998090747220007E1    -3.595387640097476
                        -7.256653510442943E1    -3.789533278566141E1    -8.365807977779710E1    -1.634648083731275E2    -1.392393221249665       3.542374045150274E1    -8.058912150829231E1    -1.461172386959898E2
                        -6.708933666992350E1    -1.785862699078089E2    -9.406968009610587E1     2.430894556548675E1    -8.393665939223909E1     6.985896612203040E1    -1.381574894652562       2.897939549702237E1

 5.525025000000000E7    -8.595555357674101      -1.688513455572495E2    -3.094588509173597E1     6.783898336938903E1    -6.955644909183030E1    -3.323133058767605E1    -6.815680677535950E1    -1.716401269985929E2
                        -3.105906804775621E1     6.821019956651257E1    -3.742534645685063E-1    9.420383960830705E1    -8.057960239320364E1     1.371228065572614E2    -8.237894303323296E1     9.580575814830897E1
                        -7.272423900700467E1    -3.369519744359326E1    -9.005192922804538E1    -1.463021853297547E2    -1.393057552641873       3.539560720347067E1    -7.999128024589842E1    -1.510296618411499E2
                        -6.710587195588114E1    -1.777890375258090E2    -8.198846083887827E1     1.537733241904136E2    -1.040599137437453E2     1.495698533016220E2    -1.386543332730275       2.898165195217704E1

 5.525050000000000E7    -8.614703091186447      -1.688999671070305E2    -3.091295372155302E1     6.763494006661072E1    -7.152213610697318E1    -3.117334320571134E1    -6.772612805490815E1    -1.787100361092899E2
                        -3.094021482652685E1     6.824779978558344E1    -3.736377159107762E-1    9.418797548858726E1    -9.107828929482011E1    -9.789389531156618E1    -8.310515486431589E1    -7.424323134358637E1
                        -7.072063118014512E1    -2.333405943989138E1    -8.497586003218687E1     9.960580333901076E1    -1.395452801227723       3.541558613968089E1    -9.259338845475654E1     6.442296951560921E1
                        -6.730122526466148E1    -1.696702445902919E2    -9.067101617916256E1     3.186990327336694E1    -8.616165685759913E1     3.564574583177169      -1.381172523839231       2.897609773860318E1

 5.525075000000000E7    -8.628133458569028      -1.688807763884200E2    -3.097122729115897E1     6.810274232628544E1    -7.257052626400203E1    -4.613627685124003E1    -6.907058134384050E1    -1.795784762196027E2
                        -3.088989592565216E1     6.855005578884472E1    -3.725523586387924E-1    9.417244217346527E1    -8.294018220222063E1     6.805517265389295E1    -8.877143529833535E1     9.422455991002545E1
                        -7.115980666128192E1    -4.275368998193753E1    -8.393693383547998E1     1.343812077482778E2    -1.391925629057191       3.536567925953352E1    -9.085351572559151E1    -1.725314656571995E2
                        -6.882360093838635E1    -1.747588170898105E2    -8.918633152510330E1     8.898547134558077      -8.481732269386576E1    -6.974892520447543E1    -1.379156577982662       2.898509613284242E1

 5.525100000000000E7    -8.623500903132218      -1.689596453713268E2    -3.089471942478101E1     6.737271090999819E1    -7.329203529797081E1    -5.283973311159578E1    -6.840352360721481E1     1.786441363312904E2
                        -3.091774587117014E1     6.780996922619333E1    -3.730692114549614E-1    9.418859247390886E1    -8.351404226779096E1    -1.485061192878288E2    -8.202147032831772E1     1.799712791646968E2
                        -7.083701966715742E1    -2.533689045073390E1    -8.911692220394441E1     1.739688223349793E2    -1.395155007757411       3.538582836670307E1    -8.541496141140286E1     1.365098953143935E2
                        -6.651031802000713E1     1.788998727472439E2    -8.094662191309112E1     2.200376795201961E1    -9.733843387401130E1    -1.168572283733330E2    -1.381117445061534       2.896887068774413E1

 5.525125000000000E7    -8.628429185278034      -1.689880859477800E2    -3.094888011950980E1     6.782922583697314E1    -7.406342786102674E1    -3.314713057424688E1    -6.853280961041614E1    -1.715325385795098E2
                        -3.087673721571311E1     6.789004810497774E1    -3.735068469169640E-1    9.417344075137299E1    -8.830201037160754E1    -1.788173142058689E2    -8.674164469915795E1     4.994502820862378E1
                        -7.321669729909655E1    -5.616114536416951E1    -8.498279529483826E1     5.380605241559832E1    -1.389947724586460       3.542888060095218E1    -8.933409683497513E1    -4.509466653196198E1
                        -6.814853286059717E1     1.762223704404766E2    -9.461342231018016E1     1.231340841951794E2    -8.612192297919864E1     1.768770912984225E2    -1.379718841544072       2.894991165533890E1

 5.525150000000000E7    -8.639573583966797      -1.690529998637385E2    -3.091060110392750E1     6.751928005163097E1    -7.296061739867177E1    -3.133954207710983E1    -6.759782549479452E1    -1.785842149023010E2
                        -3.087271541942026E1     6.825851312099168E1    -3.725589600902362E-1    9.418279926823190E1    -8.675755267626487E1    -1.779797383970690E2    -8.866277459991329E1     8.876739882442297E1
                        -7.124950583521743E1    -4.889781972958556E1    -8.878631564495608E1     8.601400652492735E1    -1.395673267838743       3.540224716687827E1    -8.995088230140746E1     1.222971853061365E2
                        -6.803177288239090E1    -1.778719564001882E2    -8.611810015452741E1     5.453273818274855E1    -8.962029545458321E1     2.797003267873264E1    -1.381929918724173       2.898461712205743E1

 5.525175000000000E7    -8.645027530889287      -1.690420368582554E2    -3.093878986383326E1     6.791155776051518E1    -7.172504179355104E1    -3.711298454640400E1    -6.802662244729073E1    -1.793312381159024E2
                        -3.101488554319900E1     6.842974276323307E1    -3.686759700395464E-1    9.417483871257181E1    -8.491955876408618E1    -1.135253216501424E2    -8.861230776854158E1     1.950126556151210E1
                        -7.129236628234635E1    -4.166201416581617E1    -8.673111286242731E1    -1.312953534937963E2    -1.393582526941426       3.538382621329178E1    -8.781488574988876E1    -1.183964723779178E2
                        -6.890651123335421E1    -1.678282753226735E2    -9.145767811509714E1    -1.630866270482841E2    -8.240843438765032E1     1.452476199586497E1    -1.382327894384915       2.898077814573725E1

 5.525200000000000E7    -8.653249145130740      -1.690749803540715E2    -3.097342622416143E1     6.820909790287956E1    -7.225869704135479E1    -4.915496850031740E1    -6.835329779159905E1     1.794093196016071E2
                        -3.091047808123403E1     6.826309083690218E1    -3.719450547024438E-1    9.412436877912575E1    -9.730427346974146E1    -1.732867159878963E2    -8.118519556681508E1     3.593905407283925E1
                        -6.924879058231609E1    -3.111660626155065E1    -8.218633879494274E1    -1.768736484153991E2    -1.388770751184201       3.537805074410971E1    -9.235910009192278E1     1.203099408621378E2
                        -6.838345904785439E1     1.741102553649801E2    -8.917808160359762E1     1.751969446823886E2    -9.181773108880996E1     5.832544200465814E1    -1.385297504012010       2.898870366056959E1

 5.525225000000000E7    -8.665649112210446      -1.691252231366756E2    -3.106798449436253E1     6.756999487511860E1    -7.294220378810601E1    -2.340318620930050E1    -6.761747940965981E1     1.755350475701982E2
                        -3.084386320136398E1     6.764318990016501E1    -3.787013926787816E-1    9.415617038740581E1    -1.040206464187124E2    -4.140497147020017E1    -8.797159275900087E1    -3.762240595282929E1
                        -7.504199020285215E1    -4.753197754442540E1    -8.537396135609137E1    -4.882266462203333E1    -1.396250338474774       3.538104127678531E1    -8.634825606893750E1     4.838630385348430E1
                        -6.725777806987283E1     1.796987362732546E2    -8.649157244062320E1     3.193904701944292E1    -9.321970081164358E1    -1.527875154869801E2    -1.387546433605640       2.897122542132112E1

 5.525250000000000E7    -8.664616538434141      -1.691603797707334E2    -3.090840569609201E1     6.849967714040140E1    -7.334908660162182E1    -2.693838087221911E1    -7.000416658614279E1     1.693470390965645E2
                        -3.093232665802891E1     6.833499943003055E1    -3.705314620628953E-1    9.415629175033440E1    -9.070177246265835E1    -8.467567128819300E1    -9.360248592758687E1    -1.095532554482043E2
                        -7.327223705537992E1    -2.580724947527499E1    -8.635820056547929E1     1.564439983687905E2    -1.391883201091201       3.538273833360528E1    -8.735750287413543E1    -1.191493877391355E2
                        -6.844330163922807E1    -1.784489242515577E2    -8.292573972474672E1     1.334543452165217E2    -8.648100618999136E1    -1.109112027124985E2    -1.379475028314091       2.893612977194283E1

 5.525275000000000E7    -8.674373673726036      -1.691870723852831E2    -3.086850268875132E1     6.763485220313415E1    -7.336178531669620E1    -2.722917482933198E1    -6.797274401241639E1    -1.755157602920208E2
                        -3.095061096880152E1     6.743216480330534E1    -3.721429287476380E-1    9.417417399153082E1    -8.375083181195123E1     5.879139092302355E1    -7.747801233640446E1     1.718431608650120E2
                        -7.331967582903229E1    -2.698174605932844E1    -9.060305156809460E1    -9.166367413291921E1    -1.392737076129451       3.536086161604096E1    -8.405836285665664E1    -2.752427621930533E1
                        -6.746227652417528E1     1.775747727234265E2    -8.735621347337322E1    -2.645325110435562E1    -9.444955572109774E1    -1.322403078019249E2    -1.383267061002713       2.897878098429799E1

 5.525300000000000E7    -8.683801606872510      -1.692802363442265E2    -3.098196838431953E1     6.780880156307998E1    -7.200104652680679E1    -3.892716933978733E1    -6.831315616582005E1     1.778741137235876E2
                        -3.090274304910933E1     6.798343013949221E1    -3.684762040095164E-1    9.412303235343265E1    -7.842094693502887E1     1.444856387954946E2    -8.394931790595643E1     1.410004834547044E2
                        -7.198498493863863E1    -2.905175389615405E1    -8.549186650484286E1     1.248840537351552E2    -1.392179373656213       3.535612319075100E1    -8.773315534455685E1     1.774345249448239E2
                        -6.840309055826289E1     1.779493830516625E2    -8.802205799625213E1    -1.786493333622488E2    -9.666606068332469E1    -5.533485805997817E1    -1.376623595882700       2.896832234581949E1

 5.525325000000000E7    -8.686691058926677      -1.692992569509643E2    -3.101756538424603E1     6.762229015500772E1    -7.225464972987356E1    -2.840618944204411E1    -6.895454570886150E1    -1.738637198731394E2
                        -3.103163097687823E1     6.796375318256622E1    -3.700931804694782E-1    9.412972635721950E1    -7.825810798777438E1     1.613837633656766E2    -8.494178180045628E1     4.386190343914468E-2
                        -7.300836708664380E1    -2.758005323556644E1    -8.484183894536068E1    -1.021506841111977E2    -1.389120107073762       3.538742851289612E1    -8.417731391977269E1     1.654061112946857E2
                        -6.717839083513266E1    -1.767836064036947E2    -9.942731134059218E1    -5.235704959729943E1    -8.876442511680985E1    -6.041041782090812E1    -1.382851956427149       2.894834297368389E1

 5.525350000000000E7    -8.701882090988454      -1.693398819647172E2    -3.091666036283829E1     6.829639776827361E1    -7.278636177112614E1    -1.467145698803776E1    -6.651559171115791E1    -1.723600555769865E2
                        -3.095251261475580E1     6.738604675206399E1    -3.685748288576469E-1    9.415618481894167E1    -8.121542579823213E1    -4.136754987867876E1    -8.701499864744017E1     6.486334582753509E1
                        -7.170555705974242E1    -1.866525930814057E1    -8.696430453434542E1    -4.885603377407462E-1   -1.389577655625115       3.537404821435190E1    -8.920568097585012E1     1.477729366649819E2
                        -6.835714423487721E1    -1.783856211899147E2    -8.212857756991404E1    -4.531618395672040E1    -9.028450655590757E1     8.470263269913168E1    -1.379402579436335       2.897858828675400E1

 5.525375000000000E7    -8.692578467170989      -1.693672261795776E2    -3.098696809707065E1     6.755240327043728E1    -7.146892804069627E1    -2.759937907901307E1    -6.919348909798644E1     1.730158386833577E2
                        -3.097130972829741E1     6.784719621475584E1    -3.688151737356386E-1    9.414469020313400E1    -8.925946804313143E1     1.035962762476415E1    -8.049537362866241E1     1.688689264078126E2
                        -7.127286206257193E1    -2.028925034959446E1    -8.930831372517027E1    -9.876545361678275E1    -1.392667645224718       3.536208099604172E1    -8.573875979751874E1    -1.624584152603149E2
                        -6.770918011484548E1     1.681976941665757E2    -9.023428949753820E1     2.806173595644884E1    -8.391172662833439E1    -7.230015850657723E1    -1.383131792875837       2.895358067243165E1

 5.525400000000000E7    -8.713694540488042      -1.694063753994706E2    -3.097819205908014E1     6.764690750602701E1    -7.372156143269790E1    -4.449227220465298E1    -6.850701435938396E1    -1.773751555424158E2
                        -3.100455438688669E1     6.815869066541467E1    -3.685603211853843E-1    9.412245745194332E1    -1.006922251786462E2     4.032850518624545E1    -9.137081959550150E1     3.202618262023861E1
                        -7.225253524172562E1    -3.611736052404590E1    -8.054592006980292E1    -7.312970913706450E1    -1.389831408758233       3.534468785910602E1    -9.189841087068005E1     1.110894550220468E2
                        -6.837561983310438E1    -1.755575758812024E2    -8.832691851611588E1    -9.345410981267821E1    -8.252188172060913E1     1.349752910335569E2    -1.379854635311044       2.894666383262003E1

 5.525425000000000E7    -8.719255617901990      -1.694606463815486E2    -3.091317155913393E1     6.719778984750829E1    -7.167620176929937E1    -4.177105533876595E1    -6.830564340021181E1    -1.795347686170624E2
                        -3.092075451661480E1     6.684138485966540E1    -3.715306919104224E-1    9.411453651065553E1    -9.295115374030826E1     1.321880767770160E-1   -8.831273790591531E1     4.037784815590199E1
                        -7.414518504959388E1    -2.643698139232848E1    -9.494223851647136E1     1.238365299103286E2    -1.392898792300401       3.534835564278295E1    -8.664220627783806E1     1.505014773826486E2
                        -6.944735387354777E1     1.779798286892233E2    -7.888160860915252E1    -1.625615954609816E2    -8.643975592809460E1    -1.591361840114618E2    -1.383200227557949       2.893072239671190E1

 5.525450000000000E7    -8.733516394545097      -1.695425807504833E2    -3.092938673838105E1     6.791539238295370E1    -7.380878498541034E1    -2.262950160954368E1    -6.720312935226659E1     1.776283652014356E2
                        -3.092414740927051E1     6.784994488453670E1    -3.680152271146595E-1    9.415604325029440E1    -8.743001288487091E1    -7.821502897314203E1    -9.188215319385839E1     1.557058825260052E2
                        -7.294154483342446E1    -2.315661002245495E1    -8.211058303038732E1     1.464257059999830E2    -1.392297614961961       3.538332586529543E1    -9.493799151065828E1     1.088460988627868E2
                        -6.785712303371265E1     1.654336745197759E2    -8.622161174433286E1    -3.669705236650206E1    -8.668777604862154E1    -2.221454305846305E1    -1.380780791593133       2.894918031345992E1

 5.525475000000000E7    -8.729808595335269      -1.695020524613954E2    -3.103224361123386E1     6.794215264922073E1    -7.196716166831368E1    -4.698687401668332E1    -6.677056147650190E1    -1.778931540479956E2
                        -3.112013533665267E1     6.754300186336852E1    -3.714022091906281E-1    9.409702442360241E1    -8.097954800636707E1     1.321880579912977E2    -8.700977412545697E1     1.530633485709969E2
                        -7.398636438068104E1    -4.426257099529807E1    -9.254950989393264E1    -7.832617581065887E1    -1.391088501899926       3.536379024557033E1    -9.043035738094562E1    -1.504240025269084E2
                        -6.776858300692507E1    -1.787948323161862E2    -8.932375356540825E1    -7.158473156528513E1    -8.777012266953665E1     6.944358780533879E1    -1.382339556519070       2.892358888021935E1

 5.525500000000000E7    -8.744008545115428      -1.695040677116850E2    -3.091020666631081E1     6.735045868820747E1    -7.111415062334257E1    -4.379211091431034E1    -6.681948971498953E1     1.737905123657245E2
                        -3.090339329086909E1     6.760335038761929E1    -3.709967834231140E-1    9.410293587074310E1    -8.707833337402627E1     9.029098141515415E1    -9.470245290926897E1     1.694390986806550E2
                        -7.260298970475559E1    -2.931971086758212E1    -8.727372829634943E1     1.775934914557077E2    -1.389403557378778       3.535894972714029E1    -8.984333463901794E1     1.268575554860781E2
                        -6.842660620313089E1     1.772697860382966E2    -9.079107747517108E1     7.845984638673836E1    -8.890655573284634E1     6.556972011727495E1    -1.377208980300887       2.894212871789597E1

 5.525525000000000E7    -8.749819192977389      -1.695947217371568E2    -3.104384886519754E1     6.785757647294253E1    -7.334165883941273E1    -5.066464081233340E1    -6.800764720674300E1    -1.786926126804974E2
                        -3.088373393704354E1     6.776268311312705E1    -3.707256970148814E-1    9.411848565236529E1    -8.955450371177591E1     1.329972838168908E2    -8.305627929767326E1     8.238146678155704E1
                        -7.184978351648448E1    -3.517496800382988E1    -9.466689332928405E1    -1.207828573525272E1    -1.390394954217900       3.532235899536137E1    -9.499912144157244E1     4.254573852244542E1
                        -6.816004865993094E1    -1.771429997403668E2    -8.313751222585189E1     3.495578059056025E1    -8.564793906960249E1    -1.427122924710548E2    -1.383015764590248       2.892551856105483E1

 5.525550000000000E7    -8.758773925658961      -1.696241663695885E2    -3.093522527048511E1     6.754325169289083E1    -7.365089938735031E1    -3.617160238693453E1    -6.667394544223950E1    -1.792184252432590E2
