#  HZ   S   DB   R     50.00 
! Rohde & Schwarz Vector Network Analyzer 
! Rohde-Schwarz,ZNB8-4Port,1311601044102961,2.82
! Created: UTC 2/13/2019, 9:05:25 AM
! freq[Hz]                db:S11                  ang:S11                 db:S12                  ang:S12                 db:S13                  ang:S13                 db:S14                  ang:S14
!                         db:S21                  ang:S21                 db:S22                  ang:S22                 db:S23                  ang:S23                 db:S24                  ang:S24
!                         db:S31                  ang:S31                 db:S32                  ang:S32                 db:S33                  ang:S33                 db:S34                  ang:S34
!                         db:S41                  ang:S41                 db:S42                  ang:S42                 db:S43                  ang:S43                 db:S44                  ang:S44
! 
 3.000000000000000E7    -2.478796794969744E-1    1.016225853704092E2    -6.924249249772605E1     8.789715373642668E-1   -8.595557035770827E1    -1.428202453613165E2    -8.677299576599003E1    -4.404127107879798E1
                        -6.915073675145884E1     1.423915331094109E1    -2.320721770495313E-1    9.002566218906679E1    -8.803729181251670E1     8.501816034521659E1    -8.655526533180287E1     1.722042069694384E1
                        -8.527458471089055E1     8.331724701325069E1    -9.568375443774767E1    -1.316453287221058E2    -9.296517874166587E-1   -1.144356561562062E1    -8.383168901920593E1     1.670789138288603E2
                        -9.902886985537057E1    -2.501042213595154E1    -8.241220360575429E1     1.560749183033162E2    -8.724892327192225E1    -8.450618095946147E1    -9.394386634721033E-1   -1.645843439754738E1

 3.002500000000000E7    -2.484493971959106E-1    1.013217642546724E2    -7.145922925216092E1     3.718375336914733      -9.786758264952830E1     8.436055017916472E1    -8.229529279333860E1    -8.379241056665482E1
                        -6.907431296839891E1     7.567579535214164      -2.416414115566374E-1    8.963437899547006E1    -9.025603479777615E1     1.713943752148612E2    -1.073252495618311E2    -6.607832935187386E1
                        -8.088487306289557E1     1.639632110032134E2    -8.305216657534291E1    -3.611499960524036E1    -9.284196132655158E-1   -1.174868316396106E1    -9.666616743368961E1     8.787984247273695E1
                        -8.817504499812274E1    -1.306501181305612E2    -9.425920215704750E1     7.465606802214865E1    -9.891616369187963E1     7.808319033229500E1    -9.388233917856332E-1   -1.676538136821775E1

 3.005000000000000E7    -2.488160817812435E-1    1.010407552091662E2    -6.681098278173405E1    -3.684670592142172      -9.102076477795201E1    -4.700431512164442E1    -9.124277179193037E1    -4.344243422461354E1
                        -6.828062311355967E1     3.168097238933984      -2.354960534339952E-1    8.934630068794259E1    -8.605641211889795E1    -1.071754883848024E2    -8.520794691160616E1    -1.659029102090724E2
                        -9.580858118969107E1    -5.461716248450081E1    -8.883549850205023E1     4.135679398858306E1    -9.290991838980267E-1   -1.200872090820992E1    -1.133355162839926E2    -3.664178347273451E1
                        -9.852997845407352E1    -7.663944393924145E1    -9.096035238247114E1     6.939785391547645E1    -9.419269717160118E1     1.790296779986516E2    -9.338975659219382E-1   -1.711666128330933E1

 3.007500000000000E7    -2.508463322568182E-1    1.006971754393540E2    -6.897167787143444E1     7.761749521109754      -9.910577209477766E1    -8.919775259501641E1    -8.101261140259828E1     5.517189002511846E1
                        -6.931065663611403E1     9.940813493268225      -2.339445046652869E-1    8.891257339777316E1    -1.022822676647340E2     9.109142266711669E1    -8.686665263928781E1    -1.449989566236918E2
                        -8.441408624551920E1     1.144463779479044E1    -9.169606946008619E1    -6.390495931175025E1    -9.308919969662903E-1   -1.236293922367099E1    -8.398526335732399E1     1.110409210323329E2
                        -9.200219507692084E1     1.239806025063158E2    -8.471610478171945E1     4.656794634655098E1    -8.133229823252290E1    -4.974979810068504E1    -9.398064394481842E-1   -1.739290155941816E1

 3.010000000000000E7    -2.463509053740534E-1    1.004367071328183E2    -6.729470947179590E1     9.104180311353332      -8.612236311717162E1     8.107129916192102E1    -9.535981767321864E1     1.736632909477055E2
                        -6.864395986058908E1     6.413324422323436      -2.407511410527399E-1    8.857183257985824E1    -8.474483383498662E1    -1.200314116959646E2    -8.879954960238553E1     1.749649709525192E2
                        -9.309182986023261E1    -9.790075814441532E1    -8.812865734051502E1    -1.792656538275394E2    -9.300943100002969E-1   -1.262644341567378E1    -7.972274580356290E1     6.390850612400823E1
                        -8.693005040461250E1    -1.635108615574931E2    -8.392793952165199E1    -1.324489544610439E2    -1.118137045108504E2     1.390668683161957E2    -9.389655038549272E-1   -1.771370301537954E1

 3.012500000000000E7    -2.437964289585841E-1    1.001069245960437E2    -6.809634966229993E1     2.245515927487065      -8.428231022560381E1    -1.751018644561724E2    -8.527173088854076E1     6.906846579123848E1
                        -6.810813483097525E1     3.136746039424414      -2.360048993915073E-1    8.817947525783193E1    -7.927261117296143E1     3.686235124574649E1    -8.906065281801672E1    -1.040490475040663E2
                        -8.633630507960726E1     9.151016585620192E1    -8.885024272995747E1    -5.162055145616043E1    -9.304628771455358E-1   -1.295960498831448E1    -8.591951962281028E1    -1.653121500502390E2
                        -9.147655015453593E1    -3.585495336929013E1    -8.163519969450086E1    -1.008843310111692E1    -7.955580267355094E1    -1.675945176364030E1    -9.396826781440781E-1   -1.802041593308841E1

 3.015000000000000E7    -2.425093072991798E-1    9.983552403811783E1    -6.807883201018440E1     6.123051846770546      -8.014922945147161E1    -5.827071269417630E1    -9.172782217033696E1    -8.740114422079745E1
                        -6.706884717294989E1     2.712679601265618      -2.352891333395219E-1    8.778207304630743E1    -9.361353400270757E1     4.995459284019831E1    -9.246330389167552E1    -9.022382310490511E1
                        -9.726906902943387E1    -8.764837112669680E1    -9.106526406121373E1    -4.246441915844897E1    -9.260665158291026E-1   -1.324411508336147E1    -8.747622633842433E1     4.976422572372788E1
                        -8.814449349569424E1    -1.005111541716477E2    -9.220860907860089E1    -1.629824092931513E2    -8.674245127882698E1    -1.237961766581747E2    -9.344738667695757E-1   -1.830894016424070E1

 3.017500000000000E7    -2.380498655112378E-1    9.951501051337414E1    -6.743563459200746E1     4.359395963384219      -8.410984247212244E1    -1.704275587242002E2    -8.013931929911041E1    -1.101436394615196E2
                        -6.891307808110834E1     4.391597971736097      -2.323924523543456E-1    8.738780693103583E1    -8.391746063003419E1    -1.344690525776079E1    -9.311323080269364E1     1.429489027275707E2
                        -8.380575422512274E1    -1.614048029030822E1    -8.548430837713569E1    -1.057054696733997E2    -9.317308273043552E-1   -1.357142420900218E1    -8.684380336514846E1     1.230374171704397E2
                        -9.126740922642996E1    -1.617105979672760E2    -8.000512392851833E1     7.911066892660575E1    -8.733345045810401E1    -1.286456119468810E2    -9.381899555628561E-1   -1.862365078454566E1

 3.020000000000000E7    -2.328764922959568E-1    9.926142015622139E1    -6.666785218109352E1     1.533942445947346E1    -9.323148986081620E1    -5.774775690727481E1    -9.531014992802504E1     1.769653117025758E2
                        -6.804059202462916E1     7.968033862141596      -2.357924045403664E-1    8.706175818283725E1    -8.709028346302263E1     9.646539543561704E1    -8.608546715249828E1     1.430940851315843E2
                        -9.214479262624316E1    -9.208449912807097E1    -8.137194541137353E1     3.240310178478497      -9.272458781402603E-1   -1.389924683005822E1    -9.082329717255081E1     4.962326166532091E1
                        -9.757671577246434E1    -1.071186115389311E2    -1.079993754274170E2    -1.017093411226424E2    -8.477639750790586E1     1.632718771600401E2    -9.390570797836078E-1   -1.898959647523824E1

 3.022500000000000E7    -2.446232178008904E-1    9.893132273365238E1    -6.878156580712640E1     6.370543279375870      -7.927349429527004E1    -1.141697435741831E2    -8.011646102711481E1     1.603491320671701E2
                        -6.859143112038149E1     8.983068437668999      -2.376408926341746E-1    8.667200897922828E1    -9.288201673969972E1     9.825822234089878E1    -8.516083427259366E1     1.463110626577156E2
                        -8.242792341282146E1    -1.133973141408187E2    -8.798046634800373E1    -7.571995170101943E1    -9.333595755463163E-1   -1.422431594289059E1    -8.462312207114050E1    -2.079693366005997E1
                        -9.424509261092027E1     1.318448867853084E2    -9.017589875693935E1    -1.405507870647595E1    -9.293502200840570E1     1.744286635355508E1    -9.417008103424750E-1   -1.927789752030840E1

 3.025000000000000E7    -2.446326309609370E-1    9.866243934824625E1    -6.897079925248404E1    -6.075796782957419E-1   -8.544135212753389E1    -7.411583345205865E1    -9.478275913070115E1    -1.474030472302944E2
                        -6.840873190774845E1     6.666678880514406      -2.428014726553172E-1    8.630327562038444E1    -8.626962724021809E1     1.435666076152362E2    -9.219332949215384E1     1.045374795076068E2
                        -8.495340569913668E1    -1.609877603723355E2    -8.749477483356765E1     7.242789019877314E1    -9.288010651790358E-1   -1.447843105202320E1    -8.313141744645614E1    -9.473429946312999E1
                        -7.910134185600509E1    -1.048451493689742E2    -8.443750476043351E1    -5.493194346749371E1    -8.248356218715696E1    -4.590676913216315E1    -9.402416272917740E-1   -1.959544479961056E1

 3.027500000000000E7    -2.380483384289608E-1    9.834782380048773E1    -6.814898955301240E1     4.666131391997935      -9.143134564658337E1     2.724339622134992E1    -9.150303025336676E1     7.408483312013277E1
                        -6.756640875870690E1    -1.680749381667578E1    -2.293741958851455E-1    8.593749728936834E1    -8.528236722161181E1    -2.165200377138852E1    -8.814089914014552E1    -1.264978243587157E2
                        -1.042786463524630E2    -9.765334125463038E1    -9.168330697352826E1     1.015075576868994E2    -9.304367420725906E-1   -1.478501942061206E1    -8.057679808299120E1     1.743800372248368E2
                        -8.011393474423144E1     6.129046817118226E1    -8.220735134630813E1     1.264631877330296E2    -9.012610042270330E1     3.782951300913177E1    -9.380751574572954E-1   -1.991882887064259E1

 3.030000000000000E7    -2.421747666514408E-1    9.809680660520989E1    -6.793501313097669E1    -3.666593126404104      -9.972830114735858E1     8.389055846903166E1    -1.022705624499050E2    -1.468695172272125
                        -6.953367699414750E1     1.000913366345606E1    -2.388775248131135E-1    8.558209408404758E1    -9.128393074302899E1    -7.005073274899326E1    -8.539239200759548E1     1.793000142844838E2
                        -1.088605108544446E2     1.298771742475360E2    -8.694310214174676E1     1.123210617982728E2    -9.241281077676280E-1   -1.510217834806672E1    -7.846131815212077E1     1.554014515396673E2
                        -8.680453983714104E1    -1.462708211980897E2    -8.478575999629122E1    -8.453514920760100E1    -8.562802111713152E1    -4.359814241526954E1    -9.390714148407166E-1   -2.019692974978199E1

 3.032500000000000E7    -2.417657798339745E-1    9.776491180606587E1    -6.774419241297493E1    -6.012566191428823E-1   -8.406163482102218E1    -1.042876246457835E2    -9.579000772331170E1    -1.397810808167462E2
                        -6.821980755470763E1     2.030058395062903      -2.219693811239940E-1    8.516771261111963E1    -8.513813030699700E1     9.124785774603357      -9.829252849674133E1     1.752086242501334E2
                        -9.004804881985086E1     2.492872963511141E1    -8.547350284537286E1    -8.163932793689443E1    -9.292755133860388E-1   -1.541171459135676E1    -9.320411413253849E1     1.014196623158152E2
                        -8.199443339952862E1    -4.697710771535284E1    -8.115355826546791E1     7.418265453677964E1    -8.445801862404481E1     6.079498361147519      -9.342331486155271E-1   -2.053980724114801E1

 3.035000000000000E7    -2.384559793809065E-1    9.747461838588320E1    -6.838602029468623E1     7.573875608215108      -7.933444976456202E1    -4.501149822216649E1    -8.295040455366431E1     1.650811682701184E2
                        -6.818330318207389E1     3.075112340509607      -2.354625414365267E-1    8.481373349233424E1    -8.925689339150247E1    -1.000493573693930E2    -8.327932308323312E1     1.707736642339110E2
                        -8.490124565120541E1    -1.188292091815383E2    -8.733288275890931E1     1.119057819206243E2    -9.311988011160644E-1   -1.574934913616526E1    -8.378684025082157E1     6.404329675418087E1
                        -8.789786819032217E1     1.074428145736863E1    -8.736040238762216E1    -1.675080318714186E2    -9.816950619789184E1     5.305531682080306E1    -9.394354590869803E-1   -2.083603304168038E1

 3.037500000000000E7    -2.361722102426844E-1    9.717576166855761E1    -6.824804293753229E1     1.998340899508150E1    -9.560405375878277E1     1.086452672933303E2    -8.091151565187334E1     1.281643171589200E2
                        -6.718212663211932E1     9.099790418386119      -2.398190868990171E-1    8.444160643957393E1    -8.361053930207373E1    -1.426487726660113E2    -8.280932677663104E1     1.535775883622236E2
                        -9.474482321541470E1    -1.271324913419758E1    -9.420418469768904E1     9.415277398671135E1    -9.340955551065744E-1   -1.602157243650269E1    -8.257916541368381E1    -1.222910239137256E2
                        -9.516860076857910E1     1.677478630353736E2    -8.688938575824622E1     8.590317395331142E1    -8.315061378746614E1    -1.411193438062778E2    -9.389496102439038E-1   -2.114998272031766E1

 3.040000000000000E7    -2.384511340179415E-1    9.685498821510188E1    -6.859449385350669E1     3.723865867227275      -8.565364165563081E1    -1.361698610576190E2    -9.394019817414790E1     1.086278274462691E2
                        -6.851906001852620E1    -5.140040426369851      -2.365439317998314E-1    8.405861208597528E1    -8.408681422175278E1    -9.755661960342955E1    -8.660112185880121E1     4.507958188703286
                        -9.665125988096094E1    -8.636716542823700E1    -9.147984495479048E1    -1.542910925624264E2    -9.241436780613874E-1   -1.627290638186300E1    -8.502863178432915E1    -4.482396243365907E1
                        -8.937356859180802E1    -1.645311558061812E2    -8.911591989021670E1    -1.232096196518641E2    -8.542630397751745E1     1.123377319257923E2    -9.439248270489448E-1   -2.151053007490033E1

 3.042500000000000E7    -2.351775887528096E-1    9.659661879099041E1    -6.853888498469570E1     2.641815420860310      -8.431452485695864E1    -1.442040626795623E2    -8.579220379957596E1     7.264228393001577E1
                        -6.985200331941131E1     1.341325926210523E1    -2.362525399501627E-1    8.371557713175770E1    -7.782775802159186E1     8.961670286280520E1    -8.947558872639542E1     9.788158066418987E1
                        -9.434435116164383E1    -1.283617885289704E2    -8.732931908566583E1    -1.004728805465463E2    -9.304699322046012E-1   -1.666039936075920E1    -8.633726692316594E1    -2.187354898725432E1
                        -8.196510832992996E1    -1.137147473886159E2    -8.609944948145798E1     3.230469014604739E1    -8.843379261124707E1     1.255032675453141E2    -9.374469470813409E-1   -2.180893601027890E1

 3.045000000000000E7    -2.329955165437565E-1    9.627573195669814E1    -6.823337280910072E1    -7.177968243619666E-1   -9.549525734935769E1     2.489593413050856E1    -8.550618591708670E1    -1.138830185948791E2
                        -6.798141023429542E1     1.752554664561368E1    -2.335291352952050E-1    8.329920223872830E1    -8.095334706233943E1     3.704233346774464E1    -8.790802606019140E1    -1.281712925735111E1
                        -8.632612465591693E1    -1.147832378624219E1    -8.651818047681202E1    -7.642419537849294E1    -9.302577831391954E-1   -1.690374135113808E1    -1.008664522001846E2     1.761693029106273E2
                        -9.740863012956716E1    -1.551054814321807E2    -8.356573766391023E1     5.998064405706334E1    -8.768447768428842E1    -1.678768516510257E2    -9.440904601948007E-1   -2.210019607032002E1

 3.047500000000000E7    -2.361836046705701E-1    9.599744477740873E1    -6.667495824248304E1    -2.385421371403742      -8.150917641361096E1    -1.289158189366607E2    -8.232891890982749E1     4.330710363813034E1
                        -6.742712707270707E1     4.028780038355658      -2.285298374630343E-1    8.291144417671364E1    -8.899652699756399E1    -1.382398988930150E2    -8.739607315811979E1    -1.171947639483893E2
                        -8.577788763060951E1    -3.489337732669689E1    -8.573047625206638E1    -1.603057152224677E2    -9.304222994702558E-1   -1.722521476264180E1    -8.441870923770262E1     2.113704234349181E1
                        -8.845419972725463E1    -5.217157170716472E1    -8.608402330718234E1    -5.201318200278917E1    -9.010333244880270E1     1.038047346738099E2    -9.373941493173622E-1   -2.240016647932773E1

 3.050000000000000E7    -2.408210601663536E-1    9.570844338200071E1    -6.747511696063229E1     6.747980878197978      -8.425206261042256E1    -8.434452179048496E1    -8.433353966655312E1     1.599609391855491E2
                        -6.736502170965123E1    -1.321201298417043      -2.270102028095860E-1    8.252792876034405E1    -8.394806356152714E1    -7.890829662954849E1    -9.269011707721447E1     1.081901849298415E2
                        -9.440295061672613E1     1.798151853050489E2    -1.007501624260686E2    -3.255909161620552E1    -9.321301257280623E-1   -1.755036054914975E1    -9.239332148069755E1     1.446530282158138E2
                        -9.256992118204198E1     1.612157471021597E2    -8.442891250678449E1     1.580649901086518E2    -8.651841061712210E1     7.573636492741619E1    -9.415521755150879E-1   -2.274875389435211E1

 3.052500000000000E7    -2.373787000990132E-1    9.538669796898674E1    -6.757059202223984E1    -4.544075217144235      -9.256199696155278E1     1.376187507486105E2    -8.641825779310005E1    -1.710668601641469E2
                        -6.775986301922723E1    -1.470392114515794      -2.269759043934146E-1    8.217599281244688E1    -8.971075530666626E1     7.532260336592928E1    -8.545643078585417E1    -8.377196188081837E1
                        -8.762591117340855E1     1.757284948257841E2    -8.258462603209480E1     3.994938720812725E1    -9.206912522271618E-1   -1.783176335943531E1    -8.824841307107569E1    -1.499259834649217E2
                        -8.460328891765668E1     1.439632289061831E2    -9.105701247915407E1     1.544892540556509E2    -8.890070074840691E1    -1.714458392921548E2    -9.352955595243311E-1   -2.306092718427520E1

 3.055000000000000E7    -2.350057856524343E-1    9.508906171660098E1    -6.745270169309214E1    -4.706147315078518      -8.518590149327125E1     1.472924227466647E2    -8.515036812524942E1     1.409427190958812E2
