#  HZ   S   DB   R     50.00 
! Rohde & Schwarz Vector Network Analyzer 
! Rohde-Schwarz,ZNB8-4Port,1311601044102961,2.82
! Created: UTC 2/12/2019, 5:01:43 PM
! freq[Hz]                db:S11                  ang:S11                 db:S12                  ang:S12                 db:S13                  ang:S13                 db:S14                  ang:S14
!                         db:S21                  ang:S21                 db:S22                  ang:S22                 db:S23                  ang:S23                 db:S24                  ang:S24
!                         db:S31                  ang:S31                 db:S32                  ang:S32                 db:S33                  ang:S33                 db:S34                  ang:S34
!                         db:S41                  ang:S41                 db:S42                  ang:S42                 db:S43                  ang:S43                 db:S44                  ang:S44
! 
 3.000000000000000E7    -2.886935112860644E-1    1.016249245954578E2    -6.861624843068128E1     1.215398365275234E1    -8.799109801226331E1     1.307425250386917E2    -8.056515021221617E1     7.099598052814477E1
                        -6.685360880862227E1     1.678460466742024E1    -2.835322474037860E-1    8.997859733674947E1    -8.602623877700778E1    -1.332474444249255E2    -8.660925944402840E1    -1.810699058643047E1
                        -8.515643825009063E1     1.314764304730073E2    -8.120783432999589E1    -9.081771609123521E1    -9.340251403764583E-1   -1.114469557427795E1    -9.293850744252886E1    -1.372559503267248E2
                        -8.663906744903716E1     7.774905888070792E1    -8.549162191036004E1    -6.682151416053704E1    -9.304079526186683E1     5.200202102126593E1    -9.391221638416951E-1   -1.614653978313636E1

 3.002500000000000E7    -2.926067049902285E-1    1.013307393170241E2    -6.850187827211903E1    -3.090919257671522E-1   -8.989293316752011E1     9.485870908472657E1    -8.708358187951042E1     1.055469903967593E2
                        -6.952883251274307E1    -4.136285264991484      -2.918067126691679E-1    8.955994681520288E1    -9.767235740154703E1     1.563895489314474E2    -8.276087506910157E1     1.386347702374464E2
                        -8.925363179917139E1    -2.231110216163570E1    -9.061781332280413E1     1.260202671663513E2    -9.338801415936876E-1   -1.144108441818918E1    -8.299262671517852E1    -1.524070814943241E2
                        -8.025755590271750E1     4.085141084683520E1    -8.674130656257015E1     3.692446737093134E1    -7.990703572509054E1     8.832475476621434E1    -9.433478004948233E-1   -1.647865025572524E1

 3.005000000000000E7    -2.943651186998974E-1    1.010476335957529E2    -7.082936287918140E1    -2.365973798462829      -8.879568304705956E1     4.435211400912354E1    -8.708035626753735E1     1.090184991890395E2
                        -6.894571345996629E1     1.189249356032743      -2.788752596823116E-1    8.926042656219515E1    -9.214889515889496E1    -2.747225900445599E1    -8.716653715018629E1    -7.160662796841427E1
                        -8.438400520983001E1    -1.473859573204841E2    -8.490729297511601E1     5.736331322836679E1    -9.325821231040911E-1   -1.175898284057654E1    -8.495195416232610E1    -7.731744259959032E1
                        -1.052523849672709E2    -1.562021869497503E2    -9.226484965984577E1    -2.440336987884206E1    -7.902550917649735E1    -1.089660593995352E2    -9.405795246598238E-1   -1.678386562268760E1

 3.007500000000000E7    -2.871582237901686E-1    1.007183838865179E2    -6.814500184351816E1     1.175902602706669E1    -8.049785418729810E1    -2.967208618991606E1    -9.254471399818735E1    -8.831448338882476E1
                        -6.671909049662710E1     2.126840752922120E1    -2.884375937576145E-1    8.883303754119139E1    -8.209980811624430E1    -1.057760687022751E2    -9.285140853280863E1    -3.457560477145164E-1
                        -9.085662413824083E1    -1.272320110726984E2    -9.879952050055850E1    -5.970376200920430E1    -9.312172411867087E-1   -1.205796149962733E1    -9.425405372387642E1     1.501360407977413E2
                        -8.569434852275842E1     6.638742706057090E1    -8.895609791004434E1     5.087534290689289E1    -9.127927700527323E1    -1.047151272900629E2    -9.471215917527392E-1   -1.709871311416957E1

 3.010000000000000E7    -2.863876164626569E-1    1.004681800186856E2    -6.900600232639999E1     1.049599417896137E1    -8.975169476168651E1    -8.055379111132827E1    -8.786859406396088E1    -9.303992864587148E1
                        -6.894629385007725E1     1.096642847870035      -2.890511428224339E-1    8.847581703068022E1    -8.785764078652932E1    -7.347478779221987E1    -8.306231917808178E1     3.956484035609630E1
                        -9.655468185818221E1    -7.509925333845863      -8.538294388584873E1    -4.827421827078159E1    -9.306460766230627E-1   -1.238661634169924E1    -8.842294329475587E1    -2.284344907375640
                        -8.905978401623052E1    -7.818405761582473E1    -8.811612577897043E1    -1.719591103683424E2    -9.549941031265558E1    -4.652811327006458E-1   -9.445000001778213E-1   -1.741599478972730E1

 3.012500000000000E7    -2.790715704027724E-1    1.001502191583090E2    -7.065219289309329E1     1.167320334898058E1    -8.190913998031621E1    -3.930477055108334E1    -8.513118089313841E1     7.458639990856098E1
                        -6.881048886897308E1     9.806752762797684      -2.890176356160506E-1    8.813236975046995E1    -9.633362276002863E1     1.274800641515474E2    -8.891011628478623E1    -1.760233223671868E2
                        -7.973692286356807E1     2.860862119444319E1    -8.867885318972482E1    -6.086810207820606E1    -9.328624939674879E-1   -1.268074203052764E1    -9.008105099998183E1    -1.653050004639738E1
                        -8.471538926029906E1     1.582733215332031E1    -8.221138714127449E1     6.023760557783796E1    -8.234642898897143E1    -3.149948568130459E1    -9.439582602380361E-1   -1.770692287877221E1

 3.015000000000000E7    -2.839462311402854E-1    9.983145721334324E1    -6.774552730199319E1     1.048665320755493E1    -8.704951323531742E1    -1.213717186876643E2    -8.898372400114556E1    -1.320591125964597E2
                        -6.845321960736713E1     1.737801236048537E1    -2.916917810451333E-1    8.773188442010830E1    -8.753343320027940E1    -5.619191784205901E1    -8.926599679578891E1     1.416402426700046E2
                        -8.902317203977671E1     1.505690863286865      -8.423156728663534E1    -1.003140108620464E2    -9.380024493410749E-1   -1.292644220277250E1    -1.067844597947783E2     1.643023860956344E1
                        -9.862490078366758E1    -2.380391318058784E1    -8.773783624248077E1    -1.069006108136914E2    -8.901500909424145E1    -3.781082445178247E1    -9.441699226084548E-1   -1.802850208948878E1

 3.017500000000000E7    -2.766054718302305E-1    9.956719643261995E1    -6.957688971039337E1     7.148017812465345      -8.409409605615055E1    -1.331938229458066E2    -8.710700438581250E1    -1.014096146884596E2
                        -6.809722360896326E1     3.762915326084422      -2.861621306957041E-1    8.736601566741229E1    -8.917449944526892E1     1.209405449332286E1    -8.561300921489207E1     7.966845322907456E1
                        -8.381460301592965E1     6.726283032002139E1    -9.338176094320585E1     1.363561593406763E2    -9.303994095028643E-1   -1.327357872154072E1    -9.947065926221448E1    -1.158587054300343E2
                        -9.105667275194314E1    -1.334029332874696E2    -8.363762005078951E1    -6.266567190325574E1    -9.119729086065726E1    -1.541552196863029E1    -9.412419099735930E-1   -1.838150329254764E1

 3.020000000000000E7    -2.803603171506062E-1    9.923449750173558E1    -6.739026663909036E1     4.737684960265018      -8.881928814641177E1    -1.431310121299170E2    -8.998170085131334E1     5.499338384124497E1
                        -6.788698292186039E1     2.188057627769866E1    -2.818325997621771E-1    8.695620298958694E1    -8.952106122306923E1    -1.339230371920391E2    -7.947373631206476E1    -2.695175847109909E1
                        -9.516679233176336E1    -1.177560748037564E2    -8.705486910746419E1    -7.318449040771633E1    -9.375106208656902E-1   -1.358940459528854E1    -8.714329637453845E1    -1.531664034425678E2
                        -8.710194377969512E1    -5.889140125340241E1    -9.001358473468157E1     9.512280928808602E1    -9.074401813998688E1     1.213730064118853E2    -9.491703894623778E-1   -1.868232322781626E1

 3.022500000000000E7    -2.858892657398117E-1    9.896858487201477E1    -6.869527566719273E1     1.445467937292727E1    -8.545168822675784E1     1.782912348028833E2    -8.285712588334405E1     1.068946862562387E1
                        -6.835865361775709E1     1.325236233400828E1    -2.864982840251723E-1    8.662806608631767E1    -9.261319792082918E1    -1.076844315508575E2    -8.364029706820267E1     1.671355946704199E2
                        -1.097906146616257E2    -2.034029063606882E1    -8.971973536096559E1     2.237570756310321E1    -9.337057105606134E-1   -1.390837039934180E1    -8.936017703197486E1     2.768982455948797E1
                        -8.377620356989679E1    -1.010241167516015E2    -8.811138760214463E1     6.091831810291904E1    -8.649454581034611E1    -6.055165410889804E1    -9.434173247171801E-1   -1.898690655332089E1

 3.025000000000000E7    -2.891634575955638E-1    9.868502172757903E1    -7.054526799975638E1     1.160828308112353E1    -9.317450137297311E1     1.136582010687857E2    -8.937854093526140E1     1.519492391468628E2
                        -6.976820220870417E1     8.205561412747297      -2.889711285994022E-1    8.620891283576380E1    -9.106687560862278E1    -1.565786425963272E2    -8.604911117038101E1    -7.131584541406585E1
                        -8.056974514410945E1     2.780659182652748E1    -8.640678320221637E1     9.165704853210320E1    -9.371555260862781E-1   -1.420647407478364E1    -8.655203342477238E1    -7.074246456861775E1
                        -8.596184335745194E1    -5.068922883998460E1    -8.316539472267053E1    -1.419010934270957E2    -8.951850297139913E1     4.371403428764754E1    -9.439742236832048E-1   -1.929070316676702E1

 3.027500000000000E7    -2.842012527095993E-1    9.836612295483825E1    -6.729398435932517E1     3.566404866906149      -8.245229961915733E1     3.901449069776664      -8.830745252604559E1     3.945723725589598E1
                        -6.703576460483426E1     3.445527454258917      -2.775961794996217E-1    8.583655292186057E1    -8.890066620110849E1    -1.783766594806490E2    -8.069864924286959E1    -4.857010311574791E1
                        -8.836378587350220E1    -1.549994248526466E2    -9.324340317333500E1    -1.247730162176531E2    -9.255107052914962E-1   -1.448864344600332E1    -8.504058727856119E1    -1.224130990398773E2
                        -8.279272701394861E1    -1.112124116607909E2    -9.993527428545491E1    -1.033705616578697E2    -8.432360872559451E1     6.125529188855349E1    -9.444397429127827E-1   -1.960187349562490E1

 3.030000000000000E7    -2.803417797437150E-1    9.811364921273251E1    -6.885973152119617E1     1.188329321359628E1    -9.070593663657640E1    -1.341439385895513E2    -8.825844646707111E1    -1.193577184552343E2
                        -6.759256323670707E1     1.007885352099565E1    -2.874201168904848E-1    8.550285375603521E1    -9.510133029169433E1    -9.208393339171872E1    -9.848222239557640E1     1.680930426295396E2
                        -8.202295299453269E1     1.785538764992738E2    -8.508491288061536E1     4.791271440684156E1    -9.322105801277719E-1   -1.481552760508084E1    -9.990636305591394E1    -1.517679583817117E2
                        -9.227727775547764E1    -1.759808692614400E2    -9.699480468158613E1     1.795473679893207E2    -9.550342056219763E1    -4.021336485743249E1    -9.386623745915792E-1   -1.992180845125525E1

 3.032500000000000E7    -2.824583992403164E-1    9.778155739512077E1    -6.887270712347839E1     6.445716951269713      -1.035728207650161E2    -1.559317039078680E2    -8.745283279464519E1    -5.967634515352194E1
                        -6.835217785462989E1     2.028832854274554E1    -2.801545304981137E-1    8.513021142093764E1    -8.211823431241562E1     3.935381434642908E1    -9.191398379737518E1    -7.237812576034138E1
                        -8.375992662980312E1     8.138775446397415E1    -8.791189167493027E1     1.707617851272633E2    -9.299268495561286E-1   -1.511298432485537E1    -8.582553287389352E1    -1.105685144348236E1
                        -8.267650403045927E1    -1.620847892872420E2    -7.880943418595294E1    -6.905392363028621E1    -8.287884539592375E1     4.378103787484317E1    -9.422747469488682E-1   -2.019516556389084E1

 3.035000000000000E7    -2.740971757948749E-1    9.751672278450707E1    -6.884724659825194E1     9.840260074135857      -7.872146534185808E1     6.403376681197399E1    -8.160651577846922E1    -1.416819010320612E2
                        -6.825732038848395E1     1.371994657737673E1    -2.757377917559288E-1    8.469274102569617E1    -9.826977201685166E1     1.638478056565363E2    -8.451253744715035E1     3.447445458469357E1
                        -8.915713831087479E1    -7.967119254969362E1    -8.291297005099432E1    -7.854463614580608E1    -9.335043366959496E-1   -1.543628831663374E1    -8.168027603912202E1    -8.871176875308878E1
                        -8.600320633205959E1     1.082762620696780E2    -8.903883283601604E1    -1.354744657552066E2    -8.197148595434396E1    -1.158132895670536E2    -9.441142503809454E-1   -2.055570836515210E1

 3.037500000000000E7    -2.748734994951738E-1    9.719183301724894E1    -6.776406882528497E1     6.595744366464059E-1   -9.425877671827017E1     1.431480799780506E2    -9.483611175971191E1    -5.238488589041230E1
                        -6.726687397955446E1    -1.939240171999690      -2.857634386850023E-1    8.435183107697594E1    -9.529590281292946E1     1.792256333124433E2    -8.825592410433509E1    -1.743514357442022E2
                        -8.199974822500363E1     1.037892985272812E1    -8.109478277577605E1    -1.644549143275305E2    -9.380628315597959E-1   -1.571581039796981E1    -8.794032630910321E1    -2.078432792209814E1
                        -9.207408533169705E1     6.983953434039351E1    -8.446261655110038E1    -4.904869932409805E1    -8.270578284320601E1     1.122519026920568E2    -9.440305073807777E-1   -2.085365536560568E1

 3.040000000000000E7    -2.790602887747330E-1    9.690073216353154E1    -6.666151940487312E1    -7.890062324102021E-2   -8.693581278506323E1    -1.595120307679652E2    -8.361703666431554E1     1.435467873212502E2
                        -6.687051171536210E1     4.213347751994607      -2.828605905612407E-1    8.391622905354275E1    -8.675027218805248E1     9.476492331135101E1    -1.029175965095437E2    -1.650244356059574E1
                        -8.909558021218798E1     7.134891921776311E1    -8.333417815256232E1    -9.505561391422928E1    -9.317392737146557E-1   -1.602709527829515E1    -8.813821801824957E1     3.244955893009938E1
                        -8.722477492199575E1    -7.850508410323833E1    -9.116301474820051E1    -1.356285930708928E2    -8.728342869635968E1     1.058346957939627E2    -9.424678024063753E-1   -2.119273549822063E1

 3.042500000000000E7    -2.762568183777890E-1    9.660021450819281E1    -6.774913162401924E1     7.572987823963202      -8.636006372333215E1    -1.652639488453023E2    -8.617527463599645E1     1.702775266911309E1
                        -6.677446358530133E1    -1.539977834457443      -2.820066399975030E-1    8.362419821216736E1    -7.984569522814510E1     7.051323632139415E1    -9.549338020084903E1    -2.296250516776365
                        -8.693507300631035E1     1.685843640480057E1    -8.978246087229807E1     1.233276708664304E2    -9.273997105755862E-1   -1.634337917549123E1    -8.589837172084677E1    -1.039025988290899E2
                        -8.881050283191630E1    -1.458646728057088E2    -9.018594333677044E1    -1.023869597216308E2    -8.489183362362481E1    -1.148248328793467E2    -9.425404065728020E-1   -2.146187043371975E1

 3.045000000000000E7    -2.756011465800395E-1    9.632086933381707E1    -6.945325548517532E1     1.974583533147953      -8.227679536819460E1    -5.248415103968799E1    -8.631773768251134E1     7.051950868086551E1
                        -6.784416148536218E1     9.899053460434438E-1   -2.788083305022006E-1    8.318999871420949E1    -7.959808816948798E1     8.532910994630651      -8.353404038042123E1    -5.750437219722058E1
                        -8.795386266572898E1     4.666779359087868E1    -8.544834695490431E1     1.225152112972917E2    -9.284629550577100E-1   -1.664813420362718E1    -8.753846670424923E1    -1.664057495986980E2
                        -8.657626112490166E1     6.930051448906826E1    -9.433719257332615E1     1.380051814492370E2    -8.483900485514347E1    -6.869667087960708E1    -9.438850556725581E-1   -2.182618693787207E1

 3.047500000000000E7    -2.792068325683109E-1    9.601638261023604E1    -6.790441327776441E1    -1.285730393994531      -8.925730044167024E1     1.783648055497290E2    -9.699211109805582E1     8.555390439968400E1
                        -6.703335848787097E1     7.595824434858365      -2.808199724451370E-1    8.284410262144910E1    -9.342132501091203E1    -1.548406300057899E2    -7.868757604995902E1     1.734989894168580E2
                        -9.032381744061409E1     1.591620516380834E2    -8.428355579022842E1     3.300061849635594E1    -9.309248022633788E-1   -1.695485928780521E1    -8.688009850233476E1     7.783592528804734E1
                        -8.830043871108906E1    -1.138094953101094E2    -8.686395181274523E1    -1.225070603182008E2    -9.295622883244248E1    -3.479620841331387E1    -9.468760075453436E-1   -2.210087913718100E1

 3.050000000000000E7    -2.762086703077162E-1    9.572840952157675E1    -6.770685624797440E1     6.591227305813959      -8.644424045839203E1    -1.014728900102094E2    -8.973936219091841E1    -1.605121747006312E2
                        -6.813326197090966E1     7.513356772023432      -2.769058459513941E-1    8.241057500191776E1    -8.498550059317404E1    -7.458801373801435E1    -8.164568915486534E1    -7.724012442816555
                        -8.387894937996305E1     7.910085683186337E1    -8.691746532704661E1     1.499121926296868E2    -9.333552013142370E-1   -1.727194890139389E1    -8.475104187281286E1    -1.639445445851431E2
                        -9.433756510194841E1     2.630104256211341E1    -8.182106272601928E1    -1.355469951462602E2    -8.643990585039180E1    -1.082753043574174E2    -9.501096792019272E-1   -2.242716292507404E1

 3.052500000000000E7    -2.802698372750679E-1    9.545260120455239E1    -6.706109221420022E1    -7.487549673368167      -8.869221919890080E1    -1.482105177896722E2    -9.452815012426282E1    -1.138456522478808E2
                        -6.718200876276504E1     3.212696941265216      -2.789202752257703E-1    8.209304489638649E1    -8.958712178966098E1     6.861785972738380E1    -9.356024802056616E1    -8.463383796274290
                        -8.712665961901050E1    -1.418411813032204E2    -8.557964153022211E1     1.611105704299158E2    -9.344208221888707E-1   -1.754509804234599E1    -8.085798266700519E1    -1.242628797159910E2
                        -8.537981937801368E1     4.183416440930944E1    -8.889065814516094E1     4.387070455051172E1    -8.152377434218215E1     6.658352342324177E1    -9.458566833312858E-1   -2.273841739953932E1

 3.055000000000000E7    -2.715413752448291E-1    9.512798141517811E1    -6.714991148616501E1     1.184701834165951E1    -8.314544015327098E1     1.448568395729622E2    -8.724982289717245E1     2.677219225378873E1
