#  HZ   S   DB   R     50.00 
! Rohde & Schwarz Vector Network Analyzer 
! Rohde-Schwarz,ZNB8-4Port,1311601044102961,2.82
! Created: UTC 2/12/2019, 1:30:09 PM
! freq[Hz]                db:S11                  ang:S11                 db:S12                  ang:S12                 db:S13                  ang:S13                 db:S14                  ang:S14
!                         db:S21                  ang:S21                 db:S22                  ang:S22                 db:S23                  ang:S23                 db:S24                  ang:S24
!                         db:S31                  ang:S31                 db:S32                  ang:S32                 db:S33                  ang:S33                 db:S34                  ang:S34
!                         db:S41                  ang:S41                 db:S42                  ang:S42                 db:S43                  ang:S43                 db:S44                  ang:S44
! 
 3.000000000000000E7    -2.674439250405060E-1    1.055685614950246E2    -6.909747949374248E1     2.043004227230308E1    -9.220764576432566E1    -1.033175650200105E2    -9.006579838014660E1    -9.929791220648876E1
                        -7.096768893945179E1     7.081364779827681      -2.114674094767123E-1    9.403636578615461E1    -9.165239141080896E1    -8.855199646780697E1    -8.588060408748225E1    -4.106558757784001E1
                        -9.190949142137961E1    -1.527579128637627E2    -8.221911109210760E1    -8.563389782448564E1    -9.184167793414511E-1   -7.608330391431003      -8.482531526382201E1     1.487577435140274E2
                        -8.346524298076724E1     4.797443007322978E1    -8.384503129625260E1     1.514442159267397E2    -8.414222636231901E1    -1.221786917125874E2    -9.290560840389439E-1   -1.256730956889688E1

 3.002500000000000E7    -2.770162534713643E-1    1.052093106224977E2    -6.881323376215326E1     1.678570845944688E1    -9.890551738411561E1     1.340480051802877E2    -8.623239431046562E1     1.576100111962233E2
                        -6.947878592794950E1     4.629888577638513      -2.177029977380676E-1    9.361149159290967E1    -9.643228047885029E1    -6.917954787069218E1    -8.886175486366219E1     5.548957927597955E1
                        -9.406303969004887E1    -1.016688905732612E2    -9.206391689433141E1    -5.966678202665437      -9.247595293875872E-1   -7.915394775196115      -9.201907436865027E1     8.335820492418132E1
                        -8.596618736253529E1    -1.047865010836549E2    -8.437338751777935E1     2.212125801716094E1    -8.893288138790111E1     8.249196874786837E1    -9.303844365055408E-1   -1.284562480016767E1

 3.005000000000000E7    -2.767567560594424E-1    1.049269286244930E2    -7.147649850007528E1     1.104244631246189E1    -8.477461881006990E1    -8.558185029155681E1    -8.894548803865004E1    -5.807259129156269E1
                        -7.007784370488247E1     2.093305317715780E1    -2.046834326908964E-1    9.332086447206400E1    -1.043234630917672E2    -1.743252940653403E2    -8.605627633674475E1    -1.343472632270120E2
                        -8.462221216533237E1    -1.488306259071439E2    -8.722799093657633E1    -4.518069291472607E1    -9.201673409521518E-1   -8.195094288401682      -9.379333126412820E1     1.443283824460821E2
                        -8.063348236672893E1     9.982403929887815E1    -8.567644422700035E1    -8.397534435387516E1    -8.933510240512456E1    -6.517428998226251      -9.329961760749150E-1   -1.319658295177613E1

 3.007500000000000E7    -2.659528424697205E-1    1.046589130119342E2    -6.810387651499839E1     1.200286968534891E1    -8.899881205663641E1    -9.169994703517205E1    -8.730292421408197E1     7.650462208042171E1
                        -7.306008328899196E1    -3.488292972719607      -2.104230693791763E-1    9.287290641143240E1    -8.190883319398890E1    -9.708457136521315E1    -8.845809621923101E1    -7.595186568118736E1
                        -8.404697265785296E1     5.880065429160359E1    -9.025349343863547E1    -7.912415863051801E1    -9.226900955434069E-1   -8.493493720751683      -8.529988809583199E1     2.677591186232247E1
                        -9.021674594873602E1     1.602536137646408E2    -8.483939516899847E1    -1.478261432975574E2    -8.386970168194429E1     2.023865508069817      -9.345504316011749E-1   -1.351379259325908E1

 3.010000000000000E7    -2.701569514756712E-1    1.043677955676925E2    -6.782533125306449E1     7.911767410542317      -8.644310797087729E1    -2.094485291660917E1    -8.219060449722801E1     6.988573870076462E1
                        -6.802977244132964E1     1.407033526642483E1    -2.064919049830753E-1    9.253795050105673E1    -8.037292901179463E1    -6.158693420845578      -1.075254514435198E2     8.067403238822300E1
                        -8.591767492664906E1    -1.752032049249462E2    -8.961446823944215E1    -6.694085270177217E1    -9.200563997253297E-1   -8.833720024580844      -7.983472752147851E1    -9.111649782202714E1
                        -9.966044905342061E1     1.520301904459883E2    -9.422058164406926E1     1.311384388809917E1    -8.804196233813430E1    -9.417790174133894E1    -9.320914859717735E-1   -1.378463361488236E1

 3.012500000000000E7    -2.677690361634163E-1    1.040529101014545E2    -6.922113406153488E1     1.372997118730670E1    -8.664198980905422E1    -1.298506938205098E2    -9.055722182595203E1    -4.551015949221830E1
                        -6.860428261085670E1     3.789849323809244      -2.098554618835175E-1    9.217403485994964E1    -8.477448397092013E1     1.463610386221607E1    -9.122039377497147E1    -6.377078083798675
                        -8.239519533854660E1    -8.592618677507106E1    -8.429915126249463E1    -1.131307365323127E2    -9.284359412886784E-1   -9.093617582721903      -7.735703620149320E1    -1.765166905550025E2
                        -9.114570852979240E1     1.572625127226795E2    -8.734768999225302E1     8.204143577516105E1    -8.215895798463066E1    -2.127509326627227E1    -9.316803319536049E-1   -1.409380956024535E1

 3.015000000000000E7    -2.701289212104877E-1    1.037860690464321E2    -6.955518000578836E1     1.110123524073529E1    -8.418158352246667E1     7.707796488860173E1    -8.490981926971928E1     1.326018909775374E2
                        -6.845812212683354E1     1.334487655164406E1    -2.031356383262483E-1    9.176146313979596E1    -8.734662242828129E1    -1.152470485684397E1    -9.443436530278211E1     7.482524060928125E1
                        -8.633673706638582E1    -7.369881764697249E1    -9.575605525336232E1    -3.672287089937301E1    -9.287237427469285E-1   -9.361343150724057      -8.144613392370528E1    -4.803375470638199E1
                        -8.077677886908629E1    -1.776216669984170E2    -9.218876125173634E1     1.625526463707040E2    -8.608899293491540E1     3.724535050241858E1    -9.331603485148923E-1   -1.439144448085784E1

 3.017500000000000E7    -2.677449792761563E-1    1.034638057413044E2    -6.883165741819497E1     1.309086299678662E1    -8.487569639233638E1    -2.661236518878235E1    -8.108452342499317E1     1.112521900399904E2
                        -6.883893858715602E1     4.331261989053081      -2.087028970379937E-1    9.140742903931677E1    -8.636823732521320E1    -1.594372689799880E2    -8.634738752308647E1     1.423004188481412E2
                        -8.418423714073960E1     1.100552259418719E2    -9.409738090427923E1     9.423198892676388E1    -9.219940511660568E-1   -9.749657620873277      -9.463811410523655E1     4.536460798158888E1
                        -9.218038822379390E1    -9.186586658136220E1    -8.340393204421510E1     2.449391761981316E1    -7.876912606255246E1    -1.147059182948461E2    -9.277978827964596E-1   -1.471938955548327E1

 3.020000000000000E7    -2.622853037123997E-1    1.032011380671486E2    -7.116144530314824E1     8.638370396140989      -8.930130565445531E1     6.631888673921458E1    -8.335159892157947E1     1.539487030937058E2
                        -7.057898857442771E1     9.699739228910746      -2.026161154671459E-1    9.103724755129782E1    -8.054764667337722E1     8.383044814252017E1    -8.535634347207973E1     3.679752459501533E1
                        -8.983829827435842E1    -6.954357387827081E1    -8.775491635635001E1    -2.380369622611079E1    -9.148794076198047E-1   -1.000684694230302E1    -8.194290213499949E1    -1.156569864037684E2
                        -8.172415921118517E1     1.601885632934133E2    -1.004306210628898E2    -1.539324433954494E2    -9.054016033249765E1    -1.170585162785390E2    -9.307372090664441E-1   -1.505298070773096E1

 3.022500000000000E7    -2.720160025474574E-1    1.028797796319973E2    -6.914399762141288E1     1.286992862702494E1    -8.765600503168170E1    -4.512488617800579E1    -8.113802178170907E1    -1.521163875421541E2
                        -6.921303710446313E1     9.411625484215083      -2.050475274820667E-1    9.071643446719888E1    -9.338694626686404E1    -7.052962718386260E1    -8.022259764749404E1     3.560367317081242E1
                        -1.041542957861048E2    -1.302526725532183E2    -8.597243552276139E1     1.353301079918421E2    -9.262808669942038E-1   -1.036460953435048E1    -9.165216846036418E1    -5.847805242098479
                        -8.845315265438372E1    -4.129813616246526E1    -9.591951496381302E1    -8.485672684547413E1    -8.666468450858341E1    -1.477852173382853E1    -9.306389034202431E-1   -1.534782714353463E1

 3.025000000000000E7    -2.656655047751350E-1    1.026366096793724E2    -6.832270323032176E1     6.875428938566699      -8.997541501542767E1    -7.987204071988829E1    -8.174644494627822E1     2.504404519324462E1
                        -6.665155356020641E1     6.905890171899794      -2.167829063953376E-1    9.031158917224587E1    -9.752239981142643E1    -1.915266289045764E1    -9.054656608968058E1     1.644004629920593E2
                        -1.064825544147798E2    -1.596881899087857E2    -9.327720920450366E1     1.629771261487819E2    -9.257878791731968E-1   -1.063164989354459E1    -8.829078466421368E1     1.246230785224196E2
                        -9.000062495903418E1     4.928971924661275E1    -8.758062083723728E1    -1.331349644288008E2    -9.081382846614140E1     5.965659870726539E1    -9.367560639544720E-1   -1.560112192045097E1

 3.027500000000000E7    -2.673333343246832E-1    1.022965120805260E2    -6.991368409464417E1     3.758177131568396      -8.419514854704747E1    -6.547066697345235E1    -9.335623574576218E1     4.512907062601570E1
                        -7.083821654658307E1     1.328299172911164E1    -1.935379304892631E-1    8.991943238388510E1    -8.301029520902281E1    -3.334813629572585E1    -8.856212180265089E1     2.211149086665424E1
                        -8.635152249585320E1    -2.481352629210932E1    -8.665012367753526E1     4.688326053425472E1    -9.239652419158402E-1   -1.092629264731320E1    -9.410551260628976E1    -1.492964710254268E2
                        -9.065404008155612E1    -6.627828635045829E1    -9.558471051431751E1    -4.636596072228311E1    -8.572464101638504E1    -1.310913924332608E2    -9.273460469368311E-1   -1.595827969821976E1

 3.030000000000000E7    -2.669835131713649E-1    1.020303435931494E2    -7.070869295291260E1     8.479645577297688      -8.588941279411812E1     9.010164040239276E1    -8.506959942254193E1    -4.401081472761845E1
                        -6.905593667479840E1     5.192895193469411      -2.088982888166982E-1    8.955754367776154E1    -8.464924245290624E1     1.411746965278688E2    -9.440021612856179E1     1.595564020176673E2
                        -8.057225445252698E1     6.310561302290793E1    -8.947247034926077E1    -1.016726185841743E2    -9.258949759902522E-1   -1.122091813224495E1    -8.364622733685084E1    -2.963087016670275E1
                        -8.537066196030042E1    -1.546517051215396E2    -9.170773818073849E1     1.305138280737428E2    -8.250417233597416E1    -1.788475506198977E2    -9.263543976160751E-1   -1.626881114064105E1

 3.032500000000000E7    -2.664794509824097E-1    1.017436351556145E2    -6.905923716092117E1     2.113961456892776      -8.813797277589858E1     6.536647646495204E1    -8.475538946841853E1     4.041102575133956
                        -7.048419375174559E1    -2.723496238261624      -1.987790030724940E-1    8.914321076683363E1    -1.030838859175353E2     1.516240051039593E2    -8.315076159212387E1     1.711993054011621E2
                        -8.765467731254331E1    -2.498333020751711      -8.424183704496386E1    -7.794547246744110      -9.173799581823632E-1   -1.154593619761799E1    -7.937264028403179E1     1.627028548846944E2
                        -8.786669804548771E1    -1.453984774214584E2    -8.715402154458295E1    -8.394261075855670E1    -8.484351110072967E1    -1.120613869561137E2    -9.301779408948050E-1   -1.656080587731343E1

 3.035000000000000E7    -2.594729717371989E-1    1.014425344014486E2    -6.665931837774744E1     9.551991490027714      -8.637326932341728E1    -4.812416674747108E1    -8.291999097218144E1    -1.751417739187572E2
                        -6.957161273284805E1     3.632233558629097      -1.980410633647280E-1    8.881803434363128E1    -8.447401393634307E1     1.404448977063182E1    -8.875209097959137E1     9.524569157770995E1
                        -8.226378276489785E1     8.545712285335713E1    -8.422680269440281E1    -8.371801504135047E1    -9.197872903858217E-1   -1.188107639158186E1    -9.648361873647814E1     1.317609742133344E2
                        -9.035364965105678E1    -1.103402707061380E2    -8.929572626403714E1    -8.040939918093793E1    -8.099911287497216E1    -1.038448173573940E1    -9.329411824308241E-1   -1.688730713284727E1

 3.037500000000000E7    -2.608990402802410E-1    1.011710089796920E2    -7.039430744748456E1     8.814124595179331      -8.518366434915291E1     4.232210852674393E1    -8.241603275907619E1    -1.327393138236991E2
                        -6.985816373342972E1     1.287786555114568E1    -2.063828980621307E-1    8.841597353559257E1    -9.222124101206190E1     1.645812461320997E2    -8.441727670659506E1     1.436141341761698E2
                        -8.392062433480034E1     1.747715248159832E2    -9.028046383823723E1    -1.151143754695157E2    -9.268119451291167E-1   -1.210097667051688E1    -7.734991423088370E1    -1.092152997530906E2
                        -8.955202847697390E1     1.029611125546984E1    -8.027668694524444E1     6.832120833473452E1    -8.642526141538167E1    -7.956610519307836E1    -9.316543582368936E-1   -1.715623900409382E1

 3.040000000000000E7    -2.607134672601192E-1    1.008170352018401E2    -7.210261223520499E1     1.312393439377817E1    -8.298971358051746E1    -1.128814564110991E2    -8.395419262168859E1    -6.109323345687971E1
                        -6.839921514249981E1     1.243584595845021E1    -2.085380380955418E-1    8.805971511797766E1    -8.438089318623540E1     8.556766971932208E1    -9.033329731065032E1     4.722609988976426E1
                        -8.451662552017764E1    -3.344723249960715E1    -8.520829611051542E1    -9.718015759736886E1    -9.156159729064805E-1   -1.243365982312595E1    -9.951690974860793E1    -1.204667943991115E2
                        -9.016961718521607E1     2.700125106352471E1    -8.550965880192747E1    -9.811621449775167      -8.986648641303552E1    -2.889212146151639E1    -9.322171110638704E-1   -1.746345073365447E1

 3.042500000000000E7    -2.614984488566718E-1    1.005385383933693E2    -6.899877876546864E1     1.172927598263414E1    -8.035269845788125E1    -4.631609679858249E1    -9.545581083725573E1     1.358225710379892E2
                        -6.949869395670190E1     3.528730682405108      -1.953169631029924E-1    8.770869420891513E1    -8.943372195636113E1    -8.927387348602392E1    -1.050950962419338E2     1.668308884466134E2
                        -8.976906643619385E1    -1.323862687508252E2    -7.899511903986935E1    -4.374325944227331E1    -9.233408671802222E-1   -1.271246976194739E1    -9.312636622185579E1    -4.910141415911321E1
                        -8.412722391640479E1    -1.490835462985952E2    -8.499990304515660E1    -1.612489540437665E2    -8.168396370311990E1     6.680333672281105E1    -9.266270842186696E-1   -1.779946047189264E1

 3.045000000000000E7    -2.603542274127685E-1    1.002616798132188E2    -6.981030856345927E1    -8.271409810175955      -9.047939111706205E1    -1.493258848325123      -8.469345977535751E1     4.243671180477280E1
                        -6.883662521246249E1     4.517523233808864      -2.033432729706655E-1    8.730023468434555E1    -8.081908611468249E1    -1.249148393966299E2    -9.049035594101261E1     9.824073420094689E1
                        -9.049501967288292E1    -2.601378568077920E1    -8.065056140789524E1     1.159688953150467E1    -9.233268332060955E-1   -1.298679282674238E1    -8.247452578000181E1    -1.610165256743892E2
                        -8.165430362467194E1    -1.487713882732844E2    -8.799237010209345E1     4.861265375381124E1    -8.138898871779091E1     1.418308529894648E2    -9.284973201268865E-1   -1.809973501570475E1

 3.047500000000000E7    -2.664972810436733E-1    9.996317843507833E1    -6.941360627687877E1    -2.023261627878106E1    -9.416185051428229E1    -6.118534511842712E1    -7.545003199903809E1     7.740862694845350E1
                        -6.858050800525936E1     4.982472502857080      -2.029284801909162E-1    8.691323491518634E1    -8.650531825060172E1     2.929846469327968E1    -8.269762235196916E1    -1.734402929705872E2
                        -1.023014155276359E2     5.404385506360466E1    -9.288870166768179E1    -9.747521654945241E1    -9.196578005883076E-1   -1.330819373831904E1    -9.350908895159722E1    -2.508868809825347E1
                        -8.732452797603750E1    -1.419316629048062E2    -8.811364851583869E1     6.124861095660983E1    -8.815648299624846E1     1.395106928408166E2    -9.335250668936824E-1   -1.841943044533592E1

 3.050000000000000E7    -2.623342615249942E-1    9.968270489115017E1    -6.859782596491397E1    -4.634275620546958      -8.949682100254162E1    -1.647051993995355E1    -8.533399510588109E1     1.555999447579833E2
                        -6.920164581970371E1     2.492968675839403      -1.970600825542871E-1    8.655683362031169E1    -8.832958441250584E1     1.103584280384199E2    -8.744752657871550E1     1.276545991401832E2
                        -8.820944943993354E1     3.074092179629481E1    -8.599964849448831E1     1.333625119350577E2    -9.171321026584309E-1   -1.361635508295155E1    -8.801104209635803E1    -6.519211394299907E1
                        -8.085541822892279E1     1.751169538293826E2    -8.250097590948080E1    -9.206241266234810E1    -9.312233728479086E1    -1.664741840002498E2    -9.325803538191033E-1   -1.874725717185244E1

 3.052500000000000E7    -2.650892369025892E-1    9.943182949042284E1    -6.853060268677960E1     3.575127040234086      -8.752821668884424E1    -2.471469960490758E1    -9.642056924491780E1     1.628614990337339E2
                        -6.816542528815199E1     7.869906544599135      -1.959002193420956E-1    8.621133081848625E1    -8.709231556131974E1     1.422935953545028E2    -7.850858098163093E1    -2.384723294831564E1
                        -8.949191758711248E1     1.000318130855714E2    -7.960822973916491E1    -7.741387328598071E-1   -9.182755701459324E-1   -1.394687177324415E1    -1.047971615154383E2    -1.051963821446410E2
                        -8.629222867551478E1    -7.888976074837751E1    -9.725683550946435E1    -1.675954147696644E2    -9.123763718016397E1    -1.571983517203133E2    -9.321297583846856E-1   -1.900234081006257E1

 3.055000000000000E7    -2.571017733897524E-1    9.905582674409938E1    -6.782147439455076E1    -3.984923477881603      -9.125296071565971E1    -1.083627095966515E2    -8.559629537966023E1     1.421787433143097E2
