#  HZ   S   DB   R     50.00 
! Rohde & Schwarz Vector Network Analyzer 
! Rohde-Schwarz,ZNB8-4Port,1311601044102961,2.82
! Created: UTC 2/13/2019, 9:46:43 AM
! freq[Hz]                db:S11                  ang:S11                 db:S12                  ang:S12                 db:S13                  ang:S13                 db:S14                  ang:S14
!                         db:S21                  ang:S21                 db:S22                  ang:S22                 db:S23                  ang:S23                 db:S24                  ang:S24
!                         db:S31                  ang:S31                 db:S32                  ang:S32                 db:S33                  ang:S33                 db:S34                  ang:S34
!                         db:S41                  ang:S41                 db:S42                  ang:S42                 db:S43                  ang:S43                 db:S44                  ang:S44
! 
 5.525000000000000E7    -1.376208075023609      -1.317935829539922E2    -2.916617910109620E1     7.120216298765109E1    -7.983424122659839E1    -8.845389162226285      -6.518275668610067E1    -1.482187979178830E2
                        -2.924759056966616E1     7.141635167254202E1    -3.276194516982670E-1    9.420388743181175E1    -8.340415881038905E1     2.902936650733528E1    -8.767456752426485E1    -3.107897449028616
                        -7.673717170538399E1     1.094526349583619E1    -9.217746414185422E1    -1.799701255696368E2    -1.389774900488516       3.488279721527545E1    -9.272298448935544E1    -1.701230102632002E2
                        -6.546249082315774E1    -1.450279299424037E2    -9.549677170333047E1    -7.497327506055561E1    -8.664948948571055E1    -5.634519847474377E1    -1.384632726694639       2.850349044581319E1

 5.525025000000000E7    -1.373782411694676      -1.318061808795216E2    -2.924152288058988E1     7.132313384479457E1    -7.852358096595678E1     7.865551518361726      -6.645850092794271E1    -1.401641360291538E2
                        -2.921629968766132E1     7.123787710435119E1    -3.293052271286566E-1    9.416924321328787E1    -9.055657013446455E1     4.436335982916243      -8.603265020626208E1    -1.592469301532471E2
                        -7.721264719510265E1     1.175836617199381E1    -8.355931308556910E1     1.714447356359756E2    -1.387026692377041       3.491134018419495E1    -8.604124123100897E1    -9.968719742041972E1
                        -6.573207195485068E1    -1.474047390966275E2    -9.472040300223682E1     8.837900899858295E1    -9.245639537800399E1     8.322261327724398E1    -1.381634767217424       2.845598486122058E1

 5.525050000000000E7    -1.377846614976594      -1.318690606017877E2    -2.918101958194461E1     7.128434188676208E1    -8.572442087791933E1     1.527250942569069E1    -6.622518344462094E1    -1.489121812529027E2
                        -2.936582899850175E1     7.066946642021046E1    -3.286018093178428E-1    9.415230489360977E1    -8.357365498232912E1    -1.255588030209161E2    -8.517620063498652E1     1.402498438233300E2
                        -7.902334817558655E1    -2.360922837378780E1    -8.650751375340678E1    -1.344848228765573E2    -1.391802321163769       3.488670734341719E1    -8.460860784420189E1     1.315907673549827E2
                        -6.583739994025063E1    -1.546584450159112E2    -1.073389817645432E2     8.004823942118297E1    -9.059946027212669E1    -1.428729616573628E2    -1.382784216952934       2.844998374765526E1

 5.525075000000000E7    -1.376442613732109      -1.319124806716769E2    -2.922886532014245E1     7.094399274925826E1    -7.714886117279971E1    -2.241013813087174      -6.551051819294611E1    -1.542607630595962E2
                        -2.926780364208452E1     7.054789912322687E1    -3.319997681874897E-1    9.411949326796571E1    -9.149666412377542E1    -3.469364820585845E1    -9.759606991971981E1    -1.043427111492068E2
                        -7.811973389701508E1    -5.207001752935968      -9.469156352352800E1    -6.611506446407631E1    -1.389545577751763       3.486857838496789E1    -8.436887053592761E1    -8.979897203378175E1
                        -6.534651954804392E1    -1.513010363945817E2    -8.169913152827101E1     7.149989327985658E1    -9.446000092402272E1    -1.408210836387878E2    -1.381663552697477       2.846019081777392E1

 5.525100000000000E7    -1.380115744075207      -1.319389685381345E2    -2.929198844947046E1     7.176464908407459E1    -7.858573131188466E1     3.087204061575145E1    -6.628058157878147E1    -1.506539207695734E2
                        -2.916370650549171E1     7.112766676418474E1    -3.247810019769492E-1    9.413150744973126E1    -8.798185320047870E1     1.641930748909341E2    -9.776854030652395E1     1.402559512832267E2
                        -7.776263415153878E1     2.121522779600238E1    -8.369187853310650E1    -1.321140093811800E2    -1.392246991240862       3.494668331549796E1    -8.933505119610814E1     9.091792277282629E1
                        -6.648514799721771E1    -1.560706361210072E2    -9.092860121618494E1     1.651762658386808E2    -8.809037380859083E1     1.267016426075284E2    -1.379907027215851       2.846887516418982E1

 5.525125000000000E7    -1.383004425037991      -1.319779057485374E2    -2.914133593224168E1     7.150353033870282E1    -7.889151005353226E1    -7.162760308468646      -6.704919503264048E1    -1.530229720204850E2
                        -2.926822575247066E1     7.119337514243476E1    -3.291388766824666E-1    9.415734179300105E1    -9.048192965430135E1     4.668558928202865E1    -8.892128240398050E1    -1.053167626932404E2
                        -7.860724294903727E1    -2.511164415952854      -8.429033339710115E1    -1.288788101052861E2    -1.391011636152369       3.487907706198619E1    -9.122642894826215E1     2.982826430316505E1
                        -6.680854518713485E1    -1.595651786899404E2    -1.039993495576064E2     3.269462431243811E1    -8.940374202969336E1    -1.159024710787412E2    -1.385839637791295       2.844569744194465E1

 5.525150000000000E7    -1.377308280316353      -1.320006329451900E2    -2.923276059793897E1     7.079782812527637E1    -7.597004259594259E1     5.577499976417452      -6.603876988587493E1    -1.584138852986244E2
                        -2.923373068125281E1     7.136939601393715E1    -3.277572175611008E-1    9.415682573807034E1    -8.248165538930080E1    -9.377670264458378E1    -8.382761791706642E1    -1.110101828582408E2
                        -7.529034769166327E1    -5.186873478543089      -8.557517321858913E1    -6.374954002614470E1    -1.390655309943237       3.487627312606792E1    -8.290504975691073E1     7.322301503584285E1
                        -6.715095772378544E1    -1.423942399762804E2    -9.227923507979499E1     8.936202198329114E1    -9.160253089324422E1    -3.469614914668407E1    -1.378391684048369       2.844154440922013E1

 5.525175000000000E7    -1.387509977772828      -1.320661578080665E2    -2.916491354159030E1     7.099649802875342E1    -7.683985056632791E1    -9.420843588770000      -6.610730485972375E1    -1.477798530957666E2
                        -2.916547307312193E1     7.097001276646583E1    -3.283166060149242E-1    9.414889762658937E1    -8.982078474197238E1     9.036113176882608E1    -8.433313492572638E1    -5.911552330965257E1
                        -7.599668293405246E1     2.578124268226603E1    -1.008189657312912E2     1.074878907106624E2    -1.389584666302728       3.488430524630175E1    -8.718370627470370E1    -1.260924401468026E2
                        -6.605670082666397E1    -1.476674870040751E2    -8.959070263418175E1     4.625951823104044E1    -1.146517495044380E2     1.273196823239755E2    -1.380374983861688       2.842510729236554E1

 5.525200000000000E7    -1.381430491410333      -1.320583172732633E2    -2.916535013657918E1     7.131334607536662E1    -8.002585660937282E1    -3.613998183232955E1    -6.691450253965063E1    -1.518789193887222E2
                        -2.924053646375975E1     7.109500459608363E1    -3.237295824380888E-1    9.410929360572828E1    -8.941266195840919E1     1.326016245822545E2    -9.569507110627393E1    -1.232073411502620E2
                        -8.097830232799824E1     7.625825470843808      -1.039322933845624E2    -5.098057893098437E1    -1.389620257397463       3.487981064907861E1    -8.810251922980507E1     1.550534141322175E2
                        -6.606210541929629E1    -1.520943410270462E2    -9.787517109857497E1     6.922669602179727E1    -7.943846164950386E1     1.102382668247858E2    -1.384059061227549       2.847716712064731E1

 5.525225000000000E7    -1.387365522033662      -1.321119036023780E2    -2.916121713766793E1     7.110828503834804E1    -7.830665854182567E1    -1.235411110510143      -6.732634848293020E1    -1.513001916301510E2
                        -2.929650589714679E1     7.097671302870367E1    -3.219943425903862E-1    9.408611827241001E1    -8.280217868714254E1    -1.195992375407644E2    -9.179245805579180E1    -1.498042040801143E2
                        -7.840155119807828E1     1.550520039359113E1    -8.358537302551258E1    -1.470960308950419E2    -1.389819380400259       3.486330873059796E1    -8.146449878699514E1    -6.363223660626726E1
                        -6.597157383686749E1    -1.419244998664164E2    -8.874648676556056E1    -4.626059168218426E1    -8.976204103785207E1    -8.500159175363793      -1.381473752574123       2.843710086740206E1

 5.525250000000000E7    -1.387777207919061      -1.321564937987019E2    -2.916130226168850E1     7.041588135318470E1    -7.709270891070349E1     3.078667324244127E1    -6.683795457675358E1    -1.436049624924008E2
                        -2.930196021836490E1     7.054878779903183E1    -3.253536062823346E-1    9.413876170802045E1    -9.325279234636452E1    -3.236722400459070E1    -8.222132628242767E1     1.218500334635694E2
                        -8.068960707638560E1     1.350444105368269E1    -8.496623183129520E1     5.654820921860720E1    -1.390609303739538       3.485199471013183E1    -9.895211352346904E1    -1.426802882454932E2
                        -6.756705745953789E1    -1.521982887890332E2    -8.220725524971698E1    -8.426438965369189E1    -9.723717885311353E1     1.130180229276985E2    -1.380828966680989       2.844737549843617E1

 5.525275000000000E7    -1.393532905418411      -1.321898912533795E2    -2.923787911370780E1     7.118168997007371E1    -8.469870505863386E1     5.605644866326802      -6.596793456472494E1    -1.484354105616496E2
                        -2.934189656452707E1     7.147528374776519E1    -3.275673635907311E-1    9.410618396739680E1    -8.610688695696638E1    -1.227468368985323E2    -8.165692898093522E1     4.132453288056020E1
                        -7.773614132985532E1     1.036343970855871E1    -8.615078354251756E1     1.220530366743649E2    -1.389086657668154       3.485743442085054E1    -9.627380739159905E1     1.612406891153418E2
                        -6.599093523398162E1    -1.487670627230700E2    -8.076970163433606E1     3.769535694849785E1    -9.500414582023075E1    -9.448353176995687E1    -1.382239406717394       2.846695123176208E1

 5.525300000000000E7    -1.394762261593252      -1.322307449058985E2    -2.919575444755307E1     7.090528711944747E1    -7.688043033963423E1     2.340119740206560      -6.551444591777313E1    -1.488793959836258E2
                        -2.929986809120242E1     7.040614489077819E1    -3.303799625161635E-1    9.411693961884470E1    -8.082660834181043E1     1.376710978389972E2    -9.335980631169149E1    -5.405179081856030
                        -7.822524769625372E1    -1.413952340555661E1    -8.733303692992627E1     6.800181661873208E1    -1.385949927883145       3.487519158849694E1    -8.470980825966106E1     1.759354830359073E2
                        -6.537183272374271E1    -1.523247157156031E2    -8.942751918318828E1     1.796376405489794E2    -9.027522802782158E1     1.213076309350813E2    -1.379339914830712       2.844216918677162E1

 5.525325000000000E7    -1.396547070345537      -1.322388419396644E2    -2.910032314215045E1     7.097816071559177E1    -7.606976028519716E1     1.578019792696488E1    -6.609790931290816E1    -1.550608852690299E2
                        -2.923533889447686E1     7.055212476696111E1    -3.282674697684788E-1    9.406616890533661E1    -8.411432154611440E1    -1.389226493298889E2    -8.082713463042745E1     9.513877029622829E1
                        -8.085721061241392E1    -5.968770858864366      -8.240596472956858E1    -1.326607440247913E2    -1.387596849628156       3.485154815323389E1    -8.694806670388829E1    -1.416185918146206E2
                        -6.609771768614878E1    -1.510540551691182E2    -8.892434576481736E1     7.530436322256590E1    -8.442294658972605E1    -1.602818370718579E2    -1.385802394892514       2.841452089254864E1

 5.525350000000000E7    -1.393880945666275      -1.322913467113464E2    -2.919493345006778E1     7.123901197254317E1    -7.715351981815819E1     1.850268213861096E-1   -6.691100887720528E1    -1.529109537362450E2
                        -2.931959585749975E1     7.056361650781921E1    -3.273903389972468E-1    9.409439739124996E1    -9.711684368211826E1    -1.346206078991975E1    -8.339940964350740E1     1.569001164898731E2
                        -7.949501914033375E1     3.142654784175693E1    -8.467260604884697E1    -1.682858769528093E2    -1.394134041594722       3.487616140518512E1    -8.887611781169591E1    -6.147617692030008E1
                        -6.710044730701868E1    -1.521235989811361E2    -8.434938070747953E1    -1.380125889600132E2    -8.488723979359456E1    -1.657179767260742E2    -1.381192421449440       2.843775153569302E1

 5.525375000000000E7    -1.399688897737343      -1.323472598939273E2    -2.923358241921605E1     7.047520445943975E1    -7.537782623227702E1    -2.794994629241233E1    -6.730456609785389E1    -1.519682146757259E2
                        -2.923159309432467E1     7.050442598758106E1    -3.248858943345573E-1    9.407116503257392E1    -1.043911645951147E2     5.711507949119229E1    -8.401849199178029E1     1.685066856025601E2
                        -7.975689394298729E1    -1.223482312495587E1    -8.027553880984610E1    -1.537560019296664E2    -1.391124519900731       3.485264706243927E1    -9.117086643570404E1     1.032569285230341E2
                        -6.654354417540640E1    -1.535219231176843E2    -8.197591054649173E1    -1.395681998958135E2    -9.372452068701878E1    -1.510882928956494E2    -1.382133708741083       2.842217466982840E1

 5.525400000000000E7    -1.398615282175937      -1.323820787921258E2    -2.918090991554714E1     7.105295722406081E1    -7.590621364440037E1     1.545953765820576E1    -6.624053402686700E1    -1.493931178537499E2
                        -2.926987018591581E1     7.132961400884273E1    -3.291996437683739E-1    9.410718288484902E1    -9.147198970659757E1    -2.595195398532432E1    -7.987900566346164E1     7.865968585401966E1
                        -7.694734850719294E1     5.757150338765886      -8.545924357579553E1     5.817288467633571E1    -1.386095920606901       3.484245200808469E1    -9.107017666423296E1     9.336345472655997E1
                        -6.661997133047237E1    -1.482305291873991E2    -8.392235841232082E1     6.576618314132253E1    -8.892021521684993E1     6.767085371497669E1    -1.379729441706043       2.842711759787001E1

 5.525425000000000E7    -1.401593972879666      -1.324170561835165E2    -2.926040942036829E1     7.098544295197519E1    -7.750091761479898E1    -5.761439559848999      -6.567034550078841E1    -1.493058883213805E2
                        -2.922996963972330E1     7.089315853175674E1    -3.281949619162516E-1    9.410063075476316E1    -8.325809558871393E1     1.623049766243815E2    -8.421189491762095E1     1.410145892489056E2
                        -7.822848500130125E1     6.397869395407716      -8.707650826072438E1    -8.303553219680482E1    -1.392632464916752       3.483378330530401E1    -8.417206533921502E1     3.006792916052126E1
                        -6.678411930524634E1    -1.451560644012126E2    -8.532452695748410E1     2.232526439174659E1    -8.555427360369941E1     9.710481067500371E1    -1.381629820067955       2.840480703095590E1

 5.525450000000000E7    -1.406553367317925      -1.324454876072983E2    -2.919287026528964E1     7.106811564647610E1    -7.672355508251066E1    -7.956946565427182      -6.561892214299260E1    -1.543599618854607E2
                        -2.925062944475639E1     7.140058880937002E1    -3.264995935381466E-1    9.406316622078256E1    -8.258522148318717E1     1.566666418612137E2    -8.497267702593530E1     1.530089632375370E2
                        -7.562728455247306E1     1.729883780517519E1    -8.148601181349831E1    -1.690764509259390E2    -1.391354424886648       3.484998710534193E1    -8.343002052533207E1     1.439954391080331E2
                        -6.643084604066665E1    -1.539105533680124E2    -8.858549797073704E1     1.531049422601280E2    -8.590920635698453E1    -1.645686201010698E2    -1.381343907248709       2.841008080477885E1

 5.525475000000000E7    -1.408051543733580      -1.324760983777820E2    -2.917295560166723E1     7.061073234496199E1    -7.681081778246161E1     2.625254669189764E1    -6.654936191559946E1    -1.517538732138171E2
                        -2.923068933484156E1     7.081268200976074E1    -3.311237836025848E-1    9.406158156449476E1    -8.484909208861319E1     5.497476422801007E1    -9.219888885708896E1    -1.344115209065123E2
                        -7.377350821733333E1     6.779722702797257      -8.592927108787650E1     5.423481402359984E1    -1.386624465292951       3.486493388694399E1    -9.038752665714998E1     1.653167720046350E2
                        -6.581171317693057E1    -1.503664971407305E2    -8.678224633938709E1    -1.306596631038666E1    -9.039905107948039E1    -1.162749372598989E2    -1.383435512500431       2.840077570543274E1

 5.525500000000000E7    -1.409602357091520      -1.325248388137177E2    -2.921055086396830E1     7.112169448533555E1    -7.935844626605979E1    -2.213027347448454      -6.474798617961247E1    -1.471600393443944E2
                        -2.933271039920260E1     7.114490493870122E1    -3.310337944472787E-1    9.407312624867660E1    -8.961417673926354E1    -1.521479199424763E2    -8.412002328993711E1     3.307484712360933E1
                        -7.543990736082209E1     3.440090335516440E1    -8.929860799324229E1     9.141444659157628E1    -1.390875434960843       3.484133505570858E1    -8.718418705487264E1    -8.558209889918695E1
                        -6.657335273289435E1    -1.585548988335790E2    -8.282717108688998E1    -2.611932601057297E1    -9.324357608018028E1     6.368587272737379E1    -1.384129945675924       2.838828655558652E1

 5.525525000000000E7    -1.407819718131967      -1.325490724916710E2    -2.919139343740689E1     7.057183637598975E1    -7.592688433587439E1     4.550093809230090      -6.650314239697086E1    -1.500296540666342E2
                        -2.924242698199097E1     7.065928794307779E1    -3.251035335000709E-1    9.408881068597394E1    -9.158558140651411E1     8.507428711002909E1    -8.210232799098381E1    -4.949932534224552E1
                        -8.029662690570908E1    -3.234448768983811      -9.508598677016580E1     1.657620123815170E2    -1.389640529582052       3.484528942971068E1    -9.189381868408546E1     3.460060443343659
                        -6.510101797693373E1    -1.575197397314026E2    -8.128583290458897E1     6.673318750723310E1    -8.839292663292673E1     1.214383461855839E2    -1.380808000984045       2.837722710782754E1

 5.525550000000000E7    -1.407131708819595      -1.325872880637987E2    -2.917034720854888E1     7.090668918387574E1    -7.425443344303440E1     3.692922526898560E1    -6.680852981897643E1    -1.539576269338513E2
