#  HZ   S   DB   R     50.00 
! Rohde & Schwarz Vector Network Analyzer 
! Rohde-Schwarz,ZNB8-4Port,1311601044102961,2.82
! Created: UTC 2/13/2019, 8:57:32 AM
! freq[Hz]                db:S11                  ang:S11                 db:S12                  ang:S12                 db:S13                  ang:S13                 db:S14                  ang:S14
!                         db:S21                  ang:S21                 db:S22                  ang:S22                 db:S23                  ang:S23                 db:S24                  ang:S24
!                         db:S31                  ang:S31                 db:S32                  ang:S32                 db:S33                  ang:S33                 db:S34                  ang:S34
!                         db:S41                  ang:S41                 db:S42                  ang:S42                 db:S43                  ang:S43                 db:S44                  ang:S44
! 
 5.525000000000000E7    -4.598284921893308      -1.576728251100770E2    -3.275523359814870E1     7.180276367599207E1    -6.595661174658842E1    -1.650931277584636E2    -7.439083528734358E1    -2.325341333297263E1
                        -3.274073067734190E1     7.244428830317671E1    -3.269559501538915E-1    9.422824729109571E1    -8.305185471031740E1    -6.443998477170473      -8.980084350157439E1     8.789762806959571E1
                        -6.597422495111405E1    -1.664775992897997E2    -8.680865222638045E1     3.691149643302597E1    -1.390644390673718       3.489572825564522E1    -8.958564243278543E1     1.508107598137059E2
                        -7.261663791102869E1    -1.779340031948214E1    -8.952605688094377E1     7.509891817074605E1    -9.638156352067350E1     1.403772471097808E2    -1.383667668154278       2.846846897501985E1

 5.525025000000000E7    -4.598912298357066      -1.577073929676880E2    -3.265966607411107E1     7.183308870178615E1    -6.608124256748954E1    -1.680704180565727E2    -7.579870900317191E1    -1.823002880587444E1
                        -3.268004885456439E1     7.164448206210463E1    -3.266563567555748E-1    9.423185332492457E1    -8.082689713187938E1     4.209997367507158E1    -9.313410140112796E1     3.700320363882030E1
                        -6.572357842669082E1    -1.604460976827909E2    -1.032105806531654E2    -3.865955133747875E1    -1.387547678279305       3.487850648201794E1    -8.445842667356628E1    -1.556047709325767E2
                        -7.185150861134071E1    -2.600470551426798E1    -9.056405428993227E1    -1.085697244727111E2    -9.464510094223259E1     3.925088603696882E1    -1.386798332924633       2.843651310318148E1

 5.525050000000000E7    -4.606872494241237      -1.577799724343880E2    -3.283495103719793E1     7.145756171812811E1    -6.598072351364024E1    -1.620597452213846E2    -7.027403229045258E1    -8.247390052248674
                        -3.284005101536604E1     7.249160526038189E1    -3.309340873424008E-1    9.424443195910264E1    -8.651565696456011E1     6.463231260093484E1    -8.571744143140634E1     8.633072369573389E1
                        -6.539813240148436E1    -1.701124507810365E2    -8.476500741588440E1     1.427092703608794E2    -1.389088450293827       3.489138124228207E1    -9.165724751224138E1     1.768898849768564E2
                        -7.154415147238781E1    -2.279749506354177E1    -8.144174367192476E1    -9.999371741127384E1    -8.985692243978775E1     2.313986862127818E1    -1.381153373497641       2.843682292887053E1

 5.525075000000000E7    -4.612517975618012      -1.578182528492639E2    -3.271673385770360E1     7.198425459668994E1    -6.680970272474312E1    -1.683349953772209E2    -7.514628935992667E1    -1.174603189416774E1
                        -3.290982808992753E1     7.175703184763357E1    -3.282082707851963E-1    9.418374114160048E1    -8.179039728482687E1    -1.560260861822256E1    -8.834111420415711E1    -2.834237515148759E1
                        -6.625966161319607E1    -1.633442830978531E2    -8.275414042871498E1     1.249565078452276E1    -1.391308493619843       3.487150792262648E1    -8.341637194564530E1    -1.631322563442652E2
                        -7.290814538098800E1    -1.461443951203178E1    -8.772705436305017E1     1.288348010114638E2    -7.970271009681585E1    -1.356176852382487E2    -1.381630656043209       2.845454085230882E1

 5.525100000000000E7    -4.620547438531871      -1.578531287976174E2    -3.280228469946965E1     7.146837951520558E1    -6.653016403368579E1    -1.757072682465139E2    -7.273057513595745E1    -2.774419247210564E1
                        -3.269792696583222E1     7.168761212722349E1    -3.297640929110283E-1    9.418060427197139E1    -8.406070319019815E1    -1.594810179293699E2    -8.186961361687733E1    -8.419811229692806E1
                        -6.525649303176890E1    -1.675825382555352E2    -8.623339270645353E1     6.687316375329419E1    -1.391007101918545       3.487166516426676E1    -1.012055918942588E2     6.112104072885309E1
                        -7.335645717341892E1    -2.890225219930308E1    -9.291653266320422E1    -8.720388330465529E1    -8.744132550217259E1    -7.105896187908628E1    -1.385024316995882       2.844407470624904E1

 5.525125000000000E7    -4.625845713742369      -1.578591661523109E2    -3.281487611154451E1     7.154769269401102E1    -6.553904283234643E1    -1.649208580742127E2    -7.292913676405061E1    -3.538446489337414E1
                        -3.258201465526203E1     7.164934005241274E1    -3.297569627810670E-1    9.421179940014542E1    -9.164219364543969E1    -4.801798719586552E1    -8.182640441521458E1    -1.540329911679820E2
                        -6.718598062270830E1    -1.639278542136983E2    -8.576468888064255E1     3.521389185181817E1    -1.393031063987908       3.488002805682695E1    -8.162958019647451E1    -7.156789044710631E1
                        -7.353946645191064E1    -2.106237361448106E1    -9.116082626896427E1     1.310806263555976E2    -8.944608232732978E1     1.112612752229627E1    -1.386237496158700       2.844598064295624E1

 5.525150000000000E7    -4.630310445385682      -1.579021593355103E2    -3.275028318430039E1     7.152720908704704E1    -6.506272649733980E1    -1.635905654967001E2    -7.377193166887784E1    -1.749803323293817E1
                        -3.290902806588895E1     7.140087091410176E1    -3.334884169763376E-1    9.422104276835951E1    -8.090147387002800E1     1.047817774291177E2    -9.367743844888207E1     2.225532445416598E1
                        -6.545782284013181E1    -1.632544728163276E2    -9.333036041652278E1    -8.915290659892493E1    -1.389406421081321       3.486554421895381E1    -8.546895650280405E1    -1.664627989452942E2
                        -7.205864036837382E1    -2.886791773858441E1    -8.526364023575540E1    -1.150002259164843E2    -9.047947766309981E1    -3.806355060549443E1    -1.382698979369945       2.843462476737347E1

 5.525175000000000E7    -4.634059276444348      -1.579771779322869E2    -3.280333496863267E1     7.133042570458125E1    -6.544296436991375E1    -1.641484518751799E2    -7.409306089733782E1    -2.680565973183525E1
                        -3.279004865827017E1     7.143987295774518E1    -3.249492452929867E-1    9.421990613559865E1    -8.159089730539174E1    -4.703394663299449E1    -9.288314485844586E1    -1.521118477648379E2
                        -6.552986425315521E1    -1.664438885599378E2    -8.517966329968971E1    -5.101937542647016E1    -1.391718872286093       3.484599489040399E1    -9.778666045490522E1    -1.713274567063513E2
                        -7.735770261901715E1     3.428490505837859E-1   -8.171552140876341E1     8.173092250097471E1    -9.845335116938321E1    -3.130906834231083E1    -1.383183161159276       2.844667593232670E1

 5.525200000000000E7    -4.637707697168859      -1.579908043860494E2    -3.273385240777687E1     7.126640712250844E1    -6.577563415999669E1    -1.697798312219321E2    -7.388526512833249E1    -1.244593124487812E1
                        -3.286546123460035E1     7.207490415963775E1    -3.276122065104081E-1    9.418618137845928E1    -8.440778649856893E1     2.168785075523569E1    -8.251850159112371E1    -1.764051983823171E2
                        -6.669092439497601E1    -1.657536658355652E2    -9.050480483175610E1     1.153151632340955E2    -1.385868355122781       3.490452801041649E1    -8.740995181793628E1    -1.434928678714214E2
                        -7.182832371228186E1    -2.385058002667196E1    -9.011341418795992E1     1.322282207231874E2    -8.786379855654042E1     3.198285076764758E1    -1.381696500752822       2.843963991598410E1

 5.525225000000000E7    -4.641112087105728      -1.580376745038267E2    -3.266280785825470E1     7.191073209123178E1    -6.576981933935255E1    -1.645177953600496E2    -7.262383281507125E1    -2.633123713135712E1
                        -3.287181357995904E1     7.193605484098060E1    -3.295865438882430E-1    9.419608409882707E1    -9.023286703831255E1    -3.631173252963073E1    -8.451993626584101E1     1.449560688551990E2
                        -6.551041546163712E1    -1.672216012048098E2    -9.524035727875683E1     5.858364186303502E1    -1.390463331505774       3.484905435859416E1    -8.519901562607447E1    -8.417326473457405E1
                        -7.161165345469598E1    -2.204478081086825E1    -8.888543449934979E1    -5.545708221145818E1    -8.209392079918771E1     1.385390900403960E2    -1.378554726429249       2.843359319133567E1

 5.525250000000000E7    -4.648036502827464      -1.580551291614375E2    -3.273551728892966E1     7.097753056669883E1    -6.548615584874435E1    -1.660576707746587E2    -7.070438712583672E1    -1.676933293918358E1
                        -3.283555337003649E1     7.090354797329825E1    -3.285560246274609E-1    9.418448753530204E1    -8.667535944070293E1    -4.502012694257417E1    -8.894399486808310E1     7.488095483738309E1
                        -6.584415093566517E1    -1.721298787392571E2    -9.235811150343089E1    -1.702038956325450E2    -1.388618051408304       3.487137259406163E1    -9.747146963327211E1    -1.659735420904209E2
                        -7.286832046968263E1    -1.732942756426224E1    -7.891278432879079E1    -2.718915384337009E1    -8.986865320801795E1     7.253113436792809E1    -1.381506306624685       2.842876468270807E1

 5.525275000000000E7    -4.657178489889366      -1.581534964580498E2    -3.269649729244623E1     7.141733834845192E1    -6.653802038332529E1    -1.701355378745693E2    -7.307997187957643E1    -2.689466458429186E1
                        -3.285066135540467E1     7.130840506314041E1    -3.254453628073023E-1    9.418937457535807E1    -8.676463741233329E1    -1.299184152998351E2    -8.853249780068691E1    -1.664987330966261E2
                        -6.600803073599009E1    -1.663994075110713E2    -8.296608116771411E1    -2.634942367825220      -1.391529038973328       3.488179463087994E1    -8.302435766534683E1     1.655972222948272E2
                        -7.153235917143741E1    -2.252968820757335E1    -8.718415415791831E1     1.523325161992098E2    -8.986357160123430E1    -1.702986144161580E2    -1.383522241746595       2.843866137331962E1

 5.525300000000000E7    -4.666208503404846      -1.581733678210806E2    -3.291647517598052E1     7.195873104564433E1    -6.685996756146407E1    -1.737816698373827E2    -7.467262314462245E1    -2.161117316608685E1
                        -3.279031817243885E1     7.145241697999340E1    -3.295889722965015E-1    9.416519369287138E1    -8.116523919056613E1    -5.546148294693627E1    -8.591135334643413E1    -8.792063907209646E1
                        -6.576795456916398E1    -1.638284256633323E2    -8.512637478060597E1    -6.301144593459181E1    -1.391457181038602       3.482450973044970E1    -8.533145861417056E1     1.618054185503209E1
                        -7.430750050610017E1    -2.755766267631921E1    -8.523858600664168E1    -1.181576603596607E2    -8.590954670966205E1    -3.928697633390522E-1   -1.383518612640625       2.842043074761824E1

 5.525325000000000E7    -4.666916878553885      -1.581928859896832E2    -3.277514622970867E1     7.186933197462240E1    -6.483194297287020E1    -1.608842667965490E2    -7.530310551235006E1    -3.820786469883005E1
                        -3.284938967564948E1     7.144086355047739E1    -3.341836939596044E-1    9.412265203861993E1    -8.319676935485688E1    -9.402207200265846E1    -9.212099155851317E1     3.136380949509575E1
                        -6.592354605021146E1    -1.649968025095639E2    -8.429690812415660E1    -4.442217991801601E1    -1.389895508459748       3.483198796290076E1    -8.320908507847092E1     1.163504651062756E2
                        -7.325322709695730E1    -2.872535522775286E1    -9.141319045195911E1     5.968396626681284E1    -1.020417977469033E2     1.090393010719102E2    -1.375526828599246       2.842400019466209E1

 5.525350000000000E7    -4.669431570574256      -1.582614504443461E2    -3.271652531899542E1     7.207018702280831E1    -6.660536890125516E1    -1.721729962934522E2    -7.074798168572873E1    -3.083655094444364E1
                        -3.287494430753895E1     7.143494290006240E1    -3.312010082333941E-1    9.418093792165392E1    -8.536403350621308E1     9.291776018458293E1    -8.554965291948136E1    -3.851260793984832E1
                        -6.519538690424554E1    -1.751499561907083E2    -9.230561682276448E1    -1.416814832633079E2    -1.392047937175204       3.481051612027590E1    -8.572752522301100E1    -1.050363275896258E1
                        -7.334722496143515E1    -2.255643852909394E1    -8.406309679825746E1    -7.826679428391725E1    -8.233394984270048E1    -7.957651418123783E1    -1.382079863429355       2.842107409425120E1

 5.525375000000000E7    -4.678852611600662      -1.583115290125246E2    -3.265030520616296E1     7.172563508586499E1    -6.546612439496575E1    -1.702528386517944E2    -7.388712924411543E1    -2.465647195055725E1
                        -3.279199489213188E1     7.144887165602340E1    -3.282633528294837E-1    9.416996408966530E1    -8.475863467010223E1     7.654677093699571E1    -8.181942405618003E1     3.071076619484188E1
                        -6.576219032804674E1    -1.718920303531063E2    -8.512134725515297E1    -1.032090754569760E2    -1.391659955551798       3.484887602858419E1    -8.233541897212986E1    -7.507698742841131E1
                        -8.015391054440025E1    -2.048959467410235E1    -8.508832703409223E1     7.744045360129359      -8.968329029807484E1    -1.016579082183672E2    -1.383448696270126       2.842201850540603E1

 5.525400000000000E7    -4.681128537859832      -1.583541023180796E2    -3.284988285071796E1     7.155007539354079E1    -6.610793237214601E1    -1.636948643446021E2    -7.194206448142907E1    -2.151683275872497E1
                        -3.279218759525570E1     7.133077965695017E1    -3.306228861787725E-1    9.415056909903568E1    -8.246795202306009E1     8.210091300572643E1    -8.603105925065121E1    -1.113560160832511E2
                        -6.620679905610737E1    -1.666056723957162E2    -8.762324576081765E1     8.956905694688045E1    -1.390405239581242       3.482463902884447E1    -8.441530887424820E1    -9.222186247000880E1
                        -6.967610863841389E1    -2.373111465042405E1    -8.468621134659868E1    -1.489074830803937E2    -8.771021701955355E1    -7.418497643003371E1    -1.380115293937681       2.842561237178545E1

 5.525425000000000E7    -4.683642487374941      -1.583901620135484E2    -3.279533389156185E1     7.213332378721863E1    -6.616157313536490E1    -1.689800635026735E2    -7.160093849777304E1    -2.501938407816803E1
                        -3.286709326783405E1     7.157999134383523E1    -3.281008162572411E-1    9.416199865078167E1    -8.514001842979768E1     8.548028312327266E1    -8.657995499660368E1    -1.021732463848720E2
                        -6.616463972998990E1    -1.626190690613001E2    -8.912862298620820E1    -6.740126046017952      -1.391231306413885       3.485508623450463E1    -8.515327565977138E1     1.311234746446670E2
                        -7.219463677347065E1    -2.433713450629434E1    -8.632342538281121E1     7.135744387506583E1    -8.905288937945983E1     1.622482109569309E2    -1.379238528116727       2.840444642781772E1

 5.525450000000000E7    -4.687377860135006      -1.584465731626478E2    -3.274534107579606E1     7.105544241580638E1    -6.692329671522893E1    -1.556845312052611E2    -7.105905949315574E1    -2.867097344648970E1
                        -3.269850217170590E1     7.212685172518864E1    -3.307854811365079E-1    9.415299513837734E1    -8.050957733136285E1     1.546121438290208E2    -8.240574290382283E1     1.072544922861826E2
                        -6.552902270320493E1    -1.685400153312281E2    -8.416719844355069E1    -8.955766168184428E1    -1.386848695477033       3.481687910827328E1    -8.886228224680852E1     5.331069947993768E1
                        -7.407742219069283E1    -2.191167483585746E1    -8.793268310035828E1    -1.035447293275099E2    -8.828065764171832E1    -6.966352260723256      -1.381950429068161       2.841235614200651E1

 5.525475000000000E7    -4.697256843014282      -1.584989437665809E2    -3.276125233153586E1     7.154398039037082E1    -6.572150039401711E1    -1.701400478742695E2    -7.412649704591982E1    -2.626219734754004E1
                        -3.294900748797029E1     7.112551140464778E1    -3.226084737605849E-1    9.411296523625649E1    -8.639872098854451E1     8.860445597702201E1    -8.335050197089969E1    -1.054096955313111E2
                        -6.668985658375506E1    -1.655712178565534E2    -8.447023329862452E1    -5.245034397949112E1    -1.388698173747172       3.479731261485070E1    -9.592095408734765E1    -2.456981850974392
                        -7.559899844526731E1    -2.792919143757355E1    -8.488593755574385E1    -1.278801148424060E2    -8.492700898208500E1     2.016694969705528E1    -1.380369672161977       2.841908492780899E1

 5.525500000000000E7    -4.697615752933855      -1.585201527549892E2    -3.284903371329975E1     7.191524783901853E1    -6.617768144161823E1    -1.703102711119340E2    -7.399062927070374E1    -3.232707305825616E1
                        -3.294091466853828E1     7.194172221786239E1    -3.256690386623080E-1    9.412488983884273E1    -9.835862668896965E1     6.770767562083667E1    -8.474761695723645E1     1.183504453980781E2
                        -6.460704729528325E1    -1.691518518001013E2    -8.090288374179495E1    -5.606772422243629E1    -1.387424409732100       3.482490159308567E1    -8.411292655910897E1     2.609590196555574E1
                        -7.208955175714011E1    -2.576078894559334E1    -9.581985541286505E1     3.514946949007828E1    -8.430575153366065E1     1.364532869640235E2    -1.381831590829419       2.838742270623219E1

 5.525525000000000E7    -4.708465428881034      -1.585315138520037E2    -3.271515496955810E1     7.185793210434959E1    -6.618720988343890E1    -1.660065766593990E2    -7.133617065751312E1    -2.862988408265726E1
                        -3.300410332878599E1     7.106258490963221E1    -3.314873168405511E-1    9.411476963509026E1    -7.899953920225576E1     7.426914980879501E1    -8.713622249659892E1     1.694790506645084E2
                        -6.607880547539722E1    -1.597569473249261E2    -8.253227696506880E1    -1.753153635771058E2    -1.387013360985532       3.480684624423942E1    -8.748880971356984E1     7.890262470576624
                        -7.359516343451030E1    -1.769937619716533E1    -8.926597988038587E1     1.117167409361672E2    -9.155979852562162E1     8.468205896317160E1    -1.383717458566289       2.837601738093468E1

 5.525550000000000E7    -4.718962207904601      -1.585895375927095E2    -3.292290096128400E1     7.220294567652856E1    -6.481025629183020E1    -1.715757981892952E2    -7.127124437363979E1    -2.617187302901775
