#  HZ   S   DB   R     50.00 
! Rohde & Schwarz Vector Network Analyzer 
! Rohde-Schwarz,ZNB8-4Port,1311601044102961,2.82
! Created: UTC 2/13/2019, 9:14:09 AM
! freq[Hz]                db:S11                  ang:S11                 db:S12                  ang:S12                 db:S13                  ang:S13                 db:S14                  ang:S14
!                         db:S21                  ang:S21                 db:S22                  ang:S22                 db:S23                  ang:S23                 db:S24                  ang:S24
!                         db:S31                  ang:S31                 db:S32                  ang:S32                 db:S33                  ang:S33                 db:S34                  ang:S34
!                         db:S41                  ang:S41                 db:S42                  ang:S42                 db:S43                  ang:S43                 db:S44                  ang:S44
! 
 5.525000000000000E7    -2.942058832274803      -1.490090452112550E2    -3.167999382216029E1     6.940581511275963E1    -6.491275359301804E1    -1.603350823848869E2    -7.310052378258550E1    -5.934595790854927
                        -3.181704601341682E1     6.920585573613097E1    -3.371368113974107E-1    9.410683118972740E1    -9.772624036493765E1    -1.762585815739462E2    -7.964177402584339E1     1.124873020635770E2
                        -6.446025572749170E1    -1.613313813868907E2    -8.673463408799825E1    -1.721751848349571E2    -1.391236052132780       3.487815435110740E1    -8.557029466642118E1     1.235611949783207E2
                        -7.187797704360638E1    -6.422624388572334      -8.077630997418123E1     1.100410612733369E2    -9.080414507182266E1     1.248700086588655E1    -1.380200122043017       2.847948259918349E1

 5.525025000000000E7    -2.947659979449406      -1.490604929509525E2    -3.179249708000389E1     6.891959427702349E1    -6.469142318416937E1    -1.549284539959236E2    -7.428706639415736E1    -8.108270187366335
                        -3.181119172089747E1     6.931316613614636E1    -3.370729122150019E-1    9.410435028054320E1    -9.219822043119254E1     1.153952219110709E2    -8.411929928087980E1     2.010739428635037E1
                        -6.438792258948838E1    -1.600611154258525E2    -8.081704633780285E1    -5.616924789896160E1    -1.391506990357166       3.488004625318633E1    -9.417000438769172E1    -1.343550761014996E2
                        -7.268676730022479E1    -1.808360978359614E1    -8.762959873069383E1     9.678620419294597E1    -1.029830493718179E2     1.084276078269359E2    -1.379507165336130       2.844873179135801E1

 5.525050000000000E7    -2.946992850397698      -1.491031612734875E2    -3.183357516382219E1     6.914076822186064E1    -6.589499088085130E1    -1.678926566987594E2    -7.391639667885168E1    -1.473801268132260E1
                        -3.186512797348699E1     6.897351279590318E1    -3.343377967484071E-1    9.409741329963453E1    -8.498290728272067E1    -5.922101945873305E1    -7.944517802283262E1     7.812333917650444E1
                        -6.653089802015965E1    -1.569671379073904E2    -9.366099662483991E1     6.849228427789285E1    -1.390275584469468       3.490578229920070E1    -8.289861576509601E1    -1.751459410590888E2
                        -7.378994650235762E1    -6.812475104065542      -8.769999626923533E1     6.835749380026509E1    -8.741729788969792E1    -7.727680494929885E1    -1.380216350817043       2.844586680856318E1

 5.525075000000000E7    -2.954751992239808      -1.491211784543439E2    -3.182252847102033E1     6.985569587865449E1    -6.565701949927528E1    -1.574249672919911E2    -7.588676139199900E1     7.355892308762987
                        -3.171332771897058E1     7.001029827568526E1    -3.327062098476545E-1    9.414161171050419E1    -8.537194770469179E1     1.682745848262223E2    -7.967391558848976E1     4.984481668982098E1
                        -6.512944162243809E1    -1.633030648239089E2    -8.463200433301682E1    -1.501968613315472E2    -1.390126133760179       3.488436090431186E1    -9.707915477255057E1     1.270161395426694E2
                        -7.538274091384106E1    -1.626267380649712E-1   -8.543154934703540E1    -5.212555210985327E1    -7.985508887866216E1    -1.498529852270235E2    -1.385983044344510       2.845365878940950E1

 5.525100000000000E7    -2.960336330808126      -1.491365857622408E2    -3.183757233440436E1     6.921695089291215E1    -6.501947835105324E1    -1.512895465916057E2    -7.199330108891934E1    -2.240876505300829E1
                        -3.195755857524418E1     6.904697899386032E1    -3.349356771094845E-1    9.412107532707665E1    -8.495175135430921E1    -1.186696633870494E2    -7.911433936337565E1    -1.265144979639052E2
                        -6.585958209897601E1    -1.603083041882030E2    -8.379943475890542E1    -9.698598565907351E1    -1.390910040279000       3.488083595724930E1    -8.932058838087066E1     1.015853986391555E2
                        -7.281996938612110E1    -5.542399648892344      -8.705823430940311E1     9.022074484396489E1    -8.201450154178842E1    -1.552584398300040E2    -1.381926952332456       2.844671705675033E1

 5.525125000000000E7    -2.960626734531690      -1.491781398693917E2    -3.174771698587279E1     6.926194688275642E1    -6.630979462029428E1    -1.667499203982407E2    -7.397178427446114E1    -5.675438981757791
                        -3.177910990638376E1     6.888992518247483E1    -3.405110753375029E-1    9.411441194621872E1    -7.836329237809838E1    -2.188201976155753E1    -8.228692935120310E1     1.496966504808327E2
                        -6.541004034117643E1    -1.577260527128352E2    -9.150035068557003E1     1.457493037132699E2    -1.386380015227896       3.487381658890559E1    -8.395908946431339E1    -1.157880844316484E1
                        -7.473271910059249E1    -1.414781365089712E1    -8.802623790995368E1    -1.293140979578273E2    -9.060921180909681E1    -2.677469717432052E1    -1.376467008586398       2.842924764738148E1

 5.525150000000000E7    -2.969272883870873      -1.492677003357925E2    -3.175238228071984E1     6.877563133290578E1    -6.461955777409284E1    -1.586491812268087E2    -7.468763143227486E1    -1.407400503242710E1
                        -3.185694593646004E1     6.923385822573054E1    -3.307682869423401E-1    9.410212443139088E1    -8.279714000446779E1     1.341592436674897E2    -9.042613600284106E1     6.923962372696050E1
                        -6.557048179285557E1    -1.579989137512958E2    -8.932444919298024E1     1.070580941722084E2    -1.393373065932664       3.486834788698789E1    -8.210379002560563E1    -1.030203020019284E2
                        -7.164514242532417E1    -9.441540500216018      -7.926354925226153E1     5.449931566109554E1    -8.297245112900515E1     1.286092463542657E2    -1.382302524961916       2.844003058787420E1

 5.525175000000000E7    -2.973655258244299      -1.492757789835768E2    -3.176451358676737E1     6.902789007193168E1    -6.546546728756452E1    -1.612640595355354E2    -7.423754622912371E1    -2.310041814146371E1
                        -3.185801626390438E1     6.971775104320646E1    -3.368544629468269E-1    9.411033873862294E1    -8.416615881212343E1     1.223979949012299E2    -9.025726873056713E1     8.994936084835967E1
                        -6.515567768556134E1    -1.642321031404196E2    -8.979082752367091E1     1.531486790856650E2    -1.391957068387136       3.485547845068968E1    -8.565349831313748E1    -9.196489955772077E1
                        -7.186705570706879E1    -1.722563587770488E1    -1.049373202494504E2    -1.794237679745513E2    -8.744112020710047E1    -4.247031459250150E1    -1.384740222867087       2.847670762964694E1

 5.525200000000000E7    -2.976156545128552      -1.493491109810408E2    -3.183559760172812E1     6.918101049405547E1    -6.524794934399900E1    -1.632831619717936E2    -7.746486438161882E1    -2.199633626247118E1
                        -3.189663306473358E1     6.810918369669115E1    -3.332560821692426E-1    9.407914474563592E1    -9.397313651582198E1    -4.809792133947650      -8.410676148086259E1     1.467657369546955E2
                        -6.636734615423157E1    -1.675157720166778E2    -9.329821768855659E1     2.402552498321824E1    -1.393969561257732       3.487852596042412E1    -9.938337782678974E1     1.441304658155530E2
                        -7.331491395231596E1    -7.252578380889782      -1.023811643579750E2     1.159604002089324E2    -8.522934154292649E1     2.816101045576614E1    -1.383262266071692       2.843112849502940E1

 5.525225000000000E7    -2.975395041753076      -1.493962700960924E2    -3.184979339861459E1     6.962960914547631E1    -6.568986418221085E1    -1.582490147764868E2    -7.374997069540979E1    -3.380881479195823E1
                        -3.203903512437486E1     6.903569515746618E1    -3.381272718275217E-1    9.405513298893050E1    -8.976467495878825E1     1.651360568051439E2    -8.937330570655394E1     1.500884373709166E2
                        -6.645392322352494E1    -1.568995556402490E2    -9.434804298862576E1    -1.355019007767156E2    -1.392131038907525       3.483241596372695E1    -8.346412224413308E1    -3.005311975611099E1
                        -7.178100704387315E1    -1.953313139223774E1    -8.864946504436850E1    -1.285500680008556E2    -8.711726069482683E1     6.671934992295503E1    -1.381685303025990       2.841288093228301E1

 5.525250000000000E7    -2.985426382009864      -1.494690447911400E2    -3.184618769254154E1     6.942618461603298E1    -6.471301487691902E1    -1.552133599700594E2    -7.444123908844220E1    -4.325064941235916E1
                        -3.187447822645916E1     7.018232314661331E1    -3.355541261850006E-1    9.407434826802862E1    -8.286465563028023E1     2.450454112400475E1    -9.244327248886968E1     5.594871233696662E1
                        -6.532335098242429E1    -1.511515143328050E2    -8.636049595325429E1    -7.890010563333746E1    -1.389750979139656       3.486448403293408E1    -8.558512287358363E1    -1.372885745136871E1
                        -7.510277590687434E1    -1.616555740830870E1    -1.016590027823259E2     1.762727682353039E1    -8.689314215995384E1     1.530482315539604E2    -1.382318344772738       2.844598933367028E1

 5.525275000000000E7    -2.983495265648388      -1.494738844623801E2    -3.180310365002778E1     6.884061968515555E1    -6.529443410347282E1    -1.576175029612657E2    -7.073726934099581E1    -9.963156962520287
                        -3.184391447926998E1     6.914596783940748E1    -3.344799951906602E-1    9.406835050555155E1    -8.071977847752649E1    -1.157809742913552E2    -8.747380875566120E1     4.850253117027427E1
                        -6.488656156826858E1    -1.680988247582715E2    -8.514827368994153E1     2.024164747564092E1    -1.391857800781392       3.486315412375750E1    -9.323823952995289E1     1.534064225900750E2
                        -7.438011225697105E1    -7.784297095838308      -8.271735436329799E1    -1.327018260105868E2    -8.658184854667654E1     2.148367144761165E1    -1.382519702561362       2.842192112352345E1

 5.525300000000000E7    -2.987326137083675      -1.495433117176101E2    -3.181097398591551E1     6.904977783628227E1    -6.458904147735517E1    -1.591194493384035E2    -7.413927430967351E1    -1.632329885145590E1
                        -3.180812142382152E1     6.890450435237894E1    -3.313903515755737E-1    9.408984917753934E1    -8.114935906074825E1     1.371092595704591E2    -8.458612998450309E1    -5.331626487958006E1
                        -6.618596004839606E1    -1.655523718789286E2    -9.153054363074546E1     1.708003433231203E2    -1.390279201340414       3.487686645177949E1    -8.819042385280670E1     1.042393946202952E2
                        -7.202605444985022E1    -1.988675174903090E1    -8.449117161613390E1    -6.861011155785984E1    -8.373038571662303E1    -5.220945368538207E1    -1.380354290475984       2.841035903898424E1

 5.525325000000000E7    -2.993214852628100      -1.496071038957034E2    -3.182501961301977E1     6.852979929275324E1    -6.522040173893571E1    -1.544652990107207E2    -7.428414717650949E1     1.032956119267698
                        -3.187610879555292E1     6.883577252862547E1    -3.342069832619050E-1    9.404698126935459E1    -9.568438450111424E1     7.647634096455178E1    -8.798872733878568E1    -6.851553852689504E1
                        -6.566483418149599E1    -1.553706911100266E2    -8.902562538973372E1     1.783787379927552E2    -1.394876006238029       3.484677464031891E1    -8.915336195417099E1     1.399891546732498E2
                        -7.182013212790372E1    -1.606946740289076E1    -8.184705911835117E1    -9.000655403060236E1    -8.519455110100989E1    -1.062028909484256E2    -1.381856665551048       2.838786613750947E1

 5.525350000000000E7    -2.994338766480637      -1.496409553088166E2    -3.181948325848519E1     6.890240658767800E1    -6.490807661408817E1    -1.544000420270278E2    -7.435147979175670E1    -1.532281600269500E1
                        -3.185639884499472E1     6.864377143807322E1    -3.413418201844738E-1    9.406135364907264E1    -8.188877375531467E1     9.135864188643684E1    -8.150820689687527E1     1.482770101718538E2
                        -6.483250047135304E1    -1.637655116805376E2    -9.385784021040539E1     7.726819085523702E1    -1.391456277496209       3.486165430456494E1    -8.392929383671509E1     1.395834377549652E2
                        -7.405661077536144E1    -1.553808001649757E1    -9.563637959824624E1    -1.332945493133537E2    -8.294505577529546E1     1.723086649328879E2    -1.382596263370482       2.840179919047940E1

 5.525375000000000E7    -3.002136131461799      -1.496843529906841E2    -3.190844682332808E1     6.893076021579289E1    -6.561226906125667E1    -1.560161583547567E2    -7.278278068170543E1    -1.101598524981523E1
                        -3.193774562478062E1     6.949691667608276E1    -3.362020741693007E-1    9.404148875972089E1    -9.541290369469624E1     3.986048113119929E1    -8.703904489487732E1     7.573387657705458
                        -6.538192762525480E1    -1.550593944486192E2    -8.776363991445984E1     1.600669642727569E2    -1.387444384197119       3.488920149063362E1    -8.091616766204518E1     5.675210319969040E1
                        -7.297792989053295E1     2.999719073688789      -9.143686904347877E1     1.458337412483322E1    -8.570190287534521E1    -1.359586484608055E2    -1.382706747948399       2.840245069247843E1

 5.525400000000000E7    -3.002136402691829      -1.497069120970471E2    -3.185212988655955E1     6.869955797606924E1    -6.613058137134688E1    -1.626554462447872E2    -7.485098711981975E1    -2.251901219212412E1
                        -3.185044816046024E1     6.904735925444003E1    -3.341204974107595E-1    9.408231895576330E1    -9.063099004406908E1     1.429354334577641E2    -8.470022867831204E1     6.727304251525735E1
                        -6.522346759935763E1    -1.636532173680861E2    -9.012854555228508E1     7.481407563283355E1    -1.391841130542655       3.483975529923028E1    -9.760233015006006E1     1.067470110201465E2
                        -7.313051500623305E1     6.841634278404610E-1   -8.150876613509422E1    -1.767620819246605E2    -8.339587001491915E1    -1.480487762143296E1    -1.382554515442908       2.841602963321855E1

 5.525425000000000E7    -3.012006280510938      -1.497770257928513E2    -3.189154846447271E1     6.940318810613144E1    -6.502616322461287E1    -1.591150041121306E2    -7.583428049701094E1    -4.648040287063161E-1
                        -3.200906231334118E1     6.880582318284857E1    -3.337343195203814E-1    9.402429993879345E1    -8.775063531774467E1     1.489573038657458E2    -8.142815642504614E1     1.324698250347718E2
                        -6.480521084463636E1    -1.657471101576325E2    -8.373807474779167E1    -1.196118802013408E2    -1.387717779430775       3.485678436631798E1    -8.594871306819675E1    -1.102626354264042E2
                        -7.243191811990309E1    -5.290175822970499      -8.587250671953605E1     1.173631851260504E2    -9.501883244098880E1     1.348956086160712E2    -1.376407094220018       2.842711425318051E1

 5.525450000000000E7    -3.011484944529173      -1.497739775262807E2    -3.187303183528231E1     6.884808301515784E1    -6.509089060691926E1    -1.568011605443602E2    -7.493012720432604E1    -1.632234676748114E1
                        -3.183596469396661E1     6.920398153848575E1    -3.388806933513228E-1    9.405532966482038E1    -8.482794656108524E1     5.204353333391004E1    -8.394468790272704E1    -1.473610642421855E2
                        -6.438611831958714E1    -1.588833489927606E2    -8.696483487436707E1     9.295524104452969E1    -1.392416914779476       3.482566539303628E1    -9.194085923108354E1    -1.656458187882626E2
                        -7.431938609526212E1    -1.082222021083970      -8.213697389470318E1    -1.134666157219807E2    -8.890844379787758E1    -1.387928958730198E2    -1.381536464955198       2.838342740920233E1

 5.525475000000000E7    -3.009818350015618      -1.498514890000014E2    -3.190183176406335E1     6.887339163440393E1    -6.460682490640666E1    -1.595315179127676E2    -7.368578285603167E1    -8.289158645415441
                        -3.192441811678217E1     6.938154379323350E1    -3.337723250349756E-1    9.403290780139729E1    -8.725335607467648E1     8.459601343160814E1    -8.087363479811509E1     2.331194685159405E1
                        -6.447447226435119E1    -1.586627466517247E2    -9.220876931348920E1    -3.414872942767099E1    -1.393351875298725       3.483194819044668E1    -9.111019587715227E1    -6.382042180241895
                        -7.373388239017083E1    -1.634557405021052E1    -8.920188128273252E1     5.422882189497539E1    -9.065238931264091E1    -1.262543042760802E2    -1.381592092828466       2.839112744868801E1

 5.525500000000000E7    -3.016449683444149      -1.499044253804888E2    -3.191164395215012E1     6.927356928658959E1    -6.502895286436558E1    -1.644216476776794E2    -7.534098440495946E1    -2.933696569976122
                        -3.194253579803960E1     6.825220107345281E1    -3.385520822824157E-1    9.398254726314875E1    -8.414314537135823E1     1.645693782946368E2    -8.105922004461688E1     1.217869944070384E2
                        -6.717898751413225E1    -1.594585973623098E2    -9.642897850480999E1    -1.110572478175568E2    -1.389571132750455       3.483261271117788E1    -8.305732016244853E1    -1.507897326038402E2
                        -7.245575467097326E1    -1.363748738940996E1    -8.292811965930513E1     7.005421225243200E1    -8.280501207547360E1     2.502891762949258E1    -1.382098179508790       2.838593172378033E1

 5.525525000000000E7    -3.020407346801463      -1.499574513617010E2    -3.187365035445265E1     6.937093802220903E1    -6.463140296425979E1    -1.612615473252294E2    -7.154358624499760E1    -1.741385439972672E1
                        -3.193661064698936E1     6.922720142914882E1    -3.296113464495172E-1    9.402230954360782E1    -9.044678350541068E1     1.098125275485631E2    -8.638679751383450E1     1.433071478851226E2
                        -6.467750960515586E1    -1.599532681973391E2    -9.022563195298390E1     9.967655940198350E1    -1.388399156043457       3.480459545403934E1    -8.698247133324091E1     5.184837447036982E1
                        -7.436973286169639E1    -7.596360677136901      -9.005063862586418E1    -7.296113574339326E1    -8.300547329929469E1     3.031305325810009E1    -1.379163638115350       2.838239996856492E1

 5.525550000000000E7    -3.028718465994650      -1.499742907940939E2    -3.188838886646531E1     6.897064887363234E1    -6.635874405353415E1    -1.530255423958985E2    -7.127924793663703E1    -1.410275326356351E1
