#  HZ   S   DB   R     50.00 
! Rohde & Schwarz Vector Network Analyzer 
! Rohde-Schwarz,ZNB8-4Port,1311601044102961,2.82
! Created: UTC 2/13/2019, 8:48:26 AM
! freq[Hz]                db:S11                  ang:S11                 db:S12                  ang:S12                 db:S13                  ang:S13                 db:S14                  ang:S14
!                         db:S21                  ang:S21                 db:S22                  ang:S22                 db:S23                  ang:S23                 db:S24                  ang:S24
!                         db:S31                  ang:S31                 db:S32                  ang:S32                 db:S33                  ang:S33                 db:S34                  ang:S34
!                         db:S41                  ang:S41                 db:S42                  ang:S42                 db:S43                  ang:S43                 db:S44                  ang:S44
! 
 5.525000000000000E7    -6.077854075549325      -1.651161649671897E2    -3.349956296249361E1     7.524859265759531E1    -6.556104967127025E1    -1.739039909952364E2    -7.458955940707564E1    -2.873035298333272E1
                        -3.348494156900246E1     7.458362245845062E1    -2.867448841444433E-1    9.453198178191398E1    -9.186629598110571E1     5.831308663173575E1    -8.609533299152942E1    -6.768937308860413E1
                        -6.770671771427631E1    -1.670846018077221E2    -8.444977043039187E1     5.063815466653023E1    -1.387083094988129       3.489164967391103E1    -8.669017431341626E1     2.749036461069906E1
                        -7.272809313892934E1    -3.084815115947679E1    -8.329040361327337E1     4.650219809558512E1    -9.450777473868980E1    -1.134870980831745E2    -1.382931296227153       2.844371088518069E1

 5.525025000000000E7    -6.085181843486454      -1.651901833015016E2    -3.343255645104912E1     7.504454331565910E1    -6.680600194028048E1    -1.775728342467577E2    -7.338926665582918E1    -3.361508009325863E1
                        -3.355279144542482E1     7.416421134863421E1    -2.844657046645461E-1    9.451917970448439E1    -1.088029961759903E2    -1.678758405565627E2    -9.691266567121585E1    -4.643335695829056E1
                        -6.567725731264156E1    -1.745670822364222E2    -8.046378159659429E1    -3.210410695133062E1    -1.390179667767683       3.483174724260050E1    -8.529368466346580E1    -1.679527834894470E2
                        -7.195567487445003E1    -3.434085756337045E1    -8.334238444508920E1     6.173065449209604E1    -7.996071967502273E1     1.055863700325855E2    -1.386146313318217       2.848880153624210E1

 5.525050000000000E7    -6.086613386492009      -1.652515883615311E2    -3.349607636664806E1     7.488473044926293E1    -6.640867820692418E1    -1.661833920311678E2    -7.226806504286198E1    -2.925211627101376E1
                        -3.347816637826823E1     7.486550828890134E1    -2.823500465023214E-1    9.453196837778360E1    -9.214486920911745E1     2.871034776312210E1    -8.650237852314119E1    -1.733450487339729E2
                        -6.627834963125913E1    -1.726660337577003E2    -8.290337799783613E1    -3.593030700733256E1    -1.387730385323273       3.486798962889000E1    -8.220210691742891E1     1.640899557942570E2
                        -7.284262686912868E1    -3.770805073646933E1    -8.485971024068589E1     2.384262674126084E1    -8.491210272877160E1     4.244197056892033E1    -1.381884656746213       2.845688498372482E1

 5.525075000000000E7    -6.092586255099225      -1.652229876980335E2    -3.344677652774927E1     7.490365471083305E1    -6.794249208343285E1    -1.665337239273878E2    -7.195939336754110E1    -2.518038407777084E1
                        -3.352052970137164E1     7.491900560221622E1    -2.850798214635765E-1    9.454884939395829E1    -8.764112308929944E1    -4.164343229136864E1    -8.884783434561180E1     1.456918089647279E2
                        -6.562828088976922E1    -1.687239219239238E2    -8.651781793224691E1     1.027719553808914E2    -1.389935670051816       3.488125534943463E1    -8.349793637923752E1    -1.685209654465342E2
                        -7.182577619962808E1    -3.011058856483603E1    -9.516244335516939E1     1.648474204354387E2    -8.804467922179511E1     8.167821667950709E1    -1.381161015723459       2.845397892865031E1

 5.525100000000000E7    -6.097130104329798      -1.652535324318718E2    -3.360136577322442E1     7.493293873140449E1    -6.560282809232615E1    -1.761479986064158E2    -7.127853111084059E1    -2.293513281241766E1
                        -3.345824732339064E1     7.452552783189404E1    -2.887791119526291E-1    9.456485537253045E1    -9.019284077085212E1    -1.585894020676995E2    -9.192573693755806E1     6.277333121540377E1
                        -6.652291904910510E1    -1.742155747052580E2    -8.231874515736524E1     1.237329352249403E2    -1.388374795700778       3.484559757969473E1    -9.210861844248220E1     2.402027537892772E1
                        -7.205438761590561E1    -1.303500036810574E1    -9.600298067150916E1    -1.293134102582835E2    -8.122104088161152E1    -5.627015586199703E1    -1.383743320446819       2.841986361600211E1

 5.525125000000000E7    -6.104514188518716      -1.653670934895619E2    -3.339996326349275E1     7.446764356227006E1    -6.598708539807338E1    -1.764144971548429E2    -7.160873002431730E1    -3.299313898630275E1
                        -3.349020601810508E1     7.513637226447591E1    -2.863155022002213E-1    9.454910723312791E1    -9.384089348896521E1    -1.021284330536469E1    -9.316039069848188E1     6.328415176750663E1
                        -6.587782561085170E1    -1.717572782586750E2    -7.759038582650655E1    -3.396629785816091E1    -1.392089949576042       3.487105484019252E1    -8.758684042390178E1     1.643929379745775E2
                        -7.345002708594886E1    -2.786596397002838E1    -8.919929592081319E1     1.588026142169623E1    -9.630435401432530E1    -3.200743903873651E1    -1.379369072338644       2.842432941095599E1

 5.525150000000000E7    -6.109871453015924      -1.653679986717520E2    -3.334783958686860E1     7.544622118431693E1    -6.630192739193403E1    -1.688563821212282E2    -7.469795627198204E1    -4.096517447883680E1
                        -3.362523698226768E1     7.523742230964355E1    -2.891099572830760E-1    9.450523002187612E1    -9.292290497644822E1     1.420343039711716E2    -8.589867777195141E1     1.793571130042574E2
                        -6.527293702156557E1    -1.736279003504095E2    -8.554487638345471E1     4.074184104013832E1    -1.389177237241818       3.484853179835829E1    -7.963483061404742E1     1.445570157104311E2
                        -7.244838174663074E1    -3.469154570454192E1    -8.721159477571280E1    -1.438805452553089E2    -9.619826642628119E1     1.411911850783100E2    -1.378899252836414       2.843983133874920E1

 5.525175000000000E7    -6.119989033447570      -1.653757751216265E2    -3.360646575219137E1     7.552475717710436E1    -6.683864298274855E1    -1.726714820102837E2    -7.005896200327763E1    -2.468418475463220E1
                        -3.344482955648219E1     7.596825860120805E1    -2.845167356225201E-1    9.451054216258370E1    -8.355986380833848E1    -6.412547490261058      -9.001369676794802E1     9.298063308565145E1
                        -6.574253282411034E1    -1.740602877156100E2    -9.078397871277871E1     8.070045855808738E1    -1.389827524477030       3.485455396786610E1    -8.234800515487338E1    -1.079504565589459E2
                        -7.521821382771883E1    -8.360215537274511      -8.437264576774224E1     1.452164733369815E2    -9.095864777855182E1    -1.755939789782668E2    -1.384185897015977       2.840986637920660E1

 5.525200000000000E7    -6.132412606400404      -1.654375871249418E2    -3.341684972337242E1     7.544693281892873E1    -6.527601932658919E1    -1.657018432345355E2    -7.360581519841348E1    -3.485300283788931E1
                        -3.357066428764899E1     7.411467063821144E1    -2.851808835606682E-1    9.455572125802931E1    -7.863085429864501E1    -1.012735263774755E1    -8.023057604271196E1     7.815230815897166E1
                        -6.666364795876079E1    -1.648952486941670E2    -8.938668225430682E1     1.056698470800390E2    -1.387859296282779       3.485798237705511E1    -8.398122915506221E1     4.754005944453320E1
                        -7.357800680253986E1    -4.198675068072293E1    -8.352900412149734E1     2.734590191508690E1    -9.265108374007832E1     4.936964786820266E1    -1.382101787397765       2.841805864000844E1

 5.525225000000000E7    -6.132932576542341      -1.655008249488834E2    -3.353367368350786E1     7.405461406674650E1    -6.615517854009315E1    -1.765242597725257E2    -7.395490895922228E1    -2.492850272559799E1
                        -3.370138687833850E1     7.632423277856810E1    -2.843089005421136E-1    9.451974687365377E1    -8.563246608085549E1     1.114058737211273E2    -8.849870295023061E1     1.318381221716226E2
                        -6.562500456709363E1    -1.715815639219224E2    -9.528449709176522E1     9.167022190766291E1    -1.386787844877740       3.488489939048576E1    -8.712216256274837E1    -4.375793030516093E1
                        -7.123965181518632E1    -4.174868885359824E1    -8.598083228505183E1     1.390836494704922E2    -8.717798890739253E1    -7.683600446226356E1    -1.378842428133291       2.840762941036694E1

 5.525250000000000E7    -6.141410437966187      -1.655321845608950E2    -3.349110064869672E1     7.463988922697578E1    -6.724601058079611E1    -1.645508531036739E2    -7.240198539407612E1    -3.660027597325682E1
                        -3.353063642844224E1     7.506126062268170E1    -2.861991815398799E-1    9.450863660036013E1    -8.611827124581161E1    -1.366777917232716E2    -9.141397363230342E1    -9.350610047965009E1
                        -6.586059435346341E1    -1.736184395517149E2    -9.702130142370572E1    -3.162811669610957      -1.390544542632277       3.485138685105728E1    -9.272059355515596E1     4.125805190084724E1
                        -7.029804705750580E1    -3.823142905008771E1    -9.038280419341450E1    -1.123459961756900E2    -1.036753071068226E2     1.449109120330207E2    -1.383634790103778       2.841480955077140E1

 5.525275000000000E7    -6.144231728285046      -1.656335444619870E2    -3.340122848968122E1     7.508611815213818E1    -6.578655712112871E1    -1.678905117238643E2    -7.484227628496248E1    -4.936447944067424E1
                        -3.364195840292393E1     7.548231377459459E1    -2.847132776537641E-1    9.447263721927754E1    -8.542570587935360E1    -6.689892732821207      -9.380634221594372E1     1.070228593025657E2
                        -6.656223474242599E1    -1.702038995483086E2    -9.232653857261751E1    -1.506390105818945E2    -1.389486278105539       3.483773361562289E1    -8.527111002234693E1    -1.482679270335002E1
                        -7.447264541956511E1    -4.384892703333111E1    -9.003649420494915E1     1.644948250687794E2    -8.166062371514079E1    -1.126546401305606E2    -1.384032542403763       2.842446047542845E1

 5.525300000000000E7    -6.156773631629982      -1.656457971218916E2    -3.345455303259955E1     7.613182518764116E1    -6.676984442628461E1    -1.746817112009512E2    -6.946001447647022E1    -3.345124538817902E1
                        -3.349593388077346E1     7.480638383838223E1    -2.876019163813726E-1    9.448879258060528E1    -9.129062233614583E1    -6.141312204338396E-1   -8.563138911171313E1     1.566831341304318E2
                        -6.520017469129915E1    -1.688642371025104E2    -8.310666594460537E1     9.532443456120118      -1.394377855410042       3.483466928243450E1    -8.870351764339185E1    -1.436731943232486E2
                        -7.409710282245145E1    -3.204141605435645E1    -9.275137260381725E1    -1.613369812605240E1    -8.085066786873840E1     4.985278453977392E1    -1.380847835013587       2.841272020720905E1

 5.525325000000000E7    -6.159425117032173      -1.656750648718786E2    -3.337308499357629E1     7.512627091209265E1    -6.637768787443781E1    -1.672244454429898E2    -7.340788492064617E1    -2.229497294524670E1
                        -3.346680890807072E1     7.499513743728350E1    -2.853360898873691E-1    9.446980999245994E1    -8.769857941756209E1    -1.648277865324910E1    -8.388359595882795E1     2.048254724106341E1
                        -6.613409288163648E1    -1.712986435870845E2    -9.268496910905799E1     8.653903436394782E1    -1.386839574523271       3.484166830633482E1    -8.295273258460898E1     1.203072506956331E2
                        -7.497158128812286E1    -2.615513608757535E1    -8.706188798398139E1     3.561670470676031E1    -9.416258516858831E1     8.862995814254091      -1.382088612733048       2.840713143947281E1

 5.525350000000000E7    -6.159860891562619      -1.657366243561505E2    -3.349622325227578E1     7.601452817377496E1    -6.602954739354273E1    -1.724186766505167E2    -7.119701789221176E1    -1.009461802293721E1
                        -3.360656282549610E1     7.540309131127329E1    -2.835345728857137E-1    9.448276702125338E1    -8.327455510688608E1    -1.633258452378315E2    -8.643873252321919E1     1.617282001347424E2
                        -6.637790418176127E1    -1.749484726949875E2    -8.898596459144079E1     5.585879285778683E1    -1.388393960694070       3.482330258295042E1    -8.528760449904085E1     4.625331497594684E1
                        -7.227388856735099E1    -2.735089053207047E1    -8.803223304005104E1     1.151663412495015E2    -8.520259472166644E1     1.078528300037789E2    -1.384488554374778       2.839669294894099E1

 5.525375000000000E7    -6.173550782438875      -1.657584026488319E2    -3.359777486065518E1     7.549782665737902E1    -6.576444699350772E1    -1.772355025178013E2    -7.275262650862163E1    -3.976295097801971E1
                        -3.376005549214035E1     7.395785460266170E1    -2.824556057195845E-1    9.445979405206154E1    -8.488540048208725E1     8.638148871756678E1    -7.685353459017635E1    -9.185875155039601E1
                        -6.680394994713592E1    -1.769786209600787E2    -8.379359438844807E1    -1.106233235646051E2    -1.386014818118470       3.483284611685193E1    -9.478677680224538E1     1.509790664253864E1
                        -7.309740403287783E1    -2.225001674989868E1    -9.649861273182644E1     1.367902622581916E2    -8.396397082262118E1    -2.798654380382270E1    -1.381913354700124       2.839501483906715E1

 5.525400000000000E7    -6.180145360664442      -1.657989171465817E2    -3.344990454256309E1     7.493364027643645E1    -6.610157417827472E1    -1.747485150280654E2    -7.228113647414537E1    -1.887163803681336E1
                        -3.346352807190585E1     7.504133483935195E1    -2.880210136065773E-1    9.444694763491221E1    -9.030398147638360E1     7.566120525739069E1    -7.768521772317345E1     9.264917609738600E1
                        -6.632451968640670E1    -1.725008278845252E2    -8.422432533142141E1     4.233095071257381E1    -1.391368620309893       3.484462623470060E1    -9.406616026396827E1     2.733815259955013
                        -7.154970001778904E1    -1.519991520972885E1    -8.731988630511759E1    -1.737607448800221E2    -8.687559252966611E1     1.166772939678083E2    -1.380124921911427       2.840538758395440E1

 5.525425000000000E7    -6.182217140810168      -1.658564937041066E2    -3.352740631637225E1     7.425981503275558E1    -6.598768481822803E1    -1.738038021726869E2    -7.267446157135473E1    -1.484946568921437E1
                        -3.352413246900656E1     7.500077971350548E1    -2.819730203701201E-1    9.444512723781836E1    -7.599147446429282E1    -2.553374165714126E1    -1.066167458390596E2    -8.564317793397744E1
                        -6.652541589305200E1    -1.733397838122265E2    -8.928434667777179E1    -6.793417652500838E1    -1.391617154613158       3.481180215382517E1    -8.598281256912016E1    -2.921893888594319E1
                        -7.177588116483052E1    -3.575641579054291E1    -9.689542562466534E1    -1.423593610819327E2    -8.549035171431754E1    -4.605187226581015E1    -1.379777047938601       2.840331850284136E1

 5.525450000000000E7    -6.184020917745663      -1.659087139227815E2    -3.335738074358859E1     7.474583292155133E1    -6.644635404910913E1    -1.718622857832725E2    -7.301531044399120E1    -3.557612851994637E1
                        -3.359509845657489E1     7.439944124030502E1    -2.813388006097276E-1    9.448294248865052E1    -8.749562151819649E1    -1.267988242611474E1    -8.332836909144439E1    -1.226457175134182E2
                        -6.791559737321055E1    -1.718826840664688E2    -9.201118627493295E1    -1.339957451058498E2    -1.385919973220363       3.482448785547456E1    -8.957093489724795E1     1.339389227190453E2
                        -7.463367646954417E1    -2.548864885125067E1    -9.618744896879611E1    -1.013108308937146E2    -8.966175364975169E1    -1.742357304085395E2    -1.378373383997704       2.838482635414284E1

 5.525475000000000E7    -6.194647172933506      -1.659851570720257E2    -3.344771853963935E1     7.520335147035848E1    -6.485049021703013E1    -1.724686995692112E2    -7.189551580238873E1    -2.477627860958286E1
                        -3.359961766139499E1     7.483831638956329E1    -2.810568045392062E-1    9.445769472696027E1    -7.925903222629179E1     4.602253415114781E1    -9.227363925964153E1     5.839471230815720E1
                        -6.731971138796529E1    -1.761484582901788E2    -8.904118381789282E1     3.898987850027321E1    -1.391580668474331       3.481243589167433E1    -9.741418986191285E1    -1.436418097510031E2
                        -7.154716791413472E1    -2.240433452354934E1    -8.878180839217492E1    -3.814978135233856E1    -8.189125441298373E1     7.362538733350315      -1.378119707738855       2.839645763374322E1

 5.525500000000000E7    -6.199684881460204      -1.660193033122984E2    -3.354124118474493E1     7.496832671016435E1    -6.646658892890989E1    -1.735777045551847E2    -7.020875136220893E1    -3.422066266356824E1
                        -3.355808415131605E1     7.478066541804276E1    -2.853359226533178E-1    9.446279284469040E1    -8.485916834357107E1     5.573349248533987E1    -8.610496525317900E1    -1.118044565936239E2
                        -6.606462302498984E1    -1.744718852607404E2    -8.196665742874208E1     9.752051022096748E1    -1.389454996383084       3.480342886407250E1    -8.616928112204094E1     4.934977817990065E1
                        -7.257059420065447E1    -2.666060351422186E1    -8.897535291622582E1     1.786218596925429E2    -8.886910277812450E1     1.048191296627414E2    -1.384274038544527       2.837531029549329E1

 5.525525000000000E7    -6.211064994128151      -1.660144652496218E2    -3.351825109033895E1     7.482473894226550E1    -6.676510644939989E1    -1.713363530531455E2    -7.200563741442441E1    -2.933196329740061E1
                        -3.357245435010724E1     7.440859185442093E1    -2.771674789207873E-1    9.444091658790606E1    -8.581191781330597E1     8.918917156593572E1    -8.274322711521464E1    -1.392061379688209E2
                        -6.591045582937915E1    -1.737591729550462E2    -8.046999097390575E1     3.827985500625730E1    -1.388324554248656       3.481359825620694E1    -8.158328507357687E1     1.177602732662241E2
                        -7.242380102639780E1    -3.995520460163363E1    -9.175259355271851E1     1.688514683779897E2    -9.396373752493082E1    -4.541814975161272E1    -1.383180733154140       2.838571642133130E1

 5.525550000000000E7    -6.219122326085037      -1.660641066753088E2    -3.354717376617864E1     7.539687330820919E1    -6.617354999660985E1    -1.749312959914375E2    -7.234926118077748E1    -1.743381081314139E1
