#  HZ   S   DB   R     50.00 
! Rohde & Schwarz Vector Network Analyzer 
! Rohde-Schwarz,ZNB8-4Port,1311601044102961,2.82
! Created: UTC 2/8/2019, 2:45:06 PM
! freq[Hz]                db:S11                  ang:S11                 db:S12                  ang:S12                 db:S13                  ang:S13                 db:S14                  ang:S14
!                         db:S21                  ang:S21                 db:S22                  ang:S22                 db:S23                  ang:S23                 db:S24                  ang:S24
!                         db:S31                  ang:S31                 db:S32                  ang:S32                 db:S33                  ang:S33                 db:S34                  ang:S34
!                         db:S41                  ang:S41                 db:S42                  ang:S42                 db:S43                  ang:S43                 db:S44                  ang:S44
! 
 3.000000000000000E7    -2.219457818707037E-1    9.606333456703661E1    -6.862021166517907E1     5.351447146014212      -8.451835723070644E1     4.492293032258438      -8.188817500772572E1    -6.888314630500675E1
                        -6.956080553942746E1     8.272406931791089      -1.795329719409849E-1    1.042477973148432E2    -8.581322878179876E1    -1.063442298517891E2    -9.604978765848530E1     1.699460200530578E2
                        -8.718698838502834E1     6.424123553207227E1    -8.961657391992210E1     1.438506276690766E2    -8.965161089236420E-1   -1.036494851925391E1    -7.694776823758774E1    -1.242259285446502E2
                        -8.337655765358159E1    -1.684356107865258E2    -9.254060146863181E1    -1.789874368448800E2    -8.502709968038329E1     1.498275834168237E2    -8.740411341866151E-1   -7.706327488821070

 3.002500000000000E7    -2.226379913192199E-1    9.572445806033279E1    -6.894926137275155E1     1.069990348269665      -9.135053443131852E1    -1.387499367569897E2    -8.807947591415055E1    -1.278842216859697E2
                        -6.924503701490724E1     2.024943234095764E1    -1.795661741660410E-1    1.039714134687262E2    -8.619434986222015E1     1.760221836563164E2    -8.476949095995350E1    -5.735857226502947E1
                        -9.548597354749832E1     5.733730614305872E1    -8.412865807401366E1    -3.968974654666747E1    -9.013829417502604E-1   -1.066769258674336E1    -8.447590038854470E1    -3.311899524565047E1
                        -9.330680794062670E1    -6.508959993862624E1    -9.221185795858105E1    -1.707191278961675E2    -9.145089266338209E1    -1.601566201070396E2    -8.715686803272760E-1   -8.021189433573404

 3.005000000000000E7    -2.222026621992681E-1    9.543275580620366E1    -6.984580246933720E1     1.221500598028034E1    -9.869417815149369E1    -9.868936837072664E1    -9.985305055181377E1    -6.236230114629633E1
                        -7.024960989529686E1    -3.164182914821615      -1.746362479798351E-1    1.037048516192709E2    -9.034804247459137E1     9.737739483281197E1    -8.757010399034806E1     1.383207465395151E2
                        -8.449635934374273E1     5.379456630745616E1    -8.540205619902403E1     1.583590045261088E2    -9.040289137086094E-1   -1.097765402865230E1    -8.514352650681204E1    -3.524195033101150E1
                        -8.549904376029855E1    -1.462677676717837E1    -9.232603536013033E1     1.683704332545615E1    -1.036232588237229E2    -3.029693295844205E1    -8.715455694746117E-1   -8.334363202445003

 3.007500000000000E7    -2.204418144949056E-1    9.501239135286842E1    -6.770125482102802E1     1.505055491261323E1    -9.255808668546291E1    -1.740621926355430E2    -8.503439173024241E1    -1.582654608093723E1
                        -6.951721023549074E1     1.950118213156999      -1.757531211029134E-1    1.033362517475388E2    -8.457917133520134E1    -4.113663376466976E1    -9.258135991772691E1    -3.243085542265190E1
                        -8.236349291107608E1    -1.429597128692657E2    -8.748409340172964E1    -4.122643243993745E1    -8.999096771407967E-1   -1.124918619051572E1    -9.268280890994568E1    -8.507218563589099E1
                        -9.388205076326143E1     1.603664589981760E2    -8.821914513812425E1    -2.365734750962883      -8.807086153203827E1     1.370417043340045E2    -8.667897446235727E-1   -8.612937761504277

 3.010000000000000E7    -2.138433313642064E-1    9.467804039878334E1    -7.124927198126923E1     2.151036016416554E1    -9.486607241829091E1     2.465034064059521E1    -9.232057135042632E1     1.662269588926641E2
                        -6.790626803721361E1    -5.056700403348680E-1   -1.773878251772681E-1    1.030949811314307E2    -8.872668289505613E1    -1.670802232436695E2    -9.010324250024297E1     2.213909618841472
                        -8.210255871702518E1     1.241951453231982E2    -8.601271908323824E1     8.337542454839044E1    -9.082533950953400E-1   -1.157186531351452E1    -9.380999737454006E1     1.730155383868183E2
                        -9.515136836474756E1     8.184488256785049E1    -8.550377499477742E1    -5.306135711843999E1    -8.059292306255750E1    -1.563090865703957E2    -8.674884137438172E-1   -8.872680637631763

 3.012500000000000E7    -2.171109028481208E-1    9.435661947313774E1    -6.850311954731669E1     2.188062959136316      -8.214118486602931E1    -1.683334606610790E2    -8.461962947591003E1    -5.965012857586015E1
                        -6.972066949105665E1     1.180004531142445E1    -1.735183578867267E-1    1.027655481742839E2    -7.929515970401619E1    -5.502154402682788E1    -9.624124441347649E1    -1.592114839356553E1
                        -1.038931053424830E2     8.759113629872223      -8.941469518440212E1    -4.769956502451233E1    -9.017237839141147E-1   -1.188248282225217E1    -8.627310094298136E1     1.351662245392027E2
                        -8.631660492767018E1     1.346187263814600E2    -8.491387980593567E1    -2.717957763685771E1    -9.077969451466224E1    -1.727510865993468E2    -8.755658571835591E-1   -9.168844781694775

 3.015000000000000E7    -2.137773834414443E-1    9.399721774414790E1    -6.933670218360444E1     1.159574940574413E1    -8.854765823367146E1     1.728741853655777E2    -8.727018978581216E1     1.545892880615069E2
                        -6.842475252886504E1     1.825623665758884E1    -1.799248824763607E-1    1.024468352737053E2    -8.180517008632491E1    -9.523958122237421E1    -1.031245599384768E2    -4.510774949633270E1
                        -9.289451379604918E1     9.030052575565965E1    -8.258877140627008E1     9.659427282752544E1    -9.023877917417867E-1   -1.216893185166174E1    -9.968070800673496E1     1.738532593303098E2
                        -8.236517470200612E1    -1.190609370368954E2    -7.948221395348126E1    -1.748528936126741E2    -8.944448674169132E1    -1.645493306052294E2    -8.752555507246700E-1   -9.500050345595618

 3.017500000000000E7    -2.152450564412613E-1    9.362394554226600E1    -6.863707825250258E1     1.037399836998668E1    -8.983051218133475E1    -7.548012744921783E1    -8.150637719714081E1    -1.289735744535222E2
                        -6.789295521541801E1     1.200576603790875E1    -1.773818484127141E-1    1.020888478822912E2    -8.105631430905228E1    -1.576945174287012E2    -8.806736025268879E1    -4.613752608704976E1
                        -8.287338015206736E1    -1.360795555803043E1    -8.432003867989175E1     1.664041025766084E2    -9.043820471087269E-1   -1.250073863295978E1    -8.175810951376937E1    -2.082649331386271E1
                        -1.005640749441886E2     8.440460510395333E1    -8.176687255230236E1     9.943445887156743E1    -8.217642629643348E1    -1.095323457862061E2    -8.737394674936678E-1   -9.781639206525311

 3.020000000000000E7    -2.182496454601022E-1    9.332009451279217E1    -6.807293003170278E1     1.138911966457210E1    -8.040200184584192E1     1.170750600432951E2    -9.415276050419101E1     6.529906646639022E1
                        -6.733694377206047E1     2.310392772691949E-1   -1.665258386905752E-1    1.018858154331586E2    -9.539030202182406E1     3.142492367893290      -8.517111665888623E1     3.474879998869049E1
                        -8.839039457049373E1    -2.864422515621455E1    -1.022944107860101E2    -2.149853739840216      -8.989618779426043E-1   -1.278094201637413E1    -8.425124065737604E1     5.873043641139170E1
                        -9.511968518895161E1    -1.532366722354891E1    -8.374318994308140E1     1.107113784264859E2    -8.309514640372601E1    -1.799781735507693E2    -8.715319963054885E-1   -1.006680770533851E1

 3.022500000000000E7    -2.121848177210122E-1    9.294471754337883E1    -6.976821747005461E1     1.207107175007303E1    -9.174726585942993E1    -2.453508920874128E1    -1.011958425614004E2    -1.645574167612038E2
                        -6.965354192118718E1     1.057597390083244E1    -1.752809482399571E-1    1.015535502964224E2    -8.463644270172165E1     6.945886714633360E1    -8.860711094484940E1     5.895752630028962E1
                        -8.753736706384218E1    -6.424859739132226E1    -8.898967711066220E1    -6.966647047171247E1    -9.039967445506124E-1   -1.306580686638179E1    -9.286647481364908E1     3.580705027827809E1
                        -8.671802358860805E1     8.105588056560679E1    -8.848934212865139E1     5.060557514915366E1    -8.325438513024808E1    -1.424422203258505E2    -8.690372272327132E-1   -1.036410012635085E1

 3.025000000000000E7    -2.187705864764818E-1    9.265542608537564E1    -6.844481615523318E1     3.883761552008963      -8.450393329885603E1    -1.242614423914906E2    -8.617341831661990E1    -6.792106900051566E1
                        -7.146647251355792E1     1.367426471745172E1    -1.823123600374723E-1    1.012144320478721E2    -8.414129734377841E1    -2.878680246894304E1    -8.438637802676948E1     1.687147235495379E2
                        -9.802879555003855E1    -4.025899446302516      -8.403560896263542E1    -1.114355098771429E1    -8.997504652405753E-1   -1.337667330584982E1    -8.466338617179500E1    -1.713344498375400E2
                        -9.708650192606724E1    -1.989062958630119      -8.374261215856865E1     1.298272026425310E2    -9.474667375676803E1    -3.126291582342130E1    -8.692869365260892E-1   -1.065433378956030E1

 3.027500000000000E7    -2.169320335910472E-1    9.227820190183243E1    -6.729208242789584E1     1.634481623017349E1    -8.300287604580474E1    -1.740146371802876E2    -8.534654215543287E1     1.639061032876514E2
                        -6.911639886850492E1     1.121932431737123E1    -1.712148826412430E-1    1.008244888099509E2    -8.181505830399118E1     1.306608873913681E2    -8.934870527991622E1     1.109387300295914E2
                        -9.434429186043053E1    -9.857607291609820E1    -8.720727040893394E1    -5.801648278982735E1    -9.037452028835975E-1   -1.370877556481442E1    -8.496469788826087E1    -3.573485802511630E1
                        -8.748236038098797E1    -5.703767124479533E1    -8.559933938103617E1     9.576949577050229E1    -8.160538194765007E1    -1.812778034094069      -8.681704775474081E-1   -1.099306550132637E1

 3.030000000000000E7    -2.148872335101447E-1    9.189926281287745E1    -6.661057865494455E1     4.242585142066456      -8.909303327747013E1    -1.484990369858690E2    -9.341111807089075E1    -1.364586440910538E2
                        -6.880545734777574E1     1.328158250582675E1    -1.693697831179778E-1    1.005862065027697E2    -7.843644135399200E1     1.350032260458277E1    -7.986037088125455E1     2.720621772954088E1
                        -8.971607672721768E1    -1.142200983492795E2    -8.911111152549701E1    -1.297077354006346E2    -9.021864540948387E-1   -1.399165521727684E1    -8.184185158570195E1     1.157065545242434E2
                        -8.532562000058292E1     1.340413544812107E2    -9.374520904064340E1    -9.892765252652330E1    -9.359208432007304E1     6.215391979208390E1    -8.724444609035196E-1   -1.121063982725617E1

 3.032500000000000E7    -2.098310222794767E-1    9.159571637780815E1    -6.807003445618391E1     4.853105997133991      -8.502837466421774E1     1.502801125921159E2    -9.706105302626752E1     9.755293004794751E1
                        -6.756904726028638E1     1.325212892297053E1    -1.719531120019042E-1    1.002689093639222E2    -8.117126858488666E1     8.556271018656192      -8.333143248895532E1    -7.719697817204340E1
                        -7.820187796379268E1    -1.647271896584166E2    -9.328392056506280E1     1.351589617391390E2    -9.033476789205688E-1   -1.429405257477680E1    -9.034607188869366E1    -8.789616255874245E1
                        -9.424663509298003E1    -1.434847433266104E1    -8.678291436521323E1     6.096484544820692      -8.659211181520570E1     1.693497648311649E2    -8.665488385880067E-1   -1.151505720904679E1

 3.035000000000000E7    -2.086918429907627E-1    9.123623365920439E1    -6.895772879349302E1     3.261103830312804      -8.428768669709321E1    -1.535252506768981E2    -8.488404433850599E1     1.197426592924946E2
                        -6.754680395426379E1     4.734268031783225      -1.631014305992952E-1    9.991695611498831E1    -8.982774499832794E1    -1.117154451526916E2    -8.964826601352891E1     1.637906710076158E2
                        -1.081471100045036E2    -5.665616452156075E1    -8.489711985321831E1     4.771371215634972E1    -9.018323466128737E-1   -1.459454558443006E1    -8.375766429516361E1     1.729146551000176E2
                        -9.297335661908173E1    -2.968480872118646E1    -9.393944485016942E1    -1.135142226493692E2    -8.440086373642232E1     1.737758448248965E2    -8.698504014347854E-1   -1.178735839179126E1

 3.037500000000000E7    -2.125482880993826E-1    9.087126790067354E1    -6.836334460119674E1     2.756152551418781      -8.838176448034668E1     1.587121855660992E2    -8.315543934420283E1     7.619260641794405E1
                        -6.815735459978035E1     8.808706773415089      -1.745860940404989E-1    9.961628807752793E1    -8.145433763226475E1    -1.616827250370268E2    -8.707063370389753E1    -8.751033628010706E1
                        -8.471817784345903E1     1.103771438020550E2    -8.188057108679209E1     2.663607751915814E1    -8.996075940418570E-1   -1.492525025401530E1    -8.245456505130541E1    -8.766812111477978E1
                        -9.122353801375930E1     3.958629955822052E1    -8.487584530972016E1     5.535202415744406E1    -8.911855107356990E1     1.251040309918443E2    -8.660780590299293E-1   -1.210944687766731E1

 3.040000000000000E7    -2.091365202740723E-1    9.058036156432691E1    -6.667031181060659E1     1.089784709869062E1    -8.234581943657183E1     1.196464072780432E2    -8.884356901598609E1    -1.639409557671716E2
                        -6.799343821928807E1     7.201222232451753      -1.681277263331961E-1    9.940691369417057E1    -8.641895927614365E1     5.868570525830904E1    -8.700856467414539E1     1.544455214610298E2
                        -8.612609634008017E1     8.283490499746090E1    -8.994827291451784E1    -3.311159794839770E1    -9.037261979138342E-1   -1.521184192849811E1    -8.403073084907135E1    -9.233821014097046E1
                        -8.364705587925172E1     1.719227640639427E2    -9.173195318352036E1     8.046541000757156E1    -9.417713431676056E1    -1.417381770800638E2    -8.657654088940900E-1   -1.240208501385268E1

 3.042500000000000E7    -2.147718856625718E-1    9.021032808177878E1    -7.055223537560512E1     1.139583645758022E1    -8.463340620365082E1     3.887893568488007E1    -8.340388688392268E1    -1.855759460579042E-1
                        -6.771162037753096E1     2.510879753606449      -1.765594829739509E-1    9.901700483009137E1    -8.452330504329531E1     2.385178961341867      -9.158189052623865E1    -4.205184697263449E1
                        -9.290314899707182E1    -1.797710087447971E2    -8.721851607482549E1     1.617583956587058E1    -9.010671803876323E-1   -1.552387847439540E1    -8.287118006042309E1    -1.509324302504425E2
                        -8.344188694805311E1    -7.488258635186418E1    -8.792061679978401E1    -3.250150113716763E1    -9.182932341045373E1    -2.296710575442943E1    -8.746911619824959E-1   -1.269908110529558E1

 3.045000000000000E7    -2.128487173775728E-1    8.983609514354629E1    -6.774109782456682E1     1.455353472547412E1    -8.683993424504307E1    -9.383289984060266E1    -8.195238805467049E1    -1.117826717598041E2
                        -6.880675074321002E1     1.217954799723671E1    -1.687794759225265E-1    9.878140556784415E1    -8.639400986632525E1    -1.480846509499058E2    -9.621422763328596E1    -1.246462733699756E2
                        -9.057288232759971E1    -4.291593824749022E1    -8.373781516761508E1     7.256522035087910E1    -9.002689913678341E-1   -1.584074130487086E1    -8.491003073703851E1    -1.712850611413212
                        -9.591054878204277E1    -7.851053474103499E1    -8.323988699563599E1    -9.430311819326597E1    -8.845461423553090E1     1.550523214245322E2    -8.680955956065966E-1   -1.297026579566632E1

 3.047500000000000E7    -2.103560914003375E-1    8.953210027179932E1    -6.827971686120972E1     3.254353218686058      -1.075981705729920E2    -5.058702970075524E1    -9.094068825598008E1     1.321667285807584E2
                        -6.814054507572257E1    -6.356669471483624E-1   -1.746893743074892E-1    9.842420332270032E1    -8.252013718479704E1     1.606807933125540E2    -8.913939488588140E1    -1.268330220325446E2
                        -1.036333635936159E2    -1.364841352916821E1    -8.281004319516998E1    -4.132373048517798E1    -8.995823435077377E-1   -1.610501001313473E1    -9.071419758647998E1     1.230991498965970E2
                        -8.716448166151818E1    -3.278354126406434E1    -8.897008173515589E1     1.675767122475280E2    -8.822070458817882E1    -7.922389814689376E1    -8.683631525403577E-1   -1.326258151393938E1

 3.050000000000000E7    -2.091131676222169E-1    8.916895906608389E1    -6.677054531436325E1     2.910928343474913      -9.198016366300044E1    -1.665207261624177E2    -8.962416358236128E1    -1.071400857104241E2
                        -6.681914411139553E1    -4.695023150498998      -1.645369503797040E-1    9.816008280814455E1    -7.899857703644540E1     1.608196146405585E2    -8.405875804379797E1     7.938716571656250
                        -9.070594791063095E1     1.559972587522198E2    -9.519822451980529E1    -5.725787085307912E1    -9.046334584527231E-1   -1.638831328859402E1    -8.934384935110160E1    -7.079912180585640E-1
                        -8.284755874559593E1     1.417886292890685E2    -8.479085307459118E1     1.512235803088944E2    -8.866728707481610E1    -1.595334181380406E2    -8.632752532212069E-1   -1.354984046863469E1

 3.052500000000000E7    -2.035801456889985E-1    8.881979946497145E1    -6.786370701138998E1     1.044695124073597E-2   -8.761929469845484E1    -1.037897112595750E2    -8.450518817732971E1    -7.308304493741794E1
                        -6.913574847610333E1    -3.034730922492992      -1.773799113256211E-1    9.776714146592047E1    -1.063846636086200E2    -2.720183225635545E1    -9.540817994810838E1    -4.411299703003734E1
                        -8.509008054809917E1     1.612592091589724E2    -8.664907145911494E1     1.397336860025005E2    -9.034570770681845E-1   -1.676893039126568E1    -9.350525765104480E1    -4.873809379428822E1
                        -9.139109478562233E1     9.306059204876208      -9.199641383793961E1    -2.833336917482994E1    -8.314503824651919E1    -9.222059379996063E1    -8.672937357161227E-1   -1.390633907649527E1

 3.055000000000000E7    -2.113140338784453E-1    8.849132599834950E1    -6.792816333168558E1    -3.252268368670789E-2   -8.221248357624377E1    -7.322267516609578E1    -8.146239571687589E1    -2.262022157503667E1
