#  HZ   S   DB   R     50.00 
! Rohde & Schwarz Vector Network Analyzer 
! Rohde-Schwarz,ZNB8-4Port,1311601044102961,2.82
! Created: UTC 2/8/2019, 3:07:29 PM
! freq[Hz]                db:S11                  ang:S11                 db:S12                  ang:S12                 db:S13                  ang:S13                 db:S14                  ang:S14
!                         db:S21                  ang:S21                 db:S22                  ang:S22                 db:S23                  ang:S23                 db:S24                  ang:S24
!                         db:S31                  ang:S31                 db:S32                  ang:S32                 db:S33                  ang:S33                 db:S34                  ang:S34
!                         db:S41                  ang:S41                 db:S42                  ang:S42                 db:S43                  ang:S43                 db:S44                  ang:S44
! 
 5.675000000000000E7    -3.583839351467789E-1    7.520134764245825E1    -2.888685937282720E1     6.294784600004304E1    -8.862651246614470E1    -5.067328779293223E1    -8.011114541521529E1     1.905650651931597E1
                        -2.890801850534776E1     6.319599003220432E1    -3.389557594768295E-1   -1.285040510793870E2    -6.793743642763059E1    -1.497226671689614E2    -8.170417559121421E1    -1.252533998309296E2
                        -8.472534695079926E1     2.403858100714874E1    -6.745267582242636E1    -1.550355882092650E2    -1.352238703777328       2.328692410334220E1    -9.363365377102355E1     8.810214902399343E1
                        -7.951876454453206E1    -5.154951097000583E1    -8.507478147519785E1    -1.456609921634631E2    -8.606473602214697E1    -1.598100055521124E2    -1.366975622519080       3.016295208616448E1

 5.675025000000000E7    -3.622424797474150E-1    7.524045211049639E1    -2.890874639600801E1     6.327618891383177E1    -9.490063563252409E1    -1.137000545498247E1    -7.898092664084560E1     1.448095391479053E2
                        -2.896652385443602E1     6.296601784782048E1    -3.320471015604936E-1   -1.285355942779441E2    -6.817018083963829E1    -1.255084817186374E2    -9.435177762189642E1     3.680825582018613E-1
                        -8.433291682585897E1    -1.683134752805643E2    -7.019834456466595E1    -1.452767484729089E2    -1.355099921946389       2.330922634461128E1    -8.807579019134005E1    -8.122371881462289E1
                        -8.413448649215154E1     1.736648167015835E2    -8.350134363241509E1    -1.610530128816599E2    -8.720221044253448E1    -1.045915647332856E2    -1.363353135429446       3.016313919347813E1

 5.675050000000000E7    -3.582684076306761E-1    7.520357863076470E1    -2.889768977105645E1     6.332863898634272E1    -8.690144798873563E1     1.718733112262354E2    -8.222971942525909E1     1.762044159085222E2
                        -2.898971059444771E1     6.339175343332614E1    -3.375828173482747E-1   -1.285789453400334E2    -6.926502216667619E1    -1.476967827760193E2    -8.387809056712587E1    -1.189553621326727E1
                        -8.867548008727871E1     9.833700643721176E1    -6.801319959968782E1    -1.452252787873604E2    -1.356244122186309       2.329353443218017E1    -8.434264063947127E1     4.765639407130598E1
                        -9.538853484312894E1    -2.933786772122932E1    -8.337341467075757E1    -1.519791461000722E2    -8.599101249725621E1     1.617818371460310E2    -1.368967926421601       3.014466094166922E1

 5.675075000000000E7    -3.546341502177653E-1    7.524643728223495E1    -2.892897125952051E1     6.297833086202146E1    -9.191802602122179E1    -4.021816355674287E1    -9.029890107688155E1     4.633333467366442E1
                        -2.895588593745435E1     6.347774082084230E1    -3.426955462620624E-1   -1.285809626691738E2    -6.993852394611642E1    -1.478748441292574E2    -9.250539175784282E1    -1.271820566146612E2
                        -8.221384469425973E1    -3.062328022721102E1    -6.882190535279459E1    -1.533955374120689E2    -1.350343602731849       2.331284501935278E1    -9.668883738746723E1    -1.778717620713172E2
                        -8.123262355132873E1     1.388854746047873E2    -7.785872527181338E1    -1.123404201502973E2    -8.313477287626093E1    -7.567265121633399E1    -1.367312213309259       3.017263436740408E1

 5.675100000000000E7    -3.575821711719702E-1    7.521887638386716E1    -2.889512099168188E1     6.364152327134163E1    -8.594668247024285E1    -1.652273930159828E2    -8.124975123358730E1     1.235212625923995E2
                        -2.888887782934619E1     6.297138959255693E1    -3.363508003898297E-1   -1.286296250331827E2    -6.919618809063165E1    -1.382205675703507E2    -8.462508266120436E1    -1.326686474116272E2
                        -9.059319325356742E1    -1.446283235522852E2    -6.813412291971582E1    -1.512666323947242E2    -1.356485056661376       2.330301042630362E1    -8.751156854048170E1     1.604027944802209E2
                        -9.492903710925809E1     1.187209247392909E2    -1.012764893672657E2    -4.542136740425817E1    -9.018889627998024E1    -1.466713962821248E2    -1.366156487747500       3.015798293290968E1

 5.675125000000000E7    -3.559688061535248E-1    7.517578818935236E1    -2.897919162444285E1     6.336313069402016E1    -8.286091648261851E1     1.631627513962334E2    -8.348323090318760E1    -7.932282976430633E1
                        -2.895308631693763E1     6.324211496634556E1    -3.376550313028921E-1   -1.286545955242823E2    -6.841801446195282E1    -1.542435995179949E2    -8.407263525634474E1     4.626103369049970E1
                        -8.964792486755059E1    -6.258999922728636E1    -7.000352719019399E1    -1.466863697518483E2    -1.354981390941036       2.328912241180717E1    -9.482009705289440E1    -5.486621206308598E1
                        -9.588387204383623E1    -3.167879429253950E1    -8.981434747440579E1    -5.695019664384805E1    -8.365619800874613E1    -1.200348713295978E2    -1.363394442905979       3.014314315219109E1

 5.675150000000000E7    -3.579973774142559E-1    7.520020179126159E1    -2.890655287508103E1     6.307032926173645E1    -8.393465155144980E1    -1.501186522098178E2    -8.124836922668898E1    -1.797862536237572E2
                        -2.905925745797804E1     6.250851217468835E1    -3.342661283341490E-1   -1.286705580891517E2    -6.913361495130457E1    -1.345717014823799E2    -8.038033929986185E1    -1.171425979926630E2
                        -7.791489089879482E1     3.394849698667620      -6.893647200287336E1    -1.423111275059943E2    -1.357062258666657       2.333031415507010E1    -9.807309269009535E1    -1.427077108222401E2
                        -9.747959097032749E1    -5.413065928960081E1    -8.200873005484142E1     1.648894129964657E2    -8.565511126787993E1    -7.132260070767119E1    -1.367978557808578       3.015866094789323E1

 5.675175000000000E7    -3.601547986582818E-1    7.521776567534086E1    -2.890726968726948E1     6.292172658636149E1    -8.512492930849265E1    -1.758022503104936E2    -9.347252530258983E1    -3.462917991486081E1
                        -2.893614879862634E1     6.307427680077896E1    -3.371158602175694E-1   -1.286400134147451E2    -6.872890413983043E1    -1.517340668022339E2    -7.844634817323238E1    -1.462617954550466E2
                        -8.471194857879141E1    -1.401280416770894E2    -6.819193124532113E1    -1.320896832716764E2    -1.354197460290375       2.329942810317041E1    -8.739504014223724E1    -1.227922314316537E2
                        -8.942041469586866E1    -7.915843102853985E1    -8.972717393853202E1    -1.221620889445229E2    -8.574911621255907E1    -9.406221250503235E1    -1.363305147973449       3.016095876632436E1

 5.675200000000000E7    -3.563739696561739E-1    7.522664351270959E1    -2.891669143607425E1     6.317074559371481E1    -8.094764078230703E1     3.080462824961826E1    -8.742426867610719E1     1.263223759038052E2
                        -2.897010006681542E1     6.307858950996209E1    -3.347780412339341E-1   -1.287086874222156E2    -6.907217109101006E1    -1.377085130532530E2    -8.139497568575052E1    -1.099563170151465E2
                        -9.005555062837489E1    -4.615811146109302E1    -6.908246332005464E1    -1.367250272718080E2    -1.355287205175122       2.329174765478960E1    -8.647577139279034E1     5.188861558227916E1
                        -8.909605558599516E1     3.750176625400876E1    -9.293785122192723E1    -1.146820022462595E2    -8.765501851040766E1     6.724835656805129E1    -1.363237538968772       3.016381724443021E1

 5.675225000000000E7    -3.564476917751017E-1    7.518887827300171E1    -2.897332898706851E1     6.299382921064080E1    -8.217706460328154E1     1.061635315862851E2    -9.151977820841390E1     9.519496372880779E1
                        -2.895941165913510E1     6.314985688138424E1    -3.433101454202264E-1   -1.287268695994501E2    -6.848314017333755E1    -1.380818429439848E2    -1.011652503232934E2     1.014916746482082E2
                        -8.555313845353788E1    -4.946237136958210E1    -6.840794295491226E1    -1.338236254678163E2    -1.350656815775244       2.331523865857974E1    -1.170533246394754E2    -1.168288766108797E2
                        -8.112599103741444E1     3.021303722784741      -7.704050534586338E1    -1.736679248475986E2    -9.195625794968647E1     3.685570045697219E1    -1.366672047305700       3.013168839124593E1

 5.675250000000000E7    -3.542334124219094E-1    7.519061943919193E1    -2.891036727622188E1     6.266969886888715E1    -8.875863129261389E1    -6.155154445471293E1    -9.165009845548019E1    -1.816576332475067
                        -2.893543757511170E1     6.313319913508111E1    -3.375106950352912E-1   -1.287867337915828E2    -6.869951949176092E1    -1.500606308579036E2    -9.328869478183280E1    -1.784408475349600E2
                        -8.648997138818352E1    -6.631385765079989E1    -6.696104406533701E1    -1.447435013466945E2    -1.348922418079179       2.331180353635984E1    -9.960143041075993E1     5.019959236815511E1
                        -8.382140131816513E1     1.049564034069775E2    -7.809868740789811E1    -1.342409398826272E2    -9.298455456184713E1     3.891719984206635E1    -1.365542032886102       3.015055769510770E1

 5.675275000000000E7    -3.557173676074760E-1    7.518323170477171E1    -2.888302168235391E1     6.342937746673285E1    -7.987849444039601E1    -1.734741208091064E2    -9.407242166092937E1     2.478187557485416E1
                        -2.895804726871638E1     6.382706600122911E1    -3.336605359427938E-1   -1.287474400828131E2    -6.953225085206614E1    -1.453721232131040E2    -7.875390768196751E1    -1.254522863104698E2
                        -8.070559522616716E1    -1.308471962512273E2    -6.784775976885115E1    -1.450375167985882E2    -1.355257438195260       2.329527945766217E1    -9.465624741335128E1    -1.629960229932926E2
                        -8.562084209829254E1     7.887419183750569E1    -8.366125197215374E1    -5.613629006778967E1    -9.237471042696663E1     9.930344611846068E1    -1.362211885476724       3.015781385909866E1

 5.675300000000000E7    -3.604430582894211E-1    7.517043208922054E1    -2.891071359053100E1     6.317337469514887E1    -8.903685192006455E1     1.780629331367819E2    -1.019087248998402E2    -1.508201603013282E2
                        -2.895754409151267E1     6.300167020254071E1    -3.427920439258926E-1   -1.288148846498116E2    -6.717091436297341E1    -1.368738890674736E2    -8.388593542686215E1    -1.468172197299081E2
                        -8.607514484796658E1    -1.590484779482407E2    -6.743319828884977E1    -1.522420018238635E2    -1.352962712567140       2.329143534129177E1    -8.561969905181041E1     6.937355881392948E1
                        -8.315102983993781E1    -9.548289995063234      -8.246222291774031E1    -1.097918097902788E2    -9.109420229033998E1     1.658771260991235E2    -1.365006461481384       3.012195173382771E1

 5.675325000000000E7    -3.586682869350775E-1    7.519128432395408E1    -2.898187096441370E1     6.316501223396116E1    -7.956561586567959E1     4.974909014265996E1    -8.689306091959827E1    -7.624825615172348E1
                        -2.894838507781902E1     6.287602977401366E1    -3.356648448004846E-1   -1.288207764290095E2    -6.811777595544400E1    -1.433022387722835E2    -9.248333091505123E1     9.660886059261866E1
                        -8.888144115630956E1    -1.524706857811243E2    -6.805131248372337E1    -1.417058928332443E2    -1.356218941502598       2.330940236351313E1    -8.796059449387273E1    -5.094340850327718E1
                        -8.849120851671073E1    -4.341724665995680E1    -7.865913887016814E1    -1.327009270396126E2    -8.326374311851501E1    -1.116272008251203E2    -1.363246255118944       3.012520158736206E1

 5.675350000000000E7    -3.624671149031018E-1    7.515570867631409E1    -2.894088145293272E1     6.283762652712996E1    -9.167242776998140E1    -1.280818132941909E2    -8.795273904464339E1    -5.136206270303803E1
                        -2.885779614335484E1     6.346988381498051E1    -3.408418962163520E-1   -1.288342762478160E2    -6.829327992425257E1    -1.514130665785841E2    -8.233659473256891E1     1.794825834072003E2
                        -9.109930621057940E1     3.219359678836485E1    -6.897574157565737E1    -1.417196651168748E2    -1.352113210716540       2.327099456823507E1    -8.451068926917895E1    -2.719595102519183E1
                        -8.466571398914945E1     1.472170117575968E2    -9.298923735602526E1    -3.747220917914714      -8.418196833150971E1     3.324649389256270E1    -1.362596072216392       3.011397502393943E1

 5.675375000000000E7    -3.619500226911496E-1    7.518321246800953E1    -2.895626602164471E1     6.301662907610852E1    -8.484285117040740E1     7.755969099682862E1    -7.850093167779940E1    -1.597499149079452E1
                        -2.905396869231950E1     6.328968077046191E1    -3.391378216897376E-1   -1.288656447793339E2    -6.826680586153520E1    -1.477757743579135E2    -8.573440078484792E1    -1.496657766206488E2
                        -8.723812212679233E1    -1.740566618638717E2    -6.759615583092280E1    -1.488057285021661E2    -1.356827984016131       2.331302786257781E1    -8.287005303650088E1     1.197726410864962E2
                        -8.983966305784206E1    -4.748362963765334E1    -8.628588578089679E1    -1.768867758721478E2    -9.299124324126842E1    -1.306251733804201E2    -1.360185599946786       3.011938799465547E1

 5.675400000000000E7    -3.615830921918958E-1    7.516969732821660E1    -2.890835029071564E1     6.333595316202818E1    -9.157615746211789E1    -1.236971253302409E2    -8.407973536347315E1     7.716824830188034E1
                        -2.894995424261279E1     6.315663765345371E1    -3.396264652221906E-1   -1.288905886022135E2    -6.737341596055477E1    -1.409673117697461E2    -8.735090410413278E1    -1.437209129695923E2
                        -1.041180895951352E2     5.230968450882470E1    -6.925731302705086E1    -1.594763440912978E2    -1.356596854564050       2.327746833055703E1    -8.472374955917177E1    -1.371490756622534E2
                        -8.934082692609189E1     4.614742594928978E1    -8.350081945858206E1    -1.359486602459378E2    -8.617389965094165E1     1.677046870340300E2    -1.362718765642695       3.011535065699162E1

 5.675425000000000E7    -3.571815572438169E-1    7.517748373520055E1    -2.892984363077835E1     6.267190001028280E1    -8.543227511655232E1     2.373634523183278E1    -8.778393084412249E1     8.988012421723390E1
                        -2.888446346723261E1     6.275172763669038E1    -3.389529229794361E-1   -1.289119697137761E2    -6.725197372065291E1    -1.419973625399792E2    -8.241887696244790E1    -1.297915064622360E2
                        -1.058007471182847E2    -1.098726946339749E2    -6.883109101007219E1    -1.440006255470702E2    -1.352637922571949       2.326751559276722E1    -8.568103297376979E1     9.066034592116241
                        -8.812998567826705E1    -2.540925340383195E1    -8.865349879416733E1    -9.722637796488966E1    -8.171035431982332E1     6.981430071349010E1    -1.361897017444167       3.014355455037649E1

 5.675450000000000E7    -3.604975200537863E-1    7.516591384972836E1    -2.899560912723604E1     6.309413791711362E1    -8.797882802172963E1    -1.574923091915908E2    -8.618297078163624E1    -2.843053489779690E1
                        -2.899628162269086E1     6.337323374436971E1    -3.449476933524010E-1   -1.289374495173771E2    -6.833680014630861E1    -1.448811129593158E2    -8.160820887797458E1    -7.592408329279661E1
                        -9.454566323743507E1     1.981684257345076      -6.804001316593863E1    -1.433986895588416E2    -1.353518431552767       2.324894186501961E1    -8.131455775785983E1     1.331127228290178E2
                        -8.271404794131065E1    -6.254811230609616E1    -8.497934864916046E1    -1.618555550755342E2    -8.813192261212784E1    -7.205988307922064E1    -1.366037268136298       3.013520447149856E1

 5.675475000000000E7    -3.611566153537537E-1    7.516057172294303E1    -2.891453209689862E1     6.309560759548904E1    -8.466069760961477E1     1.673292508478758E2    -9.132487599448453E1    -9.025069851911081E1
                        -2.896080345164734E1     6.250359658171049E1    -3.387620641462941E-1   -1.289355020933631E2    -6.875763272956488E1    -1.400074188637219E2    -8.339654216836307E1     1.703881600956786E2
                        -8.657569537604864E1     7.408396533734469E1    -6.990284084942920E1    -1.308006830825063E2    -1.352722882648680       2.326822234133380E1    -8.598480635837717E1    -1.519232531679441E1
                        -8.290418246199265E1    -2.106031833757507E1    -9.616830136852184E1     6.708857156840180E1    -8.264199595161253E1    -1.517734501147554E1    -1.365873677767093       3.011736340623757E1

 5.675500000000000E7    -3.559714900931116E-1    7.516684123263063E1    -2.895136941561454E1     6.338838501030014E1    -9.093799437841352E1     6.836747334564878E1    -8.580514982427118E1     8.387205324401188E1
                        -2.893850139563462E1     6.316001075706803E1    -3.398041070456079E-1   -1.289820147756468E2    -6.857690422623733E1    -1.471412844948163E2    -8.615303074349873E1    -4.447998748259660E1
                        -8.483205435869137E1    -4.106962569056310E1    -6.740585408642384E1    -1.448697939493733E2    -1.352252682949630       2.326351503240576E1    -9.400235375830923E1    -7.118423014582302E1
                        -9.266564580038727E1     6.716871773318873E1    -8.526230048876820E1    -1.248955747954773E2    -9.429367021165200E1     1.652271825645910E2    -1.361331966134266       3.012944987129032E1

 5.675525000000000E7    -3.523499140389025E-1    7.513570006740186E1    -2.896144054474518E1     6.288362706769987E1    -8.846073635468861E1     4.193970958743010E1    -9.220971627855849E1     1.136516879464045E2
                        -2.887986067390497E1     6.238471866542068E1    -3.384183700451632E-1   -1.290278482363562E2    -6.802456998670274E1    -1.508358149972227E2    -8.184715600936940E1    -1.080520740755647E2
                        -9.608513893934118E1    -1.386837996771118E2    -6.941371945678856E1    -1.427126504961732E2    -1.356899889557216       2.324157971437237E1    -9.076679175603303E1    -1.614152525074897E2
                        -8.774398657009179E1     1.175064604005995E2    -8.230220649411193E1    -8.258182004246055E1    -8.542648595542681E1     1.542504406377830E2    -1.359069148382110       3.012359417718722E1

 5.675550000000000E7    -3.586897946386881E-1    7.514126921517807E1    -2.905708081455665E1     6.279157516877685E1    -9.126438385199660E1    -3.473573586111531E1    -8.521472561803385E1     2.330675666229187E1
