#  HZ   S   DB   R     50.00 
! Rohde & Schwarz Vector Network Analyzer 
! Rohde-Schwarz,ZNB8-4Port,1311601044102961,2.82
! Created: UTC 2/8/2019, 2:49:39 PM
! freq[Hz]                db:S11                  ang:S11                 db:S12                  ang:S12                 db:S13                  ang:S13                 db:S14                  ang:S14
!                         db:S21                  ang:S21                 db:S22                  ang:S22                 db:S23                  ang:S23                 db:S24                  ang:S24
!                         db:S31                  ang:S31                 db:S32                  ang:S32                 db:S33                  ang:S33                 db:S34                  ang:S34
!                         db:S41                  ang:S41                 db:S42                  ang:S42                 db:S43                  ang:S43                 db:S44                  ang:S44
! 
 5.525000000000000E7    -3.751074504164454E-1    1.014424158612070E2    -2.906759591112417E1     8.869360633521806E1    -9.488510810898758E1    -1.794891487657032E2    -8.288269277565080E1    -7.818050735255436E1
                        -2.908157891877866E1     8.851568565412840E1    -2.880773210413196E-1   -1.032707185940682E2    -6.910448873619293E1    -1.168057518360483E2    -8.066132353848134E1    -1.517032786299632E2
                        -9.352638393882953E1     7.675281355368013E1    -6.795249379832322E1    -1.154235614661000E2    -1.368238525276652       4.161504805356960E1    -8.390281236344949E1    -5.229291571395094E1
                        -8.550867364049591E1    -1.724022514201935E2    -1.011285635098780E2     7.608814157067332E1    -9.118028345815094E1    -1.115779921506838E2    -1.378732790487793       4.836709791176720E1

 5.525025000000000E7    -3.829421168746173E-1    1.014196684813191E2    -2.910821619527413E1     8.878650248977829E1    -9.193460039847403E1    -7.047512242708187E1    -8.047833735115313E1    -3.728605598382179E1
                        -2.911663079459930E1     8.845657548722292E1    -2.939278201407502E-1   -1.032647466019123E2    -7.105737448170470E1    -1.309777527571328E2    -8.058538489531335E1    -6.130151959497430E1
                        -8.751070035373432E1     1.116395279297697E2    -6.807666776263052E1    -1.163704590805134E2    -1.368191646187838       4.159839182334090E1    -8.489650746156815E1     1.512663433456475E1
                        -8.883762652060220E1    -1.733326251304573E2    -9.154049260172218E1    -5.075909948321782E1    -9.111611085794907E1     1.253202570890897E2    -1.381753170008305       4.833946020164169E1

 5.525050000000000E7    -3.776789663017238E-1    1.014258556387477E2    -2.907854129008609E1     8.856921808614784E1    -8.436031717879064E1     1.557983271960215E2    -8.486883849679045E1     1.228912226854933E1
                        -2.898347876771041E1     8.930174774116897E1    -2.918003913327518E-1   -1.033063321824442E2    -7.018447413294317E1    -1.305076488805243E2    -8.780862565589268E1    -1.559868453802873E2
                        -8.709987362940792E1     1.210865478841064E2    -6.877581736525933E1    -1.156643597250134E2    -1.373311470459789       4.157996134926577E1    -1.090171054516452E2     1.308484816539129E1
                        -8.950191953281617E1     1.222425743417443E2    -8.244493307744689E1    -2.884012983025393E1    -9.130720325117312E1    -5.157778901460054E1    -1.379237864792284       4.835221405657108E1

 5.525075000000000E7    -3.805360877141851E-1    1.014192088679020E2    -2.904814562344763E1     8.871068945008575E1    -8.647310614507120E1    -1.608145904102445E1    -8.920695203118032E1     3.080591818218786E1
                        -2.897241998905587E1     8.864888011144480E1    -2.867096145326586E-1   -1.033011923928193E2    -7.078822367967061E1    -1.160160167114116E2    -8.413580104126139E1    -8.633942874449745E1
                        -9.255552978098920E1     1.208859971060736E2    -7.081266846175241E1    -1.277672893333835E2    -1.368031859878412       4.157358751140524E1    -8.678185642447217E1     2.351217746849862E1
                        -8.876838430573385E1    -1.503339568976864E2    -8.252093413093814E1    -8.298376958922911E1    -9.277960908193046E1    -5.808723038741263E1    -1.380984715041366       4.836437039252921E1

 5.525100000000000E7    -3.811785361366599E-1    1.014146542093234E2    -2.897706211977889E1     8.888241573158419E1    -9.562808215291656E1    -6.266557736340261E1    -9.167151967701975E1    -1.679668253633050E2
                        -2.906455184949267E1     8.842268856437623E1    -2.880563025451171E-1   -1.033379861407835E2    -6.808239760284307E1    -1.182260191270351E2    -8.943242023546306E1    -6.302331760295602E1
                        -1.036307651273442E2    -7.218111067638687E1    -6.983125101788609E1    -1.236065887018432E2    -1.371897649948889       4.161367954827853E1    -8.348198241240064E1     7.208998033579515E1
                        -8.999203506779297E1    -1.278026264750769E2    -8.635151710161922E1    -7.980498885652719E1    -8.495276703729195E1    -4.300420806261972      -1.379646344179943       4.839963002711671E1

 5.525125000000000E7    -3.766685192108111E-1    1.013840010154339E2    -2.907029973493145E1     8.875025999924043E1    -9.691011438942837E1    -7.876290788758051E1    -9.172641031137239E1    -1.859787319770796E1
                        -2.915674572684759E1     8.880480579166482E1    -2.891321295990413E-1   -1.033954733234231E2    -6.787543723524539E1    -1.182939130105874E2    -8.249699665696376E1    -1.442654199252389E2
                        -8.338464921178448E1    -1.034596243727267E2    -6.953283177125152E1    -1.233297864951028E2    -1.364628230941897       4.158713238544891E1    -8.793904461391028E1    -1.091615735821581E2
                        -8.390061132327938E1     1.685839756355756E2    -8.435039823485965E1    -1.025863830912474E2    -9.128697254897514E1     9.382531772302863E1    -1.379276402636997       4.834256260170683E1

 5.525150000000000E7    -3.799065818357853E-1    1.013965436065699E2    -2.902228529775158E1     8.894136841342949E1    -1.133252825062918E2    -1.474014319320727E1    -8.255917065764055E1     8.179553055987618E1
                        -2.902898971521270E1     8.925549593916860E1    -2.935394668667018E-1   -1.033865292875004E2    -6.848018483914382E1    -1.198717963954235E2    -7.915964501037004E1    -1.674193013164859E2
                        -8.437671105384681E1     2.907132997803041E1    -6.934216126030350E1    -1.273548611600923E2    -1.366563088558027       4.156540026282688E1    -8.540580587909759E1    -4.371415921915611E1
                        -8.803524669013444E1    -2.215607688529560E-1   -8.618303509758937E1    -1.445958320834425E2    -8.346510076674420E1     7.186223718491524E1    -1.382588043511499       4.837186565074000E1

 5.525175000000000E7    -3.714969879432806E-1    1.013828959423099E2    -2.911472084501646E1     8.852768282042163E1    -8.112269415731535E1     1.406692755359578E2    -8.973646674100172E1    -1.637622543221387E2
                        -2.907708158123980E1     8.884680224463710E1    -2.932498915537881E-1   -1.034389027874635E2    -6.996298292011103E1    -1.137272373374409E2    -8.462123029593785E1     1.793019200711649E2
                        -8.571188025702685E1     1.192459664065567E2    -6.848668744370299E1    -1.264380687098553E2    -1.371481326150118       4.157730661365338E1    -8.735716053830754E1     1.259331110885638E1
                        -8.702109692532341E1    -1.135254986888798E2    -8.260204622349124E1    -1.065332760078531E2    -7.924343267474198E1     9.316651124679329E1    -1.378644534702338       4.835770592166233E1

 5.525200000000000E7    -3.780608093953719E-1    1.014131217776870E2    -2.908675609568341E1     8.872477717632413E1    -8.235487405973066E1     1.422366083191019E2    -7.882228103680036E1    -1.578181430113433E2
                        -2.900489196858285E1     8.869324004779833E1    -2.904163430879640E-1   -1.034258364139337E2    -6.879154853175913E1    -1.207889676628926E2    -7.658005777963706E1    -1.361305466413821E2
                        -8.699246521329664E1     1.207132139610396E2    -7.042269889107219E1    -1.244421838817789E2    -1.370159824520915       4.158634580336823E1    -8.749118005773161E1    -1.190254690181634E2
                        -8.650708946521831E1     1.489406355084748E2    -8.351407134865474E1    -1.337735423986291E2    -9.568314248361931E1    -8.332781862493401E1    -1.379059792635649       4.835146339593268E1

 5.525225000000000E7    -3.779953154380136E-1    1.014133254464011E2    -2.908134986799521E1     8.820170135926601E1    -8.714045563573410E1    -2.235383553236202E1    -8.490795452162618E1     1.672736841273902E2
                        -2.902408736390497E1     8.905716874051315E1    -2.919197005234271E-1   -1.034682306079656E2    -6.901829102402348E1    -1.314176603820547E2    -8.762083906784525E1    -1.602375093903267E2
                        -9.007851953011172E1    -1.148828308042392E2    -7.130305563640241E1    -1.213561412981960E2    -1.367851174461065       4.155428298779188E1    -8.883993813114188E1    -1.794798048968419E2
                        -1.019089572449192E2     1.225887044159153E2    -8.385314114038880E1    -1.170591791788678E2    -8.503448361998261E1    -4.840382243994276E1    -1.376004840816783       4.833159188402543E1

 5.525250000000000E7    -3.797062030793457E-1    1.013761855199419E2    -2.905092503226250E1     8.895107340397014E1    -8.952899014137591E1     1.482187654800013E2    -7.968384734770153E1    -9.754362896377614E1
                        -2.903375983995687E1     8.815586542198349E1    -2.942236501697795E-1   -1.034643508814126E2    -6.830059134571769E1    -1.229672222247897E2    -8.888577265047175E1     1.581501618280630E2
                        -8.049074680534341E1     1.101468165125415E2    -6.869483838403423E1    -1.295276376031137E2    -1.367810040946573       4.159623029909309E1    -9.099334728567467E1     1.646285361893493E2
                        -9.249410256016149E1     1.211773589691145E2    -8.012797353649515E1    -1.065307938425746E2    -8.617538630578150E1    -1.741239705789879E2    -1.378883201071097       4.836029729875609E1

 5.525275000000000E7    -3.791680787504015E-1    1.013883542860254E2    -2.907840934257462E1     8.835735963983601E1    -8.736870181345213E1    -1.714431495443895E2    -9.215971334245432E1     1.544947212659855E2
                        -2.901655159419323E1     8.809083363781353E1    -2.911173780805499E-1   -1.034906231706742E2    -6.828705705934981E1    -1.161408832331975E2    -8.913697400475056E1     1.558035351232875E1
                        -1.105318528160262E2    -1.640835231312563E2    -7.027761773762347E1    -1.251065229757718E2    -1.366609559248198       4.155904266853266E1    -8.321887962564388E1     6.227094662468979E1
                        -8.760512787232540E1    -8.850353215942231E1    -8.658491102759018E1    -9.394664069252316E1    -8.609819603836284E1     2.561947232365051      -1.377618434961945       4.834419805548550E1

 5.525300000000000E7    -3.822824221730881E-1    1.013843545353925E2    -2.897806856106259E1     8.888199824797783E1    -9.419784498854997E1     9.066871939730463E1    -8.474201048827891E1    -1.047622251114096E2
                        -2.899921650061208E1     8.897562003826700E1    -2.903141540562699E-1   -1.035308149863913E2    -6.931230210320304E1    -1.249002944610546E2    -8.218159922563794E1    -1.028975354620205E2
                        -8.888895265855629E1     1.081459038411333E2    -6.805738465444961E1    -1.241904622550294E2    -1.368245051561656       4.156778996405311E1    -8.792934275309702E1    -6.875539332628223E1
                        -8.929390170702632E1    -1.255482475118576E2    -8.093462010955099E1    -2.957870120782484E1    -8.880673933985911E1     1.117214901328044E1    -1.377731515948407       4.834290395203072E1

 5.525325000000000E7    -3.784600236097711E-1    1.013772465985949E2    -2.901686418128702E1     8.852298864935490E1    -8.306895876521088E1    -5.991321431565362      -8.768829645914695E1    -9.687228463331503E1
                        -2.912919770520904E1     8.826191424345663E1    -2.913054734171441E-1   -1.035197638691583E2    -6.939243211629210E1    -1.171003121565523E2    -8.294497780731257E1     1.694338496837434E2
                        -9.031861158566089E1     1.504015331414178E2    -6.785354024381370E1    -1.257614348542483E2    -1.368423413733956       4.153388418867301E1    -8.703274761566289E1    -9.102265592520476E1
                        -8.281802716734163E1    -6.948173089763827E1    -8.081727759056078E1    -5.367370298888429E1    -8.791003606964935E1    -1.281662381791783E2    -1.375080015579149       4.836313030107734E1

 5.525350000000000E7    -3.790246890104709E-1    1.013445029747502E2    -2.905743653421550E1     8.848225107721424E1    -8.372384679103114E1     1.133675476448027E2    -8.985405331717215E1     1.308922202342007E2
                        -2.903604475263683E1     8.825304039600347E1    -2.915953351211308E-1   -1.035476771992173E2    -6.887643516598097E1    -1.223261532348782E2    -8.242658911489841E1    -9.754892558659580E1
                        -8.905926984666922E1    -1.675698370372944E2    -6.960395712624123E1    -1.268953195120559E2    -1.367349258152469       4.152969420656645E1    -8.707609631800892E1    -1.425728380709920E2
                        -9.703442844495416E1    -7.569517752692389E1    -8.186611226148527E1    -1.471144244627491E1    -8.444978500120399E1    -1.698447193978237E1    -1.378766415071439       4.832852924923245E1

 5.525375000000000E7    -3.759622082797712E-1    1.013768721140160E2    -2.905349462586403E1     8.863383095936527E1    -8.395892584274753E1     9.049608370590879E1    -1.011942099704360E2    -1.779790378359626E1
                        -2.908895783150754E1     8.831329266070404E1    -2.962975580663568E-1   -1.035754092749606E2    -6.791297028443280E1    -1.282622402261546E2    -9.195029133354046E1    -2.762506046917894E1
                        -1.018960916226886E2     8.408021902584291E1    -6.949759792944016E1    -1.202955722304486E2    -1.368355040040036       4.155109345538260E1    -9.127311285762153E1    -4.069501931021516E1
                        -8.831142310709180E1     1.365375337669030E2    -8.429584474202657E1    -1.313042399874264E2    -1.036814820756103E2     1.412558955333251E2    -1.379475516175670       4.834519475763321E1

 5.525400000000000E7    -3.777152663679768E-1    1.013505138545392E2    -2.905209723184766E1     8.822540401309860E1    -8.318226752895308E1     4.523654041461813E1    -8.794172814881003E1    -5.953440019125272E1
                        -2.907856043125108E1     8.850475426937577E1    -2.904074192326688E-1   -1.035970553820708E2    -6.987439329033282E1    -1.180762822003904E2    -9.518714477095475E1     1.660837912125391E2
                        -8.943866859841950E1     7.298522009777728E-1   -6.918694097890692E1    -1.180497638601329E2    -1.366962664402771       4.158205015722101E1    -8.878956366827681E1     3.343849798453174E1
                        -7.827964959893299E1     3.517869608306375E1    -8.251516676439401E1    -1.502916657077057E2    -8.984039632621496E1    -8.995291336694373E1    -1.380981669245561       4.829414727375831E1

 5.525425000000000E7    -3.784923009983015E-1    1.013742257453351E2    -2.905650221418081E1     8.864516772104173E1    -8.522382331179556E1     1.066036501113502E2    -9.313845056359135E1    -1.683104936714858E2
                        -2.906522667343955E1     8.896930767237430E1    -2.923138241169927E-1   -1.035910393408185E2    -7.022453199728216E1    -1.212873575243464E2    -8.115511893504431E1    -1.638332659121572E2
                        -8.134597504618313E1     1.346853345142422E2    -6.928875352017565E1    -1.299403571722289E2    -1.367454804968429       4.153858113658829E1    -9.098169987043542E1     6.522640335203285E1
                        -8.780026584582674E1     9.267149743884899E1    -8.041324783797387E1    -1.283381861675466E2    -8.442663755650982E1    -7.649427693602503E1    -1.377574948795050       4.832770161827781E1

 5.525450000000000E7    -3.828310187960383E-1    1.013169038572031E2    -2.897441206403637E1     8.856467025252196E1    -9.294137250121942E1     7.298447908573886E1    -9.002462005018987E1     9.545128065514064E1
                        -2.897647287856270E1     8.841529589355721E1    -2.944350399097376E-1   -1.036519824244483E2    -7.028882110717470E1    -1.189355989200653E2    -8.485895454200076E1    -1.549161570221942E2
                        -8.958362431014051E1     5.277416556360736E1    -6.863385729045692E1    -1.229310813957946E2    -1.366380809748705       4.151850684969845E1    -8.373643092553618E1     1.327968050981166E2
                        -9.529676373082367E1    -1.033166701670568E2    -8.845459334297472E1    -1.344164475577487E2    -8.759059789198258E1     8.448867343220839E1    -1.376755455368897       4.830764003589555E1

 5.525475000000000E7    -3.820103021880794E-1    1.013360300253963E2    -2.907902901698445E1     8.857966476860905E1    -8.451196482632163E1    -4.506617331000425E1    -8.794614085716739E1     1.483180281150538E2
                        -2.900841001489216E1     8.851947618764829E1    -2.898038550853004E-1   -1.036286831105979E2    -7.040326621307011E1    -1.150643633427500E2    -7.797453224865721E1    -8.208085598045635E1
                        -8.849717930963004E1     1.792744283604819E2    -6.935406701261772E1    -1.046716761173106E2    -1.367830957739336       4.151485537101073E1    -8.982331639036430E1     1.072574831692274E2
                        -8.706026266527351E1     1.615905402268705E2    -8.099931890641824E1    -6.708074227126333E1    -8.175189826798442E1     1.047384111954508E2    -1.376491603180273       4.829757629202140E1

 5.525500000000000E7    -3.762762758778108E-1    1.013367708321565E2    -2.915465076189363E1     8.887323750792339E1    -8.393674864650447E1    -7.479975384188568E1    -8.379000015447454E1     6.908901684023591E1
                        -2.906807630510066E1     8.813431479250782E1    -2.921416003278763E-1   -1.036917214798491E2    -6.962369976848889E1    -1.336536275262602E2    -8.520314887304835E1    -1.331153666484834E2
                        -8.725025230980077E1     1.233916209623363E2    -7.014321153943327E1    -1.252759668534383E2    -1.367306055674714       4.153379001917074E1    -1.016828217865076E2    -1.211036446401409E2
                        -8.453129149926068E1     3.044375463889174E1    -8.643402309742073E1    -1.650008578111904E2    -9.032878240916875E1     1.518376525334244E2    -1.377426462252183       4.830323018435744E1

 5.525525000000000E7    -3.837446583660593E-1    1.013318198311841E2    -2.896663924023817E1     8.801452119543579E1    -7.908110864160429E1     1.485714015659216E2    -9.086089696973420E1     1.115190622556333E2
                        -2.902435950247327E1     8.882057066493417E1    -2.942316947401152E-1   -1.037197282204134E2    -6.964722844278339E1    -1.259868031938743E2    -8.132434461758535E1    -1.122130074424525E2
                        -8.419427871957444E1     1.617016937851612E2    -6.827879654437422E1    -1.347202004347699E2    -1.364556162217371       4.153039403381619E1    -8.477095508990645E1    -3.803717479133255E1
                        -8.335901790524380E1    -1.679586050941810E2    -8.339555662345917E1    -3.283270873270328E1    -8.469507039594222E1    -4.916255838324052E1    -1.381693208206172       4.827719082696468E1

 5.525550000000000E7    -3.731027901089326E-1    1.013528588814897E2    -2.902265719043383E1     8.857142189680214E1    -8.790069467030369E1     3.211120784485041E1    -8.804343809680333E1     1.413597639022198E2
