#  HZ   S   DB   R     50.00 
! Rohde & Schwarz Vector Network Analyzer 
! Rohde-Schwarz,ZNB8-4Port,1311601044102961,2.82
! Created: UTC 2/8/2019, 2:32:04 PM
! freq[Hz]                db:S11                  ang:S11                 db:S12                  ang:S12                 db:S13                  ang:S13                 db:S14                  ang:S14
!                         db:S21                  ang:S21                 db:S22                  ang:S22                 db:S23                  ang:S23                 db:S24                  ang:S24
!                         db:S31                  ang:S31                 db:S32                  ang:S32                 db:S33                  ang:S33                 db:S34                  ang:S34
!                         db:S41                  ang:S41                 db:S42                  ang:S42                 db:S43                  ang:S43                 db:S44                  ang:S44
! 
 3.000000000000000E7    -2.255881554747248E-1    9.604005889519586E1    -6.585080302579165E1     1.464159650849543E1    -9.288194569908227E1    -1.391706818973260E2    -8.428951767366131E1    -1.655180692696419E2
                        -6.447275986019656E1     8.262842265700019      -1.804765576930501E-1    1.023174886058571E2    -1.013993368895536E2    -6.944906265132480E1    -8.108762572748174E1     9.838974984284666E1
                        -8.359140640275273E1    -4.566707554802048E1    -8.562577583218088E1     7.773796565467096E1    -9.038686247941036E-1   -1.031641624458181E1    -8.794221320921004E1     2.488931330351532E1
                        -8.715249059978858E1    -4.263142401245017E1    -9.116785759262780E1    -1.435342649884236E2    -8.642435484507247E1    -3.105001563753369E1    -8.673423812857593E-1   -7.710254412334970

 3.002500000000000E7    -2.118536250914217E-1    9.568519158394166E1    -6.415575509964798E1     1.067342844412500E1    -8.712420699118498E1     1.693574504402136E2    -9.081051771381921E1     4.870247510066407E1
                        -6.507629789992186E1     1.919435018457202E1    -1.803923089589457E-1    1.019875903108588E2    -8.990706610238753E1     9.527760521442493      -8.707973015553731E1     1.955089619842977E1
                        -9.003208680995904E1     1.342745446779275      -9.014482087979330E1    -7.509600474254866E1    -8.994226929770643E-1   -1.064292228532991E1    -9.218872511254850E1    -1.604266268540625E2
                        -8.674838247757833E1    -3.575432151893018      -9.118516532555998E1     1.449652909202514E2    -8.609691994564976E1     1.173619950612057E2    -8.730085233193424E-1   -8.024225321091031

 3.005000000000000E7    -2.232902046205561E-1    9.537580558216558E1    -6.468685864873393E1     9.840316192773377      -8.513859851500473E1    -1.791833341526395E2    -9.148572434997365E1    -6.212772323975781E1
                        -6.372306771595643E1     5.940133479470424      -1.644370451700603E-1    1.017560385037170E2    -9.673192038662660E1    -1.828421690779056E1    -8.314308740985825E1    -1.410698940713491E1
                        -8.537786913744159E1    -4.682219565815554E1    -8.418825997479885E1     1.418968913928316E2    -9.051608273367564E-1   -1.094566367822724E1    -9.086806987193170E1    -2.116058071058381E1
                        -9.469032389328260E1     1.476049572535996E2    -8.668524348744415E1     3.765319030133451E1    -8.979899111257909E1     6.126919290095249      -8.675296569225812E-1   -8.280336266797862

 3.007500000000000E7    -2.164117262148575E-1    9.500328419902490E1    -6.461553198382225E1     1.329891415502800E1    -8.359913720121570E1    -5.144568446689065E1    -8.448362848467372E1     1.183577435735004E2
                        -6.443878118736259E1     9.074163766815678      -1.774890429555984E-1    1.013968929161656E2    -9.062046168888840E1    -6.428676855570147E1    -8.006514282791810E1    -8.492720673250391E1
                        -8.218801693015854E1    -1.656571037404708E2    -8.893831492567956E1    -2.612480633478563E1    -9.084715493403686E-1   -1.125990820335326E1    -8.369157309883063E1     1.530254933613225E2
                        -8.190274968529326E1     1.581985400820005E2    -8.276280701326455E1    -7.395587721847505E1    -1.031536660991855E2     3.653681317815280E1    -8.671201407139046E-1   -8.597220038209684

 3.010000000000000E7    -2.180871326528963E-1    9.468456471497909E1    -6.341371339777403E1     2.356141388611330      -9.998425168621307E1     5.750644774958663E1    -8.814530162602904E1    -2.615365173144601E1
                        -6.505465282128056E1     2.444029554904628      -1.804999775822573E-1    1.011203661982747E2    -8.140305008519731E1    -1.341487425209010E2    -7.874043880646804E1     3.963711213246332E1
                        -8.760802086018816E1     6.437057816390349E1    -8.938815178816367E1    -7.349965491290601E1    -9.067151612482118E-1   -1.152529926256041E1    -8.656375871216669E1    -6.897371776027659E1
                        -8.746828360954379E1     1.850246490392611E1    -8.216505005692753E1    -3.736756344718062E1    -8.798731818435515E1     4.692078788100131E1    -8.647438392086992E-1   -8.893540988069153

 3.012500000000000E7    -2.236222051223243E-1    9.431261830904357E1    -6.390425157641792E1     6.223688925994266      -8.786842182149835E1     1.565919326572831E2    -8.487149827010832E1     6.104951664438496E1
                        -6.463161805560078E1     3.939112213063855      -1.807341779926400E-1    1.007640287630745E2    -9.532864590536669E1    -1.057336362119589E2    -8.176287931856817E1    -1.755793826973711E2
                        -8.662729110232276E1     7.261210193817649E1    -8.921480984919087E1    -2.764729967910858E1    -9.003070360730943E-1   -1.185650638005136E1    -9.173162956207793E1    -1.269437834670630E2
                        -8.494943143898473E1     9.648207636622955E1    -9.718382676294453E1    -1.730717987709431E2    -8.786837668398748E1    -1.085844077796989E2    -8.691870008697923E-1   -9.181871012527360

 3.015000000000000E7    -2.188194459853832E-1    9.396676950629890E1    -6.390764196391048E1     1.108804917749396E1    -9.476950132916984E1    -8.004032447056298E1    -8.601736594232655E1     3.154559593886134E1
                        -6.389020132206731E1     2.056576222201593      -1.818710856467480E-1    1.004484149396502E2    -8.851520343271368E1     1.643692950651483E2    -8.420514227364876E1     1.711810241246245E2
                        -8.822072975030453E1    -1.287838988969700E1    -7.789554226211307E1     1.755535798561210E2    -8.979598323277864E-1   -1.215561534457818E1    -8.700784827903598E1    -9.806167917684228E1
                        -8.167220228282618E1    -1.373588001885746E2    -8.944324994024328E1    -9.246625930472159E1    -8.120647809930097E1    -1.762864521623978E1    -8.756205785035420E-1   -9.498203570470551

 3.017500000000000E7    -2.151052054847945E-1    9.363600064273140E1    -6.398619899397627E1     2.632385065315762      -1.067083816149394E2    -1.648329456057045E2    -9.172613628024125E1    -5.037455887671398E1
                        -6.309169298527402E1     4.258380590282942      -1.802467683574112E-1    1.001652477539520E2    -7.644296068290434E1     5.119870267898718E1    -9.648031196587186E1    -7.238452359936928
                        -8.269191477691025E1    -7.622767250558260E1    -8.342590203057419E1    -9.995152170516995E1    -9.040806378868106E-1   -1.249884856906411E1    -9.465687393887177E1     1.480588326075307E2
                        -8.876259306656502E1     3.754668363456802E1    -9.917169147403600E1    -1.441332763053855E2    -8.936280375708600E1     1.391187362610446E2    -8.695474468032851E-1   -9.768973204824983

 3.020000000000000E7    -2.165373720434667E-1    9.331474193490826E1    -6.375487149938311E1     7.321025623471729      -9.048892425059223E1    -4.348189016871103E1    -8.570958167790040E1    -1.049669831794848E2
                        -6.388338079215713E1     2.215879768906365      -1.696568872769916E-1    9.984371428206879E1    -9.062570828802335E1    -1.195034789003364E2    -9.199409456121012E1    -5.580438072907812E1
                        -9.503808855590599E1    -1.091549808940082E2    -9.208437163339769E1    -8.420500158083772E1    -9.000670953304252E-1   -1.275808315987913E1    -8.384406093782282E1    -1.343897299345396E2
                        -9.074237507867933E1    -8.610386536371949E1    -7.934165495017994E1     4.391868840765054      -8.847455702204742E1     1.041659105761642E2    -8.714884381975490E-1   -1.001976425961412E1

 3.022500000000000E7    -2.125243502330485E-1    9.295675693355757E1    -6.420468579037586E1     8.273273849872037      -8.117639011992085E1     7.182216121862762      -9.648125220636331E1    -1.693731228392350E2
                        -6.402211708967768E1     8.511872756378926      -1.762910806089069E-1    9.953112419229124E1    -8.352497973150366E1     9.837080989471420E1    -8.347013016487624E1    -3.497179016799655E1
                        -9.034228066211014E1     1.016224467372487E2    -8.508551572957163E1    -1.524136415369949E2    -9.011673883318484E-1   -1.303965774706014E1    -9.125424256178407E1     8.692748837705487E1
                        -8.415059440015693E1    -7.228899704539718E1    -8.167799305390714E1    -1.453254421599519E2    -9.340432183228727E1     1.152536187597441E2    -8.697957252866774E-1   -1.033524170186636E1

 3.025000000000000E7    -2.166761762104182E-1    9.261423584867056E1    -6.433290493921683E1     8.471007746326675      -8.866135602044369E1     1.196289756165752E2    -8.837901253856842E1     1.487439999556914E2
                        -6.441697205862258E1     5.361145235390804      -1.839879329082113E-1    9.921401193318876E1    -9.923312617374022E1     7.427440863646554E1    -8.354296946951315E1    -1.207880349479802E1
                        -8.846489888089093E1     1.153095454116721E2    -9.195188191169788E1     1.052643897814590E2    -8.952348886945573E-1   -1.335456754783926E1    -9.583959644012735E1     1.740084397979159E2
                        -8.809650926104213E1    -1.112535262029287E2    -9.024092514468197E1    -1.499992092204095E2    -7.973135071424409E1    -1.632821424456462E2    -8.679211845354982E-1   -1.066343912793432E1

 3.027500000000000E7    -2.159673236623595E-1    9.226151236635542E1    -6.378609202932938E1    -5.333334084453543E-2   -8.589858170839923E1    -1.128472886163270E2    -8.255644049859571E1     3.556565211618015E1
                        -6.425492153979410E1     2.050194137204890      -1.739821307962927E-1    9.882752809957633E1    -8.197139696438521E1     6.788264051508283      -8.757972517006618E1     1.229187510421504E2
                        -7.946654523895008E1     6.016502310433715E1    -8.462675557339701E1     1.408817045417024E2    -9.032758715765634E-1   -1.367399973581042E1    -8.798163436328920E1    -1.042837936923974E2
                        -9.237181102548016E1    -7.947776421051135E-1   -9.083611913581528E1     9.509245711223811      -9.205664865678379E1     8.941823750221967E1    -8.738039956725525E-1   -1.094585901043824E1

 3.030000000000000E7    -2.174257927960883E-1    9.192648013804569E1    -6.348647471490838E1     4.231369920638844      -8.913095144748368E1     1.830208493250990E1    -9.379966899715168E1    -9.006561125394812E1
                        -6.430127739145436E1     4.829411792760880      -1.740910062242948E-1    9.851527498448914E1    -8.015261564499163E1     1.137000070998511E2    -8.225449443399799E1    -1.455817814940460E2
                        -8.673795809799498E1    -2.494491887683273E1    -8.738929912604733E1     8.680359478928257E1    -9.022972932627916E-1   -1.399894862113252E1    -9.283058434656502E1     2.024432582782474E1
                        -9.788884028992514E1     1.583506909428405E2    -8.294647411176283E1     1.458530613670770E2    -8.156941999147939E1    -3.381443684855093E1    -8.674795524213375E-1   -1.123540430879851E1

 3.032500000000000E7    -2.188088598843441E-1    9.156891343992535E1    -6.355352154649342E1     8.368703737766341      -8.820803989487646E1    -1.599545998320349E2    -8.162651835293511E1     1.020297843694394E2
                        -6.410196872711825E1    -2.406726094138839E-1   -1.753907204540648E-1    9.827200154854367E1    -8.524144905605196E1     5.371530600413210E1    -9.120273225574189E1     1.120384345869475E2
                        -9.361230762423256E1    -9.823038772916624      -9.607082722536447E1    -1.114230011192930E2    -8.997991579173721E-1   -1.432869296821599E1    -9.988508175981231E1    -9.778843016938629E1
                        -8.588995020038205E1     1.415967036724459E2    -8.597563139279706E1    -1.609851757902637E2    -9.938730890904581E1     8.918072026316722E1    -8.695393960002680E-1   -1.154626856353034E1

 3.035000000000000E7    -2.113260250927687E-1    9.126293876195248E1    -6.439246596386855E1     3.232714184015046      -9.580903831368018E1     1.740595794071269E2    -8.415982083689912E1     1.391011668552189E2
                        -6.256263963623552E1     8.067049464716231      -1.715283433392338E-1    9.788713904905521E1    -8.660500852958137E1    -2.767893074713588E1    -8.167573389680983E1    -1.297084144947287E2
                        -8.992890845413199E1    -1.290791706803722E1    -8.358506628824217E1     5.166510692709394E1    -8.986598224590403E-1   -1.461732463990190E1    -8.568939128954540E1     3.192018291035701E1
                        -8.882031342492320E1    -3.894277486581492E1    -8.513431508423308E1    -1.174200980137691E2    -8.652527832896129E1     1.364400518851402E2    -8.694342291115486E-1   -1.180770468925280E1

 3.037500000000000E7    -2.118078854386445E-1    9.086537706099215E1    -6.419186531522635E1     4.156273059648563E-1   -8.468606318646543E1    -5.341535018324210E1    -8.655767919745010E1     8.002146703870689E1
                        -6.425114095985234E1     7.837675126746638      -1.813736040709657E-1    9.762060650798304E1    -8.193961302249080E1     1.274269738169689E2    -9.327329885999255E1    -1.799451631811901E2
                        -9.265926409750867E1    -7.418770604946518E1    -8.963605941077512E1    -7.850581588824574E1    -8.972838198847194E-1   -1.496828658382324E1    -9.250111635560484E1    -5.240975525923976E1
                        -8.781367252447348E1     2.900194253500037E1    -8.898492687759168E1    -9.633541619181146E1    -9.001306131061809E1     9.581705014413758E1    -8.681076242768888E-1   -1.209101076468933E1

 3.040000000000000E7    -2.108404551957813E-1    9.051392888385861E1    -6.449337133123004E1     4.421733410145039      -9.100206981168512E1     6.437161971448165E1    -8.562400694702470E1     1.792625923173610E2
                        -6.355428876445323E1     3.401603727889156      -1.671229164265022E-1    9.729264495517529E1    -9.221757492795383E1    -8.831087243372045E1    -8.144384754746682E1     6.103795263053074E1
                        -8.799429412572756E1    -2.838269297847175E1    -1.037640019088821E2    -6.167626113999414E1    -9.059737826302517E-1   -1.521890520103318E1    -8.071866156102419E1    -1.736898934474242
                        -8.750982708492327E1    -1.534790155107496E2    -8.255832972845290E1     1.303522335706496E2    -8.270670945450559E1    -8.556726042022675E1    -8.700159940188502E-1   -1.238413959311647E1

 3.042500000000000E7    -2.134482333969892E-1    9.018868412791181E1    -6.318314991640228E1    -3.106672226695121      -8.092560687853162E1    -1.755003938261677E2    -8.645346528933786E1     7.593704976862152E1
                        -6.356172104193490E1     6.846845738495635E-1   -1.810367256056911E-1    9.697493796288117E1    -8.314096759206294E1    -3.260330711345011E1    -8.659089058472814E1    -6.684934021259230E1
                        -9.274999051930296E1    -1.240099345818650E2    -8.630431524738393E1     3.255270688019127E1    -9.019661853497885E-1   -1.552985174423551E1    -8.524124370348872E1    -1.752370154937454E2
                        -8.340466637129998E1     8.192508535219986E1    -8.468539267221419E1     2.157569748474136E1    -8.702928595719487E1     1.598708826233562E2    -8.684971459596858E-1   -1.269740359119617E1

 3.045000000000000E7    -2.147533797653136E-1    8.982605346674515E1    -6.439602738043105E1     8.256179247952693      -9.248832654405368E1     7.345898239345289E1    -9.186613754306897E1    -6.306595003902754E1
                        -6.333701543953492E1     4.186980253966842      -1.761646246056388E-1    9.669308953598879E1    -9.296517715661801E1    -1.487188089217701E2    -9.346564812795221E1     1.733752742441029E2
                        -8.662350929785421E1    -1.675244187241148E2    -8.422436357838708E1    -1.436996446370509E2    -9.043050494577344E-1   -1.580926333273960E1    -8.615790065545015E1    -1.795041233404109E2
                        -9.386863993608343E1     1.102235294618064E2    -7.960175496286635E1     6.767128151733040      -8.460921262037923E1    -1.014600066408147E2    -8.676082881505116E-1   -1.299514411487715E1

 3.047500000000000E7    -2.090414449897842E-1    8.948214714278193E1    -6.337583645952842E1     8.586125351245089      -8.797127373335241E1     1.760989584157982E2    -9.154406492393333E1     1.779463923833868E2
                        -6.339807302029562E1     3.283317835152481      -1.777314539919558E-1    9.636383466434631E1    -7.757007794641521E1     3.913677073921350E1    -8.376170027843796E1    -8.632594176312051E1
                        -8.417539742615941E1     4.654676725505133E1    -9.728545052506794E1    -6.132724251793805E1    -9.028856318263624E-1   -1.613420436371145E1    -9.469487384331055E1     1.711938152286689E2
                        -8.111135223865571E1     3.977965675606416E1    -8.223228321538683E1    -7.299651880088918E1    -8.866105259440056E1    -7.128484241471732      -8.673523859645399E-1   -1.328634315144668E1

 3.050000000000000E7    -2.153761972852811E-1    8.919410783428771E1    -6.321947013576879E1     3.813542732879493      -8.511529735739073E1     1.191044775199218E2    -9.188687079353501E1     2.698933391965709E1
                        -6.242264496421949E1     3.089816604469073      -1.693625212400209E-1    9.606272658794373E1    -1.022076954819936E2    -7.941206762977529      -8.869492066828676E1     1.729342428626406E2
                        -8.642232954577506E1     7.120786305993015E1    -8.770361507143878E1     4.777665883842644E1    -9.056016774432356E-1   -1.639859547317325E1    -8.635669492478492E1    -1.405955171471801E1
                        -8.794613794581026E1    -1.308445502796374E2    -8.784724712932024E1    -4.560336311085177E1    -9.841738396291800E1     1.188228675456075E2    -8.683357790297621E-1   -1.354564430836320E1

 3.052500000000000E7    -2.000691713615968E-1    8.878784408292589E1    -6.384650355844390E1     2.776893876641686      -8.822928249475757E1    -1.382270605965996E2    -9.242644015934138E1    -5.704041027065101E1
                        -6.320676570887243E1    -2.093366823943507      -1.776506309024110E-1    9.573109877404173E1    -8.716732293524622E1     1.610113954007976E2    -8.292817514051059E1    -7.955214149033434E1
                        -8.363676127097433E1     1.180513069210816E2    -9.243735974725871E1    -5.056698815729571E1    -9.004009228052132E-1   -1.673947766083142E1    -9.664643530616405E1    -4.433035821249050E1
                        -8.837324728794994E1    -1.463952616529309E2    -8.843890320566101E1    -8.618107205725424E1    -9.752553373315637E1    -8.122933538970297E1    -8.712168530810921E-1   -1.385029072585338E1

 3.055000000000000E7    -2.087080466011912E-1    8.843507758418882E1    -6.268712052618572E1     8.768406304798861      -1.027204947227925E2    -1.300953586494542E2    -9.771474983208756E1     9.630742490811549E1
