#  HZ   S   DB   R     50.00 
! Rohde & Schwarz Vector Network Analyzer 
! Rohde-Schwarz,ZNB8-4Port,1311601044102961,2.82
! Created: UTC 2/8/2019, 4:21:50 PM
! freq[Hz]                db:S11                  ang:S11                 db:S12                  ang:S12                 db:S13                  ang:S13                 db:S14                  ang:S14
!                         db:S21                  ang:S21                 db:S22                  ang:S22                 db:S23                  ang:S23                 db:S24                  ang:S24
!                         db:S31                  ang:S31                 db:S32                  ang:S32                 db:S33                  ang:S33                 db:S34                  ang:S34
!                         db:S41                  ang:S41                 db:S42                  ang:S42                 db:S43                  ang:S43                 db:S44                  ang:S44
! 
 3.000000000000000E7    -2.456254569536680E-1    1.053402849831166E2    -6.944899161010127E1     9.643900396897744      -8.556870437314041E1     1.360181784914273E2    -9.496834129371584E1    -1.625066443758367E2
                        -6.791339585399892E1     1.497845986675187      -1.684135578862711E-1    9.217574480014952E1    -8.189105653986955E1     1.286587682242396E2    -9.275078129288674E1    -8.792351327681205E1
                        -8.744195029764838E1     8.446178758348907E1    -8.796386638768611E1     4.536220625298638E1    -8.939725604405769E-1   -2.257357342144484      -8.490668658884701E1    -1.459568811692990E2
                        -8.158595728369667E1     1.689544261495083E1    -8.941741320663573E1    -3.616978196325368E1    -8.185830135011742E1    -6.781466864100328      -8.961464032143280E-1   -7.265503199360161

 3.002500000000000E7    -2.375292171877974E-1    1.049851842465554E2    -6.931349869943558E1     6.520679406050078      -9.060002410334185E1    -5.611026477527049E1    -8.196946350920599E1     1.609846234956613E2
                        -6.842843678067293E1     7.454481139377421      -1.726030763442454E-1    9.180642833542241E1    -9.199965215791862E1     1.674786450933052E2    -8.366761980924096E1     3.540726751653347E1
                        -8.646007171434889E1     2.435758231882620E1    -8.616062945300470E1     8.382527789059303E1    -8.954014928532840E-1   -2.534694917694598      -8.761121521016560E1    -5.091792505597537
                        -9.333536435072014E1    -7.069050136527487E1    -8.591917055705591E1     1.123542153258932E1    -8.883373520518308E1     1.539599815584444E2    -9.034212409852986E-1   -7.577571141455746

 3.005000000000000E7    -2.486584369402591E-1    1.047313988687355E2    -7.046955414193432E1     1.232070060564404E1    -8.749862054358859E1    -1.064521858644017E2    -8.597186113046809E1    -1.012027526297871E1
                        -6.817184385117392E1     4.626541303310551E-1   -1.625707924688460E-1    9.142160313806379E1    -9.062759437553324E1     1.447894804271303E2    -9.349488038302363E1     1.507488937412434E1
                        -9.047897248221312E1    -9.071075199348158E1    -8.574033881247352E1    -4.203161971785474E1    -9.039127356454141E-1   -2.840171770184739      -8.417473307218755E1    -8.628866467205970
                        -9.176933863085949E1     1.003365653295286E2    -8.339198615108907E1     1.356203782540502E2    -8.790754770644807E1    -2.412825498405024E1    -9.004749798561490E-1   -7.880304347500356

 3.007500000000000E7    -2.442617911557347E-1    1.044181254856930E2    -6.743883501167191E1     9.431777081355300      -8.621292445029162E1    -2.890058732245803E1    -8.043073377390100E1    -7.010192778226381
                        -6.986765967914452E1     7.391244595811198      -1.689683127665751E-1    9.101835390821545E1    -9.176964415175982E1    -9.698701337255989E1    -8.417483112834161E1    -1.260436857292810E2
                        -8.970988959621164E1    -1.117074306671305E2    -8.780606350419497E1     7.713473300359686E1    -9.035831074502160E-1   -3.157171816049856      -8.530354796860989E1    -4.397829018506820E1
                        -8.404383026424158E1    -1.423276353289546E2    -8.846372689521573E1     1.697880287856498E2    -8.146157178035875E1    -4.231278758750302E1    -8.992468557760174E-1   -8.198519988942925

 3.010000000000000E7    -2.370484944732264E-1    1.041338332410160E2    -7.042437625596467E1     3.976390848981595      -9.174247014865762E1    -7.252164664112306      -9.155652632492014E1    -1.504840031693564E2
                        -6.885744012836254E1     1.250920536749999E1    -1.727318622438359E-1    9.069197501369381E1    -8.191255653010100E1     1.590708553646818E2    -9.409716491622126E1    -6.446718549412130E1
                        -8.754832526695388E1    -7.525166184189155E1    -9.125240132080597E1    -2.745386083069545E1    -8.964102566364779E-1   -3.440722528282025      -9.975787229855334E1    -1.387419716460023E2
                        -9.350372249441011E1    -4.826111057709482E1    -9.445908575470708E1    -1.703319537534200E2    -9.122948632272335E1    -1.046411507586739E2    -8.929561756452873E-1   -8.492250256912355

 3.012500000000000E7    -2.374408877845189E-1    1.038710144989776E2    -6.923342399579697E1     2.875607692101725      -8.285310672790389E1     1.769721885006320E2    -8.049790554557626E1     1.362605745716043E2
                        -6.811830800856137E1     1.049164023254841E1    -1.727059539263756E-1    9.032024395875749E1    -8.217061893753318E1     1.111955135918961E2    -9.165628750167350E1    -1.416392001481674
                        -8.722718109177032E1    -3.007701048060070E1    -8.283962557217288E1    -3.570733030022690E1    -8.967237521391464E-1   -3.715315156186231      -8.923934179100729E1     8.569385498690842
                        -9.295519577071362E1    -1.393899858078099E2    -8.635112956491366E1    -1.717913344956586E2    -8.843244356083031E1     9.768683942106941E1    -9.035728074686880E-1   -8.788195248847835

 3.015000000000000E7    -2.338520066666535E-1    1.035416711957817E2    -6.770977153053237E1     8.659783794676075      -8.495507052424239E1    -5.414165990258908E1    -9.087495366232687E1    -3.813722257579435E1
                        -6.771056046192966E1    -1.434707962348801      -1.706465019850180E-1    8.990339393398870E1    -8.111797263446553E1    -1.735270374820156E2    -9.055941468357902E1     1.131000385731243E2
                        -8.910212009544046E1    -2.161053455837482E1    -8.418790153826504E1    -1.064247954918702E2    -8.953499168458418E-1   -4.031441054893901      -8.756617516185668E1     9.074329798185885E1
                        -8.320463461155897E1     1.037795729442447E2    -8.844593502326946E1     4.388996554915848E1    -9.293187619728128E1     1.368120804562002E2    -9.048438624113719E-1   -9.066263248706427

 3.017500000000000E7    -2.366501569177399E-1    1.031941686347920E2    -7.016761602234810E1     1.791896424430363E1    -8.548427603253819E1     1.001061649907039E2    -8.637559758545237E1    -1.962053326097566E1
                        -6.789985062978795E1     8.806422753273797      -1.694720988363870E-1    8.950794159934782E1    -8.974057563780477E1     9.744275474638673      -7.906161652421032E1     1.369523135017642E2
                        -7.993318812566520E1     5.402420056943212      -9.291550174224943E1     1.421903582459037E2    -8.905834739626122E-1   -4.348294490938681      -8.835382647185283E1     1.755025317589169E2
                        -8.551459311911530E1     1.760422014038700E2    -9.251867504988374E1    -1.325472709479169E2    -8.742302606401370E1    -1.423031822638002E2    -9.008613009957576E-1   -9.357238582016237

 3.020000000000000E7    -2.364606991310621E-1    1.029676138234631E2    -6.738783007540408E1     4.288859557374424      -8.620889588038538E1    -1.000734586541564E2    -9.593192244957344E1    -1.723913751055257E2
                        -6.936305314309973E1     3.379128558691475      -1.650954364217654E-1    8.917384480170671E1    -8.442624943065758E1     6.650871689067553E1    -8.479353400063383E1     1.827866489619735E1
                        -9.799975478724485E1    -6.933931282222456E1    -8.417813918172571E1    -1.430168723946209E1    -8.952188393525753E-1   -4.571870485541838      -9.572690081259829E1    -6.398073145186945E1
                        -8.654784431542367E1     1.323835526320299E2    -8.788696427772825E1     3.356551013887139E1    -9.835948830725505E1     5.199150132817013E1    -9.014564463597874E-1   -9.712983990982643

 3.022500000000000E7    -2.402299647189161E-1    1.026623139066924E2    -6.879359330789401E1     9.933680976855591      -8.338017085803043E1    -7.773117149600346E1    -9.141651748067694E1    -4.650810105916492E1
                        -6.798968230980518E1     8.697689944480310      -1.750722998110233E-1    8.881515272478886E1    -9.013235410181308E1    -1.738718696220014E2    -8.959366119267435E1     1.748213705271913E2
                        -8.815689205475367E1     1.658667254388524E2    -8.248890030445274E1    -1.029906062019554E2    -8.993377819185279E-1   -4.889061696800733      -8.753103285012841E1     1.063628263635683E1
                        -9.099919056203584E1    -5.322642537876552E1    -9.656611317038438E1    -3.620098331631809E1    -8.206732421693174E1    -1.777395372641254E2    -9.006700368769531E-1   -9.995921146554988

 3.025000000000000E7    -2.365059016541793E-1    1.024034332423792E2    -6.751332661851355E1     8.883815151977560E-1   -8.439379031144001E1    -1.451040626734027E2    -8.759047911904307E1    -4.765238285752840E1
                        -6.650968215835920E1    -2.344262764851182      -1.738476442361377E-1    8.838798490493356E1    -8.213182614140976E1    -1.518548609605078E2    -9.355566230073453E1     6.853147663385867E1
                        -1.000493702344118E2     2.591742941154617E1    -8.366036899558834E1    -6.956417127004461E1    -9.032509494664813E-1   -5.171027174528402      -8.804482281698989E1    -9.181674132939159E1
                        -1.008230638223523E2     9.136582389189337E1    -9.393885036438336E1     3.729370252054978E1    -8.267748378623664E1    -1.708918852803534E2    -9.019435321802123E-1   -1.030450994270026E1

 3.027500000000000E7    -2.390786211382392E-1    1.020356190817341E2    -6.670261068388983E1     5.101434358204575      -8.343530091538810E1     3.312171341514800E1    -8.291578737614999E1    -2.406511497924461E1
                        -6.760566328088007E1     5.427304500297884      -1.701312641505848E-1    8.799878668262075E1    -8.375362332684297E1    -3.000031722185968E1    -8.679857582615716E1     1.254464008383324E2
                        -8.920682922274312E1    -6.206345889677370E1    -8.359588024155261E1    -8.647559552231203E1    -8.932863087835288E-1   -5.468502113147587      -9.505980381412968E1     1.155434640543772E2
                        -8.890414455983068E1    -1.715955267454677E2    -7.895212099605193E1     1.540761763074424E2    -9.305051949884486E1    -1.572772587031272E2    -9.057140840105851E-1   -1.060236837693374E1

 3.030000000000000E7    -2.356824870434113E-1    1.017684335387855E2    -6.664266043737219E1     1.606919467510457E1    -7.977765467640096E1     9.554218711936541E1    -8.888213414829750E1    -1.426303818261351E2
                        -6.754319522050444E1     7.650349584456546      -1.612783458291508E-1    8.763544543304434E1    -8.320704503138177E1     3.068574514437641E1    -9.228238539131604E1    -1.019819109051850E2
                        -8.796161844227191E1    -5.166644471762494E1    -8.763072976017696E1    -8.687492226816275E1    -8.943489506331960E-1   -5.789015578814978      -8.413180773068009E1    -1.137622054197977E1
                        -8.420287529575685E1     9.184105649670450E1    -8.295946687081191E1    -1.544846638873023E2    -8.635433059991249E1    -1.293739609780987E2    -8.994069750793223E-1   -1.086961158887177E1

 3.032500000000000E7    -2.375097374712373E-1    1.014654007352788E2    -6.813313297731457E1    -5.266737148150399      -9.301432852814523E1     1.128097193468434E2    -1.018038470447198E2     3.593285442561638E1
                        -6.730591171853462E1     2.101564140570345      -1.670085006962171E-1    8.717820771957537E1    -8.665552123935314E1     1.085099225766432E2    -8.725741450502783E1     5.267825041524686E1
                        -9.762268637370367E1    -1.212481416855255E2    -9.147031189946311E1     3.130649142328873      -8.965318816421244E-1   -6.061851715645265      -8.746486457828456E1    -1.030583227095743E2
                        -9.594338888159795E1     9.143193254694248E1    -9.806727240213166E1    -4.576566811134994E1    -8.781956560001477E1    -9.051139011777734E1    -8.986815718330417E-1   -1.118581938665455E1

 3.035000000000000E7    -2.360845280581885E-1    1.011878462620340E2    -6.799727197905244E1     6.584735998720810E-2   -9.029450552571223E1     5.691748497981816E1    -8.581472281715392E1    -3.764649175264443
                        -6.764520604071815E1     7.318252525574462      -1.608528182370750E-1    8.680897649603246E1    -8.616540387527964E1    -1.663297224877306E2    -8.204525067534766E1     3.760469983085905E1
                        -8.461081891228099E1     1.732497468786033E2    -8.314070775398348E1     2.607484167599296E1    -8.954415791784616E-1   -6.374189914724191      -9.176961214115514E1    -2.430719154952672E1
                        -8.930295365995148E1    -5.321800721978129E1    -8.877887447376787E1     2.599941756242937      -9.369114696334393E1    -3.138160682972187E1    -9.035298138227061E-1   -1.148192432452826E1

 3.037500000000000E7    -2.356643166772579E-1    1.008879931946185E2    -6.793475075408909E1     2.241800567182879      -8.001882058135266E1    -2.769554198526730E1    -8.530340069367597E1     5.666556946731311E1
                        -6.737026203554494E1    -9.202054876289159E-1   -1.691709752367515E-1    8.646812555234459E1    -9.209724276203305E1     1.950416086438188E1    -8.207105270903212E1     1.365621425694584E2
                        -8.942497236474463E1    -9.616628888176852E1    -8.851330132132887E1    -7.468215094493363E1    -8.958749439871758E-1   -6.663737961051117      -8.678139676015896E1    -1.457213262856587E2
                        -8.656472585961355E1     6.406101603612929E1    -8.794884267690884E1     4.808595860858132      -8.786790008576804E1     1.678785119441220E2    -8.974420782052277E-1   -1.180436165045805E1

 3.040000000000000E7    -2.296854977490276E-1    1.006340058046312E2    -6.834571738885570E1     1.680525819882904E1    -9.379041671591568E1     3.202959888543660E1    -8.910958379431875E1     8.607779062411734E1
                        -6.794651210147508E1     5.437400344164941      -1.601686180794616E-1    8.607029740161660E1    -8.219596452896475E1    -1.715398041352030E1    -8.466074609826558E1    -4.820030286550225E1
                        -8.653953164779368E1    -1.595116513732114E2    -9.511888150496637E1    -2.009545449182337E1    -8.929048299435082E-1   -6.946765591007194      -8.335581770955422E1     5.165842595531851E1
                        -8.709283928180713E1    -3.788165094244244E1    -8.157898014554536E1    -1.579600566367504E2    -8.623987214639988E1    -1.339795528543690E2    -8.995922124715934E-1   -1.204624043631681E1

 3.042500000000000E7    -2.427312737594413E-1    1.003028215907848E2    -6.681320028106269E1    -3.881881794456258      -9.205812499889602E1    -1.597539905375441E2    -8.171151841503036E1     9.729807906301191E1
                        -6.613004859267795E1    -5.189955136299838      -1.661063244176614E-1    8.568407207886514E1    -7.840725471579745E1     1.686491872250442E2    -9.406400747785222E1     6.454668583553645E1
                        -8.650966997795230E1     1.181568697045076E2    -9.704651486457155E1     1.442262320490744E2    -8.932037225495793E-1   -7.292370052514260      -8.528786042335399E1    -4.110656231235580E1
                        -8.715973803416853E1    -4.446851210502597      -8.990624450038493E1     1.781346258572449E2    -8.432152805215793E1     1.056510080047354E2    -9.000004795802751E-1   -1.237529300168401E1

 3.045000000000000E7    -2.366559673728113E-1    1.000181925215397E2    -6.781705038339690E1     5.771269672987990      -8.679869888777483E1    -1.152869065381196E2    -8.554030070822456E1     7.327905343400568E1
                        -6.660263405653244E1     3.585980836378934      -1.620850845791801E-1    8.530998126964960E1    -9.234137507303373E1     1.320358932801211E2    -8.891304943723679E1     9.992067675515746E1
                        -8.372033863620091E1     1.089352739084636E2    -8.888374252655123E1    -1.285557357831374E2    -8.971989146226753E-1   -7.596406033843731      -8.378230311806459E1     7.208597707030545E1
                        -9.348960194761398E1    -1.621608392867346E2    -8.309451275150624E1     7.583999899734225E1    -8.370097284483387E1     1.259887229649156E2    -8.973475115768725E-1   -1.268215700022399E1

 3.047500000000000E7    -2.338004318753832E-1    9.971976271846400E1    -6.742358466680537E1    -7.691367746437587E-2   -8.445512906384438E1    -2.242371855558644E1    -8.252531431023633E1     1.474417335643250E2
                        -6.848463494470411E1     1.106711728992353E1    -1.692583696393515E-1    8.489736651857012E1    -8.143007039961476E1     1.561036776414829E2    -9.525806034292577E1     8.814643708622013E1
                        -9.098289927697537E1     1.366121139834883E2    -8.118797537554912E1    -5.370933512550487E1    -8.904847422203110E-1   -7.838462707358967      -8.588508850585282E1     6.229176873229822
                        -8.360802733209673E1     1.218659421786356E2    -8.510731491178719E1    -9.609028516216392E1    -9.237998666164273E1    -1.523777922013580E1    -8.939518145504942E-1   -1.296779414779186E1

 3.050000000000000E7    -2.303334954109992E-1    9.946532215191061E1    -6.774619006511139E1     1.009480391703238E1    -8.732989229916589E1     1.181533068287578E2    -8.306283064414086E1    -1.260689975907580E2
                        -6.649196260326224E1     5.444957415459731E-1   -1.563211691369831E-1    8.452113137214369E1    -8.333331859203909E1    -4.099652362866414E1    -8.236081649556594E1    -1.533858173090748E2
                        -8.719922766801955E1    -1.688120685241238E2    -8.521026978438579E1    -1.199269614056522E2    -8.948734467105173E-1   -8.088189871398431      -8.403193646512135E1    -2.262074914869825
                        -8.690003165552983E1    -1.316807489120288E2    -8.471224086467494E1     6.681401783808192E1    -8.125989308375976E1    -2.610292145941463E1    -9.009166989357037E-1   -1.328931681631212E1

 3.052500000000000E7    -2.278685482219449E-1    9.912542221291105E1    -6.683361106621976E1    -5.493629388140368      -8.988567226089764E1    -4.239693948278384E1    -8.719098178221941E1     1.528924246878401E2
                        -6.630582611262625E1     1.321899491304198      -1.622464793858281E-1    8.408996899726692E1    -8.334059355932229E1     6.383811999420033E1    -9.253473317139900E1    -3.193055181030458E1
                        -9.328902299878023E1     7.437196171290556E1    -8.446726190648001E1    -1.171672443847276E2    -8.940183789966315E-1   -8.434656274472584      -9.175086439365285E1     4.086657002898113E1
                        -9.200894195848218E1    -1.754136592498522E2    -9.696625147120606E1     5.001039507034600      -8.553583241816409E1     1.287616293627296E2    -8.966167219694012E-1   -1.359877860138501E1

 3.055000000000000E7    -2.352068219797801E-1    9.887245639409798E1    -6.610307210899785E1    -6.718329481037249      -9.095072099494580E1    -1.679725076544627E2    -8.805275212626597E1    -1.108014866745739E2
