#  HZ   S   DB   R     50.00 
! Rohde & Schwarz Vector Network Analyzer 
! Rohde-Schwarz,ZNB8-4Port,1311601044102961,2.82
! Created: UTC 2/8/2019, 3:30:56 PM
! freq[Hz]                db:S11                  ang:S11                 db:S12                  ang:S12                 db:S13                  ang:S13                 db:S14                  ang:S14
!                         db:S21                  ang:S21                 db:S22                  ang:S22                 db:S23                  ang:S23                 db:S24                  ang:S24
!                         db:S31                  ang:S31                 db:S32                  ang:S32                 db:S33                  ang:S33                 db:S34                  ang:S34
!                         db:S41                  ang:S41                 db:S42                  ang:S42                 db:S43                  ang:S43                 db:S44                  ang:S44
! 
 3.000000000000000E7    -2.548157555272694E-1    1.033340703314048E2    -6.264297309824868E1     6.728267665425933      -9.213450401036238E1     1.489796361393207E2    -8.661120916754078E1    -9.199534022083644E1
                        -6.235380336408604E1     4.650102686773087      -1.846106784700139E-1    9.208460157333650E1    -8.904122529281651E1    -4.993099508975384E1    -8.784060291260593E1     5.738642565121832E1
                        -8.341462857800022E1     2.123740910667276E1    -9.103298327114787E1    -7.528996306848590E1    -8.940086586905192E-1   -2.222104826890215      -8.246649686141285E1    -8.887585699303888E1
                        -8.313879303973880E1     1.261257653970893E2    -8.762535611242969E1    -1.070743296529418E2    -8.410026614021810E1    -6.849825266848146      -8.933108373658825E-1   -7.245548272216629

 3.002500000000000E7    -2.490350394863218E-1    1.029586620288693E2    -6.393867784035188E1     1.452981460706295E1    -8.944329990908345E1    -3.670782358129126E1    -8.775555403303875E1    -1.132174669746170E2
                        -6.350402803773633E1     1.081382431567212E1    -1.878035676855136E-1    9.172502544787660E1    -8.899139741129920E1     1.025301886515517E2    -9.264429979669615E1     8.251406047754684E1
                        -8.149445685274392E1     1.213148077404160E2    -9.088129358651753E1    -4.778449644353599E1    -8.956002475367736E-1   -2.509057067316579      -8.316937801022294E1    -8.763308170089825E1
                        -8.664428759322890E1     1.460234295528716E2    -8.579499898497345E1     1.210513864361815E2    -8.670211498697512E1     4.879342489400822E1    -8.980785057584694E-1   -7.570094302146864

 3.005000000000000E7    -2.607246735480072E-1    1.027578033888807E2    -6.352628218162754E1     6.134015086744111      -8.762948100048814E1     1.486187790213062E2    -8.178551040673159E1    -1.941537914970231E1
                        -6.308883980215015E1     2.194782818194699      -1.801447118966045E-1    9.138038424617170E1    -9.031666378720959E1    -1.202117018942125E2    -9.362126871744351E1    -1.702602174102491E2
                        -9.879747729790411E1    -1.556955040068158E2    -9.380223496158379E1     7.412637931793890E1    -9.016215578567195E-1   -2.850189232501100      -9.619049010870620E1     1.083513678358340E2
                        -8.291023158886775E1    -9.599337314710034E1    -8.553501405330707E1     1.373330691252738E2    -1.007400438080289E2     9.492937418005550E-1   -9.040371412885870E-1   -7.878760626081627

 3.007500000000000E7    -2.543798293570898E-1    1.024134091121543E2    -6.280607078171337E1     1.314212559296705E1    -7.968939617441082E1    -2.805989197373195E1    -8.135115663779850E1     1.356790436658258E2
                        -6.364398190965601E1     3.678154511053157      -1.845435246834166E-1    9.095942827710326E1    -8.786511562784014E1    -9.606819862539242      -8.238004919263942E1     8.397653678529611E1
                        -9.987025217589276E1    -1.016207633491897E2    -8.970914789677121E1    -8.538852567088840E1    -8.938929963451819E-1   -3.102985045385071      -8.717129964200649E1     1.031009375726074E2
                        -8.677278457134835E1    -9.467964866923096E1    -8.815419235060361E1     1.120601403645659      -8.800251954461844E1    -1.750767262628863E2    -9.010871833699131E-1   -8.157176137988653

 3.010000000000000E7    -2.509169076794239E-1    1.020956960762916E2    -6.252347433673027E1     4.871821492497611      -8.484024742793748E1     1.579058328707769E2    -8.782491839286615E1     1.742532531370652E1
                        -6.233787687278105E1     3.014831468650896      -1.852889954248507E-1    9.064271712015275E1    -8.777953017181530E1    -2.872114880359278E1    -8.509481611626683E1     1.521623525271868E2
                        -8.550926133810505E1    -1.260964313506188E1    -9.749294164079106E1    -1.702963870139421E2    -9.015682094160242E-1   -3.364671564909048      -8.296387647288769E1    -1.545199025124675E2
                        -8.333571563100833E1    -1.681866393728254E2    -8.854336959389374E1    -1.333779264453405E2    -9.097467414884943E1    -1.660689410844767E2    -8.991647072557939E-1   -8.455775983435075

 3.012500000000000E7    -2.560651497152116E-1    1.018301812522064E2    -6.285605374416998E1     9.550741328984843      -8.884560381724326E1    -1.058692721181012E2    -8.158637561043082E1    -1.722216323420147E2
                        -6.307594105462326E1    -9.009686697237871E-1   -1.812539732861827E-1    9.020595534268632E1    -7.986139558786695E1    -9.788536751511398E1    -8.557887842807558E1    -1.998006602883110E1
                        -8.700989353270978E1    -1.505285898305208E2    -9.291413919229696E1    -1.083588917423004E2    -8.941963248852647E-1   -3.689088253785073      -8.369041698427319E1     1.379102350930508E1
                        -8.350455573813554E1    -4.353205004379841E1    -8.813802312309504E1    -1.597172124694492E2    -8.471992704140473E1     7.254014691091935E1    -9.021086409599917E-1   -8.728495652476573

 3.015000000000000E7    -2.518352230264660E-1    1.014731400509708E2    -6.355118920216944E1     7.749253607608961      -8.707950967498374E1     1.753466174368262E2    -8.458551775794719E1     1.382881125550096E1
                        -6.297972465342336E1     4.981156966590353      -1.778055334974441E-1    8.984130518088509E1    -8.772569285853936E1     6.857428970838708E1    -8.692368549929756E1     3.843495826901964E1
                        -9.295230103229861E1    -3.804251570362807E1    -8.850376254872282E1    -8.204226249115790      -8.900795058028105E-1   -4.045001568687180      -8.852801615898302E1     2.577634176349149E1
                        -9.223349425694627E1     9.972323892428388      -9.130470468337650E1    -1.270406641534145E2    -8.453895842430283E1     1.091499133506708E2    -9.021431360562332E-1   -9.076324875533663

 3.017500000000000E7    -2.427179561759898E-1    1.011508735104772E2    -6.340386154042844E1     4.795191235395312      -8.347703620660769E1     1.592935143607607E2    -7.959537974184083E1     6.033283533137747E1
                        -6.266623283393216E1     6.069305789470483      -1.844062564525397E-1    8.944364354951144E1    -8.172098973219953E1     9.699493069635773E1    -9.146649347642099E1    -3.589092768568266E1
                        -8.292676133991179E1     6.581670527383112E1    -8.840596591849008E1     7.415816127407418E1    -8.920561117110758E-1   -4.273135468226896      -9.010864401608961E1    -9.945026399171024E1
                        -8.717021100327878E1    -1.540470364054886E2    -9.703637019864105E1    -1.224134452592290E2    -9.772328617180315E1    -1.132717070253472E2    -9.007928980902479E-1   -9.342904749385014

 3.020000000000000E7    -2.531225599840289E-1    1.008796225036815E2    -6.234489114172499E1     9.103510844813565      -9.614127407977264E1     6.759696126896684E1    -9.851995090563635E1     1.343774020802138E2
                        -6.241197110726478E1     6.078139131715730      -1.716139422183604E-1    8.912513014407085E1    -7.988697592278469E1    -1.330966706365755E2    -8.420519530813864E1     1.261426429392651E2
                        -8.259110999163281E1     4.684750329948234E1    -7.958105101500517E1    -7.625435988509055E1    -9.001255451337848E-1   -4.617980081258776      -8.605822341478488E1    -2.330590079210453E1
                        -8.861238087011175E1    -6.810070836763860E1    -8.103527580897188E1     3.434833879645903E1    -8.908045721501145E1     6.197424922069062E1    -9.008305681154372E-1   -9.681682225756065

 3.022500000000000E7    -2.485231538862995E-1    1.005479513335559E2    -6.334573427581361E1     8.314340937470004      -8.572239745627867E1    -9.842289459413624E1    -8.987122153478525E1     1.306750045437122E2
                        -6.303037947861164E1     1.305366035132793E1    -1.842396875607791E-1    8.870499565321164E1    -8.361829689411013E1    -4.558586925639207E1    -9.555865116334141E1     1.393816120671363E2
                        -8.994044652582329E1     1.188883977336722E1    -8.313597960385926E1     5.460488997587878E1    -8.960799965428241E-1   -4.857425404344236      -8.272235361936421E1     1.816655916486869E1
                        -8.348917543816859E1     1.644183147123580E2    -8.938092144636633E1    -1.294460224559003E2    -7.932404341349040E1    -1.214883247999315E2    -8.968409284343876E-1   -9.959687458028700

 3.025000000000000E7    -2.512592880254409E-1    1.003110815310752E2    -6.309705515333842E1     1.048473399869716E1    -1.048255487420090E2    -1.314390018249746E2    -8.607382246996799E1    -1.510925084969813E2
                        -6.182916101133700E1     5.966521714850608      -1.862158941583348E-1    8.835783873693576E1    -8.887893635086499E1     1.734255989916898E2    -8.854363617440913E1    -1.653979376348759E2
                        -8.356913466970852E1     6.862440514012762      -8.626645474426474E1    -1.083666721796563E2    -8.943926398216939E-1   -5.197711964103384      -8.356341391422043E1     2.291854130436498E1
                        -8.837975985728804E1    -4.206853637879473E1    -8.205114312447024E1    -5.331812052276537      -8.475227499423494E1    -6.415636456835588E1    -8.983308299429944E-1   -1.030192674954112E1

 3.027500000000000E7    -2.526269586429992E-1    9.998834509103497E1    -6.298163053621387E1     5.555933798692188      -8.708051092012097E1     1.154017351008272E2    -8.544189288240899E1     2.330270072805609
                        -6.286338710582088E1     6.556868220756316      -1.778423424714322E-1    8.789663034617811E1    -8.782250162774149E1    -9.601588219154275      -8.362350294540569E1    -6.838746486441417
                        -9.185128456082821E1    -1.738287750532485E2    -8.957551236164143E1     6.445728408026950E1    -9.023205366320335E-1   -5.459392374684272      -8.718650442064910E1    -1.629815750857257E2
                        -9.039146059169906E1    -1.692524659602291E1    -8.882684887533048E1     8.945154971223590E1    -9.957349295162204E1     9.033311850270381E1    -9.020273539122086E-1   -1.059402306005539E1

 3.030000000000000E7    -2.536205583337665E-1    9.969210241330902E1    -6.262467525190764E1     1.046811977521792E1    -8.508914711322879E1    -5.049807231821933E1    -8.595307590782026E1    -1.159967367392117E2
                        -6.371827264118024E1     9.385110139403212      -1.752454807792163E-1    8.752490487717407E1    -8.367924583507927E1     1.112726611887275E2    -8.412195051601356E1     1.102654830213959E2
                        -8.556174543126886E1    -1.462773430156982E2    -8.479647163892130E1     1.252566105885607E2    -9.042332773697317E-1   -5.749187213792213      -8.670241352449652E1     4.130770008736107
                        -8.730348768994958E1    -1.566198378054069E2    -9.424548631235125E1     1.202077847970337E2    -8.497439537131895E1     1.424975116044640E2    -8.982828773798091E-1   -1.087204359615252E1

 3.032500000000000E7    -2.444748193719626E-1    9.938735334715807E1    -6.328152595726905E1    -4.108298236766580      -8.318944199642425E1    -3.612493105022419E1    -9.638027805817669E1    -1.639943904819302E2
                        -6.267042939991282E1     2.277105258860289      -1.791768085484500E-1    8.715868785344254E1    -9.770500621083090E1    -9.282366491514523E1    -9.483283059614293E1     1.137624912285822E2
                        -9.458762589791803E1     1.100384260426032E2    -9.214613142925168E1    -2.133578556355647E1    -8.908964206188095E-1   -6.096812605768101      -8.216118786047849E1     4.322033215659619E1
                        -9.783391788444791E1     1.383513848472331E2    -1.004729118267601E2     2.882735743067565E1    -9.067762952540939E1     1.510312992985433E2    -8.938878047346401E-1   -1.116348829368221E1

 3.035000000000000E7    -2.468462385718736E-1    9.910799356885384E1    -6.248186328214518E1     4.843732379599656      -8.268621950563562E1    -9.664769002638335E-1   -8.604441259913308E1     1.608637307566033E2
                        -6.220979139040652E1     6.699241404269356      -1.788175030976325E-1    8.674786433299364E1    -8.921952567771690E1     6.943351870691740E1    -9.000144203812022E1    -3.991652453784754E1
                        -8.564729070204115E1    -5.554963575947075E1    -8.667639248869749E1    -6.538681328811579E1    -8.942423485311752E-1   -6.342039977730884      -8.982617544287169E1     1.763048306426107E1
                        -9.802011606887209E1     1.023222610061846E2    -9.746238159240446E1    -1.563406003927258E2    -8.525203437583772E1    -3.896126211791092E1    -9.048255250097237E-1   -1.145982104335952E1

 3.037500000000000E7    -2.449059520749234E-1    9.880231503151769E1    -6.191743368929703E1     3.209809269100422      -8.474516052131138E1     1.188661966335842E2    -8.915399426888084E1     7.263454662392508E1
                        -6.205275619297289E1     8.443237057526707      -1.747683152277753E-1    8.633385140780281E1    -9.364205824662938E1     9.521860360814434E1    -8.367384951382766E1    -1.334892560756652E2
                        -9.128379727212989E1    -9.377350767746714E1    -8.411142643931576E1    -7.000576416824332E1    -8.956134695536194E-1   -6.670129713739287      -9.240784369101000E1     5.775407710495149E1
                        -9.087767500067395E1     1.630927228687777E2    -8.421399200584779E1    -1.180864689459916E1    -8.962787695599515E1     1.503662300199167E2    -8.997423323482540E-1   -1.177416790659394E1

 3.040000000000000E7    -2.490596116642668E-1    9.852315787160796E1    -6.170360689477629E1     3.029518423525172      -8.698587029747756E1    -9.827622503373999E1    -9.884248802657436E1     7.515857750363889
                        -6.225429113597684E1     3.069370703614980E-1   -1.753101339297447E-1    8.598431747936422E1    -8.191821116371619E1     2.718557871949013E1    -7.885985777777927E1     6.317155445588190E1
                        -8.619990171389554E1     1.439939874459180E2    -8.884093806856852E1    -7.953261720408781E1    -8.948363130502589E-1   -6.927676486427361      -8.825651073078004E1    -1.605195190078816E2
                        -8.867551978187136E1    -1.521932602145872E2    -9.457826733441918E1    -8.768750328517450E1    -8.833873653083163E1    -1.628013516201861E2    -8.977019626078785E-1   -1.203696514915634E1

 3.042500000000000E7    -2.480907909000805E-1    9.817344189714697E1    -6.208463445022581E1     6.570455799415686      -8.199633054006291E1     6.000158819867397E1    -8.654561969139638E1    -2.365972148961444E1
                        -6.089629940566833E1    -8.272381245901161E-1   -1.808886451274396E-1    8.562356774656735E1    -8.300998238054743E1    -1.529867723033340E2    -8.769567468706765E1    -8.075022748005637E1
                        -8.178902661370529E1    -3.638119739621988      -1.050888620793055E2     3.392397304193002      -8.901106982493995E-1   -7.244319572121261      -8.984726669944222E1     1.179643955916489E2
                        -9.333364797079659E1     1.001867502666462E2    -8.262669214425877E1    -5.836588075826961E-1   -1.039924521141956E2     8.876498610735905E1    -8.979921999462742E-1   -1.235538160643282E1

 3.045000000000000E7    -2.462557701514690E-1    9.790285035269147E1    -6.176517260406889E1     5.241555864146415      -8.731942427693925E1    -2.186224611604604E1    -8.619528822961877E1     6.919508135026221E1
                        -6.262211886855170E1     3.400086963323458      -1.760253610804088E-1    8.523210481611497E1    -8.792801745134371E1    -5.483903772474745E1    -8.298394778092928E1     5.018952340361215E1
                        -7.981625538126889E1    -1.767265909736254E2    -9.585223279931556E1     2.626788022787904E1    -8.883611167115082E-1   -7.563731154377594      -8.794523098184499E1    -6.874706377433361E1
                        -8.771181859501198E1     1.249559057749237E2    -8.099189939067422E1     1.631415837148619E2    -8.841947252902421E1     1.362099321296409E2    -8.992733370108677E-1   -1.265887012780797E1

 3.047500000000000E7    -2.481955384121421E-1    9.759274843167636E1    -6.162827147323463E1     8.153138057163011      -8.140676029973399E1     5.788064898506030E1    -8.366260206142614E1    -1.537682030976365E2
                        -6.131299370998286E1    -1.081884716650026      -1.770957950026401E-1    8.479977707532352E1    -7.847541073582242E1    -2.547575604464474E1    -8.407343041205012E1    -8.394603516717501E1
                        -9.016204698796943E1     1.183841195638955E2    -8.470671012905696E1    -1.565868324820804E2    -8.901224591423956E-1   -7.813565100166175      -8.079947426462408E1     4.812488128626818E1
                        -8.614499918609495E1    -1.266415857606139E2    -7.987899623240851E1     5.110285664553520E1    -8.839959691883976E1    -1.078460545691913E2    -8.957015365657808E-1   -1.302242430451280E1

 3.050000000000000E7    -2.429077215223801E-1    9.729667743481922E1    -6.182348704659898E1    -1.319822128691295      -9.460923360237123E1    -5.759145762551029E-1   -8.363220818282534E1    -1.495726246048519
                        -6.185782776143644E1     7.256327071708881E-1   -1.678946120607787E-1    8.443877758166043E1    -8.849067120780178E1    -1.743828253210754E2    -1.031860976622152E2    -8.082679577584884E1
                        -8.934355061613034E1     5.084062996196217E1    -9.405144470527738E1     3.587581405974682E1    -8.957955973213594E-1   -8.078099579382885      -8.555407486496948E1    -7.079706158516909E1
                        -8.760289767729702E1    -1.449285396838145E2    -9.900065497816482E1    -1.716236591219130E2    -8.805458336586754E1    -6.445846392476788E1    -9.027014753698026E-1   -1.325990088571364E1

 3.052500000000000E7    -2.430014793855697E-1    9.702829230066435E1    -6.168502268903966E1     2.735217590892557      -8.456975614667951E1    -4.977135718934795E1    -9.405381776766647E1     2.844617578932218E1
                        -6.131276980760773E1     2.570556122558628      -1.757851007566753E-1    8.404267902681366E1    -9.306512123360113E1     1.058904101772925E2    -8.695868459379912E1     1.669838930110908E2
                        -8.433451505411267E1     1.279500155475305E2    -8.367201848650902E1     5.171797927260986E1    -8.913626178506368E-1   -8.423921478437277      -1.012524240561645E2     1.517406906108561E1
                        -8.508678630435014E1     1.318888367567015E2    -9.357650834873988E1     6.115676033630581E1    -8.288484970702552E1    -1.444239820473368E2    -8.949838674556923E-1   -1.354374443708644E1

 3.055000000000000E7    -2.471178486283815E-1    9.668741297433682E1    -6.208174896826879E1    -4.249586517685721      -8.868435461838544E1     7.516479222524839E1    -9.189482885588681E1    -1.040516662125204E2
