#  HZ   S   DB   R     50.00 
! Rohde & Schwarz Vector Network Analyzer 
! Rohde-Schwarz,ZNB8-4Port,1311601044102961,2.82
! Created: UTC 2/8/2019, 2:44:49 PM
! freq[Hz]                db:S11                  ang:S11                 db:S12                  ang:S12                 db:S13                  ang:S13                 db:S14                  ang:S14
!                         db:S21                  ang:S21                 db:S22                  ang:S22                 db:S23                  ang:S23                 db:S24                  ang:S24
!                         db:S31                  ang:S31                 db:S32                  ang:S32                 db:S33                  ang:S33                 db:S34                  ang:S34
!                         db:S41                  ang:S41                 db:S42                  ang:S42                 db:S43                  ang:S43                 db:S44                  ang:S44
! 
 5.525000000000000E7    -3.849915365367051E-1    1.014140663657720E2    -2.935003065835279E1     8.889040585416622E1    -9.288809729575634E1    -6.892199151734633      -8.907796404594096E1    -6.722847277646444E1
                        -2.927050382167259E1     8.884830027733169E1    -2.891463969730188E-1   -1.032250011884982E2    -8.137242012847588E1    -9.632320478868608E1    -6.931167033581197E1    -1.196865494431314E2
                        -9.573729692488692E1    -1.263135392720132E2    -8.041462571017492E1    -1.701605740057149E2    -1.366302584327376       4.159085683226731E1    -8.312781044729033E1    -4.492041495868242E1
                        -9.776235227248753E1    -1.020951681359361E2    -6.962611503326825E1    -1.290788058323026E2    -8.607936218211663E1    -1.656910766752938E2    -1.379163441453231       4.839100663750303E1

 5.525025000000000E7    -3.832390017599291E-1    1.014244304032997E2    -2.932597893643264E1     8.871190577439147E1    -8.390891865854232E1    -1.441144156781027E2    -8.079778818892464E1     1.114206428603802E2
                        -2.942821378465752E1     8.929499409911462E1    -2.884542456536547E-1   -1.032243285154546E2    -8.466233260998978E1     1.347907037467589E2    -6.959893828501953E1    -1.132809405826547E2
                        -8.484815920477539E1    -1.273763324402892E2    -8.359391713523516E1    -5.676761566950843E1    -1.371632124281108       4.161290217507479E1    -8.333327379158064E1     9.725787948243735E1
                        -8.602886534382506E1     6.751709503572410E1    -6.963536010707361E1    -1.137981557306314E2    -8.548919061833081E1    -6.648539462654892E1    -1.379282870798689       4.835062698625991E1

 5.525050000000000E7    -3.759225556586399E-1    1.013937985948803E2    -2.932099052441086E1     8.829221389219316E1    -8.648714741723322E1     5.424973210693010E1    -9.089758962016960E1     1.642244760061133E2
                        -2.924105660978914E1     8.916638060270002E1    -2.881614045043261E-1   -1.032714034059848E2    -9.551552831276601E1     1.796105583925735E2    -6.801004403979484E1    -1.204101291003355E2
                        -1.000619941462853E2    -5.425227511655754E1    -8.695252338220747E1    -1.031149545490498E2    -1.370651022011869       4.156894346393631E1    -8.805816239949346E1    -7.402961822624914E1
                        -8.413162093452957E1     1.478188218145197E1    -6.939869520097803E1    -1.176168897609576E2    -8.528874180466714E1    -4.098758953315240E1    -1.383348113133267       4.834824584527987E1

 5.525075000000000E7    -3.814209200599197E-1    1.014434057592514E2    -2.930712293781420E1     8.874524303947119E1    -8.655641523257484E1    -1.785898920538828E2    -8.221029194107331E1     7.558709079154609E1
                        -2.923468065171345E1     8.895441787837029E1    -2.843386890095237E-1   -1.032690637201461E2    -8.200033477450269E1    -9.091827832525031E1    -6.888310024326690E1    -1.264448119467132E2
                        -8.898181447619569E1     7.551168492668720E1    -8.980405529290989E1    -1.382179434289340E2    -1.365719133896667       4.158415342248296E1    -8.940457317642093E1    -6.168974615785199E1
                        -8.759979244333499E1    -1.525771472790001E2    -7.220088050384126E1    -1.221968555338218E2    -8.906561582182056E1     1.950948666893464E1    -1.377931452619616       4.834898618007528E1

 5.525100000000000E7    -3.813931824690813E-1    1.014054877067756E2    -2.929009268930122E1     8.903761249608718E1    -8.671117589030254E1    -8.298943707985087E1    -8.739373397366626E1    -1.456792231660928E1
                        -2.927186766874885E1     8.900925398615885E1    -2.898615758105800E-1   -1.032703966776692E2    -8.539101591392816E1    -5.034925471761068E1    -6.924545698069829E1    -1.227847130874297E2
                        -8.746991916066492E1     6.436417993638911      -8.428821612650773E1    -4.290683670505104E1    -1.366518097111616       4.158029480824234E1    -8.999811883915294E1    -1.465340294259044E2
                        -8.960069027781435E1    -2.144074536760249      -6.953600386318826E1    -1.155408741036659E2    -9.068091099982149E1     1.214057131257848E2    -1.380505663315337       4.835818903156328E1

 5.525125000000000E7    -3.772228716627480E-1    1.013916010164540E2    -2.928413639308322E1     8.918173684200866E1    -9.306395585307065E1    -8.432144961509678E1    -8.020047058755378E1     6.715483220393219E1
                        -2.935198572765429E1     8.856003633095386E1    -2.849982135877708E-1   -1.033178761247199E2    -9.763871449717834E1     1.722979293644491E2    -6.884709055273952E1    -1.239402170569013E2
                        -8.477625547042486E1     4.783276189237744E1    -8.263739927467825E1    -1.124320620211108E2    -1.368529602707096       4.159836719653715E1    -9.686378401007576E1    -1.274478452178616E2
                        -9.542493932770726E1     8.787610465920945E1    -6.908290182060269E1    -1.258869480119214E2    -8.526108875140358E1    -1.590328983570037E2    -1.377558624710988       4.835286888822756E1

 5.525150000000000E7    -3.770209233949150E-1    1.013731567962992E2    -2.939416678011062E1     8.900791289233926E1    -7.963184779192564E1     1.609085945458018E2    -9.340713424628916E1     1.623925292172664E2
                        -2.932384355569623E1     8.854172200035684E1    -2.853377034745012E-1   -1.033422381463840E2    -8.495800510817495E1     1.793117704169484E2    -6.953550342099990E1    -1.263539171121914E2
                        -9.721753015883462E1     1.646220739027237E2    -8.209491296454962E1     1.714616925801048E2    -1.368240532331906       4.158342282657054E1    -9.671254494195637E1     1.518752552460875E2
                        -8.209680576693906E1     8.938364428921057E1    -6.937604233188064E1    -1.229127545871244E2    -8.588965300233063E1     4.286734210536439E1    -1.377743175137482       4.834851565027628E1

 5.525175000000000E7    -3.792966859764380E-1    1.013769372676956E2    -2.930847174912989E1     8.874298329366482E1    -8.619653174685917E1    -1.530127310763790E2    -9.094039757763242E1    -1.206473254652380E2
                        -2.932951392765126E1     8.886408036185671E1    -2.856201415313963E-1   -1.033271573913809E2    -8.171911670755485E1    -9.552217461395271E1    -6.894589074472164E1    -1.143249063623006E2
                        -8.568878542368958E1    -7.694865277385366      -8.153746815559907E1    -1.167993335715857E2    -1.369007754194700       4.157754531330352E1    -8.126019092477554E1    -6.692556698238893E-1
                        -9.359578980588508E1     1.672935750263657E2    -6.920850879219131E1    -1.191591080547407E2    -8.956064488546225E1    -1.003715563461925E2    -1.372503198573343       4.834202624877712E1

 5.525200000000000E7    -3.769391865140787E-1    1.013828752498864E2    -2.928816448468469E1     8.838260660913142E1    -8.751015509472587E1     1.776605749288877E2    -8.150347275300197E1    -1.549843470253028E2
                        -2.927934542151105E1     8.886718952386356E1    -2.861861103712852E-1   -1.033970985886880E2    -8.180628012058529E1    -1.074997697763145E2    -6.822633145831426E1    -1.140040454902598E2
                        -8.730000028055164E1     7.831977961686104E1    -8.173134056738343E1    -1.109723156197144E2    -1.369983242270474       4.155989625497078E1    -9.248993421048191E1     1.513319129801531E2
                        -8.523808006115604E1     6.578629598356078E1    -7.051556945516667E1    -1.235902028409575E2    -8.426270068215507E1     1.529752403673714E2    -1.378903294549467       4.834571743743673E1

 5.525225000000000E7    -3.825223332657131E-1    1.013626678122103E2    -2.936463230350869E1     8.924712565934689E1    -8.312704095632667E1     3.229072785472037E1    -8.615453818216544E1     1.506567231120814E2
                        -2.933708475128318E1     8.866047770897004E1    -2.884088621667348E-1   -1.034274592856345E2    -8.234797425390049E1    -1.263070349647478E2    -7.091555181911207E1    -1.239258945951960E2
                        -8.055506442848787E1    -1.744905845050527E2    -8.936646003403082E1    -1.317691242621199      -1.369335974066757       4.158361768231429E1    -8.092675558478256E1    -8.716345866339577E1
                        -8.800710765864999E1    -7.954770562295308E1    -7.158358073341516E1    -1.217045486324951E2    -8.887694219879126E1     1.635637377634404E2    -1.384585536174862       4.835741209696476E1

 5.525250000000000E7    -3.778986142144263E-1    1.013713229616190E2    -2.929414964598344E1     8.878947368256424E1    -8.958434808135047E1    -1.528001029070036E2    -8.438298973948891E1     1.227692499581756E2
                        -2.928344191149054E1     8.851751076863367E1    -2.874231574741490E-1   -1.034176277480251E2    -8.103949343712897E1    -8.051032119515099E1    -6.713609612349093E1    -1.226593396001741E2
                        -8.344039007527769E1     3.133018530462923E1    -9.160624165044010E1     4.985063281871071E1    -1.364491186621506       4.154617222377836E1    -8.030393795778844E1     9.862283934942521E1
                        -8.369153540167551E1     3.113986300590221E1    -6.964298308088812E1    -1.186096935740133E2    -8.381865069549770E1    -1.322782326041988E2    -1.376395077738206       4.833871634742371E1

 5.525275000000000E7    -3.768495351260038E-1    1.013789737823267E2    -2.924261586675058E1     8.880341091502312E1    -9.419762167002259E1    -1.772934073149135E2    -9.096155900107418E1    -1.957105359907979E1
                        -2.928568968280572E1     8.931822041080774E1    -2.823509776744470E-1   -1.034193917501171E2    -8.265580266838084E1    -8.483210899047204E1    -7.077964402438713E1    -1.140089785773001E2
                        -8.776729658463049E1     2.764377009711901E1    -9.139613557762998E1    -6.647141370152836E1    -1.364218284434506       4.157699402628476E1    -8.852541773955024E1    -8.861796968670457E1
                        -8.553291815684216E1     1.704619606914282E2    -6.975440229955649E1    -1.229536386725385E2    -8.086758901675259E1    -4.984142244504668E1    -1.380522851693070       4.832217997442642E1

 5.525300000000000E7    -3.826309736371642E-1    1.013580164417902E2    -2.932828624746946E1     8.891990702789938E1    -8.820674852139126E1    -1.541431496395953E2    -9.171568359815035E1     2.046002819641434E1
                        -2.932172609093324E1     8.918936307315919E1    -2.888212987513347E-1   -1.034408489353336E2    -7.840857989583608E1    -2.924503354820965E1    -6.867534781944740E1    -1.243474422326429E2
                        -9.033763560656726E1     1.764603586975860E2    -8.645778494301828E1    -1.286153420427874E2    -1.366537975351895       4.158026535903201E1    -9.388215719913535E1     8.689773115517944E1
                        -9.322002379894596E1    -1.436080101672599      -6.956298384201632E1    -1.192519712989706E2    -8.302851992238507E1     1.177518432508444E2    -1.384398605439015       4.834902268094713E1

 5.525325000000000E7    -3.751388002120206E-1    1.013271224194692E2    -2.931017300479937E1     8.859468381759305E1    -8.043222207847586E1    -1.746246424876114E2    -8.683428809921145E1    -2.839373793283865E1
                        -2.927758075568802E1     8.878161860925577E1    -2.897642830772383E-1   -1.034673514914027E2    -8.593822267272228E1    -7.192255058672036E1    -6.976245134215655E1    -1.143922823800415E2
                        -8.109493321362297E1     1.350959258157977E2    -9.839773300128283E1     1.068664361612625E2    -1.363522302186104       4.156515861213713E1    -9.144600080638398E1    -1.391348492795278E2
                        -1.129403937247508E2    -1.342221585213619E2    -7.108953555682147E1    -1.237611141708529E2    -9.154789919377775E1    -4.866972368557726E1    -1.383215615458229       4.830584537244150E1

 5.525350000000000E7    -3.810868993042402E-1    1.013593108665183E2    -2.926706702123374E1     8.927762587545084E1    -9.811694483426940E1     3.731310261192591E1    -8.947152537261276E1    -3.305207907897250E1
                        -2.931321932083305E1     8.878991562893889E1    -2.895460535957977E-1   -1.035138785213403E2    -1.019316840830742E2    -6.037348139388027E1    -7.010251899242698E1    -1.343922820125578E2
                        -8.975759799703289E1     1.613284559817732E2    -8.459964509479732E1    -1.970884683230922E1    -1.368504438083375       4.155903402072501E1    -9.052841523288386E1    -1.123111015036478E2
                        -8.379206039761817E1    -2.936640398269607E1    -6.819896043262106E1    -1.298387630689081E2    -9.011649339112529E1    -1.644061379750504      -1.379431055476497       4.833537387302363E1

 5.525375000000000E7    -3.778839214986194E-1    1.013406736276872E2    -2.928554317591092E1     8.891402601608242E1    -8.561178920612464E1    -1.787556427965650E2    -7.804023981473526E1     4.161981415393640E1
                        -2.936669115306489E1     8.865865487779244E1    -2.883640925062722E-1   -1.034934237740020E2    -8.151754725456840E1    -1.290301408009844E2    -6.828170657610070E1    -1.191374911346552E2
                        -8.707390454324253E1     6.190725165018352E1    -8.729237935276333E1    -1.508103373381207E2    -1.359091724217897       4.153861111825926E1    -8.552897303206134E1     1.484220362130062E2
                        -9.260747128680025E1     2.798947460994474E1    -6.949121395471748E1    -1.195164372870967E2    -8.932245929490992E1     9.849753039270135      -1.381411866755288       4.831272268840842E1

 5.525400000000000E7    -3.814854132357211E-1    1.013594653616490E2    -2.939564618335207E1     8.850183126234563E1    -7.885824281488121E1     1.033714952652790E2    -8.152282891406600E1     1.778854242079626E2
                        -2.935562777034188E1     8.879310000291471E1    -2.883612511670385E-1   -1.035229692700471E2    -7.508451870234589E1    -1.198707397180393E2    -6.929991748332215E1    -1.235657707453056E2
                        -8.486398603464690E1    -1.148475727136419E2    -8.785678210222756E1    -3.871754641920814E1    -1.360367723983182       4.155180003671526E1    -9.221810234978760E1    -1.091750666154629E2
                        -8.319804076341805E1    -1.188825209159433E2    -7.011717612745868E1    -1.324442283145401E2    -8.118913875383467E1    -1.268984922334017E2    -1.379581706409389       4.831898862394998E1

 5.525425000000000E7    -3.802345688436875E-1    1.013421096355301E2    -2.932127413229218E1     8.838301880345384E1    -9.617086906470469E1     1.628403126981437E2    -8.819033913152323E1     5.344643516495908E1
                        -2.924367358229083E1     8.869919142505812E1    -2.890899969079184E-1   -1.035545891199753E2    -8.646393183991798E1    -3.414299668154142E1    -6.855941737981053E1    -1.175838511048613E2
                        -8.361172176381771E1     1.762937747148214E2    -9.003428309957687E1    -1.161779954859072E2    -1.368647970320546       4.155775535582438E1    -8.533249222112468E1     1.421192892639271E2
                        -9.255555852481334E1     1.413795460412561E2    -6.919304377677071E1    -1.172889163450933E2    -8.900522868667180E1    -1.368657242932516E2    -1.375802945767484       4.832439276367900E1

 5.525450000000000E7    -3.775444488806210E-1    1.013393166456655E2    -2.918808194684731E1     8.860888875039275E1    -8.249648516936847E1     3.181226835707954E-1   -9.172729881245859E1     1.299781213179943E2
                        -2.931710241567772E1     8.939204810363097E1    -2.881938417848055E-1   -1.035811380579898E2    -8.094665979072605E1     9.538342774667245E1    -7.036925493327611E1    -1.122684903918457E2
                        -9.436647052583625E1     5.204016336882448E1    -8.285693684710540E1    -1.168492823382555E2    -1.365158961899404       4.156709562297296E1    -9.134434403593895E1    -9.317317267798573E1
                        -9.392796072933581E1    -7.525963361809360      -6.948374076225309E1    -1.145623726503114E2    -8.276501585675504E1    -2.443698939945072E1    -1.378173118107059       4.830295637021625E1

 5.525475000000000E7    -3.835820289233997E-1    1.013299804094683E2    -2.925947182919541E1     8.862644771724511E1    -9.250379710741672E1     7.302517320094623E1    -1.208736611729141E2    -1.528762657418644E2
                        -2.925298101842804E1     8.777538231717594E1    -2.872255647449039E-1   -1.036006811477114E2    -8.502529593725173E1    -1.538700676933092E2    -6.977763187971024E1    -1.259863289757144E2
                        -8.500014057887981E1     8.839384890020479E1    -8.066153423697801E1    -1.297422178008206E2    -1.363417266695416       4.155362492960894E1    -8.968969546531866E1     1.294487753568175E2
                        -8.243048449468276E1    -5.718989679745869      -7.241178002252246E1    -1.180794232422524E2    -8.211157838236532E1    -1.066450070377801E2    -1.376156268559069       4.833825407274142E1

 5.525500000000000E7    -3.784951490384313E-1    1.013120447679104E2    -2.930229945525512E1     8.874294027229630E1    -7.903158161163032E1     1.613672396649311E2    -8.351850968013252E1    -8.768900655598485E1
                        -2.938836917075129E1     8.903092737466804E1    -2.895068133174867E-1   -1.036243015583145E2    -9.577959773165078E1    -6.645055246771022E1    -6.930299208552144E1    -1.170915660694064E2
                        -8.783408826991725E1     2.430088929506276E1    -7.990872439305056E1    -8.805095438051815E1    -1.362659057656367       4.157741635282848E1    -8.740497122763502E1    -1.797382477451397E2
                        -1.012625679682097E2    -1.271437788733848E2    -6.829502057268260E1    -1.178903359980183E2    -8.156217472168805E1    -1.191445257447821E1    -1.381010963280951       4.832805203362166E1

 5.525525000000000E7    -3.744729845879629E-1    1.013177295188021E2    -2.924133304571865E1     8.864712645272552E1    -1.024626131437351E2    -1.129971726569597E1    -9.245425904765661E1     1.709516306057892E2
                        -2.922702425301332E1     8.849916086486067E1    -2.856997464280676E-1   -1.036410221330007E2    -8.387793729503235E1    -8.513883190627379E1    -6.874232315661178E1    -1.225401199890422E2
                        -8.599049568446463E1    -7.181371785093010E1    -8.015385193755515E1    -8.860112349429360E1    -1.363780353180222       4.152453855728736E1    -9.459044014494836E1     9.951772525061317E1
                        -8.673628748930364E1     1.090232975324118E2    -6.986507869107372E1    -1.151555018490643E2    -8.523474885489637E1     1.742712162840845E2    -1.377344510038553       4.832873975227588E1

 5.525550000000000E7    -3.767790311510821E-1    1.013084886938005E2    -2.931497822484208E1     8.862399335195244E1    -9.248620956361059E1     7.358725852912153      -8.857450740302370E1    -1.338622111207501E2
