#  HZ   S   DB   R     50.00 
! Rohde & Schwarz Vector Network Analyzer 
! Rohde-Schwarz,ZNB8-4Port,1311601044102961,2.82
! Created: UTC 2/8/2019, 4:11:41 PM
! freq[Hz]                db:S11                  ang:S11                 db:S12                  ang:S12                 db:S13                  ang:S13                 db:S14                  ang:S14
!                         db:S21                  ang:S21                 db:S22                  ang:S22                 db:S23                  ang:S23                 db:S24                  ang:S24
!                         db:S31                  ang:S31                 db:S32                  ang:S32                 db:S33                  ang:S33                 db:S34                  ang:S34
!                         db:S41                  ang:S41                 db:S42                  ang:S42                 db:S43                  ang:S43                 db:S44                  ang:S44
! 
 3.000000000000000E7    -2.486327548990663E-1    1.051152318550502E2    -6.730750856230065E1     9.993016236893451      -9.479267108803569E1    -1.153631175399678E1    -8.236621047743414E1     5.955129184613145E1
                        -6.681844779202024E1     1.684864468294978E1    -1.703275818390836E-1    9.218421900181205E1    -8.651590178295663E1    -1.144562736215154E2    -8.599564949218681E1    -3.526311743397031E1
                        -9.052584150256648E1    -4.295247766677052E1    -8.519670611877663E1     8.065404864219217E1    -8.956690006248307E-1   -2.254935238085234      -8.913740117236020E1     8.445300216648404E1
                        -8.362120115039693E1    -1.519731735574292E2    -8.516266880419846E1    -1.761340841192301E1    -9.627219991556262E1    -9.425389785663067E1    -9.005579485584726E-1   -7.269796528965998

 3.002500000000000E7    -2.379049304961689E-1    1.047501929080458E2    -6.635086056467132E1     6.653676348788367      -9.514769266135625E1    -1.533179553046990E2    -8.982789401048521E1    -3.408417963679165E1
                        -6.697385639201242E1     4.845639343261883      -1.736772988170822E-1    9.179325133293305E1    -9.221378391379051E1     6.727201430705431E1    -7.819303693970508E1     1.746538495525266E2
                        -8.946968086342747E1     6.297948655860526E1    -8.508128271026419E1     1.601234530517341E2    -8.961200005049536E-1   -2.567213485239158      -8.490957699071215E1    -6.788484064404005E1
                        -8.499400097796006E1     1.307681301289858E2    -8.556126221066889E1    -1.615579867581283E1    -9.472199216162464E1    -3.860700074893697E1    -8.980746205929368E-1   -7.559001374015247

 3.005000000000000E7    -2.440091123486827E-1    1.045220533579002E2    -6.954664734560831E1    -4.493745141306127      -8.306598000399424E1    -2.752854733735897E1    -9.067382138666042E1    -8.154799756612292E1
                        -6.674795363765405E1     1.056029769388784E1    -1.638523033224748E-1    9.142816549423934E1    -7.774482757428018E1     1.599407480920079E2    -8.454409939650084E1     5.260423912612473E1
                        -8.549731903820873E1    -8.433694282381669E1    -7.989899723085668E1    -2.539633402038196E1    -8.991114692357136E-1   -2.843093458089662      -8.654568226141237E1    -6.591321760511161E1
                        -8.553228813768320E1     8.936192056097993E1    -8.813177803655650E1     2.031908928618054E1    -7.857965515842535E1     8.715745858289564E1    -8.990764208005204E-1   -7.840342587951654

 3.007500000000000E7    -2.434381059023099E-1    1.041271401248571E2    -6.647318977794284E1     2.180191784379100      -8.174367670064555E1     1.174828223788158E2    -8.883680104023318E1    -1.160692821173625E2
                        -6.752473512549426E1     3.094297188733920      -1.684774142256293E-1    9.099087411991519E1    -7.798736901706468E1     1.086982607990229E2    -9.038244728953609E1    -6.158153052703537E1
                        -9.053101763907779E1     9.460320961403727E1    -8.193729011125743E1    -1.714880106476443E2    -8.949192888967826E-1   -3.142099164157189      -9.339871585675711E1     1.201624003350766E2
                        -1.070758215634827E2     1.191286181049430E2    -8.807125306929763E1     1.439381025171666E1    -9.171296752787897E1     4.801074928153248E1    -8.951535191715545E-1   -8.167146009860176

 3.010000000000000E7    -2.341729389261764E-1    1.038955948558234E2    -6.902289525651072E1     8.808550377092285      -9.455387562916316E1     8.892755284512380E1    -8.069674613198717E1    -4.475777361071268E1
                        -6.849575900519237E1     6.357188084787091      -1.707499048716191E-1    9.069130701873225E1    -8.959066632281493E1     3.159733202597526E1    -1.016239047449451E2    -9.690675419755274E1
                        -8.958431245642571E1    -5.305108008156935E1    -8.688666580221765E1    -1.100626026814163E2    -9.068384920638574E-1   -3.432885326944652      -7.945989089562774E1     1.507725560789233E2
                        -8.254496439222949E1     5.902131896586482E1    -9.141603277185396E1     1.167208645032087E2    -8.729379800328049E1    -1.541694411833918E2    -8.963075056407794E-1   -8.446485257813702

 3.012500000000000E7    -2.427728529892038E-1    1.036035153395588E2    -6.761068869736610E1     1.089591215742076      -8.557945190340348E1    -6.718777205746788E1    -8.594417496301551E1    -2.046391496817759E1
                        -6.754564411829797E1     6.591805186019508      -1.723238789626281E-1    9.032358967930524E1    -8.352318693137423E1    -1.410292338709402E2    -1.063899696962548E2     1.123274325926418E1
                        -8.661398412056707E1     1.774680912785197E2    -8.927862841100655E1     1.696278082190025E2    -8.913735822653222E-1   -3.740547817934142      -7.910025289656679E1     9.771436213884395E1
                        -8.705061471180109E1     1.357757654574500E2    -8.521131976880221E1    -7.730556598375878E1    -9.363170384728286E1     1.041224114048462E2    -9.012363861491028E-1   -8.763662208720458

 3.015000000000000E7    -2.393547854230562E-1    1.032567728969340E2    -6.745094783324959E1     1.142758745103908E1    -8.859011206117536E1     1.220873278500742E2    -8.247666332576404E1     1.067801232166193E2
                        -6.864466958486625E1     3.801414934135246      -1.735798497193101E-1    8.989262726320587E1    -9.290165918301855E1    -4.533807012349411E1    -8.645357731211804E1    -3.994792219242108
                        -8.196317906141221E1    -2.729013979468947      -8.283193707582259E1     1.534532821682827E2    -8.975659052357436E-1   -4.041078905090527      -8.631173404864538E1     1.115180460962892E2
                        -8.890773614846862E1    -2.867044956916597E1    -8.460391415847896E1    -1.557385572995946E2    -8.764026205438064E1     1.593281848261374E1    -8.983582608438134E-1   -9.072124955888787

 3.017500000000000E7    -2.379160183740036E-1    1.029697645231985E2    -6.754876410373993E1    -7.214405100067940      -9.674968073907840E1    -2.493153830008897E1    -8.619127113647841E1    -6.038195868304006E1
                        -6.717724870850550E1     1.729955348982287E1    -1.745904806978757E-1    8.949420097090507E1    -8.231909538596271E1    -1.067522702748034E2    -8.414609791048216E1    -1.046668359458876E2
                        -9.254076861806254E1     1.677396994220091E2    -8.255236184221936E1    -9.598505758050789E1    -8.960015720851612E-1   -4.325495500295540      -8.405185711922805E1    -1.576880851009035E2
                        -8.191820574007481E1     4.958607751092880E1    -8.440033863158446E1    -1.745566797025380E2    -8.262115967877593E1     5.562351343915186E1    -9.002986184769140E-1   -9.356593479668163

 3.020000000000000E7    -2.347732800494849E-1    1.027154520255602E2    -6.715297046438033E1     8.791868619194219      -8.674936627877219E1    -1.002390953113410E2    -8.305570958544472E1    -1.313421091090614E2
                        -6.787498997315664E1     5.912100321904929      -1.641101833255050E-1    8.913980787255463E1    -8.741458422615025E1    -4.659974727518767E1    -8.909267077384067E1     1.359789066535778E2
                        -8.703260799912542E1    -7.852995766806137E1    -8.724882077163110E1    -1.172819179145473E2    -8.976093326176131E-1   -4.620093992884319      -9.112408729925537E1     4.127412766248234E1
                        -9.352543970597795E1     9.864810895073015E1    -8.869652692734562E1    -9.035702956901534E1    -9.362496734225019E1     1.637707996550392E2    -9.005457619965478E-1   -9.721615427848382

 3.022500000000000E7    -2.440313294395608E-1    1.023776233400908E2    -6.658792918994007E1     1.211066008713372E1    -8.035391596086720E1     6.018841824379872      -8.626306946776458E1    -4.714925041731392E1
                        -6.777968466682484E1    -3.324433938156660E-1   -1.705999848963246E-1    8.875555774894247E1    -8.399862740175226E1    -3.171708508162719E1    -8.435478565644928E1     1.191445348776711E1
                        -9.492595972462310E1     1.085321696608395E2    -7.962648353361300E1     1.246267232091967E2    -8.957883994591900E-1   -4.917162152340348      -9.005984337486660E1     1.788323395014437E2
                        -8.861375591348340E1    -6.902899552005138E1    -9.259352412183654E1    -1.570593405481322E2    -8.981724645191989E1     1.762215856200407E2    -8.981468561234850E-1   -9.971955671137655

 3.025000000000000E7    -2.440191413476353E-1    1.021374374231142E2    -6.789209272884976E1     8.912814502197385      -8.944397463553854E1     1.076854639694838E2    -8.774010065187548E1     1.717922994927201E2
                        -6.822781215894621E1     2.138365542226576      -1.729352374543190E-1    8.839161903717336E1    -8.736221524686312E1     8.163965723972871E1    -8.558581878926681E1     4.288297752376349E1
                        -8.721645030092716E1     1.232944450961322E2    -9.806540581569405E1     1.521265998142492E2    -8.914693850734633E-1   -5.170809630552233      -8.395331352001833E1    -5.350144874291889E1
                        -8.082580098169999E1    -2.922774833755430E1    -9.543657842254368E1     4.168512991965385E1    -8.090703448973210E1     1.667253412836519E2    -8.984538451475310E-1   -1.029150047460977E1

 3.027500000000000E7    -2.369840377574974E-1    1.018393921503008E2    -6.748848184607654E1     9.689116882179565      -8.384918793728197E1     1.225346517994306E2    -9.106576600409342E1     1.766324698725079E2
                        -6.789701901118256E1     4.908291775923464      -1.688479025053151E-1    8.795534550354483E1    -8.449666355137693E1     4.918392058941841E1    -9.640930653435663E1    -1.132169849335610E1
                        -1.073084758082346E2     1.647940071786808E2    -8.613684385952854E1     2.486047545091811E1    -8.954079034054264E-1   -5.481613334457202      -8.824298055435109E1     7.082559749016377E1
                        -9.296237432500938E1    -8.430325594853331E1    -8.711112135391414E1    -4.605851664965643E1    -8.430722778018384E1     1.411347670174324E2    -9.034034580426710E-1   -1.061643306474799E1

 3.030000000000000E7    -2.376022799797432E-1    1.014825334348152E2    -6.723279724188852E1     6.190332607355807      -9.324463319354175E1    -1.460083444025541E2    -9.938785509071964E1     2.067644414941147E1
                        -6.767407978732989E1     1.317227194494594E1    -1.656655623596552E-1    8.762054618324204E1    -8.065303141764630E1    -1.257016506325318E2    -8.733995697988678E1     4.650964877503149E1
                        -8.548240947570295E1    -3.317059909727758      -8.292538044893527E1    -1.543129557277871E2    -8.919401031075597E-1   -5.761631192957754      -8.160968048686817E1    -2.532973603941968E1
                        -9.784718753421996E1     1.245168605261934E2    -7.989133552452380E1     7.751533232592398E1    -7.980147975360103E1     1.550389913905479E2    -8.972628196045935E-1   -1.089589560048292E1

 3.032500000000000E7    -2.395076744056827E-1    1.012153953516591E2    -6.706432908132933E1     5.844872252325256      -8.450870394794211E1     1.079751732896845E2    -7.985166021599997E1    -7.295080736387334E1
                        -6.702192511163128E1     4.691499809160300      -1.660870734555484E-1    8.724092721494799E1    -8.515983579115711E1     1.000730470937042E2    -8.225082378557737E1     4.756893309948779E1
                        -9.098960085020752E1     1.678957559969427E2    -9.466323760321289E1    -1.654260154121733E2    -8.961773150464479E-1   -6.112801194122255      -8.319095573115942E1     5.354656961567547E1
                        -8.623835849401425E1    -5.313895539277559E1    -8.244376492618301E1    -1.327640242596576E2    -8.656797043982600E1     4.022743564426875E1    -9.040858621201422E-1   -1.118938628337430E1

 3.035000000000000E7    -2.353347337494202E-1    1.009611146665432E2    -6.568674954409937E1     2.430583171093245      -9.409046557533955E1     1.656046856938216E2    -8.290520658240693E1    -1.606160907945433E2
                        -6.563569689930044E1    -6.132883915120696E-1   -1.678608338857233E-1    8.684918489190051E1    -8.081994243872103E1    -5.328409011974787E1    -8.678702654138199E1     2.852022451387143E1
                        -8.411035169448894E1     1.691356261274515E2    -8.492852434815882E1     1.407026664604336E2    -8.962964278357974E-1   -6.386890786247196      -8.697285567309481E1     1.320120198659886E2
                        -9.038185898829740E1     3.576102272985283E1    -9.873764968627683E1    -7.291630738258301E1    -8.654172254716377E1     1.543180628693543E2    -9.036390085833548E-1   -1.146825780495108E1

 3.037500000000000E7    -2.319332338052657E-1    1.005921648900064E2    -6.740011153523125E1     1.056861777777085      -8.249592107800113E1     2.879670289943147E1    -7.945871638257840E1    -4.116246223359956E1
                        -6.780196803573752E1    -3.610197387931602      -1.688932655999891E-1    8.637704766068559E1    -8.944789976988309E1    -1.583991228547122E2    -8.802645215691211E1    -1.775564335460153E2
                        -9.085745598182335E1    -9.475172309226771E1    -8.371736915485317E1     3.977046255915933E1    -8.956635890198588E-1   -6.679454783416088      -9.744145341137693E1    -1.011771154890793E2
                        -9.678935018211269E1    -1.376664781510085E2    -8.174354958920520E1    -1.716832412114277E1    -9.309542121525232E1    -2.053809486790086E1    -8.889124817971884E-1   -1.177271260741647E1

 3.040000000000000E7    -2.315595464567086E-1    1.003993038519236E2    -6.647284782536124E1     7.878848101217795      -9.278500128777417E1    -6.120372903094150E1    -9.576415346430454E1    -1.433161411618518E2
                        -6.722693311149907E1     1.651449073374217      -1.615121037155062E-1    8.604874078119865E1    -9.965400959264477E1    -1.220059868442456E2    -8.819499763566904E1     5.079304092812215E1
                        -8.486997119214749E1     1.342794848468735E2    -9.006666100587336E1    -8.741782005487968E1    -8.970852711324537E-1   -6.972188712781160      -9.112767993648089E1     1.133565460885596E2
                        -8.733008942369136E1     3.357929343843720E1    -8.592259652065735E1    -3.488471205642357E1    -8.293944012668317E1     5.138662699252895E1    -9.036329303793317E-1   -1.210305318226858E1

 3.042500000000000E7    -2.391473170141943E-1    1.000527522510523E2    -6.832031530698215E1    -1.186293462382570      -8.065302911777908E1     1.620360145153429E2    -8.165273936743260E1     1.184914168918440E2
                        -6.628503274240372E1     5.162395576811897      -1.705231086784855E-1    8.567860963540041E1    -8.636728372409571E1     1.113074121777313E1    -8.323469947676583E1     4.277249638809471E1
                        -8.463337683318815E1    -1.432617006976691E2    -8.239848157898629E1     1.304348970927253E2    -8.967118287530639E-1   -7.269259762254486      -8.195816103274864E1     5.460768518446344E1
                        -9.506347996418964E1     1.796885678854981E2    -8.119496278768024E1    -4.360128208608700E1    -8.318262375700326E1    -2.686048785505375      -9.014369990154686E-1   -1.240313157632235E1

 3.045000000000000E7    -2.354584016728311E-1    9.975148355738364E1    -6.695170066737657E1     3.606116763614091      -8.580617755888078E1     1.503502317658885E2    -8.411614908455729E1    -1.516574330917950E1
                        -6.601040524931607E1     5.353613113567601      -1.701010962169419E-1    8.523168730543310E1    -8.938184989795560E1    -1.149539759710214E2    -9.130216680275760E1     3.553211226010394E1
                        -8.280324482884518E1    -4.196901348909703E1    -7.580699459648133E1     6.311657922877214      -8.958294075480326E-1   -7.527826977681750      -8.887463251789667E1     1.722251951992631E2
                        -8.457232013799430E1     2.176350127778752E1    -7.915515131928633E1    -1.668266808585320E2    -9.085221491709994E1    -2.221057070002750E1    -8.975187224537030E-1   -1.270882419026786E1

 3.047500000000000E7    -2.350361257381099E-1    9.947547457827341E1    -6.706520659527276E1    -7.957347721143233E-1   -8.969536350804958E1     1.450004030116535E1    -8.529030237133041E1     1.992180209035313E1
                        -6.642591853865372E1     4.114368952910591      -1.616114508855001E-1    8.493159191906378E1    -8.157343764315966E1     7.586355281600906E1    -9.079207066400622E1     1.025863053320586E2
                        -9.278836473245677E1    -1.328642774823342E2    -8.415559249633640E1    -1.201539234058734E1    -8.882685911241027E-1   -7.830472355271119      -8.504722618685364E1    -1.176384968968324E2
                        -8.875376610315763E1    -4.940114115896641E1    -8.542746223995708E1     1.673597783672477E2    -8.440083141355963E1    -1.015598772033085E1    -8.978984234045156E-1   -1.301006934830207E1

 3.050000000000000E7    -2.356312172968261E-1    9.918123076394325E1    -6.627977192972038E1    -7.274572603988144E-1   -8.741469497273238E1    -1.046412538751637E2    -9.051056728529446E1     1.799665540751625E2
                        -6.826288086417894E1     9.732585669491302      -1.581131746638166E-1    8.450983296466227E1    -8.588657201682190E1     8.615854141375048E1    -8.400525034474472E1    -1.730694855858419E2
                        -9.011855729708906E1     6.011590280322676E1    -9.398378673241338E1    -3.289709623237185E1    -8.930790601893908E-1   -8.132852026509628      -8.821894270096368E1    -8.612851124996207E1
                        -9.288137161092422E1     2.770899471074754E1    -8.620110825922582E1    -6.519646223196446E1    -8.924275151531916E1    -1.525315472145399E2    -8.958058003776861E-1   -1.324822546744437E1

 3.052500000000000E7    -2.251441694407512E-1    9.888305379892536E1    -6.623741968581112E1     9.336077642605346      -9.361856452145430E1     7.303950378082617E1    -8.347949575243538E1     3.373319301020415E1
                        -6.706967955346137E1    -1.107802867480600E1    -1.621889226781310E-1    8.408218906781846E1    -8.506573336765322E1     8.419534619457863E1    -8.902613324048771E1     8.672280194068337E1
                        -8.564416705942588E1    -5.806276619115240      -8.906476851415398E1    -2.534640068561485      -8.900274917542311E-1   -8.438794212503225      -8.958858640765340E1    -7.384273720711181
                        -8.343134835834695E1    -5.140074807872523      -9.038756424764353E1     8.348031327464265E1    -8.996998394157187E1     1.373401907060482E2    -9.004982567757813E-1   -1.360445126324230E1

 3.055000000000000E7    -2.349432992841631E-1    9.861766472092496E1    -6.743425726481496E1     1.074970800012981E1    -8.493058485150526E1    -8.582937546907547E1    -8.149783105405193E1    -9.094949670429867E1
