#  HZ   S   DB   R     50.00 
! Rohde & Schwarz Vector Network Analyzer 
! Rohde-Schwarz,ZNB8-4Port,1311601044102961,2.82
! Created: UTC 2/8/2019, 2:31:42 PM
! freq[Hz]                db:S11                  ang:S11                 db:S12                  ang:S12                 db:S13                  ang:S13                 db:S14                  ang:S14
!                         db:S21                  ang:S21                 db:S22                  ang:S22                 db:S23                  ang:S23                 db:S24                  ang:S24
!                         db:S31                  ang:S31                 db:S32                  ang:S32                 db:S33                  ang:S33                 db:S34                  ang:S34
!                         db:S41                  ang:S41                 db:S42                  ang:S42                 db:S43                  ang:S43                 db:S44                  ang:S44
! 
 4.775000000000000E7    -1.657875427898964E-1   -1.015306080340898E2    -2.979451837251130E1    -1.391080542470479E2    -9.142375230236962E1     1.218013595896043E2    -1.082381319632266E2     1.252429423615392E1
                        -2.976443018542015E1    -1.393032544164522E2    -2.018004481668101E-1    4.584655494502322      -7.128691553296173E1    -2.025522722635200E1    -8.798571267814482E1    -2.594198730802051E1
                        -9.274581325946124E1     6.484257106878950      -7.249425993486670E1    -2.234039689224828E1    -1.351801885013988       1.324825026988029E2    -8.916647655306166E1     6.287730715079237E1
                        -8.970244944529723E1    -1.326868360942084E2    -8.533833773021009E1     1.557509607810228E2    -8.092408326088005E1     5.267163474417963E1    -1.351147780356171       1.398902400223846E2

 4.775025000000000E7    -1.696312760145310E-1   -1.015403349193998E2    -2.976319473795442E1    -1.385436211415974E2    -8.198326299222802E1     7.634279285727708      -9.833271631636949E1     1.059203913021419E2
                        -2.973272384965459E1    -1.393373635848320E2    -2.016350370245207E-1    4.576909466279967      -7.095643626251528E1    -1.436004913332133E1    -8.292514364760665E1     6.795502663471622E1
                        -9.278584115562232E1     2.793623995890027E1    -7.318339589442391E1    -1.854849377727372E1    -1.349096146728392       1.325031810747823E2    -9.036118961800538E1     1.246816841410384E2
                        -9.540340699009252E1     5.863975803210727E1    -8.355980515689625E1     1.085875874874955E2    -7.870164766318064E1    -7.841336886091628E1    -1.349493502865062       1.398731072558409E2

 4.775050000000000E7    -1.732468929454808E-1   -1.015545732997066E2    -2.986453239542356E1    -1.386493794493117E2    -8.661647364943718E1    -1.063357572527790E2    -8.122437492716369E1     4.996294722345950E1
                        -2.972954227291956E1    -1.388076368587619E2    -2.040315415467376E-1    4.576371832504417      -7.209542936459735E1    -2.641536290323618E1    -9.827297321400693E1    -9.845648740225602E1
                        -9.491678642997479E1    -1.685983073360869E2    -7.207683117823090E1    -3.091872978727822E1    -1.348644107534419       1.324445218311699E2    -9.799225361344617E1     8.572979096755074E1
                        -8.599919097384573E1     2.226782879258192E1    -9.176928010026191E1    -9.176590193052329E1    -1.082757886130160E2    -4.932186589604839E1    -1.345249469474642       1.398595375799008E2

 4.775075000000000E7    -1.700101153668593E-1   -1.015402822786316E2    -2.983528789338752E1    -1.388961776527723E2    -8.186332068997891E1     1.926259387528136      -8.667619590162481E1     1.743967448339913E2
                        -2.989011006624263E1    -1.381599495577041E2    -2.029840163219623E-1    4.545865527363138      -7.126072983278344E1    -9.877366588228036      -8.312673282251821E1     1.649124247683177E2
                        -8.764471655316660E1    -1.269058771741353E2    -7.142365274546188E1    -3.599200050384547E1    -1.346119450955847       1.324573415951051E2    -9.425667623437130E1     1.464443415761614E2
                        -8.341570952367061E1    -1.178762888805426E2    -8.372187719617627E1    -1.118987587483857E1    -8.810036767639006E1    -9.719481761397670E1    -1.350973010307157       1.398812083174086E2

 4.775100000000000E7    -1.753042479439258E-1   -1.015646920554498E2    -2.973680262036069E1    -1.383652481088506E2    -9.528564969136488E1    -2.955553139788427E1    -9.027353556756657E1    -1.183119815577046E2
                        -2.966708812236582E1    -1.384446835952751E2    -2.034063796877262E-1    4.528115776206914      -7.240118890837719E1    -1.778175191927672E1    -8.864931982573151E1     2.029675593564416E1
                        -8.914076731604217E1    -1.249250240527095E2    -7.143620456643184E1     5.021469269371862      -1.348981361214983       1.324559147491798E2    -9.275498463487487E1    -9.556476771083177E1
                        -8.366879260410435E1    -4.003878522638138E1    -8.312099392577986E1     1.346147672914902E2    -8.977938499281741E1    -3.439252501333904E1    -1.348768465502179       1.399084284346588E2

 4.775125000000000E7    -1.667237042646473E-1   -1.015769102692382E2    -2.981104914877316E1    -1.383123430206566E2    -8.221391290674193E1    -5.135917981842054E1    -8.768682812219667E1     1.492330710902983E2
                        -2.973702244087708E1    -1.387911561129965E2    -2.088785854263503E-1    4.505528121748602      -7.416628458539884E1    -2.613850935820231E1    -8.868207357045722E1     1.229546846298111E2
                        -8.722070485485256E1     1.254579912219460E2    -7.521101926644796E1    -1.024498099686566E1    -1.347524424946263       1.324799800295709E2    -8.679316571249626E1     7.193426381997458E1
                        -9.033697361001495E1    -8.106590114503982E1    -7.982021852418677E1    -8.718965707155528      -9.188727704703680E1    -5.487609785564042E1    -1.347127517578370       1.398368823587013E2

 4.775150000000000E7    -1.719053495371074E-1   -1.015775402046016E2    -2.980370031054885E1    -1.385720206505809E2    -8.739461524164830E1    -8.532876915790153E1    -8.555957243608133E1     1.072955302341111E2
                        -2.976839409410640E1    -1.384515292153751E2    -2.039336622604384E-1    4.475518381602483      -7.304927094126593E1    -1.841820555934643E1    -8.198836731344881E1    -1.292400146751420E2
                        -8.257410159261744E1     1.796511805648981E2    -7.177640091537276E1    -2.744230035238928E1    -1.345958776971712       1.324992047649854E2    -8.531513824058334E1    -8.239493521754906E1
                        -7.913455306279330E1    -1.730328015317973E1    -8.680708228194251E1    -6.070589317953971E1    -8.264491512029288E1    -3.386524724703777E1    -1.349015518690012       1.398614886458086E2

 4.775175000000000E7    -1.674174364982071E-1   -1.015436679501336E2    -2.976603360909353E1    -1.386239784466590E2    -9.781491104651052E1    -9.697864347488861E1    -8.396793105143181E1     2.465172151099523E1
                        -2.977375858798680E1    -1.387657495952794E2    -2.035128979442180E-1    4.464625484627106      -7.236959209479089E1    -1.806223406395821E1    -8.524175803781262E1    -1.146112692054338E2
                        -8.390341658511562E1    -4.519794236388409E1    -6.999778372771476E1    -2.872750456482102E1    -1.347534913894191       1.324779030180520E2    -9.511651043782081E1    -9.566590797391153E1
                        -8.364438009509769E1    -1.564702493560267E2    -9.600890281174554E1    -1.726694410868351E2    -8.814069870775239E1    -1.717825213845575E2    -1.351112738689805       1.398678100651265E2

 4.775200000000000E7    -1.725068473764123E-1   -1.015703821761699E2    -2.971889807395606E1    -1.384947141268133E2    -8.346073496633042E1     1.761266049734460E2    -8.597434117934411E1    -1.253256253784418E2
                        -2.968751032325101E1    -1.380206698010029E2    -2.009323334163807E-1    4.506507446187882      -7.154419593522798E1    -2.461850625000479E1    -8.792599648848159E1    -7.917358828408211
                        -9.193758576414459E1    -6.600052664139716E1    -7.204194969438069E1    -9.527777015446995      -1.351467773987821       1.324911670747029E2    -9.415228732704199E1    -9.682034830797211E1
                        -8.446128632677753E1     1.264225359571972E1    -9.054489948325163E1     2.589001528127179E1    -8.219904779238229E1    -3.999844889611030E1    -1.351532602862382       1.398513269980512E2

 4.775225000000000E7    -1.728789644001585E-1   -1.015619919192596E2    -2.980890386291709E1    -1.385271798675310E2    -8.277237387018174E1    -1.612427327914459E2    -9.636786856946929E1    -1.759938691432789E2
                        -2.980151010588563E1    -1.386016831922877E2    -2.042640898924692E-1    4.491221154630039      -7.307405166269203E1    -1.782264738709833E1    -8.430665340578456E1     7.913296421759338E1
                        -9.099463625518695E1     9.511082637858208E1    -7.269194591016665E1    -1.737088256129554E1    -1.352833839829081       1.324513503200631E2    -8.578495630638773E1     3.808984104603503E1
                        -8.193835586273166E1    -1.379664409692107E2    -8.111004602155411E1     4.092845629467414E1    -8.789724199117940E1    -4.804374193316056      -1.341396211947269       1.398346895169711E2

 4.775250000000000E7    -1.702171497074897E-1   -1.015799445740345E2    -2.979825190827252E1    -1.385646232893104E2    -8.387878771127771E1    -8.161572115517737E1    -8.825343845865407E1    -7.342593049097994E1
                        -2.978083880901208E1    -1.383705476887839E2    -1.999450399426994E-1    4.439596161901174      -7.281049629006991E1    -2.818183675522034E1    -8.402970181334149E1    -4.292230301412661E1
                        -9.228725882388204E1    -1.004300029555314E2    -7.669739591787142E1    -4.121807132615361E1    -1.350030024546466       1.324664090118289E2    -9.499490362202218E1     1.758092738559315E2
                        -9.070565462730434E1    -5.576521122903410E1    -8.943390413590569E1     1.634377109964790E2    -8.885811131272270E1     4.891449678850148      -1.349615494788550       1.398536618424013E2

 4.775275000000000E7    -1.681330088572391E-1   -1.015913896405711E2    -2.980017420825923E1    -1.382439637291847E2    -8.932888670303561E1     1.124624322893946E2    -9.092435577532149E1     1.609227786160674E2
                        -2.980612769887814E1    -1.383070468696023E2    -2.033727365934342E-1    4.419296109849427      -7.204572666796200E1    -3.402732103867946E1    -9.449501209476735E1    -4.194774674669434E1
                        -9.069560679988440E1    -1.423502017919863E2    -7.097275767908856E1    -2.013458856152372E1    -1.351173552660357       1.324510811391205E2    -1.014824901365446E2     6.627319485969093E1
                        -8.688848274624574E1     6.941832007701207      -9.177711462121857E1    -5.049489464122858E1    -9.154400937965588E1    -7.760523253720589E1    -1.348221069132070       1.398440127576397E2

 4.775300000000000E7    -1.724219302290136E-1   -1.016161583882097E2    -2.978411264059585E1    -1.386955916819416E2    -8.128449502302239E1    -9.773033910830910E1    -9.041483764276285E1     3.170351271401006E1
                        -2.978422996988883E1    -1.383960147101331E2    -2.032598814168387E-1    4.392549458026870      -7.115021977897304E1    -1.845295320732777E1    -8.189742476316624E1     1.086123630140667E2
                        -8.647388421435137E1    -1.593889997393957E2    -7.246145071443111E1    -1.705978392978915E1    -1.351074397037744       1.324716586821127E2    -7.904019874985355E1     1.231962540356787E2
                        -8.083551151292349E1    -8.748874816626106E1    -8.586948981331871E1     1.051810643116072E2    -9.301647838670958E1     1.024846778897669E2    -1.345175686686258       1.398352520357335E2

 4.775325000000000E7    -1.696739993579858E-1   -1.016478274427890E2    -2.978646695417822E1    -1.386443819149988E2    -8.195275240443661E1    -9.950173508382858E1    -8.112736924167849E1     1.312205623321404E2
                        -2.973417908627886E1    -1.388126986470552E2    -2.067889857606325E-1    4.335830452616872      -7.112979562836904E1    -2.074213278457735E1    -9.009244920609837E1     1.318721059655571E2
                        -9.181829409171066E1    -2.450084082682672      -7.048485671698919E1    -1.825494695280981E1    -1.351523313080508       1.324262962148088E2    -8.088780279805783E1    -1.480628277233678E2
                        -9.493302084342369E1    -4.505041917152739E1    -8.530630107559360E1     8.879836040919793E1    -9.670306316907139E1    -2.909335170193984      -1.351313942052998       1.398398817170799E2

 4.775350000000000E7    -1.685143170447056E-1   -1.016369947975741E2    -2.971787509085457E1    -1.387441518583835E2    -8.428629771159393E1    -9.752502451932909E1    -9.544018007725325E1     1.563205240900081E2
                        -2.977278388762901E1    -1.387940946004380E2    -2.053088034124025E-1    4.347028265481622      -7.188698881079455E1    -2.231078807775121E1    -9.169659983898812E1     1.799737563051872E2
                        -8.841947658539914E1     1.245927774915507E2    -7.270663787831441E1    -1.693675650382179E1    -1.347882295820448       1.324382406603326E2    -9.305581728486466E1    -1.491444540212025E2
                        -9.294795291248181E1     1.616710003511726E1    -8.675479498229620E1    -1.593065574969862E2    -8.696763725654438E1     1.325222834943590E2    -1.349037402511545       1.398856454998560E2

 4.775375000000000E7    -1.669553429891082E-1   -1.016308456630828E2    -2.972259195702442E1    -1.389557547346569E2    -8.072158885339947E1     6.594288975083248E1    -8.621667028034634E1    -1.165109427430969E1
                        -2.973937868730215E1    -1.387116496958281E2    -2.039951200598986E-1    4.351942985624104      -7.332594486174338E1    -1.128729540726031E1    -9.017214727024012E1     8.290173043224257E1
                        -8.780799819343227E1    -1.443907376947845E2    -7.216787678990927E1    -3.285841193177610E1    -1.347498270604075       1.324397906883797E2    -8.157703519653707E1     1.248775261055391E2
                        -8.540600912655735E1    -8.696706324737363      -8.352722896421827E1     2.148894432364493E1    -8.775312886276994E1    -1.980945106426214E1    -1.346847557599556       1.398226438873660E2

 4.775400000000000E7    -1.722786069008846E-1   -1.016192151244567E2    -2.973931242348432E1    -1.391783413665472E2    -8.617136093224571E1    -1.233991388218975E2    -9.114811646408259E1     1.751047691355022E2
                        -2.976080895887259E1    -1.388410835070491E2    -2.083823081572844E-1    4.320249761784784      -7.037264806178975E1    -1.420047804328188E1    -8.669648277329716E1    -1.076555083512077E2
                        -9.019070101928593E1     7.287700094079601E1    -7.327059368959036E1    -1.677596595881128E1    -1.347162491812523       1.324186376638018E2    -8.408962009229680E1    -9.457826884672274
                        -8.936530077169229E1     1.786759616446702E2    -8.354647722753710E1    -8.324181442520600E1    -8.318207433073908E1     1.333659388060776E2    -1.348775672677131       1.398336194579738E2

 4.775425000000000E7    -1.685717281410077E-1   -1.016063186385078E2    -2.980074630534468E1    -1.391630330679037E2    -8.776540019452092E1     4.078295976034427E1    -8.303329710835995E1     1.738892801536549E1
                        -2.977913731141507E1    -1.393562365128861E2    -2.044220134364418E-1    4.296391539366850      -7.107448293027763E1    -3.137495514852716E1    -8.939584730023741E1    -9.747407741051818E1
                        -8.478070877612345E1    -1.236942152233181E2    -7.229433933078865E1    -1.292578852419821E1    -1.343360229236624       1.324369928606437E2    -9.134086018148842E1    -6.082773385210302E1
                        -8.609214191003949E1     1.320525056480589E2    -8.399987351427041E1     4.369164745831924E1    -9.688803025518739E1     1.493837117319389E2    -1.349396487254231       1.398247377242889E2

 4.775450000000000E7    -1.703546879612150E-1   -1.016201559187742E2    -2.971069353856994E1    -1.391780723888885E2    -8.316820196189782E1     8.337222087500062E1    -8.804214746171283E1     1.651092208383969E2
                        -2.982137460469370E1    -1.391465031251883E2    -2.003096833521484E-1    4.309711181831872      -7.366730753825121E1    -1.252135104293499E1    -8.286151652646845E1     6.989835144261565E1
                        -8.588302603399674E1    -1.116512847182029E2    -7.540140382794843E1    -3.313549453059675E1    -1.346546708017747       1.324418399145333E2    -8.523057964135973E1     1.145171029623363E2
                        -9.012412966062129E1    -1.601512910061189E2    -8.692925672306194E1     3.308736756165014      -8.322315349964775E1    -6.092126864738294E1    -1.349490882981247       1.398114583928918E2

 4.775475000000000E7    -1.670706809080197E-1   -1.016306866013615E2    -2.983718097711110E1    -1.385399923584265E2    -8.266736185347483E1     1.059857785533132E2    -9.046327871034359E1    -5.330128072093162E1
                        -2.974443568895886E1    -1.385201149568423E2    -2.005086382738601E-1    4.280638133103746      -7.416169770484142E1    -1.502026734046202E1    -8.217951607337680E1     2.500383533103164E1
                        -9.345696787600562E1    -1.773768455012757E2    -7.419989664699949E1    -1.887836273102202E1    -1.349359971968752       1.324808589408057E2    -8.772815862974531E1    -1.417867334545736E2
                        -8.510460581316529E1    -5.846246545319627E1    -8.470393758825482E1    -5.430799822591170E1    -8.281462145340903E1    -1.043927528675771E2    -1.345675688334234       1.398366793958323E2

 4.775500000000000E7    -1.695703439832168E-1   -1.016516069309638E2    -2.976344541502327E1    -1.395540900844055E2    -8.379970689801297E1    -9.643203309175016      -8.110765257249811E1     1.640516605951110E2
                        -2.977818698656801E1    -1.384394195465652E2    -2.053938910041683E-1    4.223828311064848      -7.098756486118680E1    -1.677770446662962E1    -8.754469203615734E1     1.774985906142325E1
                        -9.675103169432771E1     1.726022323926084E2    -7.282775628986228E1    -2.680588137658177E1    -1.345619550095863       1.324372907050478E2    -9.365690940272035E1    -1.116025350938697E1
                        -8.117912345697361E1    -5.178624817585459E1    -7.959914452340703E1     9.349720498613009E1    -8.767212917735620E1    -1.497782189361165E2    -1.342189230762503       1.397978937864090E2

 4.775525000000000E7    -1.710059386765273E-1   -1.016606377273023E2    -2.980441138279597E1    -1.393719634544527E2    -9.487154762788885E1     2.493829610820005E1    -8.628080679363718E1     4.729727092169810E1
                        -2.983872693355616E1    -1.389451719835590E2    -2.034431437128931E-1    4.214838795161291      -7.345895232137652E1    -1.172399960778957E1    -8.864202920380387E1    -6.592698313060545E1
                        -8.630070010433015E1     1.313586368985575E2    -7.280964883112168E1    -2.344588044247540E1    -1.350561233936459       1.324196576782731E2    -9.873555304866990E1    -9.085240300701190E1
                        -8.109380246884003E1    -5.083525482933565E1    -8.986398860438784E1     7.358593087907936E1    -9.588207201985320E1    -6.141506720189028E1    -1.350534231652982       1.398081404721296E2

 4.775550000000000E7    -1.752946337319701E-1   -1.016689288737474E2    -2.971538033359815E1    -1.388761561003564E2    -8.688462561243884E1    -3.610518439923309E1    -8.874682518926905E1    -3.787687743624291E1
