#  HZ   S   DB   R     50.00 
! Rohde & Schwarz Vector Network Analyzer 
! Rohde-Schwarz,ZNB8-4Port,1311601044102961,2.82
! Created: UTC 2/8/2019, 2:58:38 PM
! freq[Hz]                db:S11                  ang:S11                 db:S12                  ang:S12                 db:S13                  ang:S13                 db:S14                  ang:S14
!                         db:S21                  ang:S21                 db:S22                  ang:S22                 db:S23                  ang:S23                 db:S24                  ang:S24
!                         db:S31                  ang:S31                 db:S32                  ang:S32                 db:S33                  ang:S33                 db:S34                  ang:S34
!                         db:S41                  ang:S41                 db:S42                  ang:S42                 db:S43                  ang:S43                 db:S44                  ang:S44
! 
 5.675000000000000E7    -3.641581932140874E-1    7.519167299341048E1    -2.918011923482736E1     6.379699613776488E1    -8.118582689873014E1     3.518293287630991E1    -8.596895561267077E1     1.499142262614865E2
                        -2.924035527246121E1     6.297177962716995E1    -3.295671951828961E-1   -1.280641255901964E2    -8.634964756063883E1     1.572898769809231E2    -6.924526500996252E1    -1.366174431978425E2
                        -9.299918938558164E1    -1.601566449079768E2    -7.915567812137971E1     1.726004539860180E2    -1.352974585053635       2.332783553478935E1    -8.436374967415577E1     1.286676436792109E2
                        -8.956227395514269E1    -4.389969391522374E1    -6.873211570251699E1    -1.342350851623917E2    -8.537815301050875E1     1.220071151050866E2    -1.367294170193148       3.019189990551562E1

 5.675025000000000E7    -3.679145062458188E-1    7.517221806321017E1    -2.926298944342212E1     6.341819994842336E1    -8.208255196710697E1    -1.591847357479422E2    -9.035230565851799E1     9.183094878764430E1
                        -2.919089107884705E1     6.344958111509828E1    -3.290101344040902E-1   -1.281022296834035E2    -8.167859470601292E1     1.761906596151072E2    -7.023591408199066E1    -1.419511514028852E2
                        -9.153452874498989E1    -1.157410060491209E2    -9.244386213254128E1    -1.397381729261929E2    -1.353875429000768       2.330536024546848E1    -8.801518293396840E1    -1.302454520250463E2
                        -9.148735594165289E1    -1.221387306288394E2    -7.042856292262502E1    -1.324162130705490E2    -9.027202995908610E1    -1.738988194161572E2    -1.367615405178730       3.017595858670865E1

 5.675050000000000E7    -3.643086598315209E-1    7.516491041314207E1    -2.924656190861096E1     6.354582073975700E1    -8.465981176947022E1    -5.123853408945745E1    -7.907847134221120E1     9.233399063664648E1
                        -2.916829405330909E1     6.401140655854249E1    -3.274524516729217E-1   -1.281127934859742E2    -8.784544767143387E1    -1.200643875960563E2    -6.920109850938448E1    -1.479630489114427E2
                        -8.557709492345816E1    -5.872325700162605E1    -8.048163699898120E1    -1.364192113516809E2    -1.356631940735273       2.329270737097669E1    -8.609033950611598E1     1.490758284427955E2
                        -8.492865702759075E1     8.733008303559191E1    -6.745073403279926E1    -1.444009014179617E2    -8.910614289861861E1    -2.213212930246226      -1.365426474449662       3.018126595341634E1

 5.675075000000000E7    -3.616357617471876E-1    7.518658273535824E1    -2.920782532456794E1     6.329531833885798E1    -7.870972545851272E1    -1.161100814374224E2    -8.564458509508724E1    -1.251796786693896E2
                        -2.911458757180736E1     6.334214458018505E1    -3.309391972772992E-1   -1.281214446711657E2    -8.718057665238014E1    -1.359558451362634E2    -6.755182059089707E1    -1.406024895936706E2
                        -8.335055101377945E1     6.078849296999764E1    -8.019189652534301E1    -6.135206739983989E1    -1.357931318719078       2.328824545898046E1    -8.824449864271006E1    -1.739850684338960E2
                        -9.563680095606091E1    -5.231387501644983E1    -6.860986709255761E1    -1.459501632647363E2    -8.889879970114934E1    -1.733484905673299E2    -1.364871560178175       3.018408595546948E1

 5.675100000000000E7    -3.649206949222116E-1    7.519579039346824E1    -2.917499882735962E1     6.323541649223363E1    -8.326251332451673E1    -1.525753470726580E2    -8.310988639133635E1     8.035838574334017E1
                        -2.923635611507632E1     6.261515266074437E1    -3.318353362089369E-1   -1.281419991238721E2    -8.880605835048743E1    -7.224679141120382E1    -7.044471578832949E1    -1.321015348733970E2
                        -9.192121296006289E1     8.668501414987416      -8.280342546462181E1    -1.076578605316571E2    -1.357354608825998       2.332720841204539E1    -9.145856276790906E1    -8.725466078048281E1
                        -8.192447789901136E1     6.247128191176926E1    -6.816255292254664E1    -1.391013415647302E2    -9.440625412101737E1    -1.343726275463211E2    -1.366527980847230       3.015433587505565E1

 5.675125000000000E7    -3.677864736257177E-1    7.515879111662210E1    -2.922683067776467E1     6.317757788569750E1    -8.069765950225269E1    -1.489080981311353E2    -7.695370311335866E1    -1.118050091708368
                        -2.925008844072233E1     6.347280923515221E1    -3.279366577925508E-1   -1.281847312262482E2    -8.758046657236099E1    -1.032402657308750E2    -6.904061826549648E1    -1.431534174614820E2
                        -8.558410780061593E1     1.492448302030540E2    -9.526379020024173E1    -9.241734869602662E1    -1.357597337237330       2.332912948705583E1    -8.151204116377866E1     1.554719170258290E2
                        -9.022898821104134E1     9.107270430528799E1    -7.023595789681382E1    -1.457647681031377E2    -9.573673781106686E1    -1.003537247445757E1    -1.362660325109134       3.015606167604608E1

 5.675150000000000E7    -3.635557776153209E-1    7.515829398482552E1    -2.932585188009297E1     6.347023928763410E1    -1.054414969389423E2     1.042411174529429E2    -8.058587548702687E1     1.642096064539764E2
                        -2.928429036710045E1     6.351747716270261E1    -3.301097399371981E-1   -1.281987582552638E2    -8.017423107871136E1    -1.032919329804648E2    -6.987114865233180E1    -1.418691931638806E2
                        -8.645164338284880E1     8.559454877013593E1    -8.244355467532867E1    -1.417803770803652E2    -1.353234714219038       2.332001664072314E1    -9.109212568901066E1    -1.400868488663311E2
                        -8.837497743017943E1    -1.763535325096039E2    -6.981214347654971E1    -1.408758368383590E2    -8.896910459369568E1     1.206673913409301E2    -1.360141882479671       3.015989317365868E1

 5.675175000000000E7    -3.667965581270972E-1    7.515603920220529E1    -2.915249267528403E1     6.358436977022986E1    -8.664202282177593E1     3.093271215775258E1    -9.583299632424284E1    -9.606409226867220E1
                        -2.914847595488918E1     6.311369524751623E1    -3.309822100432652E-1   -1.282480199164511E2    -8.014169767700155E1    -1.166925019986803E2    -6.892121268308556E1    -1.492240055872162E2
                        -8.798764221625574E1     4.950646705352235E1    -8.546474224719657E1    -1.194848097056166E2    -1.354836347563017       2.330258961407886E1    -9.414106749228830E1    -4.273662895698194E1
                        -8.337331805917792E1    -5.062401838553149E1    -6.937903331941753E1    -1.266254087376214E2    -8.174115824937418E1    -1.399065309871986E2    -1.362395882838444       3.016312591493901E1

 5.675200000000000E7    -3.630351790983109E-1    7.514538264751586E1    -2.924826414022697E1     6.355583956252095E1    -9.010254241178947E1     1.471104400243661E2    -8.495394454179720E1    -5.728751386492605E1
                        -2.927213190601036E1     6.283984872890797E1    -3.305585366856413E-1   -1.282527242017541E2    -8.734014968842025E1    -1.364974971829907E2    -7.045096730894468E1    -1.387374268254452E2
                        -8.848393395171222E1    -1.632445077927385E2    -8.107769353318238E1    -8.706364171673688E1    -1.352612588870063       2.330717127771320E1    -8.680034890956108E1    -6.666324165823710E1
                        -8.706304946075403E1    -1.047205258884249E2    -6.774716136168776E1    -1.401287898975102E2    -8.523884460353631E1     4.748552751993142E1    -1.362844519890760       3.012681624723410E1

 5.675225000000000E7    -3.630881742808990E-1    7.515778736224489E1    -2.923335463766984E1     6.328953605324383E1    -8.669660951243452E1     1.622413041112892E2    -9.219884399347728E1     1.681722861658255E2
                        -2.923146110274946E1     6.324627984055041E1    -3.320059540785825E-1   -1.282499015532956E2    -8.355706709529598E1    -7.807764126147238E1    -6.923527030011751E1    -1.401103301136864E2
                        -9.930957721759944E1    -1.313386864084068E2    -7.762575806836540E1    -1.324099324746399E2    -1.355074924114311       2.330956645588305E1    -8.760079454354514E1     7.425206693772390E1
                        -8.725636599276544E1     1.129383746594275E2    -6.776308319898691E1    -1.369552043253216E2    -7.989589485602609E1     1.102185377295914E2    -1.358884403560756       3.013343200527442E1

 5.675250000000000E7    -3.666437508943755E-1    7.515791151031895E1    -2.926236805418222E1     6.288261979369020E1    -8.114066527082730E1    -1.626370910203396E2    -9.501014307240510E1    -1.235371267619404E2
                        -2.927553889274912E1     6.290670061702161E1    -3.318225484912074E-1   -1.283130339692203E2    -8.537155528611453E1    -1.566481286707377E2    -6.881290364435034E1    -1.426579588098163E2
                        -8.839413692275626E1    -1.444273828774163E2    -8.121628388409717E1    -1.257036055230589E2    -1.355953467147020       2.330084716373449E1    -8.282334924537814E1     1.211782820733116E2
                        -8.955007086369429E1    -9.418886914988038E1    -6.664189355789924E1    -1.374813780940690E2    -9.038281662080303E1    -4.924210612444004E1    -1.361999403248322       3.015598597222289E1

 5.675275000000000E7    -3.628008538335840E-1    7.515979365276525E1    -2.927825649347540E1     6.304099199879862E1    -9.483179339484663E1    -3.618748628972841E1    -8.982887162124841E1     2.131541994227859E1
                        -2.910137194600451E1     6.346951143375974E1    -3.276350501649876E-1   -1.283335717291598E2    -9.094425312989698E1    -4.721161810290769E1    -6.942420866461940E1    -1.391685760345661E2
                        -8.680087421320874E1     5.278509845962172E1    -7.971203681704080E1    -1.242858060565994E2    -1.351466121017693       2.327640880746109E1    -9.307866144550935E1    -6.626931864560403E1
                        -9.559371118514811E1    -1.834978683135411E1    -6.820450804863151E1    -1.422716405545376E2    -8.832675569666199E1    -7.500092244793655E1    -1.363407397839379       3.013121609944030E1

 5.675300000000000E7    -3.674239612310868E-1    7.515200760577100E1    -2.916401468074951E1     6.329466929675347E1    -9.217247191630953E1     1.214634402436232E2    -8.775898206852719E1     7.316727973430552E1
                        -2.925341177540673E1     6.357637711320348E1    -3.302337631862128E-1   -1.283499648463540E2    -9.440378592359464E1    -1.692546619812130E2    -7.150942809604713E1    -1.338667219288869E2
                        -9.460083411927849E1    -1.133366244974835E1    -8.583054239438987E1    -7.493698465769931E1    -1.356520959520482       2.330929981726752E1    -8.940938608855889E1    -2.997678492202381E1
                        -9.163817542509138E1     1.664620929248285E1    -6.777470844533660E1    -1.423231656977786E2    -8.137832264082695E1    -1.734021814562125E2    -1.363310112627482       3.012238191224885E1

 5.675325000000000E7    -3.639032294509170E-1    7.516301256239302E1    -2.923938604331369E1     6.374086293228040E1    -9.007145383831673E1     1.682676760161753E2    -8.238898601441315E1     7.676234319597188
                        -2.924983611368658E1     6.298413485280663E1    -3.339181574020932E-1   -1.283565035847013E2    -1.108750776423401E2    -2.930580500471494E1    -6.889802736861199E1    -1.424463374961466E2
                        -8.664121105063413E1     1.560472096007089E2    -8.255545024829632E1    -1.205212013533888E2    -1.357131298024658       2.325248004431213E1    -8.621419324904952E1     7.176836758370500E1
                        -9.604624534042745E1     1.151664757395853E2    -6.905747407176554E1    -1.385260152194485E2    -9.035411217089994E1    -7.760943411049351E1    -1.366667922904374       3.012422727673168E1

 5.675350000000000E7    -3.625245509253182E-1    7.513992457537296E1    -2.918701932239010E1     6.316686872042377E1    -8.595432393843161E1     1.388509270425400      -8.845871183649541E1    -9.218747095684792
                        -2.921600989516561E1     6.329789516890021E1    -3.359827909268888E-1   -1.284081109197311E2    -8.327441009623513E1     1.528889382285427E2    -6.952206632279049E1    -1.369642448949759E2
                        -8.176929828659077E1    -1.032416235985258E2    -7.981396601411774E1    -1.736755233975892E2    -1.352987526348148       2.329895559157917E1    -9.251796858573098E1     8.448038433549009E1
                        -9.587082496561686E1    -6.648321994361787E1    -6.869354324141101E1    -1.467061450906254E2    -9.521798267906632E1    -7.736224305065738E1    -1.362164856522011       3.010746057076550E1

 5.675375000000000E7    -3.635929385172383E-1    7.510727822734144E1    -2.919204264560823E1     6.353066146481233E1    -8.407805897920950E1    -1.366260586430539E2    -8.445653793272329E1    -7.486122227397246E1
                        -2.925432292066917E1     6.355409074433017E1    -3.324389641995090E-1   -1.283888719229417E2    -8.014531650392809E1    -1.586199686625056E2    -6.969477305780437E1    -1.464518366885473E2
                        -9.343228926414413E1    -3.898295160666396E1    -8.356766180842331E1    -1.453356715628787E2    -1.349484313548050       2.329249671185633E1    -8.738683917679376E1     6.882835037757610E1
                        -8.990450903270487E1    -6.158445562373590E1    -6.875744402311821E1    -1.410100429658330E2    -8.722962274456546E1     1.273300166765742E2    -1.365520499818608       3.013383234148979E1

 5.675400000000000E7    -3.631711474170484E-1    7.514465999535277E1    -2.922208104301456E1     6.340798817467253E1    -8.195419220818729E1    -7.880526593357253E1    -8.476083683079870E1     1.283028520120671E2
                        -2.923628271944537E1     6.309328718156048E1    -3.325805850421543E-1   -1.284271131475971E2    -8.706839472387583E1     1.364189754591579E2    -6.803690244930712E1    -1.419673729406582E2
                        -8.853388989473110E1     1.706704118909521E2    -8.420236927444121E1    -8.241409158186725E1    -1.352701779413312       2.326398849893232E1    -1.015333832620425E2     1.332573043045569E2
                        -8.518388569618109E1    -4.490560346671182E1    -6.873749911887668E1    -1.239606613568033E2    -7.968250740537603E1     3.618337356558279E1    -1.363904591934356       3.013108075743640E1

 5.675425000000000E7    -3.677132923214733E-1    7.511866366479511E1    -2.926787294699234E1     6.353414636590792E1    -8.659236727966190E1    -7.333207648416202E1    -8.691434177615749E1     1.027309668358644
                        -2.913721979213337E1     6.281516384766982E1    -3.331688517143782E-1   -1.284567371014928E2    -8.144493734352587E1    -1.372784229477362E2    -6.886239400293727E1    -1.406019754806517E2
                        -8.840637341898754E1    -1.733849996165810E2    -8.648560033482836E1    -1.292369455360873E2    -1.352776164305408       2.331115731026196E1    -1.027292937826745E2     2.368507786633782E1
                        -8.949201170847823E1    -2.816540467505381      -6.832981625925098E1    -1.290276275126854E2    -8.919883409196962E1    -1.154806355804817E2    -1.363440938221441       3.008325570620814E1

 5.675450000000000E7    -3.673118084210576E-1    7.514732834139306E1    -2.920434400687046E1     6.396299315181540E1    -8.471764860123861E1     8.778353608477747E1    -1.037063630648799E2    -1.505703377422335E2
                        -2.930033773940398E1     6.344917484777328E1    -3.308329482276952E-1   -1.284880414495223E2    -9.192854756087451E1     1.536362541022862E2    -6.919912435264799E1    -1.415610076169333E2
                        -8.644025042823151E1    -7.850233164227332E1    -8.887146892485107E1     1.790416061950454E2    -1.349947743932985       2.327868813331746E1    -8.343576462845989E1    -1.265177049382338E2
                        -1.001666175917579E2     5.745569451425300E1    -6.947584560827382E1    -1.398204635971129E2    -8.497828398693484E1    -1.334494881799973E2    -1.363195396739576       3.011561295269524E1

 5.675475000000000E7    -3.631179872276765E-1    7.510181862737956E1    -2.923498373542064E1     6.345057051641123E1    -7.840017026826934E1     1.767724722693073E2    -8.341036009196527E1    -4.593483824017689E1
                        -2.931296685918638E1     6.400017156117679E1    -3.329368731843365E-1   -1.284862354682010E2    -7.845844092494568E1     1.754929063073476E2    -6.959734753883483E1    -1.335228328550491E2
                        -9.054602327981721E1    -1.425631470072376E2    -7.976926244064738E1    -1.383286345628072E2    -1.352525496116590       2.328120336038388E1    -9.068640276938282E1    -1.647285597951022E2
                        -8.367353395230285E1     1.670486624568135E2    -6.804547314382806E1    -1.358998137396517E2    -8.723206886059188E1    -1.166945634235639E2    -1.360524429335372       3.013258070576985E1

 5.675500000000000E7    -3.648679852262839E-1    7.513916676200405E1    -2.922955235548866E1     6.343134240256931E1    -9.622492910184215E1     1.390740404086537E2    -8.246465673534290E1     1.646757429434446E2
                        -2.921574194596305E1     6.375250249024747E1    -3.368030017294925E-1   -1.285172202499120E2    -8.391102006424822E1    -7.951637630676888E1    -6.829983650388292E1    -1.325160537830502E2
                        -8.309532134905133E1    -1.764640368361710E2    -8.988452384907511E1    -1.690728793571501E2    -1.356358457023525       2.326568251902062E1    -9.280043962592802E1     1.209707821912708E2
                        -8.434248746054203E1     7.566942552008577E1    -6.804381720406211E1    -1.462213728449696E2    -8.758741933727026E1    -8.885103695243959E-1   -1.359208140899573       3.013782163824986E1

 5.675525000000000E7    -3.628744824088721E-1    7.511501781713598E1    -2.919978750163301E1     6.287246449920176E1    -8.956144308206525E1    -1.736097552187958E2    -8.781532323563397E1     1.161024699361549E2
                        -2.915443975893135E1     6.337483719000390E1    -3.322796861749220E-1   -1.285493610916983E2    -8.908026872292771E1    -1.085876888621404E2    -6.937104395211188E1    -1.293951980763326E2
                        -9.261675551146286E1     1.498637373184479E2    -8.284119260208514E1    -1.452052947675556E2    -1.355825593188222       2.323514475988795E1    -8.542651528938997E1    -1.311542967387240E2
                        -8.514439230646916E1     1.867475243335971E1    -6.962583010210761E1    -1.466457935877581E2    -8.175984852266788E1     7.228068374376548E1    -1.361799744345275       3.012532554173997E1

 5.675550000000000E7    -3.660819879440064E-1    7.511878779769292E1    -2.923929695620282E1     6.319628077527033E1    -8.548368501659314E1    -1.770379727129772E1    -9.057295568090844E1    -5.454989322939075E1
