#  HZ   S   DB   R     50.00 
! Rohde & Schwarz Vector Network Analyzer 
! Rohde-Schwarz,ZNB8-4Port,1311601044102961,2.82
! Created: UTC 2/8/2019, 4:04:16 PM
! freq[Hz]                db:S11                  ang:S11                 db:S12                  ang:S12                 db:S13                  ang:S13                 db:S14                  ang:S14
!                         db:S21                  ang:S21                 db:S22                  ang:S22                 db:S23                  ang:S23                 db:S24                  ang:S24
!                         db:S31                  ang:S31                 db:S32                  ang:S32                 db:S33                  ang:S33                 db:S34                  ang:S34
!                         db:S41                  ang:S41                 db:S42                  ang:S42                 db:S43                  ang:S43                 db:S44                  ang:S44
! 
 5.275000000000000E7    -2.426897250810771E-1   -6.210051831162183E1    -3.003307990821255E1     1.320831958935102E2    -6.911341397794230E1    -9.355769001775724E1    -8.438250461628103E1    -5.483005564459532E1
                        -2.996313907841059E1     1.321479704479647E2    -2.994524429181779E-1    1.463009706863754E2    -8.760240296262654E1    -1.135376707546266E2    -8.077601329759135E1    -7.106123478587078E1
                        -6.956052072965500E1    -8.303915452392559E1    -8.847886170483498E1     1.335242496167138E2    -1.388605954387621       8.092237128549419E1    -8.118244862837913E1    -6.218343222290361E1
                        -8.964928964655454E1    -7.976618924751024E1    -8.712811210609425E1    -7.234250571878542E1    -8.855260555394878E1     1.606464433177150E2    -1.350161979307896       7.530620618021000E1

 5.275025000000000E7    -2.430559783211977E-1   -6.209372633107205E1    -2.997198340575718E1     1.319135581982801E2    -6.716028769917648E1    -8.064839423270709E1    -8.099462389720011E1    -3.649991590930134E1
                        -2.998605439435774E1     1.322029955645316E2    -2.982006253920886E-1    1.463116027263608E2    -8.236273358745177E1     1.022711436542189E2    -8.059415142795238E1    -7.706318203134516E1
                        -7.012899009796483E1    -7.487284298242648E1    -9.617626667110639E1     4.533474241161224E1    -1.389939188784552       8.088335746939299E1    -8.608670261960086E1    -8.863777919587844E1
                        -8.308084164513936E1    -7.045356306104138E1    -8.269352529844915E1     1.222645622497725E2    -9.779894610477227E1     5.439841929876324E1    -1.348016770762086       7.528667497017351E1

 5.275050000000000E7    -2.453671319872136E-1   -6.213975633103971E1    -3.004114681941147E1     1.320980635864195E2    -6.929101064603871E1    -7.196314229118175E1    -9.950100727433099E1     1.002045686981106E2
                        -2.999122918248037E1     1.311861635409061E2    -2.952740838594141E-1    1.463327682313254E2    -9.090851487151177E1    -1.013593427592571E2    -8.899445322335049E1     1.713612949505117E2
                        -6.851496612386909E1    -7.881912579235539E1    -8.387950183453533E1     1.654153941137133E2    -1.389145400117479       8.089657091388600E1    -8.093612377571142E1     2.026239250836185E1
                        -8.066193575685361E1    -5.773919416928101E1    -8.347838389274642E1     8.967666835152748E1    -8.920084777301696E1    -1.633368746203815E2    -1.350055129442867       7.532753645118375E1

 5.275075000000000E7    -2.450016705957053E-1   -6.212023500776196E1    -3.005780980628753E1     1.321725961292385E2    -6.833602301102386E1    -8.551326560480986E1    -8.370211936837735E1    -2.145499199159913
                        -3.004370048438522E1     1.318602991768942E2    -2.916944324551196E-1    1.463123404600767E2    -9.921295139481181E1    -9.036011850239133E1    -7.941731231378883E1     5.833062493642659E1
                        -6.896487786990494E1    -8.230591807007343E1    -9.746743481304566E1     2.569755381518231      -1.387496033105211       8.089265527398365E1    -8.155808043021187E1    -5.082652184303882E1
                        -8.868623149378703E1    -3.864420550672948E1    -9.232251711032828E1    -1.136166589008394E2    -8.900408362441175E1    -4.262750436601550      -1.348576299856140       7.529546559599224E1

 5.275100000000000E7    -2.446746770750054E-1   -6.217442531933187E1    -3.002202211384760E1     1.329061968438741E2    -6.822833656733570E1    -7.739643494658563E1    -8.437598535158811E1    -1.117985683011352E2
                        -2.999085578908135E1     1.325220822863566E2    -2.974127803725009E-1    1.462939911978960E2    -8.608479305791990E1    -2.840349402947985      -8.581432465551175E1     6.353039051528516
                        -6.934324417295922E1    -8.310903415341039E1    -8.497146138825139E1    -8.019336785977023E1    -1.391805527258664       8.089153555162342E1    -9.580543003114494E1    -1.503233355256690E2
                        -8.447112118420976E1    -1.514975028206804E2    -8.703555865228283E1     2.957729510337990E1    -9.060678850523658E1     1.057281496968483E1    -1.352935591661362       7.525278757601667E1

 5.275125000000000E7    -2.400798011265607E-1   -6.219470957812828E1    -2.992971908377020E1     1.323051093704879E2    -6.823097578547794E1    -8.258320459253139E1    -8.382861277176792E1     3.677387630237754E1
                        -3.000668278356418E1     1.322879157020347E2    -2.939381789566610E-1    1.463028235273791E2    -8.104035725537854E1     2.268553458756372E1    -8.134496396802634E1     1.712564725145182E1
                        -7.006227542142476E1    -7.856324152381859E1    -8.600098678280412E1     6.340508493283725      -1.389690668967378       8.091008077824016E1    -8.593194056441192E1    -1.235828146681851E2
                        -9.099562505330442E1    -5.611439106553901E1    -1.050566981471916E2     4.764498150092933E1    -9.739235022955808E1     2.633971396179702E1    -1.348689343927413       7.526274006529582E1

 5.275150000000000E7    -2.470569954625389E-1   -6.224124603115784E1    -2.994727988866532E1     1.320787184714985E2    -6.989915613261717E1    -7.386138116812076E1    -8.219107598701649E1     1.006065290984018E1
                        -3.008134181759581E1     1.327663714188151E2    -2.963664757869232E-1    1.463272821991916E2    -9.014138843517597E1    -7.278301579332221E1    -8.188623764988424E1    -1.485381246001917E2
                        -6.995834097053483E1    -7.198422737993384E1    -8.558147784044147E1    -8.294798991043355E1    -1.390521674837162       8.089769911068035E1    -9.819317147788792E1    -1.411905074506452E2
                        -7.824820326362256E1    -5.971892960056951E1    -8.856505141082843E1     1.527636692871995E2    -9.126365108597319E1    -6.356586764287415E1    -1.347880750525173       7.526947480237530E1

 5.275175000000000E7    -2.453170343503499E-1   -6.223434458958813E1    -2.990988446584973E1     1.322201172296198E2    -6.836215444108998E1    -8.160969299109028E1    -8.467054116686688E1    -6.225695206311364E1
                        -3.002943717164591E1     1.321712942642418E2    -2.985506078339377E-1    1.462459713026365E2    -9.151740995813393E1    -1.777400511586010E2    -9.158561266789616E1    -3.161893482026868E1
                        -6.943034255555121E1    -8.084567142263772E1    -8.187558300128944E1     6.646659328545471E1    -1.384572200040146       8.090115159160064E1    -8.026714272323027E1     1.614217765658689E2
                        -1.019054514760559E2     1.091074135083828E2    -8.446348445324973E1    -4.930612380785708E1    -1.051068670142639E2    -1.589827207583378E2    -1.348049423526064       7.527026607310032E1

 5.275200000000000E7    -2.456952721332661E-1   -6.226006255171666E1    -2.999285240234555E1     1.316283237496085E2    -6.938408336707852E1    -7.247901663326609E1    -8.100185583626251E1    -5.119767825838615E1
                        -2.997720934721315E1     1.319535759052590E2    -2.980657720360553E-1    1.462645207523194E2    -9.664516506164844E1     1.752808647461773E2    -9.109286218592708E1     1.159054092060972E1
                        -7.042475042923597E1    -8.179102424279247E1    -8.722870517197846E1     6.706206583155360E1    -1.392198486811183       8.089423787914558E1    -8.346229393692197E1     1.601256043592234E2
                        -8.798789943179402E1    -1.000521918305501E2    -8.039443952463053E1     1.187029165709200E2    -8.419378283872568E1    -1.680685523362076E2    -1.351394044189811       7.526690563764522E1

 5.275225000000000E7    -2.432315584039184E-1   -6.229613352889400E1    -3.001954390928889E1     1.324798352404433E2    -6.935295011473725E1    -8.038233111133923E1    -8.348474607557974E1    -1.175029919517947E2
                        -3.006164145159825E1     1.313528764943215E2    -2.959036903871913E-1    1.462860702596095E2    -8.814233338087786E1    -5.973633827573185      -8.577530858690956E1     5.211834993179579E1
                        -6.957414996822638E1    -8.746277417406603E1    -8.212486680808823E1    -4.752073734024601E1    -1.389261442333372       8.089679547991757E1    -8.797127924204750E1    -1.715053246183800E2
                        -8.069881768814661E1    -1.097509169116322E2    -8.039155958154494E1    -2.418197531807818E1    -8.876133996476648E1    -1.736663143683517E2    -1.344133663393365       7.525731742204985E1

 5.275250000000000E7    -2.419330735528492E-1   -6.227677228801414E1    -3.007755175074631E1     1.318022803875607E2    -7.171475146252294E1    -8.232381966792845E1    -8.221773585139849E1     5.506185270415488
                        -3.004173541815866E1     1.322050338694995E2    -2.987161099934643E-1    1.462628448335358E2    -8.759389099036669E1     1.835287750020484E1    -9.278169639676791E1    -5.602078484604504E1
                        -6.970825424310323E1    -7.943216392673317E1    -1.073000484468677E2    -7.826332831899229E1    -1.390392679721498       8.088052298534549E1    -8.324127516646593E1    -5.732406778584758E1
                        -1.071405330623982E2     6.585912446305041E1    -8.445380994324913E1    -6.244184420999137E1    -8.227838544172795E1    -3.173469633970735E1    -1.351810860455994       7.526358705425139E1

 5.275275000000000E7    -2.423766931671571E-1   -6.231181433103625E1    -3.007431837155166E1     1.323339700813061E2    -6.827623561402854E1    -7.904592217088602E1    -8.647214975353086E1    -7.313995686837914E1
                        -3.005449368862677E1     1.320017558606754E2    -2.942553287058305E-1    1.462496280995038E2    -8.278731162327753E1    -1.675098176407277E2    -8.998778342645036E1     9.086950883774375E1
                        -6.948606049348476E1    -8.006210011657302E1    -8.765709026643165E1     1.198562534664823E2    -1.387962224915713       8.089666050174121E1    -9.996668141462989E1    -1.199606903475177E2
                        -8.429042247672800E1    -1.103009568724604E2    -9.002679691463169E1    -7.988650128654483E1    -8.510014914478012E1    -1.320462887734732E2    -1.348741175370597       7.522704061415583E1

 5.275300000000000E7    -2.455412908805384E-1   -6.230786123566789E1    -3.000706885402459E1     1.320741847933963E2    -6.980914797207781E1    -7.851523563705518E1    -8.191946561246482E1    -6.403600628118643E1
                        -2.996886214377057E1     1.320275929175303E2    -2.947235636749618E-1    1.462887913075060E2    -9.157399326368621E1     1.775880718605733E2    -8.564068714895953E1     1.421475322886307E2
                        -6.928523123654260E1    -8.790172641176571E1    -9.120288774218024E1    -7.638735335832770E1    -1.388933564135791       8.088806082790080E1    -8.768564384977651E1     1.462892300486576E2
                        -9.133496373322352E1    -7.709335677031682E1    -9.815056266599713E1    -3.773708433345906E1    -8.831519909843722E1     1.401513979266309E2    -1.353185485763500       7.525212430714169E1

 5.275325000000000E7    -2.429728363622432E-1   -6.232458735403152E1    -3.009407092938574E1     1.321725117195831E2    -6.897702182295772E1    -6.148344954671637E1    -8.351437084979926E1    -6.142987713583154
                        -2.988467026399884E1     1.321336892562437E2    -2.923690971637106E-1    1.462419294932196E2    -8.148431635322586E1     5.119410994506038E1    -9.533850985351978E1     1.659315440123523E2
                        -6.904850173450808E1    -7.719210349745744E1    -8.583079703210984E1    -8.819105988923123E1    -1.385185160850495       8.087447183572266E1    -8.211901113125875E1     1.209613267857022E2
                        -8.705366475346254E1    -1.527291858232090E2    -9.244399067334024E1     4.877977623908542E1    -9.192206334996439E1     1.088154930810233E2    -1.346210704239421       7.524461486142799E1

 5.275350000000000E7    -2.443571974760188E-1   -6.235773632580968E1    -2.995172390819857E1     1.318224134152378E2    -6.839687003611047E1    -7.560982013488349E1    -8.582135846047203E1    -4.187105006035957E1
                        -3.006979637848785E1     1.318963715121172E2    -2.987240195810607E-1    1.462606147624444E2    -9.481972326247414E1    -1.202760259665918E2    -9.622223270775122E1     5.050595591426585E1
                        -7.077335596233951E1    -8.863644408508331E1    -8.860515139620199E1    -5.337689851910218E1    -1.390249739633396       8.086761709246665E1    -8.925463244781383E1    -2.516440630448487E-1
                        -8.675060192603868E1     2.173156476580369E1    -8.263047957493055E1    -1.412570917361107E2    -8.145738040764135E1    -1.130380067223611E2    -1.351533140983380       7.522498649888301E1

 5.275375000000000E7    -2.477264777409337E-1   -6.238284774727651E1    -3.000323002736445E1     1.318881236991703E2    -6.941589791635579E1    -7.201957666544882E1    -8.046664671048903E1    -1.194312062416573E2
                        -2.999301751849601E1     1.324059700503250E2    -2.933226224988875E-1    1.462283464916891E2    -8.882503676909116E1    -1.180095614873192E2    -8.728313381219857E1    -1.098345030459335E2
                        -6.790477297372300E1    -8.925076303943526E1    -9.161066721204720E1     3.267571638551002E1    -1.386024402878466       8.087171798586529E1    -8.277382855435901E1    -1.099292648834452
                        -9.707553711316601E1    -1.648775817807295E2    -9.440630611699712E1    -5.747684227826091E1    -8.390796639786446E1    -6.832430462571766E1    -1.350888459675478       7.526065808050781E1

 5.275400000000000E7    -2.435774000273959E-1   -6.239117255990600E1    -2.998321500786495E1     1.319071745814663E2    -6.880526358330600E1    -8.913047791265404E1    -8.958474158706770E1     5.483700064643228E1
                        -2.991112162401226E1     1.319267573371630E2    -2.953290940067795E-1    1.462387627236434E2    -8.354366638627157E1     1.541962254017246E2    -8.213523175215663E1     7.690039267662513E1
                        -6.999600174136039E1    -6.956021991444708E1    -8.409752283910100E1     1.575765557122395E2    -1.389009263023091       8.086413622123573E1    -7.984195636420780E1    -1.508693353741017E2
                        -9.560811894626778E1     2.627921106810739E1    -8.408397885306772E1     1.094239010876865E2    -1.011510543118865E2    -4.683245794944151E1    -1.349784855649915       7.523155031382756E1

 5.275425000000000E7    -2.438415565065921E-1   -6.244063120199362E1    -2.999113508819666E1     1.322624322920021E2    -6.794793653472243E1    -8.498025493220250E1    -8.847879084653749E1     5.964068138719045E1
                        -3.009088356016639E1     1.319866423807747E2    -2.902715616578386E-1    1.462474238421468E2    -8.896768405577038E1     1.211393322304639E2    -9.244278063944734E1    -3.656318260336442E1
                        -6.845509329384731E1    -7.441434624133837E1    -8.308013368201608E1     1.254159296821617E2    -1.382115515009446       8.084609988731201E1    -8.718572927978514E1    -1.771504077648738E2
                        -9.200223293901188E1    -8.009263155100490E1    -9.294054188870965E1     1.184360242828286E2    -9.151949982294063E1     9.374158176861138E1    -1.349576686210757       7.525771845081015E1

 5.275450000000000E7    -2.442711076975833E-1   -6.244661714091921E1    -3.006424679261463E1     1.314443887828626E2    -6.682225527288782E1    -8.146139866075723E1    -9.002392889609050E1     1.491577488631585E2
                        -2.999400585110454E1     1.315645680406596E2    -2.934641126578936E-1    1.462115086026090E2    -8.752933537289994E1    -3.418920396728883E1    -8.552937183319180E1     1.256433566945625E2
                        -6.850173495274106E1    -6.823877338301641E1    -1.018637380803266E2    -8.155927005807062E1    -1.393102019202375       8.086078721540869E1    -8.837382792946629E1    -7.495232635072952E1
                        -8.492769990397257E1    -5.772243098570042E1    -8.737373000505727E1    -7.045344962854117E1    -8.337432359717694E1     5.983104047180946E1    -1.348595953065837       7.522336200480761E1

 5.275475000000000E7    -2.410406175463977E-1   -6.245525888063413E1    -2.997053484658234E1     1.313575717038690E2    -6.945127673659412E1    -7.762687562657719E1    -9.442243803247513E1    -5.268959241522979E1
                        -2.990497790997821E1     1.322769144094648E2    -2.908514185833024E-1    1.462098047580986E2    -8.404033344754024E1     4.392550949158540E1    -9.774562559147738E1     8.381453571206052E1
                        -6.894888276387961E1    -7.304188932814050E1    -8.663830306101494E1     1.177120039313177E2    -1.387970358466103       8.085036548597357E1    -9.870486159175238E1    -7.912755441161684E1
                        -9.100362743996240E1     1.617330043739023E1    -8.940942511038713E1    -1.430311765547933E2    -8.244962664775513E1    -1.397720007556194E2    -1.348049301139549       7.522973106575567E1

 5.275500000000000E7    -2.462756534171434E-1   -6.250339275862051E1    -2.998907321689112E1     1.323110611294861E2    -6.714056022230133E1    -8.023218133467665E1    -8.462180624602678E1    -3.791807631863733E1
                        -3.000361809559283E1     1.318889146194929E2    -2.947220752140478E-1    1.461997811054411E2    -8.752885838462730E1    -1.325448712550148E2    -8.931832443016923E1     8.480786675281946E1
                        -6.928510216577531E1    -1.001317171986011E2    -8.144545989098012E1     1.599253766237134E2    -1.385634635374284       8.085483527102007E1    -8.962944059601425E1     2.838849757130903E1
                        -8.455025700138654E1    -8.591590916452151E1    -8.047897540672642E1    -1.507582729595060E2    -8.420484546937601E1    -1.599627214641385E2    -1.352586819409034       7.521720796724424E1

 5.275525000000000E7    -2.406462313089316E-1   -6.250893743166846E1    -2.991391810867624E1     1.320661987775676E2    -6.806922052264946E1    -7.236194714031770E1    -9.577571414386890E1    -1.271985478558057E2
                        -3.000789501213356E1     1.320829309998350E2    -2.934168349108566E-1    1.462496720913989E2    -8.960004182524202E1    -7.193609515441273E1    -9.019107773005828E1     1.421661605128183E2
                        -6.793076634535821E1    -7.885603650026098E1    -9.435093692412600E1     1.721515004007233E1    -1.382707097900212       8.087402540435336E1    -9.008869278605053E1     5.514288079006020E1
                        -8.520138792295290E1    -3.989259332166544E1    -8.976716682309251E1    -1.785575993627200E2    -9.568852364488916E1     1.142944599315300E2    -1.352791195043079       7.522667508502180E1

 5.275550000000000E7    -2.447888674461354E-1   -6.250072350328890E1    -3.009624122343681E1     1.314229392599213E2    -7.006104808030310E1    -9.280588489625055E1    -9.674141362767736E1     5.717403765831843E1
