#  HZ   S   DB   R     50.00 
! Rohde & Schwarz Vector Network Analyzer 
! Rohde-Schwarz,ZNB8-4Port,1311601044102961,2.82
! Created: UTC 2/8/2019, 4:21:31 PM
! freq[Hz]                db:S11                  ang:S11                 db:S12                  ang:S12                 db:S13                  ang:S13                 db:S14                  ang:S14
!                         db:S21                  ang:S21                 db:S22                  ang:S22                 db:S23                  ang:S23                 db:S24                  ang:S24
!                         db:S31                  ang:S31                 db:S32                  ang:S32                 db:S33                  ang:S33                 db:S34                  ang:S34
!                         db:S41                  ang:S41                 db:S42                  ang:S42                 db:S43                  ang:S43                 db:S44                  ang:S44
! 
 5.675000000000000E7    -3.492704148674641E-1   -1.254263981620157E2    -2.927041561130226E1     6.356505186035140E1    -6.865466117956289E1    -1.341823107531678E2    -8.042336138134837E1    -1.718799228275679E2
                        -2.930342377129930E1     6.366427793435366E1    -2.161812472518390E-1    7.280012091666121E1    -9.348031985078409E1    -3.906059648095385E1    -8.815173447941903E1    -1.139206967311123E2
                        -6.731847115484004E1    -1.417975340284543E2    -8.662216508785502E1     7.673214610490710E1    -1.329612769339215       3.411754263464467E1    -8.479974935917974E1    -3.206697779572220E1
                        -8.604728912985908E1    -1.087546121961383E2    -9.819152977283093E1     5.566492748464011E1    -9.473686070315739E1     1.032577372934916E2    -1.328719356756417       2.750245352253408E1

 5.675025000000000E7    -3.520008934698643E-1   -1.254512567507638E2    -2.923196570650716E1     6.383286221552373E1    -6.563013645293074E1    -1.243174122667597E2    -8.060295236684821E1    -1.069145461210199E2
                        -2.930982321945542E1     6.305914581929825E1    -2.228471532287114E-1    7.277482440250542E1    -9.123815442201560E1    -1.272336036546299E1    -9.314005992079559E1     6.371199999824187E1
                        -6.710415340062544E1    -1.409941892599856E2    -8.416789918931565E1    -1.183558806913140E2    -1.330365029214655       3.406549265313906E1    -8.740468178188510E1     1.369418822109495E2
                        -7.917851958873987E1    -1.384712029769674E2    -9.326783663517581E1    -7.829028168614188E1    -9.412453609045491E1     8.386385029005916E1    -1.335959715421452       2.749118982079288E1

 5.675050000000000E7    -3.476845315220677E-1   -1.255045741211064E2    -2.930714979555116E1     6.383350019396989E1    -6.766881087071403E1    -1.377327310856191E2    -8.443048962534469E1    -1.636321485020701E2
                        -2.917396626024907E1     6.307316057745031E1    -2.222226948236526E-1    7.281224200692267E1    -9.143754179677376E1     1.418491077984730E1    -8.006260165661013E1     3.418385048319563E1
                        -6.806725466538266E1    -1.301285412129367E2    -8.926424958036827E1     1.955055923893419      -1.332303149154781       3.410000424129255E1    -9.059159028749433E1     1.513543225488147E2
                        -8.387035029113228E1    -1.628413000402204E2    -8.951001318805515E1    -1.677952420628612E2    -8.694827135049600E1    -5.239829046277737E1    -1.331502270668105       2.750731055236020E1

 5.675075000000000E7    -3.512084136623216E-1   -1.255119351709180E2    -2.926123900947506E1     6.409134467999175E1    -6.625034157769692E1    -1.391761865358579E2    -9.280489294886243E1    -1.239195671915244E2
                        -2.938486030390805E1     6.364926982600687E1    -2.187391799073470E-1    7.282900795113902E1    -8.275515611176050E1     2.652136119757175E1    -8.482268070200823E1     1.265851265879475E2
                        -6.695935036447111E1    -1.326542174036677E2    -9.735306201205995E1    -1.011438526568085E2    -1.334170700405457       3.410522026369880E1    -8.931211271156153E1     4.457313407786850E1
                        -8.207581898380452E1    -1.403791357399836E2    -8.796520874681789E1     1.520049189547046E2    -8.273747819063730E1    -8.591198044782084E1    -1.330986793419405       2.749401785819146E1

 5.675100000000000E7    -3.554655076050114E-1   -1.255424251088816E2    -2.925137429499775E1     6.370789611121730E1    -6.631731400869353E1    -1.320598904980456E2    -8.381628803420868E1    -1.250169512883140E2
                        -2.923614470453218E1     6.319131940439347E1    -2.139785913034932E-1    7.275638562701262E1    -8.569778110142192E1    -1.077614647234085E2    -8.903715461326053E1     8.331675778234258E1
                        -6.744390754569507E1    -1.269148788709734E2    -9.473634516063643E1    -8.459323600554734E1    -1.337118033520013       3.405850059371730E1    -9.375077104893727E1     7.954424098214226E1
                        -8.230620311192445E1    -9.925023093313570E1    -8.336071015908357E1    -1.661132920343815E2    -8.988047512753425E1     1.365825988753623E2    -1.333729584054039       2.749065005551682E1

 5.675125000000000E7    -3.501130023608620E-1   -1.255474844584381E2    -2.924442236730247E1     6.367320397787566E1    -6.781638797641084E1    -1.364290990706984E2    -8.760310095118786E1     1.620116568792733E2
                        -2.924030686314740E1     6.328937866955182E1    -2.218378787701950E-1    7.279167702001682E1    -8.354302730522826E1     3.419879750050578E1    -8.538192012992803E1    -8.410820142796996E1
                        -6.709085616981345E1    -1.365329008415699E2    -8.715171882712107E1    -1.450272081759524E2    -1.327270168730780       3.408496856805859E1    -8.342563882927509E1     3.038587760299003E1
                        -9.179546562663515E1    -1.590888298376924E2    -8.692405205698002E1     8.564949483470397E1    -8.646709768487314E1     1.381895002625872E1    -1.332460442317939       2.748881207391812E1

 5.675150000000000E7    -3.481190867696848E-1   -1.256175594441301E2    -2.924409073898328E1     6.340151703552375E1    -6.772837155409403E1    -1.336971923390989E2    -9.470302579653102E1     1.592442388670660E2
                        -2.934273011376038E1     6.344991903623556E1    -2.214831169152585E-1    7.277502047140250E1    -8.373697732770955E1    -1.413681063857267E2    -8.834604378502422E1    -2.791539649211192E1
                        -6.615419061377398E1    -1.310340812202007E2    -8.491739193689702E1    -4.717855160369837E1    -1.334003348248305       3.409419387300454E1    -8.417440162685303E1     3.774759988786347
                        -8.133239990585153E1    -1.751150996532440E1    -8.109275343488633E1     6.304159364141002E1    -8.977972043102623E1     1.501011494357686E1    -1.331908786658288       2.749489311404595E1

 5.675175000000000E7    -3.478662668150929E-1   -1.255792090779197E2    -2.923686974829379E1     6.435772300576937E1    -6.498799541470605E1    -1.436279796824870E2    -8.833022427537063E1    -9.816171408918059E1
                        -2.929438260444378E1     6.323108630686333E1    -2.176762125564976E-1    7.277641887679121E1    -9.042926826412030E1     4.686103013056813E1    -8.448221627176199E1     6.623887235290412E1
                        -6.668839777491721E1    -1.354924445548604E2    -8.980442500389489E1    -8.481219054412745E1    -1.329206217933961       3.405690610359356E1    -8.864531372708404E1    -2.706888352069080E1
                        -8.219019305547738E1    -1.392590345327831E2    -8.717592823443100E1     3.869204444193595E1    -8.802609796039803E1     1.243617131956812E2    -1.331416134225096       2.750366486163586E1

 5.675200000000000E7    -3.509494460689874E-1   -1.256253812859308E2    -2.927209958689370E1     6.361540123282594E1    -6.718232546304847E1    -1.411981127523281E2    -8.396275070796561E1    -1.654704982931895E2
                        -2.925856065598254E1     6.347233506210000E1    -2.166048986546651E-1    7.280493950479026E1    -9.153413911976091E1    -2.026668239339772E1    -8.854709557925594E1     9.108881707652353E1
                        -6.715257591030523E1    -1.401221904589813E2    -8.456762129971094E1     1.145723152469458E2    -1.330748700806420       3.404763691036177E1    -8.122050943912286E1    -1.578266046840505E2
                        -8.339403927691433E1    -1.383600513963743E2    -8.595267954146624E1    -1.254024646321938E2    -9.638241428485684E1    -1.222205080031513E2    -1.336644203086154       2.746483778606593E1

 5.675225000000000E7    -3.492934646971591E-1   -1.256301839123449E2    -2.918675447114316E1     6.401194418118527E1    -6.647006850625384E1    -1.420298320075518E2    -8.097750792112566E1    -1.219219043435292E2
                        -2.918213775790349E1     6.299307358397940E1    -2.209767030227988E-1    7.278151556628981E1    -8.475039974081666E1     8.104048182002417E1    -8.831410816475709E1     8.338353269336149E1
                        -6.716906061956402E1    -1.423154818300884E2    -9.004581423396219E1     1.785694728962933E2    -1.332082102630273       3.407516866074136E1    -7.853213631734559E1    -1.285302096285401E2
                        -8.163115304639848E1    -1.112504420619256E2    -9.137135998727717E1     3.155033706507612E1    -8.968816310059681E1     2.542512734374356E1    -1.333768787110197       2.748684880994920E1

 5.675250000000000E7    -3.485782704847256E-1   -1.256779080554925E2    -2.925041123074481E1     6.309397687454575E1    -6.742728844277058E1    -1.230269154945900E2    -8.037068582698815E1    -1.660084633775584E2
                        -2.932695101199063E1     6.324192509019613E1    -2.203424263550711E-1    7.274197495787819E1    -8.644844374471255E1     7.271203910472475E1    -8.617672999883695E1    -1.312448794978071E2
                        -6.813127680663388E1    -1.383667460654609E2    -8.199999078313286E1     1.008312715355609E2    -1.331218684221046       3.406714374844036E1    -8.487914487130763E1     1.739713323131373E2
                        -8.381067026290208E1    -1.647312865249859E2    -8.807260665292395E1     4.109057840400361E1    -8.043234836655441E1    -8.646955322529078E1    -1.333113206150113       2.747338241876078E1

 5.675275000000000E7    -3.481733202333703E-1   -1.257090102479603E2    -2.920892681697841E1     6.301268616466896E1    -6.614639811048397E1    -1.283967920397316E2    -7.732507590902350E1    -1.379904225950323E2
                        -2.926967888184376E1     6.365207331519948E1    -2.148628450456119E-1    7.273209816034228E1    -9.983882407947091E1    -9.384888549094546E1    -8.548328025720154E1    -1.710516064921222E2
                        -6.762786316682373E1    -1.437442457423323E2    -8.469155294116264E1     5.070307253751461E1    -1.334057254430176       3.405478395783306E1    -8.977996578318383E1     8.377107238607596E1
                        -9.183301538311012E1    -1.468860429659858E2    -8.890881580463440E1    -4.264864899969637E1    -9.713075600923531E1     3.381061675721208E1    -1.332937750035806       2.748963478460152E1

 5.675300000000000E7    -3.488175656487725E-1   -1.257099020564042E2    -2.926806261974611E1     6.302721548382673E1    -6.618675155130470E1    -1.334994160025333E2    -8.140093430588468E1    -1.431294501166011E2
                        -2.924164341811966E1     6.361671551072026E1    -2.203663553107812E-1    7.274524014384124E1    -8.233727412317784E1    -1.117288132077087E2    -8.195344820288020E1     6.602858686480569E1
                        -6.747175553432015E1    -1.360402488165881E2    -8.802748087722556E1    -1.092453877417528E2    -1.335457565170853       3.406183418705884E1    -8.918545908925029E1    -6.723305067982452E1
                        -7.769920136441041E1    -1.306489834772765E2    -8.564851208446316E1     4.231956137129118E1    -9.864577027170293E1    -1.557447280546015E2    -1.330469002640644       2.746221998202719E1

 5.675325000000000E7    -3.503382283235504E-1   -1.257338493742664E2    -2.923097336153064E1     6.353006472544949E1    -6.645633926868298E1    -1.326146118324081E2    -8.427306889120935E1    -1.020933537199483E2
                        -2.925839398449789E1     6.350237337560820E1    -2.135396743260110E-1    7.275495553047637E1    -8.421988978871794E1    -3.129825944449587E1    -8.443924548243703E1    -7.549077321023822
                        -6.757923586995634E1    -1.416508192824005E2    -7.981548354014697E1     2.860075829473237E1    -1.332451149839116       3.403914628448867E1    -8.178935046419883E1     8.712489090267657E1
                        -7.871954022418413E1    -1.402112376005368E2    -8.365421972322994E1    -1.113101113694590E2    -8.621163374056752E1    -1.236096342639717E2    -1.332414208899301       2.746961657232612E1

 5.675350000000000E7    -3.463216038180856E-1   -1.257522409730502E2    -2.923901611033289E1     6.330839032941785E1    -6.757640105422976E1    -1.336921338036833E2    -8.235282415261244E1    -1.369178508651693E2
                        -2.931236274296844E1     6.309900358532600E1    -2.154433009114978E-1    7.270854559853680E1    -9.657316374903049E1     2.689599042370467E1    -8.129718243269963E1     1.730607009903861E2
                        -6.817613308067054E1    -1.390113245423661E2    -8.433177614585654E1     3.957947758118286E1    -1.334675516022943       3.404905700543858E1    -8.632880971632645E1     6.129285438804300E1
                        -7.881352671838486E1    -1.192664611284607E2    -8.995651325135921E1     8.711818650116604E1    -8.657436802373323E1    -1.352727639297177E2    -1.330514511479293       2.745731874391668E1

 5.675375000000000E7    -3.502431083519934E-1   -1.257787097618566E2    -2.928033503280621E1     6.324810103189388E1    -6.785432496871383E1    -1.378373911843501E2    -8.609546916109252E1    -1.271196659699992E2
                        -2.922714568521059E1     6.316555271885414E1    -2.234663603959575E-1    7.271415106739443E1    -8.973094464720050E1    -1.010291032918896E2    -8.405641790770575E1    -1.181224731442335E1
                        -6.718087558523413E1    -1.383624831059901E2    -8.504693904590235E1     1.361462514451836E2    -1.334969406058682       3.404039097294050E1    -8.450661180070186E1     1.504410753656116E1
                        -8.272259969703823E1    -1.372194483287967E2    -8.394077983435776E1     1.059016567682143E2    -8.225242369377314E1     1.093920058820581E2    -1.333211657819926       2.748712353545038E1

 5.675400000000000E7    -3.465514730289854E-1   -1.257985073813152E2    -2.923644809608019E1     6.352742004990824E1    -6.785035194896916E1    -1.337897809843757E2    -9.059918115164140E1    -1.223902236863513E2
                        -2.929841847305390E1     6.332462843266870E1    -2.175313538589860E-1    7.271883160795831E1    -8.595789995268950E1     9.756438992821488E1    -8.930553092097951E1    -9.392556097553597E1
                        -6.731400776200897E1    -1.369012183001026E2    -8.566934573013415E1    -4.001125145884890E1    -1.337418700266176       3.403862928496319E1    -9.094391106258094E1     5.430480457258467E1
                        -8.424725535335661E1    -9.861900435054733E1    -8.614797350163704E1     1.772423383726144E2    -8.620676979303511E1    -9.238532947751369E1    -1.331428308384632       2.748249164745067E1

 5.675425000000000E7    -3.495765119690572E-1   -1.258153305325517E2    -2.925588377164989E1     6.303256227248743E1    -6.723206801324233E1    -1.238550971392019E2    -7.786618867412217E1    -1.491726876602461E2
                        -2.923688995300114E1     6.333131752406950E1    -2.161841332026228E-1    7.270715725805954E1    -8.103852946118016E1     1.346660798873100E2    -8.780522881736064E1     4.435893879879803E1
                        -6.545843074150011E1    -1.458403132464343E2    -8.743625365654198E1    -1.444817719772223E2    -1.328288309344099       3.401963689348670E1    -8.566400984100426E1    -6.226300666252377E1
                        -7.871354562862916E1    -1.341358853190088E2    -8.423991929120373E1     4.603847113512869E1    -8.549279148371291E1    -2.004386079267190E1    -1.331523134413168       2.742869397908811E1

 5.675450000000000E7    -3.527030021250593E-1   -1.258509496190599E2    -2.920755350804566E1     6.369936036829376E1    -6.673497575134653E1    -1.384572713485464E2    -8.029339828847624E1    -1.526847590304616E2
                        -2.930371677325551E1     6.345615230701010E1    -2.190381454651436E-1    7.270837345757781E1    -8.288916742261466E1    -1.210670166363081E2    -8.833516035558316E1    -4.988344620930771E1
                        -6.657384832122590E1    -1.435115297185178E2    -9.164183491590235E1     1.680703106187980E2    -1.332500545041259       3.400660897976037E1    -8.654040934557811E1     1.697010777563378E2
                        -8.144822339150596E1    -3.400952222327427E1    -8.687584093318790E1    -5.975072885111435E1    -8.684704644745244E1     1.763796498012438E2    -1.329812037621561       2.744462452693758E1

 5.675475000000000E7    -3.522764366438447E-1   -1.258744595847608E2    -2.923484972989253E1     6.329472564131176E1    -6.572552814572715E1    -1.330542411288636E2    -7.566411149329406E1    -1.249379674463394E2
                        -2.912824466391241E1     6.339986809705154E1    -2.165688639576326E-1    7.272282557183090E1    -9.059618307754764E1    -3.351324122487347E1    -8.294884612854941E1     1.101925238035448E2
                        -6.884998766936261E1    -1.355337472808993E2    -8.800868150459002E1     1.688303690648575E2    -1.328778220920061       3.405495867035632E1    -9.553965418707307E1    -1.725271573849591E2
                        -9.372165228128785E1    -1.756692364656692E2    -9.096949322652627E1     1.476939155441177E2    -9.221358373965632E1    -1.080529638487663E2    -1.330870018247719       2.744108654401398E1

 5.675500000000000E7    -3.504185465968941E-1   -1.259120210510328E2    -2.923959380210680E1     6.338135842709008E1    -6.749224238717646E1    -1.392354068083241E2    -8.164144769644449E1    -1.035147920662366E2
                        -2.918228979089153E1     6.292738877229998E1    -2.199086628098581E-1    7.275372983325363E1    -8.566376678296578E1     2.266060275416884E-1   -8.419253307307479E1    -1.069221426314384E2
                        -6.649831637430629E1    -1.418303701040207E2    -8.600115541814488E1    -9.143630063778085E1    -1.329688577110580       3.403155127134176E1    -9.046380225242658E1     1.682821079498298E2
                        -8.279183182438736E1    -9.232346501999810E1    -8.747639453724483E1    -1.557625533446487E2    -8.987145935245350E1    -2.724004800434007E1    -1.334631059155702       2.745224193890826E1

 5.675525000000000E7    -3.495983313422904E-1   -1.259391291332944E2    -2.916446117539453E1     6.368966796442003E1    -6.696488161641946E1    -1.400171110924860E2    -9.383626403064889E1    -1.609932604575872E2
                        -2.920245788499793E1     6.348304562557853E1    -2.150654526459905E-1    7.270992720654607E1    -8.408138538282542E1    -5.728530168810687E1    -7.917361811552522E1    -6.924428584556649
                        -6.653515756578979E1    -1.326686383880004E2    -7.927410424530132E1    -5.747710890952879E1    -1.331648348822521       3.405057460118709E1    -8.866138501939453E1    -1.477584265357412E2
                        -7.646465772125229E1    -1.443886152486983E2    -8.399710146319670E1     6.914654322498208E1    -8.501143073254741E1     1.616084413777161E2    -1.331812952948605       2.744226071282340E1

 5.675550000000000E7    -3.518739866417089E-1   -1.259314277038732E2    -2.919329958395780E1     6.318738821725765E1    -6.706905826325995E1    -1.360566513427108E2    -7.820956564324317E1    -1.149088619330660E2
