#  HZ   S   DB   R     50.00 
! Rohde & Schwarz Vector Network Analyzer 
! Rohde-Schwarz,ZNB8-4Port,1311601044102961,2.82
! Created: UTC 2/8/2019, 3:34:29 PM
! freq[Hz]                db:S11                  ang:S11                 db:S12                  ang:S12                 db:S13                  ang:S13                 db:S14                  ang:S14
!                         db:S21                  ang:S21                 db:S22                  ang:S22                 db:S23                  ang:S23                 db:S24                  ang:S24
!                         db:S31                  ang:S31                 db:S32                  ang:S32                 db:S33                  ang:S33                 db:S34                  ang:S34
!                         db:S41                  ang:S41                 db:S42                  ang:S42                 db:S43                  ang:S43                 db:S44                  ang:S44
! 
 4.775000000000000E7    -2.782635463981987E-1    5.198916345353135      -3.000968865851120E1    -1.423752707879619E2    -8.657397923889930E1    -3.428449908347741E1    -7.086670899053684E1    -2.429951710494812E1
                        -3.001800592537848E1    -1.423826640909149E2    -2.118298008848479E-1   -1.107111539637543E2    -9.110136896383047E1    -1.095546362374180E2    -8.398361379047998E1     6.395830197615905E1
                        -8.198825722534812E1    -8.594756029307301E1    -8.560944106149236E1     1.508052740445445E2    -1.379037415078583       1.410724887691778E2    -8.545145641346436E1    -3.115647414130496E1
                        -7.210950493130973E1    -2.496670033141497E1    -8.668574091234449E1    -1.780633735242610E1    -8.400669151297406E1     1.677062342401170E2    -1.327881773163978       1.353215150873246E2

 4.775025000000000E7    -2.812346519710927E-1    5.179629043877851      -3.011438249525644E1    -1.427456233061488E2    -8.309685165571453E1    -1.721188740043301E2    -7.333368021272239E1    -1.615353710557832E1
                        -3.006248179380695E1    -1.428791250546624E2    -2.138964103330943E-1   -1.107077612962845E2    -9.071241118620287E1     4.023897508277513E1    -8.123037510467475E1     1.749506938828195E2
                        -9.018178373696374E1    -2.721277427263135E1    -8.312281293648326E1    -1.760727522429390E2    -1.378122456296787       1.410625260183895E2    -8.243765577135977E1     1.347137625890370E2
                        -7.144323401832327E1    -1.083075161463082E1    -9.755594596765744E1     2.954367940135979      -9.144639672529573E1     1.633178624161899E2    -1.327792721183485       1.353283342691430E2

 4.775050000000000E7    -2.746203996808365E-1    5.204179126721926      -3.004946200227879E1    -1.429992064729694E2    -8.315291439194569E1    -8.177600276050335      -7.134228293605739E1    -2.418315560037935E1
                        -3.017553219740975E1    -1.431005034896919E2    -2.070372238968175E-1   -1.107161264457113E2    -8.836603740182790E1    -1.551326080865825E2    -9.226548522248380E1    -6.445383398338380E1
                        -8.500918726232376E1     1.130089468221586E2    -8.410665791086970E1     8.413060035519848E1    -1.377454255674213       1.410795001773721E2    -8.489926803182607E1     7.458928519674994E1
                        -7.229527989835422E1    -1.162944483282798E1    -9.353878430391254E1    -1.756106308470743E2    -8.863896388916460E1    -1.753538401098574E2    -1.328993153155180       1.352962612364502E2

 4.775075000000000E7    -2.757135365396650E-1    5.136684542052747      -2.991567006431588E1    -1.426536831102648E2    -8.260255640693677E1     1.943925527610508E1    -7.084367696624271E1    -2.481297586892795E1
                        -2.996792081816419E1    -1.423858526758755E2    -2.136222789553443E-1   -1.107263524021141E2    -9.043903128566637E1     1.162420132363994E2    -7.751959487045237E1     1.621995450096451E2
                        -7.934599676360955E1     1.471492414212687E2    -8.465453922352000E1     9.384134008349029E1    -1.378118161730100       1.411042901830821E2    -8.550265191666773E1    -4.412313933358271E1
                        -7.413002686035154E1    -3.406451407824843      -8.325848746369502E1    -1.419071230120655E1    -8.414308151804843E1     1.250484143193268E2    -1.334227366129072       1.352916154816113E2

 4.775100000000000E7    -2.760474741756313E-1    5.138853820452975      -2.995637150367662E1    -1.423911209929171E2    -8.597213019161366E1    -1.115408256742339E2    -7.126151611318515E1    -1.513503782310446E1
                        -3.000622076344328E1    -1.427719192238518E2    -2.115337443173072E-1   -1.107437592962880E2    -9.114364699047715E1    -1.744220521430601E2    -8.910399463236493E1    -7.651924424104193E1
                        -8.341816773257858E1    -2.297916863008820E1    -8.684675028918571E1     1.170896710121130E2    -1.377857887173646       1.410772424038491E2    -9.319193526195242E1    -4.923310714616618E1
                        -7.172500767204541E1    -2.180203483749903E1    -8.806750798770892E1    -1.139758463640474E2    -8.916333963806530E1    -4.540606078103212E1    -1.327201916123524       1.352913013512343E2

 4.775125000000000E7    -2.757995146379839E-1    5.140771140360974      -2.999502939280995E1    -1.427250258295226E2    -8.057341222797052E1    -2.479159809877920E1    -7.013316760305797E1    -3.508706823274945E1
                        -3.008884568703685E1    -1.434656831243815E2    -2.076313238496474E-1   -1.107241197772647E2    -8.852462778542764E1    -1.213886495880536E2    -9.063406726228463E1    -1.146391652734533E2
                        -7.886009774362890E1     7.166728918794863E1    -8.663299306659644E1    -1.537039922648461E2    -1.380400506341599       1.410878784904648E2    -8.980466723365322E1     1.130973238754297E2
                        -7.366872539897159E1    -1.097332424059550E1    -8.871799754516560E1    -6.037147184994952E1    -9.272017270003944E1     1.740307264603510E2    -1.328615023652530       1.352543661773330E2

 4.775150000000000E7    -2.746578765592707E-1    5.104517923388703      -3.006049619232492E1    -1.427106038519372E2    -8.269803890336115E1    -1.452308332872874E2    -7.163556963507729E1    -2.431102201151186E1
                        -2.998000030714371E1    -1.432845236157204E2    -2.135539274287264E-1   -1.107529603864117E2    -9.288271500572992E1     6.081517582599948E1    -9.015938493770901E1    -1.692500704576899E2
                        -8.102900386867999E1     3.232194024347135      -8.912194407228998E1     2.308073500074152E1    -1.380722889867594       1.410867803338697E2    -8.556985584561386E1    -1.129551554118200E2
                        -7.231305246990036E1    -2.463894590382152E1    -9.305321144388316E1    -4.093223769981759      -9.059715006076814E1     1.556586666547362E2    -1.328596164411588       1.352684832993666E2

 4.775175000000000E7    -2.748300442122964E-1    5.085185358151636      -3.005460806270241E1    -1.432075089156189E2    -8.697791786924165E1     2.831956339976619E1    -7.266897176200769E1    -2.717954315809313E1
                        -3.010989044407475E1    -1.427579298821256E2    -2.132263893058666E-1   -1.107331660112634E2    -8.808135328648093E1     1.661753868275027E2    -8.659736696964788E1    -5.048016281102593E1
                        -8.819290031716469E1     1.670193318608164E2    -8.211319163421665E1     1.335673692116993E2    -1.381429793038557       1.410786523322420E2    -8.919107768162398E1     5.433649844618174E1
                        -7.014942480783091E1    -1.497669037525267E1    -8.546690042790480E1    -1.427547648610034E2    -8.526484895721909E1     1.660843011022375E2    -1.330094674121534       1.352419246633692E2

 4.775200000000000E7    -2.783865282286205E-1    5.081634828152810      -3.001474895671358E1    -1.427058249531038E2    -8.733137891601996E1     1.205752747792997E2    -7.132654145856722E1    -7.418107068323710
                        -3.001914665078168E1    -1.425645041353640E2    -2.094464339277234E-1   -1.107520225033781E2    -9.362443604262900E1     1.074423541303006E2    -8.965202033992324E1    -1.775182966345773E2
                        -8.360568788919808E1     1.593281874703522E2    -8.285027809342671E1     3.425636999392018E1    -1.375661852481056       1.410864987564578E2    -8.517031560428528E1     9.938006321532451E1
                        -7.081445539450887E1    -2.352693872548472E1    -9.642233985480584E1    -1.542697077060279E2    -9.364765670601838E1     2.996005859427354E1    -1.324122470388741       1.352535414694396E2

 4.775225000000000E7    -2.768376845357812E-1    5.043995960357041      -3.003669472939754E1    -1.429052663325612E2    -8.161597195230809E1     1.062909534779281E2    -6.812852499054218E1    -1.280101311446797E1
                        -3.008782138342040E1    -1.432897610657412E2    -2.134407447950210E-1   -1.107312688338551E2    -9.037707067396234E1     1.422642520490422E2    -8.598220490111518E1    -9.999892820619670E1
                        -8.294010666905892E1    -1.300412452971005E1    -8.478298418819455E1     1.116077993936302E2    -1.377657918353721       1.410650797256948E2    -9.219067916635399E1     7.889675327955858E1
                        -7.437438817932589E1    -3.374652867689832E1    -9.272960274232042E1    -5.933354368108511E1    -8.849416732744518E1     7.617645232076592E1    -1.329188168026599       1.352852432880120E2

 4.775250000000000E7    -2.711870277209056E-1    5.062943270391624      -3.001396420266916E1    -1.428072617612694E2    -9.069947718775678E1     1.371488118740104E2    -7.167179411043472E1    -1.770174709648792E1
                        -3.009063292750912E1    -1.425907661687126E2    -2.111120070554212E-1   -1.107958001780358E2    -8.702898992383338E1     9.922479286879423      -8.944034818521055E1     2.697239212038343E1
                        -8.341327854512247E1     8.009080069984847E1    -9.944466228560646E1    -7.680851814885558E1    -1.379083457911225       1.410563205380574E2    -8.591220682791322E1     7.619928903850713E1
                        -7.312323445234387E1    -9.598794344656824      -9.320071607072870E1     7.252795442132511E1    -8.087360921199010E1    -1.271481603821852E2    -1.323915105232285       1.352593955685626E2

 4.775275000000000E7    -2.724764115486514E-1    5.013334007608686      -3.001772076225145E1    -1.429150671361850E2    -8.322286397013825E1    -8.593031344880632E1    -7.018533202131755E1    -2.643221417014216E1
                        -3.006542486367206E1    -1.430423845608943E2    -2.133082574622817E-1   -1.108018843996645E2    -8.297994769631185E1    -1.709360935091966E2    -8.370517142220621E1     1.451173063631198E2
                        -9.701741793317596E1    -1.255236400992989E2    -8.613086391116897E1    -8.593798665878741E1    -1.378980643481854       1.410653711944091E2    -9.792003260054645E1     9.938651485745479E1
                        -7.110254700612222E1    -2.747711479224615E1    -8.661788289999750E1    -1.275794644941461E2    -9.456369260316862E1    -1.030390571959984E2    -1.323827884170854       1.352575924516779E2

 4.775300000000000E7    -2.774506028267569E-1    5.017491705930230      -3.003256821320354E1    -1.427905096043028E2    -8.435476615697206E1    -1.757547589529023      -7.430866494276300E1    -1.507804852651562E1
                        -3.004778804589761E1    -1.436316103156130E2    -2.151050172594591E-1   -1.107788631266773E2    -8.159063486545607E1    -2.579766094543771      -8.635996734579130E1     5.757601779426273E1
                        -9.908109113703139E1    -1.424468889623732E2    -9.296774571882517E1    -1.422622367892315E2    -1.379492591964865       1.410739129402387E2    -1.143200957150168E2     6.752262949256833E1
                        -7.208832834362252E1    -2.454149659102800E1    -9.012048526652457E1    -1.600130437002174E2    -8.398411336404719E1    -7.511442348112102      -1.319135600443903       1.352523880309551E2

 4.775325000000000E7    -2.708190806837533E-1    4.989673264852421      -2.998706856220979E1    -1.430341244531199E2    -8.686872142869166E1     1.481833305763510E2    -7.022327121522611E1    -1.504857842357754E1
                        -3.011433357461158E1    -1.424360544048735E2    -2.194282208233351E-1   -1.107813269940974E2    -8.183631626714914E1     7.719001304875431E1    -8.267561080314658E1    -1.050953117738637E2
                        -8.575312922908265E1    -1.294099476542120E2    -8.184768135873654E1     1.766810967398160E1    -1.377597772293778       1.410381718852110E2    -8.788832528474615E1     9.263611220310433E1
                        -7.429107529236582E1    -2.396600818951362E1    -8.385500392298985E1    -1.453111203939402E2    -8.787773928314392E1     7.852746891137065E1    -1.326971536556237       1.352380854517395E2

 4.775350000000000E7    -2.785532813600617E-1    4.948598953276003      -2.998199233378455E1    -1.424539244808314E2    -8.380192405425740E1     9.638328837224186E1    -7.386105607316611E1    -3.469070757205228E1
                        -3.009268494261420E1    -1.428510963580450E2    -2.155335708040029E-1   -1.108082489731841E2    -8.893330252231678E1     1.599481165120354E2    -8.749252515923843E1     1.890904200827372E1
                        -9.318732471757338E1    -1.103694061892814      -9.047717291349269E1     2.934830325235321      -1.375659126342441       1.410396642112390E2    -9.219597744932545E1    -6.991994113542125E1
                        -7.140256710516943E1    -3.056236243965799E1    -8.226132103545942E1     9.282773541734993E1    -8.729562831321556E1    -4.122812314633298E1    -1.329116255607329       1.352439667853004E2

 4.775375000000000E7    -2.740881463995464E-1    4.965370690024167      -3.003177479507282E1    -1.427859942556055E2    -7.936536588883890E1    -9.628721491987002E1    -7.240580394238667E1    -2.560817425450762E1
                        -3.002014343010066E1    -1.428451626032185E2    -2.124912758030137E-1   -1.107888189726977E2    -8.939575531306117E1     1.679374112051491E2    -9.055268751337437E1     4.784864081635572E1
                        -8.938352774382042E1    -2.785335200121890E1    -9.533457603161946E1     8.086989124646775E1    -1.376273404976653       1.410699636834557E2    -8.885076789416068E1    -5.771142683086460E1
                        -7.176216481013609E1    -2.396256170172863E1    -8.074293134740736E1     8.336365371978845E1    -8.939741087367752E1     8.540966608589541E1    -1.333166461128484       1.352591568746568E2

 4.775400000000000E7    -2.766608568294532E-1    4.886802769411946      -2.995146903960249E1    -1.425921630161885E2    -9.023115535967082E1     1.722964234946934E2    -7.340158361436468E1    -1.040956185616421E1
                        -3.010392819335980E1    -1.424617698631967E2    -2.102765112536944E-1   -1.107913995966004E2    -9.550813339881120E1    -1.238112714266654E1    -8.673386563985548E1     1.216683725269786E1
                        -8.214262681499649E1     6.369344510943024E1    -8.710542833868783E1     1.745890071050039E2    -1.375452376008072       1.410266503977324E2    -9.961993225113892E1    -1.253920755839327E2
                        -7.270054009296641E1    -3.888355614013625E1    -8.908834925503932E1     1.313079640305687E1    -9.415255455717391E1     1.499901165479761E2    -1.331067709869308       1.352290972404602E2

 4.775425000000000E7    -2.746532914440238E-1    4.919059831223323      -3.004128784730950E1    -1.433501269524008E2    -8.410194051880241E1     9.101065433148939E1    -7.057106795057754E1    -1.539353417302939E1
                        -3.004040811822232E1    -1.435972441269686E2    -2.123559527030917E-1   -1.108002759498367E2    -1.006232509785050E2    -2.955267116400798E1    -8.283440517382485E1    -8.136223095096341E1
                        -8.684909628748997E1     1.470990657175691E1    -8.685345930436793E1    -1.625302661181482E2    -1.379851310963572       1.410521452947402E2    -8.815484053091657E1     1.712319431193698E2
                        -7.044516929806309E1    -3.163668572875287E1    -8.582494040461211E1     1.478193744825886E2    -8.227841700109602E1     6.953074500083714E1    -1.327749339238374       1.352355719447843E2

 4.775450000000000E7    -2.822013909496927E-1    4.895040116148934      -3.010682715126954E1    -1.430405735372716E2    -9.391681902108664E1    -1.052900594264354E2    -7.192743918612977E1    -2.744660123393457E1
                        -3.005858639711766E1    -1.427696124912568E2    -2.136729331204877E-1   -1.108174931873551E2    -9.225415896575895E1     1.634985929676436E2    -9.150179873040477E1    -5.661014984943142E1
                        -8.015591514252948E1     4.581916275291495E1    -8.698357098207077E1     2.740836178642865E1    -1.379138019095763       1.410111827125578E2    -8.715581339208755E1    -1.786611456487224E1
                        -7.268516449303114E1    -3.663458249285312E1    -8.899840844618416E1     1.127920331695175E2    -9.099040588385211E1    -4.078551304500179E1    -1.324725490544235       1.352441311503731E2

 4.775475000000000E7    -2.723687828635004E-1    4.894667816994452      -3.008742813104010E1    -1.426260314084564E2    -8.710480747831765E1    -6.860434682486347E1    -7.543237948681244E1    -2.275128868288118E1
                        -2.997153593794091E1    -1.427234635959278E2    -2.131397618480231E-1   -1.107853795053712E2    -8.953912900303187E1    -1.439236998900647E2    -8.756671131799864E1    -4.872443911529822E1
                        -8.235923996435486E1    -5.068450140278144E1    -8.617311583707398E1    -1.791722488369692E2    -1.375966812675324       1.410372604669232E2    -9.342184615497584E1    -2.461041204310518E1
                        -7.120687357744234E1    -3.016627427125016E1    -8.293568790469817E1    -1.352213671416191E1    -8.074428772627913E1     5.825757216388982E1    -1.325537818332571       1.352298717893796E2

 4.775500000000000E7    -2.747405058464068E-1    4.839344931986488      -3.005766945513892E1    -1.432717177833409E2    -9.064141067408036E1    -3.909560833294496E1    -7.148281991925919E1    -5.240281217158284
                        -3.008920348304685E1    -1.435329106019234E2    -2.120419103258379E-1   -1.108312089385453E2    -8.597326898563503E1    -9.035151451115064E1    -8.877409790988992E1    -2.237914794979378E1
                        -9.178054775770750E1     1.060440536621711E2    -8.834216306318963E1    -8.635142735699175E1    -1.368680670128116       1.410497435000413E2    -8.584446787630748E1    -3.656205727325084E1
                        -7.137240449579986E1    -1.719392191967829E1    -8.859848070004965E1     1.012178399881301E2    -9.384753156841767E1     4.168939738667093E1    -1.322635431176115       1.352444215325037E2

 4.775525000000000E7    -2.737292131292266E-1    4.857369407818809      -3.001132941503774E1    -1.432911795749998E2    -8.709781154365797E1     1.794423822788912E1    -7.076101614407286E1    -1.376060450415735E1
                        -3.000641792005929E1    -1.427502692925038E2    -2.093900493478217E-1   -1.108410970408888E2    -8.400247167195433E1     2.124980579000658      -1.013254293420513E2    -4.389463550642373E1
                        -9.660947692654611E1    -8.929523623284470E1    -9.391815417370984E1     9.059647341568213E1    -1.369396904499861       1.410200634260248E2    -9.123473916602585E1     5.521510019044049
                        -7.262255679612159E1    -2.775885620170845E1    -9.013037080103032E1    -1.578572047842340E2    -9.869250289931381E1     3.138677287743161E1    -1.332160147705553       1.352583361015368E2

 4.775550000000000E7    -2.705287431917129E-1    4.840594444086311      -3.006700782256412E1    -1.428515325497316E2    -8.987459379814679E1     8.532579441593521E1    -7.244230674276092E1    -1.793242129641237E1
