#  HZ   S   DB   R     50.00 
! Rohde & Schwarz Vector Network Analyzer 
! Rohde-Schwarz,ZNB8-4Port,1311601044102961,2.82
! Created: UTC 2/8/2019, 4:04:39 PM
! freq[Hz]                db:S11                  ang:S11                 db:S12                  ang:S12                 db:S13                  ang:S13                 db:S14                  ang:S14
!                         db:S21                  ang:S21                 db:S22                  ang:S22                 db:S23                  ang:S23                 db:S24                  ang:S24
!                         db:S31                  ang:S31                 db:S32                  ang:S32                 db:S33                  ang:S33                 db:S34                  ang:S34
!                         db:S41                  ang:S41                 db:S42                  ang:S42                 db:S43                  ang:S43                 db:S44                  ang:S44
! 
 3.000000000000000E7    -2.491617054831050E-1    1.046517817132929E2    -6.573748281922758E1     2.931739741584331      -8.442490975774140E1    -1.186273828351142E2    -8.034540802784221E1     1.011170240128706E2
                        -6.559061998863592E1     3.808737181481908      -1.750921029248568E-1    9.214875876726337E1    -9.108008825963634E1     1.260653196284001E2    -9.205930190438183E1     7.842091791959626E1
                        -8.630968125049256E1     6.600912471064726E1    -8.102613785692405E1     6.061079273570194      -8.919435709158069E-1   -2.258860875417476      -8.487031385955289E1     7.426104042620885E1
                        -8.689967762587665E1     1.357801959050891E2    -1.026730702780840E2    -7.034896517534871E1    -8.723883675909262E1    -1.948182848898309E1    -9.032621090577957E-1   -7.245336487658268

 3.002500000000000E7    -2.434812587908959E-1    1.043072532266252E2    -6.664703601403215E1     7.905368483601698      -7.915219535648336E1    -1.586979290797919E2    -9.092734960824896E1     6.919831074738573E1
                        -6.654157461406095E1     1.120127823574255E1    -1.767110280466218E-1    9.180935635426120E1    -9.122172696108210E1     9.970245165307448E1    -8.793449173802004E1    -1.530808627846883E2
                        -9.022065803373543E1    -1.207848235663544E2    -9.218420970183843E1     1.149829010566152E2    -8.979836988672431E-1   -2.541773180786124      -8.089706285016126E1     1.561098404707442E2
                        -8.355202137969982E1    -6.279125510188837E1    -8.123181012385068E1     3.120447872064106E1    -8.617529784816841E1    -1.699287353608564E2    -9.007961521395322E-1   -7.554948014307109

 3.005000000000000E7    -2.428287115756636E-1    1.040625804331178E2    -6.552768075745918E1     1.356700485096369E1    -9.510988455974348E1     3.365005713897770E1    -9.530615133432909E1     1.240290758149293E2
                        -6.734467302976279E1     1.324041257953243E1    -1.632495717231735E-1    9.142260301222187E1    -9.214560122422830E1    -1.693933804529998E2    -8.844526957933383E1    -1.225938251855769E2
                        -8.943218341646842E1    -1.604355633632304E2    -8.234427889352027E1    -6.420187537066023E1    -8.997779530526829E-1   -2.839036523942339      -8.128817343674568E1    -1.726699157846234E2
                        -9.486977726353864E1     1.643687651943362E2    -9.692406438787849E1     6.873217850639264E1    -8.892629879228905E1    -5.331848159060565      -9.063126401502647E-1   -7.871940677219744

 3.007500000000000E7    -2.422080304693448E-1    1.037089949080710E2    -6.583268569704724E1     4.129804345957075      -8.680217119529053E1    -3.700440806434948E1    -9.643023448664705E1     1.297312677940234E2
                        -6.705464121106951E1     8.807060755256915      -1.723481502995497E-1    9.100834713265354E1    -8.685984588835277E1    -1.615883489673951E2    -8.447586296608279E1     1.191722496960790E2
                        -8.456159076502799E1     1.663296612672238E2    -8.956808844723454E1    -9.284640556972970E1    -9.009458192142866E-1   -3.106911086979412      -9.046806720264777E1     1.647300575184952E2
                        -8.418326233205683E1     3.482798927009275      -9.118525252209572E1     2.168904635747297      -9.088070571794495E1     2.997750853831333E1    -9.036190503336303E-1   -8.174375583734124

 3.010000000000000E7    -2.355616329443441E-1    1.034552722071003E2    -6.757807714648739E1     7.643277466501411      -8.534414322739666E1     8.626842514363972E1    -8.627594989552195E1    -1.601068871263919E2
                        -6.633919817017693E1     5.211267837556664      -1.705115845234997E-1    9.068440567464860E1    -8.455531783751552E1    -1.239646413877993E2    -8.417458431701010E1     1.226084319815074E2
                        -8.571895022299287E1    -2.080819539649184E1    -8.358859742067435E1    -1.665188991824552E1    -8.962770477988290E-1   -3.416951132128465      -8.584700831171189E1    -6.026947069051303E1
                        -8.484614050161873E1     4.615846203845031E1    -9.165135293328682E1     3.470159929920341E1    -8.717598838864156E1    -1.325041161520491E2    -9.023497248083603E-1   -8.501309747785076

 3.012500000000000E7    -2.373007308883742E-1    1.031661614271522E2    -6.698012174840658E1     1.126466000474784E1    -8.098648793390683E1     1.145768501600036E2    -8.661375906901935E1    -7.496495394178857
                        -6.589123799757684E1     7.739997652419547      -1.736773454006384E-1    9.028484676361229E1    -9.290230262446379E1    -8.848173680407064E1    -9.010591746827311E1     2.561660568085135E1
                        -9.931418802721231E1    -2.552958312431235E1    -8.155058250323009E1     1.667320078371467E2    -8.965009457140906E-1   -3.715078784384302      -8.431205863690026E1    -2.343760426163335E1
                        -8.852690433134069E1    -1.100901536067555E1    -9.114940216687128E1    -7.879090969217315E1    -8.862909304426893E1     1.501445525011016E2    -9.007816238537386E-1   -8.756131530737671

 3.015000000000000E7    -2.377984846039819E-1    1.028228382936576E2    -6.634789165705547E1     6.366543263346396      -8.404497127143678E1     9.868841571581362E1    -8.866527349415991E1     8.405056404328660
                        -6.601112165398169E1     1.006669729088361      -1.753006768228339E-1    8.994955900140963E1    -8.987494207051620E1     4.004321850076043E1    -8.715731750024192E1     1.350841708922580E2
                        -8.387952576627988E1    -3.964836566923811E1    -8.258018930145126E1     1.630461973045706E2    -8.971849167559562E-1   -4.000762547522784      -8.002803721034310E1     1.267446324519770E2
                        -8.340584437614068E1    -6.862103490744390      -8.797727282783561E1     1.237653325607732E2    -8.813428302467588E1    -1.314199238878716E2    -9.011977554277534E-1   -9.073049277203976

 3.017500000000000E7    -2.347626224294203E-1    1.024965103185265E2    -6.659447152926460E1     3.606061537122725      -7.768660080822899E1     3.842261037133459      -8.611166577335109E1    -1.682297070843690E2
                        -6.543153773213457E1     1.060382003599065E1    -1.737029627989570E-1    8.948853588831877E1    -8.751418786321349E1    -2.326289534235857E1    -8.931656178213689E1    -1.682867703947465E2
                        -8.913476527419880E1     1.741791862984132E2    -8.546940571254667E1     1.069505431238669E2    -8.947023576188590E-1   -4.283838694374866      -9.735822725868871E1    -1.469790748744934E2
                        -8.526953338673556E1    -7.316424093139852E1    -8.614289503091131E1    -1.074173814846137E2    -8.671396572710442E1    -6.518874708463374E-1   -9.012069812448578E-1   -9.334203820092297

 3.020000000000000E7    -2.363913364577336E-1    1.022655501996050E2    -6.471254097001855E1     5.773004404709519      -8.855409360732006E1    -9.741815040005044E1    -8.504776667580688E1     1.428676663958770E2
                        -6.621263190293148E1     9.055768260203863      -1.628988223952342E-1    8.916483122930613E1    -8.280674745831306E1     9.703883687405332E1    -7.930760811124610E1     1.730282630429036E2
                        -7.861129058942703E1    -1.265941639875757E2    -8.670431024156889E1     1.303825380281687E2    -8.963758241330054E-1   -4.626094430041309      -9.711920924145744E1     6.934313506414866
                        -9.057200406205422E1     1.539013526184149E2    -7.927748222984423E1    -1.703052460436620E2    -9.580752416745811E1     7.930545480859381E1    -9.026015088559576E-1   -9.664932214033247

 3.022500000000000E7    -2.386562106848608E-1    1.019261717120915E2    -6.704130402774104E1     3.886309215525616      -8.756830049310949E1    -1.967736911521440E1    -8.886918795166235E1    -9.014730883556587E1
                        -6.679034310215107E1     3.259639806322211      -1.768129553202963E-1    8.878108494848446E1    -8.835362690762287E1    -6.074404677847705E1    -9.169505730095901E1    -1.199148660388371E2
                        -8.715086905035848E1     1.796276748419220E2    -1.021704470293688E2    -5.085371823027289E1    -8.980882130448866E-1   -4.864329998300772      -8.744812364683888E1     9.638984118560916E1
                        -9.587278783386731E1     1.738941615472435E2    -8.270897190815504E1     1.633647810124519E2    -8.500192715288252E1    -3.134629058927837E1    -9.018345632968134E-1   -9.966255423896744

 3.025000000000000E7    -2.362186793238995E-1    1.016515929851002E2    -6.498426867219324E1     6.512041758849946      -8.021249213590338E1     1.346952766870501E1    -7.834391093371349E1    -3.691862640051446E1
                        -6.656663259258751E1     1.115463831222994E1    -1.701529907314208E-1    8.840039599955017E1    -8.821711670612427E1     9.209979470416178E1    -8.969426124800546E1    -7.895055117673431E1
                        -8.456028585986255E1    -7.384045675675313E1    -9.955773152164210E1    -1.082002740060747E2    -8.945944614241029E-1   -5.140452442927155      -9.119989660531401E1    -1.002675856891604E2
                        -9.432071296753639E1    -1.481242246190116E2    -8.387952257627568E1    -3.402736262613041E1    -8.971659161770431E1     3.156827054512871      -8.979264589540249E-1   -1.027007521919752E1

 3.027500000000000E7    -2.408470591674716E-1    1.013325430280876E2    -6.440541867809212E1     3.794254143228403      -8.833810544579521E1    -6.840993342670905E1    -8.976499839237289E1    -1.596427058551340E2
                        -6.530139078566195E1     4.601823326600230      -1.752253739230256E-1    8.793913904942195E1    -8.711331771545557E1     3.689195464189161E1    -8.704949245939696E1    -1.142223761804608E2
                        -8.768638941425729E1    -8.609484236635126E1    -8.272006780928849E1    -1.067458378724166E2    -8.948232194574791E-1   -5.465552383695497      -8.605155013828303E1     1.383217928794342E2
                        -9.934365211406995E1     5.087792555363964E1    -8.426137847730045E1    -1.495081517968754E1    -8.307417690672524E1    -1.338205135809564E2    -9.030310952367775E-1   -1.058803751977998E1

 3.030000000000000E7    -2.332696863449344E-1    1.010262872618540E2    -6.560194153594195E1     1.066111419435865E1    -8.430277652835770E1     1.633386146260116E2    -8.749657725805852E1     4.823529650852856E1
                        -6.593551215632722E1     4.969773604766611      -1.674415133018912E-1    8.759935354004170E1    -9.966131571671133E1     5.970216047438381E1    -8.872862222982531E1    -1.710767084248818E2
                        -8.436492467037652E1     1.098048626726061E2    -1.057036179141380E2    -4.170348864836899E1    -8.974645075816706E-1   -5.793497611694921      -8.776012591212249E1     2.606800635056865E1
                        -7.879197613373779E1    -1.237458828417740E2    -8.650411209453195E1     5.282380595247832E1    -8.763743399007558E1    -5.977646119138601E1    -9.019874558593555E-1   -1.089090905138242E1

 3.032500000000000E7    -2.394520012768003E-1    1.007537996742306E2    -6.564985789789559E1     1.120229015083693E1    -8.245668555851853E1    -1.663025769926481E2    -7.915526648268025E1    -5.796574241161012E1
                        -6.486781960160622E1    -2.792285030649691      -1.660656341741642E-1    8.723144958616817E1    -9.302192687946400E1     4.435654472592862E1    -8.950654222065424E1    -1.384416896428066E2
                        -9.073228295066531E1    -2.983887411283824E1    -9.255087386682719E1    -1.554175180053767E2    -8.945147576992949E-1   -6.076966796966875      -9.045216442997770E1     7.607721047033562E1
                        -8.255267348457883E1    -7.997240928078820E1    -8.391306714223180E1    -4.100168332553373E1    -8.262349642307918E1     1.369687539518625E2    -8.987508998571587E-1   -1.117210045767765E1

 3.035000000000000E7    -2.328843274756812E-1    1.004384281775042E2    -6.556122508008535E1     2.966325125172066      -8.566271453460104E1    -1.367488800647388E2    -8.525206656479588E1    -1.121214362309113E2
                        -6.543528183384669E1     7.306196761162176      -1.670258110404574E-1    8.679742741193438E1    -9.097246562310110E1     7.037696523319468E1    -8.048399373178825E1    -1.171518779610324E1
                        -8.206956844444422E1    -3.720130545477586E1    -8.722101142676449E1     4.340465274949525E1    -8.942820282607735E-1   -6.354226220108273      -1.028864769601073E2     1.433595071654632E2
                        -9.161092680160900E1    -6.189700475533665E1    -9.831526571210169E1    -4.418060488497784E1    -8.515871959922262E1     3.386711546291038E1    -9.014508763287810E-1   -1.148212660523373E1

 3.037500000000000E7    -2.386362400839203E-1    1.001482180676206E2    -6.685931354892247E1     7.292155570706907      -9.397114324548794E1     2.224257152819061E1    -8.851080470080518E1     1.641687807550735E2
                        -6.458740049863806E1     6.070418447667382      -1.732640879440092E-1    8.643895325624983E1    -9.244731875914388E1    -1.334815698953221E2    -8.901879906738303E1     2.219525953192083E1
                        -8.127079350775173E1     1.485390788641174E2    -9.502148369991662E1     7.402151454580438E1    -8.989633252975233E-1   -6.657879067041500      -9.112122458274490E1     6.559780963196867E1
                        -8.616478819260286E1     7.942408834618282      -8.185121852996892E1    -7.091348598549216E1    -8.192776932255883E1    -8.142437195298786E1    -8.936426234376070E-1   -1.178001502249905E1

 3.040000000000000E7    -2.372849634194598E-1    9.988685973258750E1    -6.421135251817236E1     2.423601538795915      -8.289758559076731E1    -2.080781832897510E1    -8.656435688437483E1    -8.465586038214426E1
                        -6.452962666325841E1     1.076754623341603E1    -1.587167691416766E-1    8.606385267785309E1    -9.804821883871476E1     1.237341195939729E2    -9.320004838559635E1    -3.491733576851661E1
                        -7.913452773772329E1    -6.293960782701845      -8.453254957437005E1     1.780295015678789E2    -8.898676187419750E-1   -6.928490134853108      -9.508722660764619E1    -6.837338738673245E1
                        -9.613969204800210E1    -1.046172288457969E2    -8.140623927761260E1    -3.900719999722681E1    -8.709325607713657E1     9.023709187799578E1    -9.024126409364026E-1   -1.207473274503684E1

 3.042500000000000E7    -2.345748043200703E-1    9.958102370451769E1    -6.498444061837132E1     6.652067524908154      -8.431573122285627E1    -1.402505513608383E2    -8.057238683446022E1     1.517931557477402E2
                        -6.438893041383091E1     3.490295027275020      -1.731130924683453E-1    8.566080799867812E1    -8.221729399467574E1    -1.712946446718529E1    -8.187729222310412E1     1.000602558722012E2
                        -9.095138065577095E1    -8.308713222489240E1    -9.225459605293501E1    -2.232426341007590E1    -8.913210896320850E-1   -7.261738421739071      -8.386711601860695E1     1.481089919872150E2
                        -9.375501707690515E1     7.701069089042017E1    -8.388590462555695E1    -6.900322172770999E1    -8.801574635665006E1    -1.470433980954421E2    -8.961076041202922E-1   -1.234682156211933E1

 3.045000000000000E7    -2.298608789957878E-1    9.925237540294398E1    -6.515295215753875E1     8.943580872833106      -8.265250248425977E1     1.281902871016761E2    -9.722326976618379E1    -8.609943771810013E1
                        -6.506111303128982E1     8.738490743725595      -1.656734748178852E-1    8.531195377121945E1    -8.978737623935481E1    -1.035969195804414E2    -9.397009550014262E1     1.499427227247062E2
                        -8.548449124341481E1    -2.928354422609765E1    -8.149625040624783E1    -1.796414620021690E2    -8.983933506590121E-1   -7.532714633870909      -8.002867487261875E1     3.735461981808433E1
                        -9.239775716839046E1    -1.725851189551732E1    -8.822833112811759E1    -8.227118276532467E1    -9.470031200389605E1    -1.539537211676439E2    -8.991532010660368E-1   -1.267952780613062E1

 3.047500000000000E7    -2.328934240544585E-1    9.899603272400260E1    -6.534860631231091E1     2.104541420186121      -8.392661850270977E1    -1.074703028202099E2    -8.306719812718505E1    -4.159226963283378E1
                        -6.535683773402072E1    -5.569957672268250E-1   -1.673184202394407E-1    8.480963832700783E1    -8.947773375282742E1    -1.691278728199175E2    -8.577644542278547E1    -6.181410803811698E1
                        -8.369999953012518E1    -6.458066042678777E1    -8.559272443382660E1     5.681224521003242E1    -8.890501711260535E-1   -7.783631485693087      -8.647268275189445E1     2.872767934915424E1
                        -9.131671782991481E1    -5.783830072473826E1    -8.668483667442564E1     1.159311081938111E2    -8.613178980120449E1    -1.328621428398555E2    -8.962322704187478E-1   -1.297880444181837E1

 3.050000000000000E7    -2.386568330905191E-1    9.868081381868504E1    -6.559812958154679E1     1.496572419679361      -8.239837874289718E1     1.554624922458668E2    -8.348929823276940E1    -1.065529946453062E2
                        -6.552612160616667E1    -3.598681509459590      -1.637909815686340E-1    8.447419654888832E1    -9.867178017437277E1     1.668168436066799E2    -9.596735426423612E1    -2.357155322565959E1
                        -8.708571426318736E1     1.296375154283065E2    -9.620475543141492E1     8.340600116906282E1    -8.975545885263042E-1   -8.108351501403528      -8.914810832123465E1     1.523875124062402E2
                        -8.351696039761876E1    -1.280033163303671E2    -8.425150818937361E1    -1.443325499984554E1    -8.322263299258772E1     1.013047873027828E2    -8.972885125985802E-1   -1.330909577377598E1

 3.052500000000000E7    -2.285967059805663E-1    9.840243785198585E1    -6.636276906674661E1     1.494786637368774      -8.334122258694694E1     1.662225236507038E2    -8.291983963929832E1    -6.454269296500806E1
                        -6.480566300623673E1     2.957576511343889      -1.659333224356139E-1    8.407150927952084E1    -1.020449186081358E2     1.429630149344642E2    -9.460361158177054E1    -1.081281063312961E2
                        -8.357632024002049E1     7.689564221862845E1    -8.843478911883824E1    -1.782549382684030E2    -8.921077241990466E-1   -8.426846645846309      -8.471996132191316E1    -1.433426452283865E2
                        -1.029400876951084E2    -2.261744659850434E1    -8.423066496938998E1    -1.474278377183390E2    -8.826267745876444E1    -1.730073517854537E2    -9.026858598576916E-1   -1.356735824237746E1

 3.055000000000000E7    -2.353820338611996E-1    9.811399567243724E1    -6.503876760350723E1    -5.997616645329424E-1   -8.559305915719791E1     7.780154300753144E1    -8.570175950073727E1     1.343388931956917E2
