#  HZ   S   DB   R     50.00 
! Rohde & Schwarz Vector Network Analyzer 
! Rohde-Schwarz,ZNB8-4Port,1311601044102961,2.82
! Created: UTC 2/8/2019, 3:12:06 PM
! freq[Hz]                db:S11                  ang:S11                 db:S12                  ang:S12                 db:S13                  ang:S13                 db:S14                  ang:S14
!                         db:S21                  ang:S21                 db:S22                  ang:S22                 db:S23                  ang:S23                 db:S24                  ang:S24
!                         db:S31                  ang:S31                 db:S32                  ang:S32                 db:S33                  ang:S33                 db:S34                  ang:S34
!                         db:S41                  ang:S41                 db:S42                  ang:S42                 db:S43                  ang:S43                 db:S44                  ang:S44
! 
 5.275000000000000E7    -3.773809952082624E-1    1.505845097751165E2    -2.919271876931717E1     1.328210853230560E2    -7.953999161072343E1    -1.139914789748716E2    -8.206287843217416E1     1.512489627406695E2
                        -2.931680053176435E1     1.325335672424723E2    -2.093341688353798E-1   -6.411888416412671E1    -6.965648258574311E1    -8.333718542778608E1    -8.428864397264351E1    -1.063510052070356E2
                        -8.350100987540479E1     7.620946657103055E1    -6.934213461405673E1    -7.927149844073276E1    -1.376150647908063       7.196608957275102E1    -8.452346713672336E1    -1.203629776997030E2
                        -8.993810981432041E1    -1.533428404174672E2    -8.712103740803569E1     1.659589764590654E2    -8.719794989102590E1    -2.598955788263010      -1.396272017856843       7.878400677542770E1

 5.275025000000000E7    -3.723551891886796E-1    1.505828587736385E2    -2.915639045627147E1     1.327898208346935E2    -8.749775734369848E1    -1.562885163018731E2    -1.261701258081846E2     2.985574484786779E1
                        -2.920775873844175E1     1.328308659998316E2    -2.065345769448013E-1   -6.414675900399446E1    -6.880100342528894E1    -9.406494742787362E1    -8.299099761758230E1    -8.289228385274238E1
                        -8.444031410686414E1     6.356010754460974E1    -6.945197798466401E1    -8.786462097340917E1    -1.379248575743715       7.196911571861388E1    -9.441964739706947E1    -1.224886968702323E2
                        -1.038988428072505E2     1.659879013768171E2    -8.184061041914460E1    -1.218040689087357E2    -8.690138160277513E1     1.585129420696942E2    -1.392302613663601       7.880151421501115E1

 5.275050000000000E7    -3.754704255390453E-1    1.506054324789745E2    -2.922071556598947E1     1.330985755457683E2    -9.180951138368326E1    -1.464917929361664E2    -8.977983297576776E1    -9.776082060747977E1
                        -2.920533167125863E1     1.324944315662258E2    -2.072966957067035E-1   -6.415431643166870E1    -7.121589084878302E1    -7.659947680383169E1    -8.049329317635981E1     1.655211434928045E2
                        -8.411097647161377E1    -1.179839697460230E2    -7.269427750204019E1    -6.898138066725680E1    -1.379603422097979       7.195832748339836E1    -9.248767050993790E1    -1.111753240792356E1
                        -8.902984452360553E1    -1.100873488218345E2    -8.118249774195883E1    -4.102561033019227E1    -8.449033017207717E1    -1.981418354716302E1    -1.391295752646533       7.879894768061065E1

 5.275075000000000E7    -3.771327920194587E-1    1.506277201362732E2    -2.916571760335721E1     1.326823454079698E2    -8.461236976861702E1    -1.020819576809866E2    -8.559666876775773E1    -1.532778257754907E2
                        -2.921120763634396E1     1.325188355948262E2    -2.129134588141071E-1   -6.414478198217724E1    -6.933230786022891E1    -9.151208724729894E1    -8.287089512499753E1    -2.315649602929922E1
                        -8.821809638669311E1    -9.751117053333539E1    -7.022266051874817E1    -7.757846773964910E1    -1.379838093898633       7.193189657941123E1    -8.896900216772102E1     7.036101234504837E1
                        -8.540192531404136E1     9.656423082414621E1    -8.068972654064120E1    -4.078681327150130E1    -8.525466135659323E1    -1.541188591618814E2    -1.390795488755827       7.878420501719968E1

 5.275100000000000E7    -3.748317678035850E-1    1.505835575557997E2    -2.916233521561070E1     1.324440948465094E2    -8.740884836341212E1     2.281602435467877E1    -8.154676569138289E1    -1.154864776392939E2
                        -2.921149789555097E1     1.327591300012677E2    -2.123686694058438E-1   -6.419371620002175E1    -6.963906927666783E1    -7.677399456136811E1    -8.816751000258660E1    -2.433169210657641E1
                        -8.923489829402003E1    -2.865536842949474E1    -7.068609386496446E1    -9.795222718170824E1    -1.377615372489003       7.196793483636800E1    -8.599935609699693E1    -1.434021220556498E2
                        -8.707295835565122E1     1.576826124940370E2    -8.799922278417127E1    -8.808947447071512E1    -9.027555232022860E1    -1.740321140568200E2    -1.396133990134639       7.877769875126406E1

 5.275125000000000E7    -3.751806109099525E-1    1.505945613905170E2    -2.913901566402186E1     1.327114915451317E2    -8.780272285889082E1    -8.791502707930799E1    -8.662393450811861E1     1.574346952639361E2
                        -2.922088074520159E1     1.324867434823933E2    -2.066473176730222E-1   -6.423588959429510E1    -7.180616761291338E1    -8.556436257513660E1    -8.818966975646569E1    -1.234952522551966E2
                        -1.023834218908218E2    -1.580429446150373E2    -7.127857858506332E1    -8.423485182420885E1    -1.378169945119935       7.193205419494842E1    -8.469980878614840E1     2.572196434056650E1
                        -8.615566965823304E1    -1.107928920712730E2    -9.037606926264664E1    -6.450006536687525E1    -8.669623044145197E1     2.174493568272613E1    -1.392796640810940       7.878743283747468E1

 5.275150000000000E7    -3.752567088896625E-1    1.505767432556243E2    -2.926720618383808E1     1.329919822891220E2    -9.517359202699404E1    -1.004899918943133E1    -8.647950404100652E1     3.851337795485424E1
                        -2.917647321659971E1     1.327910072113629E2    -2.102812763332737E-1   -6.422106909157482E1    -7.269121908294514E1    -8.158595124808780E1    -8.881173270704316E1    -5.518042822468217E1
                        -1.144636920282071E2    -6.971975814523518E1    -7.102601598774862E1    -1.072441165957103E2    -1.384885235597285       7.193347735170543E1    -8.565043139979630E1     1.141975122681377E2
                        -8.721928389854823E1    -1.398372217886095E2    -8.091498566628103E1    -1.399292565088758E1    -1.017018323171915E2     1.136409340564836E2    -1.394454695323503       7.878950381231201E1

 5.275175000000000E7    -3.737969847488972E-1    1.505801096816466E2    -2.920980938681655E1     1.330513103905224E2    -9.275552105301617E1     7.291733911190869E1    -8.088186153642695E1    -7.242437895100977E1
                        -2.917088805309244E1     1.326151023919651E2    -2.076033663516212E-1   -6.422129444937880E1    -7.109352353162922E1    -8.069982666429803E1    -9.960345214123223E1     1.711525949026349E2
                        -9.607709065779059E1    -9.866281252553185E1    -7.140771051791559E1    -8.517934917374039E1    -1.380477814692323       7.195778207620974E1    -8.907513661101098E1    -1.147217133278500E2
                        -9.174163440020722E1     4.371469456902094E1    -8.240900466866373E1    -2.766258746953422E1    -9.312488489744419E1     1.228079239813329E2    -1.394667121685454       7.877685266562170E1

 5.275200000000000E7    -3.793570198357640E-1    1.505424793717868E2    -2.913901711457212E1     1.325149361663862E2    -8.802501056914181E1     1.270431803504934E2    -8.557831800279409E1     1.970787618770871E1
                        -2.911427635261141E1     1.325183484509312E2    -2.089231021282914E-1   -6.423892860156225E1    -7.211386876066871E1    -9.242050053653622E1    -8.216981711035598E1     4.502119365142556E1
                        -9.024033664605614E1    -7.413869935126863E1    -7.029860618027868E1    -8.629053358427871E1    -1.381355462915037       7.196248753879175E1    -1.005854595381345E2    -4.324649993767617E1
                        -8.398668060151923E1     5.072168616413226      -9.255657562195474E1    -8.878547755841382E1    -8.487595068107410E1    -7.243056674136912E1    -1.390874564013463       7.879338789691389E1

 5.275225000000000E7    -3.715835508913579E-1    1.505771950096376E2    -2.916991123450486E1     1.326062467749986E2    -8.923898255843419E1     7.998282471778339E1    -9.001485341615984E1     1.772807383278209E2
                        -2.911165561078938E1     1.330517343561972E2    -2.093507800414180E-1   -6.428610539537981E1    -6.956383292415379E1    -8.181620582689504E1    -8.957645765181745E1    -1.710203422018339E2
                        -9.261409128576567E1     1.523087214604483E1    -7.175062665823519E1    -9.281416557578508E1    -1.381132139699965       7.193717673172294E1    -8.786200677892052E1    -1.393991201235330E2
                        -8.261414225051824E1     1.108861232746918E2    -8.102890067558869E1    -7.755194058901073E1    -9.605153020039451E1     6.778206186937049E1    -1.394854479243434       7.878793506728597E1

 5.275250000000000E7    -3.766248842216991E-1    1.505465176088985E2    -2.911307051278420E1     1.329274801419401E2    -8.640719023234095E1     1.542397302459578E2    -8.191313055762736E1     9.055770491564900E1
                        -2.919259172416488E1     1.326863234401847E2    -2.072681596461033E-1   -6.425830434762253E1    -7.058183236354839E1    -9.925358877335893E1    -8.476270437669116E1    -7.814419084364543E1
                        -8.472964719884621E1    -5.360898876622794E1    -6.995586568297212E1    -8.090072580511527E1    -1.378112384878007       7.194521353508182E1    -9.792962269994696E1     1.763276323256865E2
                        -8.942661046595310E1     7.374432935661785E1    -9.276542597023979E1    -6.832451305851041E1    -8.952159699268495E1    -1.218651531093158E1    -1.390111809751368       7.875658212154275E1

 5.275275000000000E7    -3.715759722574343E-1    1.505413255719028E2    -2.915682976382213E1     1.329166958599172E2    -8.079749394678954E1     1.702566084374405E2    -8.955688244416301E1     1.069432756961586E2
                        -2.910044500760765E1     1.329605381283382E2    -2.099202273206002E-1   -6.430865554429317E1    -7.223383142552062E1    -8.325807684122744E1    -8.084659527153475E1    -5.514209664970169E1
                        -9.333582874473265E1    -1.389278777148883E2    -7.088855431156695E1    -9.331973510792687E1    -1.376480771966786       7.194212068137296E1    -8.955559388675424E1     7.155768484886950E1
                        -8.245105314890559E1     1.553070894158343E2    -8.787797499478046E1    -4.466069407735711E1    -8.387143046470229E1    -1.107272733642868E2    -1.391393306611933       7.877821578172950E1

 5.275300000000000E7    -3.762581088398067E-1    1.505270866250135E2    -2.918127797228983E1     1.329439264986323E2    -8.346112975145746E1    -1.351757685114451E2    -8.001556560668833E1     3.170317775347198E1
                        -2.926577314646213E1     1.323950004397424E2    -2.020879544520677E-1   -6.433726187624575E1    -7.012017383116262E1    -7.762504388578842E1    -9.240629924574932E1    -9.282674467201326E1
                        -9.023865899466267E1    -9.197120067456026E-1   -6.981174691584995E1    -8.950388306790060E1    -1.379799396689911       7.195129878663830E1    -8.564915888515779E1     1.435831637165180E1
                        -8.783622265212173E1    -1.787438206211892E2    -8.006552716103525E1    -7.393523075325881E1    -8.692539428882404E1    -1.106222544945407E2    -1.395759654338636       7.876471645399641E1

 5.275325000000000E7    -3.754620906399335E-1    1.505312979672067E2    -2.919295764264381E1     1.327918955298146E2    -8.368507085435741E1     1.316473109849310E2    -8.424043302842604E1     1.136728593413835E2
                        -2.913196012449458E1     1.326779584949901E2    -2.133968194037461E-1   -6.434808076648817E1    -7.131274344218423E1    -9.308622717034382E1    -7.973908599370913E1    -3.034301566764271E1
                        -8.180645733766252E1    -1.629323489459167E2    -7.066911271182924E1    -9.292841442055305E1    -1.380698485440273       7.193845974397544E1    -9.374763621380464E1    -1.525360291833326E2
                        -8.810308738026357E1    -1.471719203287792E2    -8.406695231755217E1    -3.804143301307252E1    -1.029243086773530E2    -1.626425374803402E2    -1.394353239526681       7.878119240800281E1

 5.275350000000000E7    -3.791419433777493E-1    1.505325759591646E2    -2.920212988326227E1     1.325481854062552E2    -8.705620410142669E1    -1.460045737369416E2    -8.340599606967616E1     6.698353017398416E1
                        -2.911435794373168E1     1.323851501428604E2    -2.102622538371288E-1   -6.433693076622200E1    -7.113073003168347E1    -8.958804789853315E1    -8.510942620501501E1    -9.310792989164493E1
                        -8.989010874287686E1    -1.209328537188071E2    -7.035560528706809E1    -7.989431578140976E1    -1.378498233535016       7.194418977099555E1    -8.980488622618198E1     1.251234242405188E2
                        -9.446773920440165E1    -1.329243569524666E1    -8.652480121487932E1     1.856910529829359E1    -9.442654222923176E1    -1.075144061681853E2    -1.392589331865911       7.873693548452377E1

 5.275375000000000E7    -3.751419771707210E-1    1.505214030254596E2    -2.919857175886875E1     1.329164113825488E2    -9.437284947833852E1     3.833678411624211E1    -9.078324282880985E1     1.362626716448714E-1
                        -2.920566938710293E1     1.325965136104851E2    -2.133377046944716E-1   -6.435187290183302E1    -6.925121616311205E1    -9.483400408316740E1    -7.919949742636271E1    -2.662312057994591E1
                        -8.374590671289428E1    -5.766922507392133E1    -7.195738752382331E1    -8.537198715264168E1    -1.378974125966538       7.193231425197703E1    -8.284477853038925E1    -1.086591977721235E2
                        -8.560221700032952E1    -1.785800880842085E2    -8.091373052434889E1    -2.740032076363816E1    -9.744317359853561E1     1.568184112076115E2    -1.393282002187002       7.874380867721149E1

 5.275400000000000E7    -3.714766462781250E-1    1.505367216668508E2    -2.912062804419017E1     1.328597338281997E2    -8.368092648367431E1    -7.205166901320987      -8.319370736458190E1     1.514874156947626E2
                        -2.911092964254900E1     1.327971586492236E2    -2.109778647318272E-1   -6.440590429647156E1    -7.026041331153395E1    -8.388781478890022E1    -8.935457453825245E1     7.788482670515577E1
                        -8.192379474047962E1     6.833331520586563E1    -7.215380209521487E1    -8.087960157437058E1    -1.378111652842018       7.193294074816109E1    -8.287512246121307E1     7.544361344357159E1
                        -8.319374709684097E1    -1.781363138302326E1    -9.289639160719895E1    -6.079790912305914E1    -8.613874068901758E1     1.227788760259504E2    -1.393042092016080       7.875963542114580E1

 5.275425000000000E7    -3.701456326527320E-1    1.505052408927085E2    -2.920127321711627E1     1.324217688586253E2    -8.500199904477105E1     1.687318780428484E2    -9.938126629366046E1    -1.472309103229347E2
                        -2.921313326248677E1     1.320553742779520E2    -2.111686273220887E-1   -6.441893568164802E1    -7.076988574383279E1    -7.983733062803852E1    -8.893618842847536E1    -5.726734876955695E1
                        -9.245405488995446E1     8.436695764539260E1    -7.176919809604847E1    -8.416721216968067E1    -1.382841149704591       7.189531589919071E1    -9.437374072642243E1     1.101721603494603E2
                        -8.530793654320171E1    -6.417388371712330E1    -9.722799204694519E1    -1.981356441070995E1    -8.252979724389044E1     3.563966607122595E1    -1.391598105950045       7.874692324744866E1

 5.275450000000000E7    -3.745444767554595E-1    1.504981766287143E2    -2.919877792376393E1     1.326118017508701E2    -8.749842717150949E1    -1.769947174941954E2    -8.533430798920149E1     9.523044512044892E1
                        -2.916769449402717E1     1.321939824828234E2    -2.061101448288711E-1   -6.441250499509948E1    -7.133616706977981E1    -9.586410756797386E1    -8.431344199770074E1    -1.210997839151342E2
                        -8.668830138298344E1    -1.219938340045700E2    -6.943336362701253E1    -1.015766480324050E2    -1.377895636676266       7.191742787530181E1    -9.833616894642432E1     2.843117030775173E1
                        -8.719957742147336E1     1.347869748015063E2    -8.717185010507053E1     2.721455801419483E1    -8.174210671584908E1    -6.577266413552994E1    -1.388924520856885       7.873312999204811E1

 5.275475000000000E7    -3.738979552531385E-1    1.505082052386679E2    -2.909108560319936E1     1.321354000728468E2    -8.353106847748845E1     1.147174346142615E2    -8.538355911624235E1     1.204797694579926E2
                        -2.918440490501725E1     1.328493387782586E2    -2.127810040090690E-1   -6.443373163678079E1    -6.920838411866875E1    -9.259816333347071E1    -7.852032999784623E1    -1.051978902788980E2
                        -9.789201147070712E1    -5.748134839009236E1    -6.968409380864681E1    -8.697637048236662E1    -1.374943697331626       7.191125047539263E1    -8.808725642508594E1     3.732171834655926E1
                        -9.494587358874549E1     4.084400381054601      -8.581807672130859E1     1.754016877714145E2    -8.062852932625950E1    -1.446214717847927E2    -1.390870585676641       7.873399980855575E1

 5.275500000000000E7    -3.747660309460132E-1    1.504919923410105E2    -2.920021771711603E1     1.322437476086447E2    -9.117262312755592E1     4.399787185177478E1    -8.654394240593369E1    -4.067486863855289E1
                        -2.924265103379712E1     1.324209768536265E2    -2.111727263961862E-1   -6.447729042683949E1    -7.016309129658379E1    -9.014810880714322E1    -8.419868098213550E1    -2.316511847974735E-1
                        -8.439048541354867E1    -4.855777035676304E1    -7.092516855964925E1    -7.548343959130651E1    -1.377289551794701       7.192959435394080E1    -8.138922943439977E1     3.537386923532372E1
                        -9.321599639326101E1     7.984482835878411E1    -9.141471162267551E1     5.422736776620233      -8.523398598328036E1    -9.208019551249757E1    -1.395002973696188       7.873760368048824E1

 5.275525000000000E7    -3.733953290301861E-1    1.505188335228198E2    -2.920399284841192E1     1.323497416603821E2    -8.265023709503527E1     1.624010482083527E2    -1.015191632301690E2     6.278510309825338E1
                        -2.914674916779160E1     1.323647247356892E2    -2.141732912341179E-1   -6.449654866820666E1    -7.174565870329982E1    -9.092081093046430E1    -8.131746152342318E1    -5.739681459343336E1
                        -8.487240158911688E1     9.716261127379165E1    -7.025080389139058E1    -9.160465023280018E1    -1.375921076806436       7.190668007036224E1    -8.786475805338954E1    -6.550310655888033E1
                        -8.593214140529156E1     9.042625223400901E1    -8.317390976209653E1     8.198529655979753      -8.946984365136684E1    -8.644235427340227E1    -1.390559588105071       7.873598967920862E1

 5.275550000000000E7    -3.697539762182863E-1    1.504749177353210E2    -2.917617908381616E1     1.319217100761077E2    -9.035261631253181E1     1.497565623526119E1    -8.529460800590785E1    -1.130637078939636E2
