#  HZ   S   DB   R     50.00 
! Rohde & Schwarz Vector Network Analyzer 
! Rohde-Schwarz,ZNB8-4Port,1311601044102961,2.82
! Created: UTC 2/8/2019, 3:50:33 PM
! freq[Hz]                db:S11                  ang:S11                 db:S12                  ang:S12                 db:S13                  ang:S13                 db:S14                  ang:S14
!                         db:S21                  ang:S21                 db:S22                  ang:S22                 db:S23                  ang:S23                 db:S24                  ang:S24
!                         db:S31                  ang:S31                 db:S32                  ang:S32                 db:S33                  ang:S33                 db:S34                  ang:S34
!                         db:S41                  ang:S41                 db:S42                  ang:S42                 db:S43                  ang:S43                 db:S44                  ang:S44
! 
 5.275000000000000E7    -2.500570324739423E-1   -6.219579261126967E1    -2.938031678956733E1     1.317663052999097E2    -9.175408198765474E1     1.642973848723650E2    -7.032648875602639E1    -7.578350508013078E1
                        -2.932276687613930E1     1.310979585227982E2    -2.981931397940763E-1    1.463064799943795E2    -8.771797568058894E1    -1.676163026225464E2    -8.601296095339437E1    -1.558478679097253E2
                        -8.649767799043404E1    -8.447540844055774E1    -8.018603737098978E1    -5.912510128115459E1    -1.391011221574302       8.090507948210825E1    -8.200042713822421E1     1.202454187125111E2
                        -7.021810280631847E1    -7.976334403108223E1    -9.018154311415067E1     6.654157008029132E1    -8.645507799983869E1    -7.114467153690899E1    -1.348935941726812       7.530905550378436E1

 5.275025000000000E7    -2.516998576628928E-1   -6.220230126454808E1    -2.937358936937768E1     1.316763261129424E2    -8.599140225479913E1     2.650581324698463E1    -6.911414576782914E1    -8.415162552497736E1
                        -2.923658399597062E1     1.313172411562707E2    -2.996750321906671E-1    1.463017160475314E2    -8.258068646374335E1    -1.626050433348831E2    -9.000331801258895E1    -1.729473416148840E1
                        -8.228204140624483E1    -2.940413705060037E1    -8.790233888628931E1    -5.244931766383642E1    -1.387027150539535       8.091404260805757E1    -9.067311966665378E1    -5.130075196776724E1
                        -7.064003458121022E1    -9.459261927142822E1    -8.188755703680052E1     1.046666416997497E2    -8.501018359851229E1    -1.224835312343606E2    -1.349820384319527       7.530099583532530E1

 5.275050000000000E7    -2.564259449294858E-1   -6.223028396300074E1    -2.934204156138648E1     1.314463134572531E2    -8.506938177241756E1    -3.014863527320456E1    -7.090305459250024E1    -7.148539213932953E1
                        -2.918197423428344E1     1.322749899850033E2    -2.985965034634562E-1    1.462701026315328E2    -1.005891052223386E2    -1.266430358847761E2    -9.697908418622558E1     4.885559839741716E1
                        -8.209752541110198E1    -1.484722105678730E2    -9.434426025774775E1    -1.043476597061264E2    -1.389283538866002       8.089601676345804E1    -8.841463024085947E1    -1.380705005610962E2
                        -6.990563255534259E1    -8.542122119749158E1    -1.053185516912281E2    -1.161881392103207E2    -9.684826193159266E1    -2.637661270055121      -1.343925589196262       7.529397081190446E1

 5.275075000000000E7    -2.556403857856163E-1   -6.222956351539369E1    -2.930747667738297E1     1.320168401910001E2    -8.876232425733127E1    -5.954564388366340E1    -7.002072585219217E1    -7.854495273995640E1
                        -2.937566788081523E1     1.314095200815649E2    -3.023540489282381E-1    1.462814008164335E2    -9.195239762955781E1    -7.651110697337933E1    -9.009796264878361E1    -1.374857311969649E2
                        -8.644469564149475E1     1.023442735163866E2    -8.496656774174514E1    -1.311130661115129E2    -1.387709987731699       8.089429733093199E1    -8.624906376681702E1     1.795933743636356E2
                        -7.120548061664556E1    -8.326938549277202E1    -1.055689634622950E2     5.457330544753777E1    -8.041933260394195E1    -1.700971418823166E2    -1.349216095744083       7.530394529048601E1

 5.275100000000000E7    -2.590280019117490E-1   -6.225839815799302E1    -2.932293630076023E1     1.317164423859846E2    -9.820930686971492E1    -1.098955586646531E1    -6.837145089955131E1    -9.848843732597382E1
                        -2.923800959277356E1     1.316018807117551E2    -2.982479106521125E-1    1.462709494222038E2    -9.620855998985378E1    -4.434474875978451E1    -8.620253272658516E1    -8.726744740899183E1
                        -8.542737239667936E1     1.742871416936808E2    -8.387732945382524E1    -1.243063262204280E2    -1.388207842178195       8.092032685464488E1    -8.726198738901414E1    -1.047358510396295E2
                        -7.064619562016944E1    -9.472919500471488E1    -1.045220622596401E2    -8.020366205433112E1    -8.194438489544714E1     4.839426598749960E1    -1.349711334643130       7.526627040455874E1

 5.275125000000000E7    -2.562945630567651E-1   -6.225652761027192E1    -2.928252840204444E1     1.321955224140625E2    -8.227712679148367E1    -6.647432809617416E1    -6.980946516881227E1    -9.067215984782135E1
                        -2.926056530782046E1     1.321314199777852E2    -3.034066727136237E-1    1.462631043596197E2    -7.888513723708640E1     9.816818456995529E1    -8.609353843517351E1     5.497091992572103E1
                        -9.577455906464761E1    -1.068655586637439E2    -8.931008619325701E1    -8.353838937554674      -1.382474939285446       8.091396997609530E1    -1.032841143235261E2    -1.688102153651452E2
                        -6.869645312048297E1    -9.220869899942547E1    -8.472096071525729E1     9.328936899363626E1    -9.189067900988631E1     1.429930909273181E2    -1.348989809199113       7.528549708567037E1

 5.275150000000000E7    -2.578447750433160E-1   -6.231338951786960E1    -2.930844698728177E1     1.319638964596242E2    -9.954657567652976E1     9.883319481532344E1    -7.040752101651373E1    -7.605330923000706E1
                        -2.923243044362493E1     1.318051168970720E2    -2.963873023544398E-1    1.462750476238525E2    -8.898236555291837E1    -4.242399165253262E1    -7.893732520287199E1    -9.182871946275314E1
                        -8.667673469707920E1     9.242736262930180E1    -8.414269914558970E1    -6.973490667613887      -1.388488748571515       8.091827617079457E1    -7.962260538633977E1     1.488262256305659E2
                        -7.081631254467446E1    -9.210124953761525E1    -8.694313561820232E1    -1.323494630390909E2    -8.835966004279656E1     7.010684261140112E1    -1.344697173404564       7.529004425107483E1

 5.275175000000000E7    -2.557578319117713E-1   -6.233834835403407E1    -2.930414300162699E1     1.320878853768054E2    -8.236507268645269E1    -6.269736191884545E1    -6.919582033538569E1    -9.714203104758693E1
                        -2.932692685208428E1     1.320343035193328E2    -3.045696983841391E-1    1.462590685762416E2    -8.773078723972817E1    -6.944732972309423E1    -8.512960310739692E1    -1.574351104186457E1
                        -8.331602358007675E1    -8.699264184544308E1    -8.599786883323476E1    -6.658562593438926E1    -1.387207390291646       8.089434206631690E1    -8.891022502562693E1    -4.177544333824080E1
                        -7.032514635988095E1    -8.342630251890273E1    -9.065443393046222E1     1.431563739061620E2    -8.922606901718100E1     1.546319669628029E2    -1.350228516380958       7.528836126983610E1

 5.275200000000000E7    -2.485121924704616E-1   -6.231458088459033E1    -2.931853503470567E1     1.322439033053597E2    -9.155778247919379E1    -3.276977658739600E1    -7.087658229233495E1    -6.949759750838351E1
                        -2.932059190574849E1     1.320590547006512E2    -3.044822289407146E-1    1.462591693734259E2    -8.631062982899799E1     1.055601355925162E2    -7.963955539085079E1     1.534864540165207E2
                        -9.303488689820902E1    -1.116483044585281E2    -1.006229040136305E2     7.550569031935916E1    -1.384786613410720       8.089921292608115E1    -1.102250689915906E2     1.227983474816746E2
                        -7.254758788302978E1    -8.862265937467295E1    -8.265830786847980E1    -9.403020627166267      -8.708573134856700E1     1.258713164768339E2    -1.347683975786759       7.526766237353563E1

 5.275225000000000E7    -2.559861718051673E-1   -6.235674732685879E1    -2.935730582445235E1     1.317082487040130E2    -7.929848441689097E1    -1.948475597692607E1    -6.885337482541806E1    -7.438642543577406E1
                        -2.930826364006027E1     1.316832120460499E2    -2.981979025879188E-1    1.462059576645401E2    -8.547374708160058E1     1.624939782404580E2    -8.673595218436725E1     3.111856456458928E1
                        -9.435622541558702E1    -1.628151492978480E2    -1.014487997383894E2    -1.702211762894101E2    -1.382894581747818       8.089156061929322E1    -8.487787953723549E1     1.779862490771236E2
                        -6.969826269254683E1    -8.080668238387833E1    -8.420145899673310E1     1.127656054171755E2    -9.531920611250199E1     4.320812150438537      -1.349789559717528       7.527290168958567E1

 5.275250000000000E7    -2.559419694219621E-1   -6.235600956674539E1    -2.928248634069872E1     1.317959072322371E2    -8.680267424546499E1    -4.003204336154288E1    -6.910114210353476E1    -7.798517323492949E1
                        -2.935685769308866E1     1.312630822258951E2    -3.026461509024690E-1    1.462474317058777E2    -8.738130102914693E1    -4.936879390989816E1    -8.006631647554616E1    -1.536680647786116E2
                        -8.817402416284863E1    -7.919765376319677E1    -8.443884872716274E1    -4.930979847741253E1    -1.390352849877592       8.087442267705679E1    -9.423751368013123E1     7.438220712258640
                        -7.096557365272210E1    -8.078733609308996E1    -8.591355727323565E1     1.968384239912484E1    -9.414286839456194E1     2.534150535356158E1    -1.349211160555853       7.528534865621263E1

 5.275275000000000E7    -2.544562928548877E-1   -6.239461735777389E1    -2.926873554351593E1     1.315555298843391E2    -9.080828188148884E1    -1.161132836946919E2    -7.000600129618115E1    -9.448531694156486E1
                        -2.927387424499644E1     1.321200720319739E2    -3.031947922862802E-1    1.462590811974071E2    -8.995193306605290E1     1.667788346577360E2    -8.626175558013861E1    -1.768258845556869E2
                        -1.025097918181484E2     1.242115362398154E2    -8.268085539183593E1    -4.212186752344507E1    -1.391063967921549       8.087082646140891E1    -8.580261213877213E1     2.180553524721898E1
                        -7.087887563926310E1    -8.357569336131842E1    -8.946891390313581E1    -1.176810454733064E1    -8.286967032874287E1     3.750103223264048      -1.349916122704649       7.526709623016174E1

 5.275300000000000E7    -2.562598982237887E-1   -6.237079590721574E1    -2.937246256943186E1     1.316637919194044E2    -9.038760431379025E1    -1.462846164057561E2    -7.034673746295017E1    -7.802580292115553E1
                        -2.930792238857486E1     1.317420526872391E2    -2.989484970527764E-1    1.462310075214642E2    -9.306295505552912E1     5.131991802774168E1    -9.404302580399802E1     1.459619492832645E2
                        -8.441777777233358E1    -1.109074292006315E2    -9.300420386938879E1    -1.426022822376475E2    -1.390949030374725       8.087367571581692E1    -9.174861328349364E1    -4.678434674290478E1
                        -6.858170570435546E1    -8.405590539328460E1    -8.949581277455903E1    -1.713753309956105E2    -8.831789096446634E1     1.615489061006201E2    -1.346256154464678       7.527185488795253E1

 5.275325000000000E7    -2.554825690804753E-1   -6.242256425557246E1    -2.938871983499389E1     1.316208507143748E2    -8.735797259631701E1    -4.005009191221020E1    -6.885623369478248E1    -9.007092464357604E1
                        -2.927531482720688E1     1.312749717645559E2    -3.037835907094446E-1    1.462198882422496E2    -8.876480141095284E1    -3.996848278133125E1    -8.706146272291733E1    -1.243296869593041E2
                        -8.952573351344286E1    -3.452203750616867E-1   -9.314016435734385E1    -1.031417372510509E2    -1.385801178213674       8.090356756461704E1    -8.070986583131443E1    -1.626254766170207E2
                        -6.929482038878882E1    -8.610297735159892E1    -9.126906555316819E1     5.961157382000865E1    -8.833342222842718E1     1.618066084475296E2    -1.348405246647340       7.524989160453670E1

 5.275350000000000E7    -2.545289976331361E-1   -6.243041550475358E1    -2.935233201490224E1     1.323305810740952E2    -8.005846043388775E1    -1.772909440996789E2    -6.998473154277603E1    -8.835673040995680E1
                        -2.930036563600470E1     1.313460029270836E2    -3.002110681975778E-1    1.462174117908038E2    -8.648427226898363E1     1.747092872764229E2    -8.546168259143306E1     4.554317827103996E1
                        -9.039348404961304E1     1.445478915305126E2    -9.326923739931712E1     1.473384208586365E2    -1.388552512119898       8.087680986560063E1    -8.187930037823948E1     1.138571882619551E2
                        -7.136317591932351E1    -9.077944059423922E1    -8.455731709109416E1     8.836425411085124E1    -8.153846040942480E1     8.488362458987773E-1   -1.347240534815360       7.525230735180232E1

 5.275375000000000E7    -2.578951343490484E-1   -6.244882772824722E1    -2.929180805278926E1     1.315600962387892E2    -8.044356624786582E1    -5.704658930136462E1    -7.049432654089458E1    -7.707553213767160E1
                        -2.924348641145993E1     1.317280616679488E2    -2.982734015072248E-1    1.461875305886436E2    -8.097620012586589E1     1.559893950980343E2    -9.506537763130731E1    -4.451538416498461E1
                        -9.206933210665154E1    -1.129138713008631E2    -8.988746462473591E1     9.088400367280381E1    -1.383424114370020       8.087784141417541E1    -9.011060020328814E1     2.109255893008070E1
                        -6.885141958952465E1    -7.695137863559468E1    -8.564347273210352E1     1.028261498648487E2    -9.302840556565815E1     1.370018224791882E2    -1.350210071941420       7.523760333429884E1

 5.275400000000000E7    -2.521029117020975E-1   -6.246895655855850E1    -2.934674386114556E1     1.319286580395901E2    -8.146760791606749E1    -4.407428673519324E1    -6.911402905751508E1    -7.776806677916710E1
                        -2.926953466047045E1     1.316186469117426E2    -3.034818633992374E-1    1.461690763031414E2    -9.118888820638368E1     1.344696031266526E2    -8.812694640260315E1    -3.907183387899347E1
                        -8.543818894546536E1    -2.373727469153107E1    -8.253047987724123E1    -1.791755902312276E2    -1.384202618029644       8.086339399998951E1    -8.547197357066966E1     1.583312521665280E2
                        -6.869869278086890E1    -9.110769552111822E1    -8.776547093275924E1     7.159741731539016E1    -7.899766999954402E1     6.310471024344631E1    -1.351728406274459       7.524618985485067E1

 5.275425000000000E7    -2.573167376810878E-1   -6.245888359758987E1    -2.930724765442131E1     1.322414322794953E2    -9.353197099835907E1    -1.062202159312179E2    -6.891415658254759E1    -8.263214684021214E1
                        -2.934629877905311E1     1.319857207256020E2    -2.978946266800201E-1    1.462091425681044E2    -8.690489071885104E1     1.486458670502477E2    -9.205928269851970E1    -1.732102672130216E2
                        -9.102454790925187E1    -7.207054552095545E1    -8.504138541464387E1     1.706680573214271E2    -1.388695250038735       8.087984644009100E1    -8.241413684131965E1     1.638610761147396E2
                        -6.995380986359655E1    -9.152345369092978E1    -8.631655039827692E1    -2.263923388032503E1    -8.358479697712083E1     1.669046214022482E2    -1.350508074150648       7.522883234647860E1

 5.275450000000000E7    -2.548832445444620E-1   -6.248936269806328E1    -2.923473264563926E1     1.316610941141314E2    -8.287036254173414E1    -1.275804131337985E2    -6.883367487093783E1    -9.691337825541500E1
                        -2.926512129472680E1     1.316283567464228E2    -3.036449546590890E-1    1.462056068476583E2    -8.682299638467109E1     1.426723927111234E1    -8.569081291952995E1     6.580242749862492E1
                        -8.502947558054935E1    -3.342034688733948E1    -8.703704130404061E1     1.403883447262947E2    -1.385071482036162       8.084963226871278E1    -8.738626958494670E1     3.499619015354595E1
                        -6.841196708753286E1    -8.904388518724657E1    -8.338764520636320E1     1.571889388207572E2    -8.874678890435760E1     2.510072600392704E1    -1.348637246687902       7.523600378834733E1

 5.275475000000000E7    -2.530180205367597E-1   -6.252562734715333E1    -2.933609093813053E1     1.314276721673652E2    -8.144306353032350E1    -2.696192347998947E1    -6.969699123924620E1    -1.000317272679333E2
                        -2.924748521561046E1     1.309221445010417E2    -3.007022991824535E-1    1.461996940168238E2    -8.253058451704114E1     1.371708495532452E2    -9.091097210755711E1     1.276467270063663E1
                        -8.412535599287597E1    -9.508088952681836      -8.894701307173476E1    -1.357642294367241E2    -1.388799131724985       8.085623180946469E1    -8.595060245130783E1     1.281546631311660E2
                        -6.916951574420885E1    -8.387749549430056E1    -8.943321866243075E1    -7.977249724836645E1    -8.795303708198634E1    -1.688182351879017E2    -1.348352082204044       7.527355125965745E1

 5.275500000000000E7    -2.546880377721350E-1   -6.255780656006608E1    -2.928188828471925E1     1.318174505785655E2    -9.974349153107924E1     3.930775565388399E1    -7.004485553032222E1    -9.868040686642435E1
                        -2.923464019823074E1     1.315225491064490E2    -3.034266378487872E-1    1.461806016835231E2    -8.310563677644090E1    -6.177573938211934E1    -9.302763002948709E1    -8.205761860701989E1
                        -8.174494064802913E1    -3.273828864882785      -8.760439645503917E1     9.172562039796634E1    -1.388897526264919       8.088463261655042E1    -8.923633889726885E1     5.283797070247939
                        -6.936460603881697E1    -8.345122378567515E1    -8.138815732815186E1     6.707266733226400E1    -8.522648326678430E1    -9.233133010333063E1    -1.344393055184576       7.522684114860559E1

 5.275525000000000E7    -2.523149433521342E-1   -6.259856350971005E1    -2.925495152426831E1     1.320793524587091E2    -8.650168740820706E1    -1.836697342972695E1    -7.144550690241195E1    -9.620217569421932E1
                        -2.935017018209612E1     1.323227998485846E2    -3.010240922355664E-1    1.462026388591375E2    -8.561797499248043E1    -8.778454105374416E1    -8.391615712365154E1     1.618082658751741E2
                        -8.152711418728347E1     7.376837432082998E1    -8.359134350932224E1     1.720721634977564E2    -1.385285462073834       8.085113447147181E1    -8.790732240179861E1    -1.792185939617162E2
                        -6.894290512701123E1    -9.347042710929974E1    -8.661449982053675E1    -1.471500609327467E2    -8.623820016620041E1    -7.065964291346157E1    -1.346748836093178       7.522379579456883E1

 5.275550000000000E7    -2.561514010141146E-1   -6.258803348582386E1    -2.927732719949126E1     1.317536660190957E2    -9.341766484685137E1    -8.206790091364314E1    -6.923539391289177E1    -8.316285885391451E1
