#  HZ   S   DB   R     50.00 
! Rohde & Schwarz Vector Network Analyzer 
! Rohde-Schwarz,ZNB8-4Port,1311601044102961,2.82
! Created: UTC 2/8/2019, 3:15:28 PM
! freq[Hz]                db:S11                  ang:S11                 db:S12                  ang:S12                 db:S13                  ang:S13                 db:S14                  ang:S14
!                         db:S21                  ang:S21                 db:S22                  ang:S22                 db:S23                  ang:S23                 db:S24                  ang:S24
!                         db:S31                  ang:S31                 db:S32                  ang:S32                 db:S33                  ang:S33                 db:S34                  ang:S34
!                         db:S41                  ang:S41                 db:S42                  ang:S42                 db:S43                  ang:S43                 db:S44                  ang:S44
! 
 3.000000000000000E7    -2.270621826383195E-1    9.609491179459545E1    -6.800592720715787E1     1.960005584333136      -8.815218810909525E1    -4.713445031968525E1    -8.813274376369392E1     1.618650404536543E2
                        -6.658507641476083E1     6.945807503328047      -1.688085248255871E-1    1.037731797710636E2    -8.276572131918357E1    -5.446686786606824E1    -8.014054223326367E1     8.570494994486462E1
                        -8.347149619955063E1    -1.288686620965932E2    -8.827939213478685E1     1.108141975642422E2    -9.054382539725348E-1   -1.035826038458981E1    -8.073471952668952E1     8.548946850204388E1
                        -9.427311473635457E1    -6.056176045583033      -8.168733954559643E1     1.330528363564856E2    -8.943974327117130E1     5.659768472985057E1    -8.754781736086447E-1   -7.710328055222637

 3.002500000000000E7    -2.130260035870171E-1    9.571506379229540E1    -6.797902450515799E1     1.041878430149710E1    -8.399304114273861E1    -4.705411183950417E1    -8.574013731671167E1     2.333874566734133E1
                        -6.646407170179114E1     2.375564517551013E1    -1.709126588426693E-1    1.034632408003356E2    -9.092546063081733E1     1.081493273608578E2    -7.761199364267617E1     1.258764040703993E2
                        -8.829357318106298E1    -1.304646068051832E2    -8.024189457497209E1    -1.638727677531226E1    -9.054437783318893E-1   -1.068565476893858E1    -8.832688445779823E1     1.576942608174894E2
                        -8.172646196086178E1     1.443423884836639E2    -9.012241891859794E1     2.295454722938107E1    -8.412557565913475E1    -1.082233916718479E2    -8.689824479435109E-1   -8.011906443818138

 3.005000000000000E7    -2.272341871473987E-1    9.540310613477473E1    -6.782484400685645E1     8.198766725131112      -1.039397630447905E2     1.254723787286760E2    -7.905248861294342E1     1.427773666106764E2
                        -6.869790864010017E1     1.728598880130384E1    -1.652200474772559E-1    1.032306849862966E2    -1.053170035911036E2     1.275804381537580E2    -1.069558579056681E2     1.206879662122905E2
                        -9.346825232674469E1     8.936381427377637E1    -8.682689628706272E1    -1.518042315189190E2    -9.099453005704804E-1   -1.098259710299159E1    -8.673524824917932E1     2.729380766091207E1
                        -8.513098364728919E1    -1.566158913351637E2    -8.087846527790373E1    -8.018396027307800E1    -9.694245048760891E1    -1.459355329672567E1    -8.738589451280222E-1   -8.322681744466280

 3.007500000000000E7    -2.217599308162480E-1    9.501801887130549E1    -6.774188775185667E1    -2.117704101891928      -1.031518445763542E2     2.846015883502306E1    -9.154607846212670E1     1.316789633192927E2
                        -6.709166520497425E1     8.638213707872557      -1.688973908987171E-1    1.028110664352528E2    -8.359196055892758E1    -1.341884778985961E2    -1.008136424600386E2     8.380578942151107E1
                        -1.030952878520034E2     6.845852838884210E1    -8.931034417917755E1    -1.042088951619273E2    -9.065324307951511E-1   -1.127096032719202E1    -8.992365467066745E1    -2.147815558983448E1
                        -9.778126621493952E1     1.507046876094434E2    -8.485235518181854E1     6.500837136652091E1    -8.317722598714983E1     1.470200804267008E2    -8.696878925075435E-1   -8.594861610912181

 3.010000000000000E7    -2.118964548921541E-1    9.472113681234747E1    -6.739437358455346E1     1.363172444330565E1    -9.545254317853289E1    -1.070663621862966E2    -8.557878335736550E1    -3.287885515822903E1
                        -6.744522758090126E1     1.254450225428280E1    -1.709548765606419E-1    1.026035633116886E2    -8.867746187450302E1     1.012190367294394E1    -8.260103007554184E1    -1.186461044412190E2
                        -8.387185186562337E1     1.588192057678417E2    -8.970352990432758E1    -2.927978612169427E1    -9.087130461148308E-1   -1.157544120670553E1    -8.656028896619986E1     7.853941530652213E1
                        -8.147920419890176E1    -1.058113567750063E2    -7.929218957818777E1     8.846774057994470E1    -8.090454275117358E1    -1.035543848069520E2    -8.691036636968110E-1   -8.882921989048205

 3.012500000000000E7    -2.199501975277510E-1    9.437882339081277E1    -6.619082229223797E1    -1.099646757667976      -8.687660757959783E1     6.899389812988586E1    -9.957904419447030E1    -7.981165395238540E1
                        -6.717249474334912E1     1.297578752889613E1    -1.760126254828723E-1    1.022708910271460E2    -8.386385004162379E1    -1.770640920533698E2    -8.899154349119581E1    -4.978224007504274E1
                        -8.786363970983516E1     1.525394148335759E2    -8.617665207454280E1     1.162570914014916E2    -9.000704184521577E-1   -1.185545848689818E1    -8.620640397238890E1    -1.115335373451481E1
                        -8.276718968519825E1    -1.421982965944131E2    -8.228539482399982E1     3.628629047684714E1    -8.649301285373971E1    -1.778942253491883E2    -8.746894704621567E-1   -9.168448721831153

 3.015000000000000E7    -2.191771878752855E-1    9.398185224070707E1    -6.857681900361014E1     6.498387170498845      -8.422479555666843E1     1.779881557241136E2    -7.909935160376186E1    -1.495502045376701E1
                        -6.682232692639251E1     9.493387010427309      -1.748218591739996E-1    1.019684953099566E2    -8.244905268948551E1    -8.905332100587917E1    -8.439965081657428E1     6.152936064501638E1
                        -8.952198652209714E1    -6.286107466878551E1    -8.584450983033669E1     1.096938941068224E2    -9.082165598794167E-1   -1.217960000715668E1    -8.650530841883673E1    -8.609111185498887E1
                        -7.956442096579364E1    -1.490248720092630E2    -8.518847791217519E1    -1.794989844075452E2    -8.704706809674624E1     1.031952311116914E2    -8.747159474766304E-1   -9.497933715075115

 3.017500000000000E7    -2.144246780217283E-1    9.364442703254402E1    -6.855890642833161E1     1.730388258100152      -8.248067497681831E1     1.065969349378193E2    -9.089980424322104E1    -5.872796933333920E1
                        -6.679415973840386E1     1.695578020331154E1    -1.696063898884069E-1    1.016059233154772E2    -8.145696743373918E1     1.294880314884529E2    -8.301022834910059E1     1.239987786405056E2
                        -8.328193551108981E1     2.507455657155078E1    -8.971563147621650E1    -1.642452263178924E2    -9.067639970127089E-1   -1.249319023111144E1    -8.811074812474689E1     4.056264502559992E1
                        -9.008478055837537E1    -1.009347528256985E2    -9.615922855286445E1    -7.683733267670682E1    -8.198158298485923E1    -4.387903541635689E1    -8.756200804747119E-1   -9.778367525340251

 3.020000000000000E7    -2.173479708274190E-1    9.331512512895684E1    -6.677798095642912E1    -1.710214059524497      -9.320316260467894E1    -9.308263343268889E1    -1.014479335919456E2    -1.267762959806285E1
                        -6.768424323143387E1     6.708677338798774      -1.589709304633357E-1    1.013521947211594E2    -8.782262748137592E1     9.403860482587358E1    -8.933573224728774E1     1.011826087378905E2
                        -8.222402781059272E1     9.628493908753539E1    -8.065235209619476E1    -1.525604958667880E2    -9.034578008473987E-1   -1.276654959015874E1    -8.718618442740939E1     1.671389612937308E2
                        -8.518723149340619E1     9.460178320537374E1    -9.591205650091109E1    -1.283681048041989E2    -8.188181922787439E1    -1.413957084833849E2    -8.719626993318962E-1   -1.007494928850034E1

 3.022500000000000E7    -2.162512809323474E-1    9.298193835568918E1    -6.655878372366553E1    -2.581851273960415      -8.636087972561590E1     1.478447232145366E2    -9.073693453947976E1    -4.756816775948121E1
                        -6.772829775915028E1     4.381420912481020      -1.717963170851936E-1    1.010248663801129E2    -9.472406092315787E1     5.994612452277112      -8.419392620344702E1     1.428680013700422E2
                        -8.655949207629502E1     1.253123405854914E2    -8.669036512655551E1    -3.129871680684646E1    -9.040741846192646E-1   -1.308531184084174E1    -8.224810954778134E1    -8.748100997821460E1
                        -9.667535850064053E1     9.657384511551035      -9.353693012228433E1     7.500809211345580E1    -8.740988449360744E1     1.456669559759767E2    -8.742387804950379E-1   -1.035910645748156E1

 3.025000000000000E7    -2.187822206495547E-1    9.265987694849612E1    -6.732039942060324E1     1.266247011571731E1    -9.714128173089014E1    -8.539726813900495E1    -8.321718489313207E1     1.233107988338073E2
                        -6.607329249204108E1     1.017796212355806E1    -1.752255315536341E-1    1.007241343034878E2    -7.985785825473609E1    -1.014436814587855E2    -9.233196892231233E1     2.205969504449121E1
                        -9.130676068442001E1    -6.518517811759895E1    -8.990831965403176E1    -1.333255021519823E2    -9.135047322163734E-1   -1.340336034380585E1    -8.266492494667489E1    -1.394698786650083E1
                        -1.007030958231992E2    -1.095162331425690E2    -8.358776692504256E1     5.190338816165011E1    -7.885522292523001E1    -1.355900294092176E2    -8.724458487969490E-1   -1.065117463901709E1

 3.027500000000000E7    -2.197982892484080E-1    9.227069744415265E1    -6.713439251867013E1     4.704215976352852      -8.697956570795401E1     8.992037548944973      -9.020084213084974E1    -1.156823060282813E2
                        -6.805548152255712E1     4.772412563898975      -1.745756770047447E-1    1.003444939227211E2    -8.872491842424580E1     1.527199186879757E2    -8.467651426090600E1     8.231317316078895E1
                        -7.654310126129558E1    -3.658152206568982E1    -8.524602318885559E1    -1.459610091835896E2    -9.100415568056106E-1   -1.371422876645133E1    -9.215666259150412E1     1.798840048996678E2
                        -8.468337567018354E1    -5.792578132849655E1    -8.407774750373793E1     2.666644563115548E1    -8.407116546442965E1     1.323463323674530E2    -8.717728835466669E-1   -1.095392803099228E1

 3.030000000000000E7    -2.170792912870042E-1    9.193481061253060E1    -6.596106015254937E1     1.241468310847062      -8.285666651775635E1    -1.159085597908016E2    -8.304751540613617E1    -1.088798141150692E2
                        -6.718311297578835E1     7.447910829673553      -1.610762111472629E-1    1.001152568834498E2    -8.109297753251624E1    -1.116322569513671E2    -8.839742409013897E1    -6.549148466556120E1
                        -8.890000634148160E1    -1.544578331638502E2    -9.147701915987362E1     5.791352637091340E1    -9.015596666229625E-1   -1.403317630055676E1    -9.043421341050529E1    -7.964197512150767E1
                        -9.080588538601191E1     9.876918670087225E1    -8.591652254855762E1    -3.337032987456090E1    -8.379439004145186E1    -1.308874499061142E2    -8.677650703816354E-1   -1.122620860275089E1

 3.032500000000000E7    -2.163503652383277E-1    9.158201305801664E1    -6.686645396477539E1     9.512055427046599      -8.555824590299025E1     7.984384963621477E1    -8.569559090182068E1     1.786674533523734E2
                        -6.657990356474554E1     1.136819499790939E1    -1.702977194610852E-1    9.976464922817026E1    -8.818468724221005E1     1.547889201059337      -1.030370956279451E2    -1.667658236108521E2
                        -9.103055786757976E1     1.038489928888962E2    -8.601560949332745E1    -3.160362253850776E1    -9.005457715883848E-1   -1.432090668665995E1    -8.602509199002151E1     1.157973788352950E1
                        -8.440412539656457E1     1.186403416898568E2    -8.560142818402645E1    -1.337062296586968E2    -9.170090484967676E1    -4.905351128497320E1    -8.689907165557199E-1   -1.156574413727642E1

 3.035000000000000E7    -2.056054851578056E-1    9.126380917090279E1    -6.613490837641831E1     1.292870487076405E1    -8.907687117929000E1    -3.074579530699499E1    -8.543386621445993E1    -1.676977571837264E2
                        -6.556610965336273E1     3.795616351438403      -1.698442926502121E-1    9.942773207227462E1    -8.876554270509679E1     1.422413167490729E2    -8.714357934898348E1    -1.367116548209661E2
                        -8.377786544715474E1    -1.423799461097161E2    -8.498885110182175E1     3.902454157526881E1    -9.050723428662268E-1   -1.459894785010670E1    -8.314626110145726E1    -1.064915564176569E2
                        -9.246853901238801E1     1.354748301203812E2    -8.771044533372253E1     1.210377492935174E2    -9.834628580549736E1    -1.373566192261350E2    -8.711584080583883E-1   -1.181341339975973E1

 3.037500000000000E7    -2.104057010387375E-1    9.087639070088791E1    -6.714569447300303E1    -8.271085887036711E-1   -8.846241386271333E1     1.783775023759409E2    -8.258637046714858E1     1.658113751014292E1
                        -6.634079361298875E1     3.125205348723888      -1.662690280892968E-1    9.915918661634706E1    -8.794827805053149E1    -9.038747479680734E1    -8.431754793704053E1    -8.203269866043125E1
                        -8.637989446049301E1    -1.658399479603516E2    -9.049494505139167E1    -1.200846242153741E2    -9.039938467151200E-1   -1.492329705433713E1    -8.414701276028922E1     8.723597740531645E1
                        -8.723523826426771E1     1.663711988314601E1    -8.711780130880499E1    -1.200994896443078E2    -8.437525832750232E1     6.769990896172045E1    -8.656790071003800E-1   -1.211780130730417E1

 3.040000000000000E7    -2.057129509665294E-1    9.059912845693727E1    -6.655676682312775E1     3.218909429156142      -9.648663751126355E1    -1.195379596488468E2    -9.582633701569712E1    -2.504258251138394E1
                        -6.549565558510788E1    -1.418808386564107      -1.607187051237333E-1    9.887884225485298E1    -8.152343059165339E1     4.552886043010295E1    -8.450041991979249E1     7.782237423403775E1
                        -8.086174106117775E1     1.218983736204208E2    -8.213265171611008E1    -1.787604424314261E1    -9.060408318118440E-1   -1.522640427021411E1    -9.487203634966475E1     7.176781664843166E1
                        -9.335473240151165E1    -5.738378856455364E1    -8.829642381977648E1    -1.675438035375444E2    -8.627402533362474E1     9.082478337899973E1    -8.708154971722477E-1   -1.241575096457142E1

 3.042500000000000E7    -2.118720963617251E-1    9.020322815894663E1    -6.746344871023064E1     1.404002709203083E1    -8.755610535220779E1    -1.577743346654541E1    -9.828077099732994E1    -9.544120180197930E1
                        -6.762727880019716E1     5.551828964424010      -1.681599264372893E-1    9.851836912915289E1    -8.622174683116542E1    -1.879053798610287E1    -9.147681127314270E1    -1.082908042012934E2
                        -8.543143275664072E1    -1.252625290410315E2    -8.778355622075496E1    -8.974049367104611      -9.022645450376398E-1   -1.552989649945696E1    -8.462009891286985E1     1.436358257623514E2
                        -8.844474903430977E1    -1.625024088343251E2    -8.585306316616489E1    -8.498000814328287E1    -8.141503497200652E1    -1.078464467576562E2    -8.662636814427761E-1   -1.268492150821882E1

 3.045000000000000E7    -2.125596581686927E-1    8.983384349319178E1    -6.696798594591053E1     7.979908749275843      -8.624884760449464E1    -7.181998272169955E1    -8.769102284764072E1     1.378687858910693E1
                        -6.543976848365367E1     1.023223243076273E1    -1.693218273834374E-1    9.822847300911921E1    -8.591235307525942E1     1.896460106357321E1    -9.513374031672946E1     1.073107258804959E2
                        -8.956957764533271E1     1.447971492241632E2    -8.975674723018587E1    -1.606139771223590E1    -9.038664935837270E-1   -1.584363831751423E1    -8.569231534148943E1     7.206841348014717E1
                        -9.241781153124036E1    -7.831926334806730E1    -8.284689467218927E1     5.885107238385758E1    -8.213198266610169E1     1.047715096096477E2    -8.692875246940968E-1   -1.299283667003920E1

 3.047500000000000E7    -2.145855547449084E-1    8.949735641236445E1    -6.653950613848286E1    -4.508399144820644      -8.431011447933051E1     5.153608230823750E1    -8.497399127593116E1     3.802353228883660E1
                        -6.601012349190106E1     9.391709050666993      -1.714544362433209E-1    9.793069842690447E1    -8.742031257496471E1    -2.822001682889504E1    -8.423418878670890E1    -1.617364095048501E2
                        -9.266514942388588E1     6.101892655782893E1    -8.319153745699175E1    -1.373025309559172E2    -8.978782794059758E-1   -1.615450263086559E1    -8.305147796478829E1    -7.003155945613803E1
                        -8.207045476538710E1    -1.476765366763718E2    -8.683182730892214E1     9.115519510400472E1    -8.729572087489262E1     4.368131211346672E1    -8.670337791405898E-1   -1.329276467563133E1

 3.050000000000000E7    -2.040590797552032E-1    8.919177244621304E1    -6.761527419236752E1     9.778214774691680      -8.603073335866745E1    -2.343682408855672E1    -9.002341362219048E1    -4.659346295100021E1
                        -6.589775565195616E1    -6.488874927967318      -1.581276181767020E-1    9.758991325895897E1    -8.818960668742579E1     7.019539455950213E1    -8.011543440011550E1     3.683747911556594E1
                        -8.392575079254401E1    -1.589524967843360E2    -9.855491975544068E1    -3.630156058386834E1    -9.049074621245616E-1   -1.641212394400399E1    -7.918311378471157E1    -4.534269134963209E1
                        -8.894970729889202E1    -1.249149975489358E2    -8.763051559473723E1    -1.401646592506580E2    -1.065723006787917E2     1.746883948082538E2    -8.685630344647849E-1   -1.356877030006356E1

 3.052500000000000E7    -2.046335105107185E-1    8.884581061950857E1    -6.618273426627255E1     6.942734527842911      -8.679572671091609E1     1.598431841377154E2    -8.609119521031889E1     2.146109381171900E1
                        -6.603882437598556E1     8.892887915468098      -1.608041269901260E-1    9.732721604745983E1    -9.204409334715535E1    -1.755800361719165E2    -8.713606470230076E1     1.905689420626604E1
                        -9.127350873706575E1    -1.578021926853286E2    -8.243709645889574E1    -6.184030140142184      -8.999813573111153E-1   -1.674527217121882E1    -8.838940703293176E1    -1.619760805725124E2
                        -9.215772567957842E1    -2.762371021066620E1    -8.665807783334975E1    -1.771733848294045E2    -9.088147073306546E1    -1.106057088237408E1    -8.652351445919553E-1   -1.385650975742834E1

 3.055000000000000E7    -2.181835693565154E-1    8.848340338949184E1    -6.578593052173322E1     7.690477733175384      -8.819981504494075E1     1.670124168415245E2    -9.142214639975082E1     1.444421063690012E2
