#  HZ   S   DB   R     50.00 
! Rohde & Schwarz Vector Network Analyzer 
! Rohde-Schwarz,ZNB8-4Port,1311601044102961,2.82
! Created: UTC 2/8/2019, 3:07:50 PM
! freq[Hz]                db:S11                  ang:S11                 db:S12                  ang:S12                 db:S13                  ang:S13                 db:S14                  ang:S14
!                         db:S21                  ang:S21                 db:S22                  ang:S22                 db:S23                  ang:S23                 db:S24                  ang:S24
!                         db:S31                  ang:S31                 db:S32                  ang:S32                 db:S33                  ang:S33                 db:S34                  ang:S34
!                         db:S41                  ang:S41                 db:S42                  ang:S42                 db:S43                  ang:S43                 db:S44                  ang:S44
! 
 3.000000000000000E7    -2.261310359690281E-1    9.608959302389947E1    -7.030545155826783E1     1.391876240980631E1    -8.424422974212966E1    -1.168268694005657E2    -8.482172770860395E1     1.465015759295963E2
                        -7.032738376132772E1     9.840077316554899      -1.738905092877514E-1    1.045128346392157E2    -9.129433053905389E1    -1.183199647474098E1    -9.639263714095586E1    -9.191956845932565E1
                        -8.061424125659246E1     1.218054739875627E2    -8.307776578828486E1     1.610491877678504E2    -9.040880601520112E-1   -1.038299078310558E1    -8.831461494896331E1     1.105020453417535E2
                        -9.086763192628155E1    -4.347718719625731E1    -8.628894417076539E1     1.213738566954288E2    -9.237396558469857E1    -1.211738161604298E2    -8.735409272828583E-1   -7.665636924758453

 3.002500000000000E7    -2.176604335646120E-1    9.571210835863717E1    -6.986925160773009E1    -2.010335282619822      -8.188041776630945E1    -2.631042652678512E1    -9.277592806307999E1    -1.025965722837887E2
                        -7.030519926971022E1     9.957605411971535      -1.738955666736727E-1    1.042278033122224E2    -8.446712776708702E1    -7.386322307210816E1    -8.327626255888008E1    -1.142540963257402E2
                        -8.487738466904690E1     1.743209622967258E2    -8.388851262694638E1    -7.803678126644778E1    -9.013087819709713E-1   -1.065892694670924E1    -8.369742243066787E1     7.573982637658861
                        -8.285334672546240E1    -4.083676692435013E1    -8.695772178078980E1    -1.686840172061855E2    -8.416573920837224E1    -3.780319379572581E1    -8.711202317627608E-1   -8.024804432942444

 3.005000000000000E7    -2.195080623324993E-1    9.541121042064019E1    -7.197826332921540E1     8.297016299916576      -8.429142231326188E1    -2.511826123078476E1    -8.704244943526985E1     1.931142513001016E1
                        -6.846852239335865E1     1.959571286673337E1    -1.671225787411391E-1    1.039744018328873E2    -8.341408869705620E1    -9.821565447312545E1    -7.919247726141785E1    -9.402563298272742E1
                        -8.462761282431418E1     1.101625054091576E2    -1.065331812020091E2     1.066932463763103E2    -9.093612303387100E-1   -1.098094701359738E1    -9.187923298328981E1    -7.025188068194310
                        -8.316089088380119E1    -5.193678446125746E1    -8.363216676123030E1     1.075792293917216E2    -8.807489636193131E1    -1.492473228729633E2    -8.730401852568961E-1   -8.301233202516654

 3.007500000000000E7    -2.200490713057280E-1    9.501742097696501E1    -7.046962238671570E1     1.177229416732417E1    -9.079524536386865E1     1.263045223702922E2    -8.572860692585587E1     1.224411773430305E2
                        -6.901954254116950E1    -5.017600121648928      -1.701179363113129E-1    1.036435118002097E2    -8.676125513333078E1     1.750865673358516E2    -8.813063275458701E1     9.264288561955317E1
                        -8.452694312732760E1     5.055656316497589E1    -8.385861690719278E1     1.322003126772766E2    -9.023313842423966E-1   -1.128639171754183E1    -9.921135663367586E1    -9.082464915848411E1
                        -8.597909139684113E1    -1.344527047079516E2    -8.290655409636460E1    -4.713114597114536      -8.529616763859652E1     1.256225959776633E2    -8.694718389402101E-1   -8.623223444029973

 3.010000000000000E7    -2.167294301780107E-1    9.466091376349628E1    -6.914950209449914E1     3.425308813047936      -8.668778435375171E1     6.787358752963611E1    -9.230437229400090E1    -1.097304238300990E2
                        -7.022740530819095E1     1.522122776481697E1    -1.775327664669669E-1    1.033742228232179E2    -9.286787162763162E1     9.369291669462547E1    -8.285106018438842E1     1.765631134498600E2
                        -8.696488367063495E1    -6.491303566494234E1    -9.121463650158123E1     1.712306456431460E2    -9.059163096901535E-1   -1.157707054802887E1    -8.438156927735392E1     1.547753605548819E1
                        -8.287681252600149E1     1.653065131418517E2    -9.003279367582090E1     1.751211601891700E2    -7.999212431692268E1    -4.775335477537525E1    -8.696119633689505E-1   -8.895827195472798

 3.012500000000000E7    -2.229904021529326E-1    9.434924462970589E1    -7.204728280216432E1     2.153974918367681E1    -8.005635633599228E1    -2.362193667172678E1    -9.923202756897297E1    -9.454526226644860E1
                        -6.966238116730143E1     2.045368119807208E1    -1.697200217538284E-1    1.030066732045009E2    -8.380291501040475E1    -6.268225193661947E1    -9.363968219352016E1     1.690804465080645
                        -9.708268468402871E1     7.360087493082737E1    -9.110624886267829E1     3.573256490164047E1    -9.046450987672928E-1   -1.183876364982804E1    -9.366089819108809E1     2.523689673443891E1
                        -8.517549594338995E1     1.524589733016869E2    -8.354376573683503E1    -1.102245533761613E2    -9.571836403659391E1    -5.068586186089161E1    -8.759928435220333E-1   -9.185724135892466

 3.015000000000000E7    -2.210114393300492E-1    9.398035615878997E1    -7.061598225367487E1     2.033898048226295E1    -8.834112727926404E1    -1.688759408255227E2    -8.194198350906412E1    -1.656535298401859E2
                        -7.061546449461238E1    -3.144422266314307      -1.770917083806309E-1    1.026992576520656E2    -8.166691781643561E1     9.231501745143792E1    -9.447155860585770E1    -3.373898756725614E1
                        -9.025240533165854E1    -1.748573234882840E2    -8.490631731209231E1     6.291479207784190E1    -9.014168285918147E-1   -1.220670599488861E1    -9.625328359243225E1    -1.176780238370450E2
                        -8.499469286039401E1    -3.993333221154711E1    -9.085051938387107E1    -1.191803620743281E2    -9.986648435252465E1     5.021727110048665E1    -8.713147172141412E-1   -9.464867257956390

 3.017500000000000E7    -2.155347568083522E-1    9.362620831526445E1    -6.780408042344297E1     4.663089271301833      -8.152218249435323E1     3.111645324808672E1    -8.479173747740917E1     1.461100892348886E2
                        -6.927289530743553E1     2.252128665658497E1    -1.798508159060400E-1    1.023911706502923E2    -8.838756150686868E1     2.433160950935160E1    -8.965232974613456E1    -8.872902177868114E1
                        -8.325581033265785E1     1.218354329586191E2    -8.452984153621317E1     2.848003908467890E1    -9.053508443536267E-1   -1.247175262597986E1    -8.945723888536547E1     7.719970771659101E1
                        -9.440167999564297E1     2.507681520992255      -9.015024901185420E1     4.039245284813723E1    -8.394918017844709E1     1.082662495279540E2    -8.757987310288804E-1   -9.755837551480653

 3.020000000000000E7    -2.197895959888234E-1    9.332199395138774E1    -6.988117198918457E1     1.101982145503561E1    -8.078001927865861E1     4.158196855408953      -9.205254522160897E1     5.090505570725368E1
                        -6.893530601721800E1     2.944695958022139      -1.606435496147547E-1    1.021693006810782E2    -9.017573065955969E1    -2.091979887371228E1    -7.952988189069230E1     2.031179164549315
                        -9.384404915531536E1    -9.058880481153915E1    -8.300826370352299E1    -7.019484764926204E1    -9.042577595259129E-1   -1.279647956661824E1    -8.218763694290897E1     5.854524740912314E1
                        -8.327182847984901E1    -6.924439788297984E1    -9.084370223679190E1    -7.176383659538568E1    -8.532750219662489E1     9.308423579234496E1    -8.723904896758117E-1   -1.004976874759712E1

 3.022500000000000E7    -2.162555104091811E-1    9.294769561418562E1    -6.972245201460964E1     7.937990369090263      -8.965990156463036E1     1.135689053709608E2    -8.938424870650758E1    -1.715595703484818E2
                        -7.055317814010439E1     1.091576052489058E1    -1.774906500789401E-1    1.018342050869027E2    -8.619973807725208E1    -1.261124444288913E2    -9.569216373091038E1     5.414473237921384E1
                        -8.466997413116917E1    -3.640349001317297      -9.118706696350914E1     1.424979894682558E2    -9.081055893296119E-1   -1.305339419213599E1    -8.412744234401592E1    -1.779095318639639E2
                        -8.138943289030959E1    -3.029573828541814      -8.663709014376533E1    -1.334530612951815E2    -8.359289927394769E1     1.174672745015098E2    -8.723577893411001E-1   -1.035674966059546E1

 3.025000000000000E7    -2.162774087620125E-1    9.260131137691819E1    -6.931336948643194E1     1.493637385007390E1    -9.020550200298588E1     1.097011835942748E2    -8.703904350708052E1    -2.771555669404969E1
                        -7.027094977122911E1     1.705164499448515E1    -1.813226585905036E-1    1.015232081835531E2    -8.257020223655586E1     9.245426437856639E1    -8.398645834828938E1    -1.357608864590417E2
                        -8.552120116815301E1    -1.583402199149137E2    -8.160293409620843E1     3.540422784340004E1    -9.069543259916637E-1   -1.337506133908268E1    -8.516000118280637E1     3.773422000256748E1
                        -8.653251812967349E1    -1.357103580873279E2    -8.407725632305365E1     3.448250013017483E1    -8.863561820801499E1     1.298026921862098E2    -8.702584294112924E-1   -1.066742173519291E1

 3.027500000000000E7    -2.234258294586829E-1    9.225255934218201E1    -6.988486444615602E1     6.239103529410179      -8.563294811188216E1     1.266473246245799E2    -7.907229796936225E1    -9.455652219165684
                        -7.066753614368169E1     1.373115084210954E1    -1.724789115335209E-1    1.011594270778625E2    -9.529049039322224E1     9.447086254032622E1    -8.936557705242825E1     1.240486662428828E2
                        -8.499287571523286E1    -1.572298805637890E2    -8.577427755532959E1     6.638422124187562E1    -9.006746570578013E-1   -1.369891193904129E1    -8.697607302660035E1     1.625927691723574E2
                        -9.243018393218722E1    -3.953997140925170E1    -8.975904567430064E1     1.103076445773016E2    -8.227962157918562E1     6.801329315971637E1    -8.752013447852836E-1   -1.094389246557886E1

 3.030000000000000E7    -2.164630620248866E-1    9.192924367130367E1    -6.979663781983361E1     9.215658733492402      -8.467683213501424E1     1.185401800297365E2    -9.295400639322273E1    -1.420777245609531E2
                        -7.108157662083644E1     1.900276149273298E1    -1.688952340811901E-1    1.008424595308655E2    -8.822611959357857E1     1.345744999726074E2    -8.688592358957891E1    -1.564889700207343E2
                        -8.316786931927938E1    -5.036468624238350E1    -8.790912514906269E1    -5.470717012315149E1    -9.069670428104635E-1   -1.403288930344592E1    -8.515102333982065E1     1.389246825219776E2
                        -8.433299034664948E1    -1.207734614924725      -8.301965387326402E1    -1.234758453413111E2    -8.702220944207839E1    -1.782858382066796E2    -8.657697599348557E-1   -1.125240074510047E1

 3.032500000000000E7    -2.156661032033983E-1    9.159306318635966E1    -7.032863855627404E1     1.052989603925352E1    -8.731181317177462E1    -9.679827237697073E1    -8.849074400567457E1    -3.227760237954408E1
                        -6.830527683551283E1    -9.966019820167952      -1.692211818322843E-1    1.005505260655776E2    -8.053519301661976E1    -9.568090501557317E1    -9.396053508568426E1     2.334341442767599E1
                        -9.107147673530839E1     3.245787255121734E1    -8.874952119394480E1     8.244225991490679E1    -9.016440486626877E-1   -1.433471748861170E1    -8.269067879576832E1     2.801968340138327E1
                        -8.158001088009641E1    -7.168926599175747E1    -8.805832023113661E1     2.970549556239222E1    -8.675054396804944E1     1.667949540139906E2    -8.700535703198353E-1   -1.152524930092890E1

 3.035000000000000E7    -2.198168207897388E-1    9.123751760434057E1    -6.888732865110495E1     3.484831930094365      -8.638514954765411E1     1.408594894086003E2    -8.596078099921756E1     1.465650270190473E2
                        -6.875276041427276E1     1.100615201152125E1    -1.643570242256354E-1    1.002427034484449E2    -8.073942017249297E1     1.535480185565228E2    -8.159800462545384E1     1.109154348779308E2
                        -1.054756910906171E2    -8.932167260876477E1    -7.892736387605052E1    -1.144840274543622E2    -9.040217224848859E-1   -1.458039695463749E1    -8.743882956647353E1     1.227738653797974E2
                        -8.697142887842018E1    -8.767293347121008      -8.460981729742821E1    -1.582987968763219E2    -8.619760080791554E1    -1.547314503364635E2    -8.705602536788125E-1   -1.184703870169941E1

 3.037500000000000E7    -2.138404519437740E-1    9.087887923932043E1    -6.909113762566049E1     4.675514382861470      -8.914087099941257E1     4.255357299553393E1    -9.604878317835352E1     1.297831725843388E2
                        -7.003123098390159E1    -1.124929131740915E1    -1.724150819076343E-1    9.992527488287101E1    -8.333945798676180E1    -6.513786368332902E1    -8.459779687893317E1    -1.021983394693691E2
                        -8.451427108404832E1    -1.787644246850970E2    -8.974003442282375E1     1.132086213505923E2    -9.013297916613926E-1   -1.492564025695957E1    -8.064272004249445E1    -9.938251180076358E1
                        -8.993647299554957E1    -1.214676526714537E2    -8.594157658135059E1    -1.750644144277122E2    -9.921898073078722E1     3.822439739119795E1    -8.687580189746900E-1   -1.213819739583577E1

 3.040000000000000E7    -2.162369580330342E-1    9.056645405343657E1    -6.899414997942013E1     1.157611512945755E1    -7.988908437644778E1     4.500830118434206E1    -9.086704149892923E1     1.530345420400834E2
                        -7.060878725906773E1     6.869299769114214      -1.574817520727306E-1    9.964086302824431E1    -8.469451253766076E1     8.368377202997995E1    -9.058815169853467E1    -1.423795074643926E2
                        -8.881515608667728E1    -1.341278705502892E2    -8.617837780060322E1     3.228400809053105E1    -9.038671420009619E-1   -1.521733479427599E1    -9.795350449695171E1     6.410644765669272E1
                        -9.269947764136524E1     1.705028609275220E2    -8.271771715270126E1     9.095898400740985E1    -9.727719682279647E1     1.871309375481881E1    -8.647774884032040E-1   -1.240031209379780E1

 3.042500000000000E7    -2.154420775673034E-1    9.020072161747919E1    -6.885954580318348E1     1.101617667808469E1    -8.342377781058210E1     1.647827232990059E2    -8.488409077519344E1    -9.742320624263370E1
                        -6.835880887944991E1     6.622690949468269      -1.676754891665568E-1    9.934886241456395E1    -8.643427838159296E1    -9.104610358870691E1    -8.866403120110327E1    -1.260810490956065E2
                        -8.853793672285896E1    -3.168222399912473E1    -8.658165792321668E1     1.645385355352546E2    -8.962622568777143E-1   -1.551054526225903E1    -9.258166685847634E1     8.448881115647583E1
                        -9.196426472839414E1    -7.365486669881762      -8.169666091700309E1     1.531035411626584E2    -9.547558285678755E1     1.197881577179096E1    -8.694586630943875E-1   -1.269975655077610E1

 3.045000000000000E7    -2.092497941775212E-1    8.982961224366763E1    -6.930952563258141E1    -4.448682773962858      -8.414262637598779E1    -1.596200302876170E2    -8.825018193867008E1    -7.511147817453168E1
                        -6.821678646816255E1    -7.415142233421471      -1.684098404289264E-1    9.901005760927913E1    -9.165521136290833E1     3.466657356633124E1    -8.213909203184932E1     1.481341458274985E2
                        -9.360507006180592E1     1.715659817563062E2    -8.803900072224351E1    -7.007741403383160E1    -9.062629092732009E-1   -1.581248672732158E1    -9.602000456076659E1     1.763733844797487E2
                        -8.099979058431620E1     1.739056974087122E2    -8.957341765706769E1     8.857705400511472E1    -9.390717109082593E1    -1.115403867633603E2    -8.704212119121204E-1   -1.298185249768022E1

 3.047500000000000E7    -2.135988557298112E-1    8.947920250509833E1    -6.964794368816273E1     4.679551548332970      -8.247155046473516E1    -1.480890255669784E1    -8.837076588931808E1    -1.425119858871357E2
                        -6.842960229290813E1     1.926944746528677      -1.712985577932683E-1    9.872197404394071E1    -8.437835964172595E1    -1.261809208507895E2    -9.043578860070555E1    -7.091004141032038E1
                        -1.059525726006211E2     1.738989317638542E2    -8.493706367737836E1    -1.764201477057679E2    -8.955477789889400E-1   -1.613752379396113E1    -8.868726358664604E1    -6.274274920884804E1
                        -8.270866500975890E1     1.178691550673687E2    -8.725888356498973E1    -9.656920396762358E1    -8.395295039843498E1     7.918659180120764E1    -8.663461894264023E-1   -1.329081008658829E1

 3.050000000000000E7    -2.143168251430744E-1    8.918130457633791E1    -6.751950346985528E1     3.621501899601052      -8.470466466590422E1     8.509388352564089E1    -8.862101579127312E1     9.561727340345541E1
                        -6.912332130881356E1    -1.097742736676035E1    -1.679475613177213E-1    9.839903981907176E1    -8.403240121440038E1    -4.854962442370682E1    -9.569055858378464E1     1.130644900038391E2
                        -8.851301580847276E1    -6.452709540478188E1    -8.102088495995699E1     1.225657665581888E2    -9.005498014560959E-1   -1.641502755842694E1    -8.862264205646511E1     1.245839270728198E2
                        -9.111827715800239E1     1.781563331634517E2    -1.003186507486183E2     1.457024681798661E2    -8.977426732983544E1     7.533710050706088E1    -8.659657637217970E-1   -1.360680214579935E1

 3.052500000000000E7    -2.063246038322963E-1    8.877615022143255E1    -7.055336994864324E1    -8.031609587990772E-1   -9.362884737795916E1    -1.380305185803792E2    -8.650053585113861E1     3.703250367905331E1
                        -6.993107251607930E1     6.829605289344800      -1.693840917148129E-1    9.808663265418632E1    -9.341196137244758E1    -1.258847975879833E2    -8.310197425538499E1     1.244634345805348E2
                        -8.321952498758810E1     5.694673596274694E1    -8.334987932360981E1     9.526942432850505E1    -9.052417254709353E-1   -1.675927886239001E1    -8.040511962023666E1     1.222902348503227E2
                        -8.894378594204424E1     8.618528206313317E1    -8.020284502608226E1     4.144659562675732E1    -9.504606792170561E1    -1.365909437186025E2    -8.680793041008439E-1   -1.391069526609949E1

 3.055000000000000E7    -2.140593142657381E-1    8.844590456101700E1    -7.077231921974774E1     8.147274562697743E-1   -1.019090355273373E2     9.994786017082851E1    -8.638491874600149E1     1.106093793026805E2
