#  HZ   S   DB   R     50.00 
! Rohde & Schwarz Vector Network Analyzer 
! Rohde-Schwarz,ZNB8-4Port,1311601044102961,2.82
! Created: UTC 2/8/2019, 2:27:25 PM
! freq[Hz]                db:S11                  ang:S11                 db:S12                  ang:S12                 db:S13                  ang:S13                 db:S14                  ang:S14
!                         db:S21                  ang:S21                 db:S22                  ang:S22                 db:S23                  ang:S23                 db:S24                  ang:S24
!                         db:S31                  ang:S31                 db:S32                  ang:S32                 db:S33                  ang:S33                 db:S34                  ang:S34
!                         db:S41                  ang:S41                 db:S42                  ang:S42                 db:S43                  ang:S43                 db:S44                  ang:S44
! 
 3.000000000000000E7    -2.256631406101947E-1    9.608655438916246E1    -6.548272779428706E1     4.196555794821713      -8.420009257450097E1    -3.692762453150105E1    -9.635728777518268E1     4.689886137769432E-1
                        -6.451294322073626E1     1.274482245430781E1    -1.860128690341549E-1    1.023131213112177E2    -8.411131767276346E1     1.236527395817026E2    -9.393851550994356E1     1.697789333649509E1
                        -9.346641836285862E1    -1.627900792418102E2    -8.642645380913723E1     1.216031056032048E2    -9.013989504604046E-1   -1.035946820625432E1    -8.496157506421825E1     1.724498233720364E2
                        -8.173789135391745E1    -1.107768425361854E2    -9.155165995172351E1     6.330544240219702E1    -8.703022282440757E1     8.158866366178157E1    -8.699307966990412E-1   -7.663294043643308

 3.002500000000000E7    -2.194778833221607E-1    9.568989838636156E1    -6.532315481948459E1     9.158214710125019      -8.012423558571700E1    -9.328732348483302E1    -8.406393868664569E1     2.454609597409711
                        -6.449083888703171E1     6.837329032457595      -1.812238862446769E-1    1.020625928935709E2    -8.718029264061825E1     1.215648066035110E2    -8.309461887768515E1    -1.880521870467949E1
                        -1.085555628618992E2     1.461040238386088E2    -8.421759335451807E1     1.671991914123360E2    -8.999561826509629E-1   -1.066791332101058E1    -9.327973545488496E1    -1.025656346849111E1
                        -8.615037125914903E1     5.013451600967554E1    -8.364798291687808E1     9.427283516068368E1    -9.008745850634080E1     5.790195448409418E1    -8.681493152050047E-1   -8.038137856175331

 3.005000000000000E7    -2.225485488339599E-1    9.535995891890511E1    -6.362801672344784E1     8.870597311163808      -9.127866552420795E1    -1.677674321637999E2    -8.768268774469368E1    -1.360113938694867E2
                        -6.341580608653209E1     7.200137647335612      -1.769225271068457E-1    1.016934548095447E2    -9.024543743121194E1    -9.365648354332545E1    -9.650790788780547E1    -1.412059060219550E1
                        -8.404894764063369E1    -1.492409703481447E2    -8.370677571067438E1     9.226907495260153E1    -9.090691939264592E-1   -1.092180958145367E1    -8.201820936595735E1    -1.059817769847136E2
                        -8.023577623365897E1     3.948161361701808E1    -1.028606550422196E2    -6.834067390016557E1    -8.336419305269841E1    -4.500851472283350E1    -8.727488922606962E-1   -8.307488599092762

 3.007500000000000E7    -2.209602491753986E-1    9.498224993684798E1    -6.511018949080415E1     6.876064988526371      -7.960565086683491E1     6.000911177940619E1    -9.021431751258682E1    -2.184511083304408E1
                        -6.367189029309117E1     8.166620079063399      -1.817354959911646E-1    1.014049988224921E2    -8.276232978179357E1    -1.579090986763576      -8.606814516034633E1     1.005003923361891E2
                        -8.159974756805215E1     1.205458911729667E2    -8.244595890690049E1    -6.980410370388830E1    -9.062884782028819E-1   -1.125456291385406E1    -8.809035665011960E1     3.202261074302713E1
                        -8.739249857788568E1    -3.164172514484476E1    -8.676856246220052E1     1.024188644877626E2    -8.680153461024831E1    -6.059353073178103E-1   -8.686377223635788E-1   -8.595781135154363

 3.010000000000000E7    -2.099557109031521E-1    9.465155141061118E1    -6.345056766304882E1     1.012301736882113E1    -8.240205326595063E1     4.925160630329852E1    -9.621262873452301E1     1.638987961952842E2
                        -6.343205976519110E1     1.350613191905391E1    -1.817707570077119E-1    1.011129959010082E2    -8.391677582590702E1    -4.453992728326924E1    -9.058615058993517E1    -1.407388581607309E2
                        -8.572400989355788E1    -3.891171428411838E1    -8.654598974936988E1     1.736937092986612E2    -9.080944323706437E-1   -1.151721873736185E1    -8.596595636470431E1     2.500085636079898E1
                        -9.849497492674792E1    -1.483741418850105E2    -9.687336972956067E1     9.430377895327383E1    -8.266962172550703E1    -1.324313554062957E2    -8.727819526021985E-1   -8.917844504449626

 3.012500000000000E7    -2.223624388582695E-1    9.433650518668853E1    -6.375145807146719E1     3.461096411245821      -8.487941094298144E1    -5.933253326914372E1    -8.111771270730412E1     6.294692587325913E1
                        -6.445937857650024E1     1.223468716327878      -1.765645043384785E-1    1.007597462896663E2    -8.504150471643534E1     1.429322366207397E2    -8.407498529449418E1    -8.715136562202460E1
                        -8.772853114904251E1     6.907927075696078E1    -9.032966721847100E1    -6.561312110695150E1    -8.991226061394297E-1   -1.189625956843141E1    -7.654817717042998E1     1.060051680338791E2
                        -8.435760551999567E1     1.311770733993861E1    -8.681910015183193E1    -8.126396660080181E1    -8.661147699258680E1    -1.524668227193779E2    -8.703991166442180E-1   -9.184746319681535

 3.015000000000000E7    -2.169151225207936E-1    9.394667285645895E1    -6.422520829318356E1     1.050740173279598E1    -8.120338967220674E1     7.689636718031449      -8.681908473618294E1    -1.386906919093759E2
                        -6.502215542177316E1     8.885953766496167      -1.797871972503002E-1    1.004684410623177E2    -8.205601367768810E1    -7.590598901059505E1    -8.697677762444427E1    -1.161848529840778E2
                        -9.355445509936077E1     6.273880940179743      -9.519645752710841E1     7.210932632250849E1    -8.944556151065074E-1   -1.218549779667634E1    -8.977936722040640E1    -1.791368392630964E2
                        -8.019040796669957E1    -1.557534122159487E2    -8.493440218847930E1    -4.552711010979188E1    -8.557159052482280E1    -1.052121908115870E2    -8.754616008855840E-1   -9.459989891911286

 3.017500000000000E7    -2.183184994066804E-1    9.360911058844260E1    -6.480770215829737E1     5.864403265370881      -8.918919892246493E1    -1.632691149791659E2    -8.374561624005624E1    -1.200108332973778E2
                        -6.439525163148292E1     5.727796426632652      -1.736492791436921E-1    1.001014790698784E2    -8.538012323927484E1     1.178251681172286E2    -8.103066321564759E1    -1.598119173814769E2
                        -8.211595829217131E1    -1.504195329242581E2    -9.409523038301484E1     3.273720361654873E1    -9.011345195173484E-1   -1.243369447931453E1    -8.639427689996933E1     4.183674778882284E1
                        -9.282005237584218E1    -5.528052996027872      -8.319424720239199E1     1.562865480008321E2    -9.265946516810431E1    -1.233761321755499E2    -8.742584015468889E-1   -9.773996546169784

 3.020000000000000E7    -2.195629795993661E-1    9.332886029817067E1    -6.402611584347406E1     4.810781637618541      -9.043276020111463E1     1.089689732519115E2    -7.887785273770962E1    -3.604419356557435E1
                        -6.431708183512936E1     4.120512234011144      -1.702867926480281E-1    9.985623921307064E1    -8.217528912894061E1    -9.109305734383901E1    -8.361876217350159E1    -1.795461308304949E2
                        -8.242603570036229E1    -1.251877873781096E2    -8.491485781050864E1    -1.070298891441108E2    -8.981651503030791E-1   -1.278319192294828E1    -9.239110313432533E1     9.535728632702670E1
                        -8.243359554126351E1    -6.477432215967484E1    -8.074091267105361E1     7.292131095416414E1    -8.772169041072884E1     1.715094396151807E2    -8.715093616254941E-1   -1.003700300563938E1

 3.022500000000000E7    -2.179610280008064E-1    9.292074634670564E1    -6.471182062075373E1     2.431525377283063      -8.092122938141372E1     2.099804316223261E1    -8.315810094264626E1    -1.722545473407371E2
                        -6.400573938343077E1     6.793560986103959      -1.799428109037196E-1    9.953855758464337E1    -1.244735924576203E2    -1.576073728054884E2    -8.421073277900676E1     3.050759284815197
                        -8.792966271481254E1     1.668979830888781E2    -8.824325341976980E1    -1.401284575668229E2    -9.070346094867875E-1   -1.308544744514564E1    -8.829528053870524E1    -1.416219421928880E1
                        -1.047918478404567E2     2.614184531368841E1    -8.675269252928574E1    -2.548511955266250E1    -8.939747563637602E1     1.706173039498587E2    -8.728845342572598E-1   -1.037147832924434E1

 3.025000000000000E7    -2.197247447900681E-1    9.261453082870537E1    -6.355921998365589E1     1.167907940140011E1    -8.345916625512734E1     6.133068505164390E1    -8.393765750726503E1     1.600895098026092E1
                        -6.418095789438141E1     1.589881665296581E1    -1.844602446149347E-1    9.920629809935670E1    -9.132204023184593E1    -1.399295948227656E2    -8.473588982077617E1    -8.182288113767112E1
                        -8.745963469650818E1     1.442458091770401E2    -9.118246247771825E1    -1.675186038990201E2    -9.025910118613771E-1   -1.336088892249133E1    -8.669313686022022E1     8.177692653025273
                        -8.419445543445043E1    -1.221567930637560E2    -9.725282408455365E1    -9.204074570124965E1    -8.736725958666060E1    -1.423707617330646E2    -8.637174727980935E-1   -1.064705857597992E1

 3.027500000000000E7    -2.177387388282548E-1    9.224968252193742E1    -6.369421616281105E1    -4.986417406729387E-1   -8.535935640330897E1     4.273864022723640E1    -8.491855583569964E1    -8.729256138391797E1
                        -6.371081255316869E1     1.045360781666483E1    -1.811257840939212E-1    9.889719396401587E1    -7.954928754642955E1    -9.714384014788129E1    -8.302554066253691E1     5.058976962292418E1
                        -8.363170823442579E1     1.341375692879307E2    -9.142668838723662E1    -3.831778894001593E1    -9.018407101660222E-1   -1.368339299016434E1    -8.652432094324965E1    -1.465841918905715E2
                        -8.663890051006698E1     7.804699495410632      -8.752811869942468E1     1.164636025869417E2    -8.179105291330068E1     6.461164437043564E1    -8.750461401040944E-1   -1.093616940201871E1

 3.030000000000000E7    -2.156622883748113E-1    9.189928267986909E1    -6.430684291417120E1     6.059354347536587      -9.439466669839968E1    -1.792430558017228E2    -7.892258389572386E1     1.204462070515830E2
                        -6.358653684062750E1     3.082258524307371      -1.741087626990202E-1    9.859821483674291E1    -8.711319509964618E1     1.151073231365049E2    -8.016533664355791E1     7.100493992716172E1
                        -8.564504731673780E1     7.077582216670230E1    -8.226352571075381E1     6.538603190489098E1    -9.005639430208092E-1   -1.399156231948615E1    -8.907971969690570E1     2.067992295618696E1
                        -8.251483033281666E1     9.323246987399992E1    -8.842859839089215E1     1.438894981082969E2    -8.742279856370837E1     5.357301244419117E1    -8.691209705856268E-1   -1.121351103474824E1

 3.032500000000000E7    -2.191030926914206E-1    9.153538373125213E1    -6.328084958245417E1     1.109540028038793      -8.423652865739440E1    -8.068807249217329E1    -8.865344088968192E1    -1.360757407655003E2
                        -6.395434268243569E1    -1.154944134551493      -1.707792472057609E-1    9.825744007295033E1    -8.794657637984648E1    -3.918756519997211E1    -8.623721692372664E1    -3.917637677082764E1
                        -8.864594582472186E1    -5.739336234102429E1    -1.011463115923867E2     6.867291606323614E1    -8.995921067032019E-1   -1.430536471043252E1    -8.210181996815742E1    -1.671252526928620E2
                        -8.668091001384764E1     9.889741471169235E1    -8.315936482740986E1    -8.991581281593531E1    -8.347020594115038E1    -1.264560002863135E1    -8.671559142969393E-1   -1.152135174688835E1

 3.035000000000000E7    -2.160819279614799E-1    9.122250668330025E1    -6.385102602784228E1     6.792251661716272      -9.371244440761427E1     1.262473075850208E2    -8.309064744653561E1     4.667885706468760
                        -6.367326563000002E1    -2.722348097567901      -1.691720508048913E-1    9.791567281972398E1    -7.833709671816339E1     2.558390572266124      -9.359336807970720E1     1.648132105309505E2
                        -8.693051354385042E1     1.109674744301872E2    -8.059915717721837E1     1.689368140151249E2    -9.080182815198162E-1   -1.460709428688488E1    -9.666478830047204E1    -1.220498654829658E2
                        -9.050321349412741E1    -1.111262453139044E2    -9.049758718662366E1    -1.959546174279821E1    -8.959484165044800E1     4.201652237687451      -8.736044953322787E-1   -1.178559572934613E1

 3.037500000000000E7    -2.182164119853705E-1    9.087247733118714E1    -6.392189609522401E1     7.048307462651112E-1   -9.620772498140653E1    -6.175409397753586E1    -9.536906429873596E1     7.962305792003910E1
                        -6.303888855193972E1     7.895403519286171      -1.750732601587962E-1    9.758964150756725E1    -9.047027142908070E1    -1.483739314519080E2    -8.711298726245958E1     8.101898507786768E1
                        -8.830299288570905E1    -7.774965363930076E1    -8.287178067108081E1     5.131333085113845E1    -8.978014781671591E-1   -1.490116524629270E1    -8.182540312194075E1     3.679213667480057E1
                        -8.815804167532755E1     4.614433645694091E1    -8.663502470632231E1     1.470118816597660E2    -8.658299348990737E1     7.961816121248069E1    -8.625488042521340E-1   -1.211115707327349E1

 3.040000000000000E7    -2.129743094119981E-1    9.054416628676350E1    -6.402785354638039E1     4.360598452753798      -8.855668432162345E1     1.123902993642553E2    -8.320089588791336E1    -1.093569464569695E2
                        -6.391820128971473E1     7.836997465117102      -1.667399370884093E-1    9.732130636367396E1    -8.972266638116345E1     3.243269018041561E1    -8.404020472926084E1    -3.126079488061304
                        -9.984656873582971E1    -4.272259069768154E1    -7.686373600485101E1     1.798937156611573E2    -8.980704397107852E-1   -1.522616124355271E1    -8.297002607536416E1    -4.732961084313348E1
                        -8.384150439367366E1    -2.466024437716056E1    -8.362696317611652E1    -1.184645256550163E1    -8.706015374261682E1     5.353481181452771      -8.656518462330225E-1   -1.239982935948967E1

 3.042500000000000E7    -2.152633533633545E-1    9.021202280280198E1    -6.411545819564610E1     1.974850999925300      -8.075727418622201E1    -1.641689713846980E1    -9.195295342166496E1     1.382764153138469E2
                        -6.368016131374442E1     3.485183971074359      -1.776845954751488E-1    9.702024271338036E1    -8.146648116649438E1     1.001609628023709E2    -8.945880518344465E1     1.976009770431188E1
                        -8.065898254446341E1    -1.073897063878197E2    -8.640079954343767E1     9.488939714835817E1    -9.008356462984785E-1   -1.556480595137819E1    -8.480014235980616E1    -5.974534914822271E1
                        -8.716155486744101E1     6.656381888949071      -8.408900498995871E1    -2.550594384792856E1    -7.738002491545461E1     1.737377322078716E2    -8.670089581029570E-1   -1.273272510422520E1

 3.045000000000000E7    -2.173384552831378E-1    8.978141891217099E1    -6.360062403535747E1     7.983098944035597      -7.817053723576628E1     7.433573494266545E1    -9.268841739892734E1    -1.742523216776332E2
                        -6.259360243356567E1     5.396957834726691      -1.671997333306788E-1    9.667524511391835E1    -9.145558611130618E1     6.623796905462577E1    -8.398195387007010E1     2.289052319131355E1
                        -1.031121298865548E2     7.613545489419026E1    -8.918398281916196E1    -6.928225676775931E1    -9.070916476654343E-1   -1.584311033495844E1    -9.094884002337480E1     3.379693905171136E1
                        -8.661314388638736E1    -3.882550478150021E1    -9.718196669558716E1    -1.607773244594143E2    -9.189584591008661E1     4.853464452285587      -8.637143965283961E-1   -1.299400982442445E1

 3.047500000000000E7    -2.156620053048111E-1    8.949135097248548E1    -6.414430089945738E1     4.544364181789770E-1   -9.367935392638341E1     1.209320465905824E2    -8.637721908209954E1    -2.369524784207003E1
                        -6.264344623181352E1    -6.289947420945760E-1   -1.740004684282670E-1    9.635905164886206E1    -8.777273300975861E1    -4.399690421263728E1    -8.539759876892644E1     8.333037709343471E1
                        -8.863316988602671E1     1.687593505450895E2    -1.085050306893425E2    -1.044691689985058E2    -8.946601696600822E-1   -1.613338501742166E1    -8.940165589595807E1     6.824407289050758E1
                        -9.240411477637409E1    -4.832486089054193      -8.533863342623518E1    -9.616030443643487E1    -8.989487138674926E1     1.359258312901046E2    -8.697025823868038E-1   -1.327277297730278E1

 3.050000000000000E7    -2.102041542132697E-1    8.913338037249240E1    -6.340386600313110E1     7.435024433035947E-1   -9.888790605991159E1     3.396651555020257E1    -8.423800668057483E1     1.668075095943814E2
                        -6.336983763646739E1     2.028074242301153      -1.672812981419065E-1    9.607314334059792E1    -9.226250955642543E1    -2.916380811553610      -8.320871512720811E1    -6.065960495511032E1
                        -9.430120898977120E1    -1.713217450353441E2    -8.540884922112255E1     1.248488484416952E2    -9.063457384284406E-1   -1.640300480907377E1    -8.119017863833791E1    -5.045478510476848E1
                        -8.746352662491709E1    -9.367594923304115E1    -9.442428348841106E1     4.630598177843263      -8.866042445376036E1    -1.154823763427179E2    -8.670034132004428E-1   -1.358014641063624E1

 3.052500000000000E7    -2.066694896286696E-1    8.875651765603341E1    -6.234833809887509E1    -1.438599738746174      -8.563032706809852E1    -3.761413629670711E1    -8.596854150773442E1    -1.344301128974954E1
                        -6.261052193037312E1     4.908272324528055      -1.739583920479841E-1    9.570597772618829E1    -9.177569565897468E1     4.841977534613599E1    -8.212728734192972E1    -1.761345497277626E2
                        -8.703097454864994E1     3.635603112613129E1    -9.098667621623319E1    -4.472382475410892E1    -9.061347144499244E-1   -1.672461232067834E1    -8.906134504384718E1    -1.477229372091412E1
                        -8.443366249876468E1     1.153876369132492E2    -8.671283391884430E1    -3.619320796139250E1    -8.695567322020995E1    -6.217211981100034E1    -8.678216142157224E-1   -1.388846921094060E1

 3.055000000000000E7    -2.064991325493501E-1    8.844221116179892E1    -6.288229651416319E1     1.987277081955323      -8.058884507812179E1    -1.044709743850176E2    -8.636118949289073E1     7.202889038777013E1
