#  HZ   S   DB   R     50.00 
! Rohde & Schwarz Vector Network Analyzer 
! Rohde-Schwarz,ZNB8-4Port,1311601044102961,2.82
! Created: UTC 2/8/2019, 4:23:51 PM
! freq[Hz]                db:S11                  ang:S11                 db:S12                  ang:S12                 db:S13                  ang:S13                 db:S14                  ang:S14
!                         db:S21                  ang:S21                 db:S22                  ang:S22                 db:S23                  ang:S23                 db:S24                  ang:S24
!                         db:S31                  ang:S31                 db:S32                  ang:S32                 db:S33                  ang:S33                 db:S34                  ang:S34
!                         db:S41                  ang:S41                 db:S42                  ang:S42                 db:S43                  ang:S43                 db:S44                  ang:S44
! 
 5.675000000000000E7    -3.484788148684388E-1   -1.252613454118476E2    -2.866734464542624E1     6.369992523671542E1    -8.252226949568671E1    -1.638217493515979E2    -6.861333789473395E1    -1.358615102815793E2
                        -2.870155577760351E1     6.383906971864242E1    -2.241592369522335E-1    7.278935425441610E1    -8.545405630076365E1     7.671106806665827E1    -9.036223696207706E1     1.784337424147176E2
                        -7.807408225930229E1    -1.252048244069388E2    -8.187942576485612E1     1.107710956220398E1    -1.336042033800811       3.410886638432433E1    -8.890709151571591E1     1.794293447816129E2
                        -6.782417152106660E1    -1.394761388426914E2    -9.159763959265214E1     1.458658532664608E2    -8.437949843611676E1     1.398213633773243E2    -1.331953724146458       2.753221345981277E1

 5.675025000000000E7    -3.471279193739868E-1   -1.252620466411788E2    -2.865650454268740E1     6.351961122187164E1    -8.092007024503127E1    -1.381163578096877E2    -6.955858968886842E1    -1.344354509915557E2
                        -2.863002158480250E1     6.363348621435309E1    -2.143390073937386E-1    7.281742385153225E1    -9.240853012744299E1     3.784790009663375E1    -8.032561200422153E1     5.549797998464716E1
                        -8.135499159452436E1    -1.413723925824219E2    -9.928481977043421E1    -1.608054906040038E2    -1.334992367237391       3.413119583795847E1    -8.297638486805664E1    -1.441835150388452E2
                        -6.769968245103270E1    -1.403640009217734E2    -8.867079838598497E1     4.747127736844425E1    -8.826354396125925E1    -6.543695334846514      -1.336552121030972       2.750014624392885E1

 5.675050000000000E7    -3.477611390657967E-1   -1.252931808771681E2    -2.870196241435965E1     6.356523483718077E1    -7.720725588460050E1    -1.185948681017408E2    -6.754585094930127E1    -1.368113985591412E2
                        -2.866140550687902E1     6.392020249093722E1    -2.170235887992148E-1    7.275507877487702E1    -8.252169832885897E1     3.441393244462876E1    -8.320456901976033E1    -1.386530130536832E2
                        -8.021629920865635E1    -1.211607982786738E2    -8.664601577067101E1    -1.610537793078856E2    -1.330339521528816       3.410108579468754E1    -9.776355337122880E1     8.676088547638416E1
                        -6.918526923995214E1    -1.365332425618075E2    -8.179760489583725E1     5.892844803911807E1    -8.144781255946454E1     3.810331763694919E1    -1.331881421202333       2.752308561337558E1

 5.675075000000000E7    -3.458575699375949E-1   -1.253144711240577E2    -2.871226106709992E1     6.322347726810536E1    -8.178893828193893E1    -1.532292650952627E2    -6.853396890327407E1    -1.429594277728593E2
                        -2.865478136235594E1     6.346990449454491E1    -2.205699667691657E-1    7.279768027086614E1    -8.375584565192762E1     8.608393926208240E1    -8.708871049336997E1     1.119951164080936E2
                        -8.659004138727552E1    -1.144786003748084E2    -8.455646616017381E1     9.238262476830170E1    -1.332359272529995       3.407811048845893E1    -8.578814943044617E1    -2.813355303227111E1
                        -6.775754648491994E1    -1.395234907538016E2    -8.203642261776591E1    -1.911435807905281E1    -8.444889453214586E1    -7.659701829551780E1    -1.331223856415957       2.751103160990345E1

 5.675100000000000E7    -3.496419868157825E-1   -1.253275288746702E2    -2.868651516999233E1     6.346432390954174E1    -7.714521451801524E1    -1.524736173919164E2    -6.888041062191527E1    -1.384512406930680E2
                        -2.868445754927271E1     6.330991275085179E1    -2.201357881213248E-1    7.279822509716679E1    -8.466268306260430E1    -1.638306718573336E2    -8.513679830045308E1     9.374820102851947
                        -8.673911053382147E1    -1.440500741444924E2    -8.303311914876076E1     1.606692428067473E2    -1.334001747858291       3.407563460639979E1    -8.584088454876500E1     6.132946622314002
                        -6.849606713952403E1    -1.451502808919267E2    -8.061714169511592E1    -4.474762141431877E1    -8.379969960534403E1    -5.299601092840928      -1.330789436898510       2.748022790026995E1

 5.675125000000000E7    -3.501897680757975E-1   -1.253487352910055E2    -2.868806099600850E1     6.373682206084880E1    -8.530438328297396E1     1.439804470601745E2    -6.865028288251591E1    -1.363604021238287E2
                        -2.869104757551763E1     6.328753066945733E1    -2.191214252571135E-1    7.277603247748085E1    -8.554853218473072E1     1.357267073851569E2    -8.665314744041575E1     1.093735854523616E2
                        -7.808586463419337E1    -1.546014703072309E2    -8.424113460299932E1     1.144081668829460E2    -1.330487034417752       3.409528253954757E1    -8.513655506291512E1    -3.528896111554926E1
                        -6.941683630546687E1    -1.515698137796856E2    -8.172392812161398E1     1.335709101644790E2    -9.637764688746668E1     5.656886431827653E1    -1.333418469173157       2.749973006285436E1

 5.675150000000000E7    -3.486971617818978E-1   -1.253545250972347E2    -2.864971991677086E1     6.335712250044113E1    -7.968437430545231E1    -1.243973240420483E2    -6.769516398192343E1    -1.420511590139068E2
                        -2.867912465972849E1     6.371707777863243E1    -2.152587968186221E-1    7.273999220257559E1    -9.442958032855026E1     1.241754988365768E2    -8.629530072185240E1    -2.271340908972246E1
                        -8.856836875648894E1    -1.411762712601716E2    -8.730797613412869E1     1.726258905108172E2    -1.339095608807735       3.406685560628263E1    -8.553478769990802E1     1.574119910610945E2
                        -6.725960169791109E1    -1.338986956836431E2    -8.320448755715121E1    -1.002988733294725E2    -8.767497973454272E1    -1.015895330175184E2    -1.332600296611960       2.748039189082297E1

 5.675175000000000E7    -3.478208299003565E-1   -1.253950768709644E2    -2.869956564084893E1     6.314552897467483E1    -7.930990971479126E1    -8.605097831623095E1    -6.737305594963638E1    -1.413896817091864E2
                        -2.864097597788165E1     6.346857780460305E1    -2.155827172258245E-1    7.276725578929133E1    -7.910119753495400E1    -9.921195677409092E1    -9.200011347260960E1     1.462416710431743E2
                        -7.805432830899592E1    -1.382980704913077E2    -8.468031017321076E1     8.489119661541493E1    -1.332501349383404       3.404998331063375E1    -9.231163879797506E1    -1.014340489838783E2
                        -6.771197751987046E1    -1.526198547483194E2    -8.760851147248565E1     1.147308579677244E2    -8.921390343809148E1     8.749913205790867E1    -1.337289729194560       2.746761991775833E1

 5.675200000000000E7    -3.464748560295652E-1   -1.254284317049036E2    -2.864388431886609E1     6.298192968784674E1    -8.301415061894420E1    -1.124913599439544E2    -6.748132898691591E1    -1.409473503025732E2
                        -2.865791811966475E1     6.361416597152361E1    -2.202478021402324E-1    7.276369818779756E1    -9.743012918594292E1    -5.445892242877135E1    -8.948048237243818E1    -1.942085336002007E1
                        -8.078859844960729E1    -1.352095132076040E2    -7.947739463800011E1     1.308434448787605E2    -1.331001830336953       3.406822205911119E1    -9.567018991634933E1     2.553937708075232E1
                        -6.819119399198715E1    -1.364824171321672E2    -8.505569612941497E1    -9.028154444617501      -8.050013784912572E1    -5.337299230108118E1    -1.331824094850155       2.750054981960841E1

 5.675225000000000E7    -3.500560533261847E-1   -1.254519277391108E2    -2.871887750756060E1     6.349009003881314E1    -7.916751513772633E1    -1.226514133449960E2    -6.749677920456415E1    -1.541940636241502E2
                        -2.865944946506346E1     6.360426371831341E1    -2.194701460403054E-1    7.276629618365637E1    -8.974506793373868E1    -7.528713782712994E1    -8.853427043922895E1    -1.742451456789264E2
                        -9.160259724724384E1    -9.122751751913823E1    -8.383235917527486E1    -1.979014680842972E1    -1.327246844632368       3.405291501064565E1    -8.017452217699776E1     2.275297182221440E1
                        -6.729435554787848E1    -1.387974307437897E2    -9.265807621487680E1     1.461937070928399E2    -8.326945819977981E1     9.600150285288407E1    -1.329271253088693       2.749749804188502E1

 5.675250000000000E7    -3.479891186299222E-1   -1.254739406293919E2    -2.869825564140943E1     6.306949387948599E1    -8.307368447912766E1    -1.523432265852705E2    -6.736197983711161E1    -1.494005271797776E2
                        -2.860869588818967E1     6.328558580362265E1    -2.254081612790840E-1    7.276011890686350E1    -8.315718978802912E1    -7.442988444724468E1    -8.276445345863435E1     4.752541238218932E1
                        -8.124686010157781E1    -1.335233468578869E2    -8.135641221674808E1    -7.894338747063465E1    -1.331861619355839       3.404705681705838E1    -8.876543241513494E1     6.631937246368536E1
                        -6.661615888854320E1    -1.426508792353296E2    -8.188085655833909E1     3.978332458955781E1    -9.664996441989290E1    -8.822078691339827E1    -1.329817995032084       2.748087722710254E1

 5.675275000000000E7    -3.512056349569561E-1   -1.254676304052283E2    -2.872297473805092E1     6.351267493211475E1    -8.439864045065363E1    -1.064578917337283E2    -6.781254687296408E1    -1.385204914665142E2
                        -2.868002502209768E1     6.322413344661420E1    -2.197153510514356E-1    7.275612154532830E1    -8.697481673289609E1     4.406536349529046E1    -8.877283884457155E1    -4.152965407626527E1
                        -8.198528475312826E1    -1.318135106571544E2    -9.184337168586308E1    -1.044045771977289E2    -1.330641265050789       3.407801443634610E1    -9.159986349215542E1    -5.188013545630559E1
                        -6.841842044137515E1    -1.486757471839557E2    -8.495000143588570E1     1.048553692153633E2    -9.431370322278156E1    -9.850711916551019E1    -1.330633826572896       2.745757773659964E1

 5.675300000000000E7    -3.496472236516975E-1   -1.255104728643830E2    -2.871674578412234E1     6.362116401122372E1    -7.739310631270820E1    -6.844520185869511E1    -6.761685488096104E1    -1.414278757403033E2
                        -2.876724311978837E1     6.332284351625157E1    -2.145147425845774E-1    7.275750675565061E1    -8.129450149313817E1    -1.649691333239459E2    -8.216324979653217E1    -1.752610948850180E2
                        -8.087108202899943E1    -1.039654204137566E2    -8.634607583315332E1     4.797316709378611E1    -1.330425565436774       3.405414533061785E1    -9.332765006403579E1     3.157672465721384E1
                        -6.686894679638760E1    -1.500342606392665E2    -8.350421564060693E1    -5.294448504551526E1    -8.760117279140633E1     6.223001729929279E1    -1.334074134394862       2.746138273929333E1

 5.675325000000000E7    -3.515260479338285E-1   -1.255380083017753E2    -2.877083417759539E1     6.312690966737446E1    -7.545143005621272E1    -1.109150902850503E2    -6.764143637929506E1    -1.423529487726190E2
                        -2.863100618232847E1     6.345292593844127E1    -2.222937861235532E-1    7.274997801628938E1    -1.003409690979804E2    -6.050861259086935E1    -8.534696119155419E1    -1.645093424039943E2
                        -8.282182277557214E1    -1.153897687479758E2    -8.690422772188643E1     1.070918402173252E2    -1.337143881196657       3.407554902903505E1    -8.711889517301810E1     1.295505651982609E2
                        -6.856092918136815E1    -1.458525259792407E2    -8.943905114955797E1     1.192093370125199E1    -8.111187845102002E1    -1.178628714378108E1    -1.331367812286930       2.747167071006855E1

 5.675350000000000E7    -3.499630766972590E-1   -1.255474978092240E2    -2.866765063768047E1     6.331141294497785E1    -7.837820458617370E1    -1.013298161437705E2    -6.722345293407054E1    -1.351110846635324E2
                        -2.863807217158989E1     6.335183457563685E1    -2.192130704244556E-1    7.276282656154017E1    -8.708398691199503E1     1.275835715325851E2    -1.063572948394884E2    -9.616408222278628E1
                        -8.687797147422735E1    -1.647645521060582E2    -8.802615576381328E1     1.311315552262946E2    -1.329462738238415       3.406338286796034E1    -8.412115381610009E1     2.070977796289536E1
                        -6.841445592736227E1    -1.437664644180049E2    -8.836386755763306E1    -3.360818803521839E1    -8.710300310406277E1     4.965859565319521E1    -1.330966669493203       2.745395694025218E1

 5.675375000000000E7    -3.519599754075818E-1   -1.255956938271470E2    -2.871564787050061E1     6.352672148794066E1    -7.823269618084731E1    -1.520007036431711E2    -6.680139853690613E1    -1.332731351747846E2
                        -2.859192532600619E1     6.355807983624865E1    -2.168115480498906E-1    7.275271502080854E1    -8.741234522244207E1    -4.811722931061604E1    -9.207714355944478E1    -1.568877796142409E2
                        -7.859376542724350E1    -1.244958406960328E2    -9.575228144870215E1    -4.439068421034860E1    -1.331040324439106       3.405293420010251E1    -9.078491758046735E1     1.450235376194890E2
                        -6.694544821718044E1    -1.459572776288012E2    -8.687117632616349E1     1.495215012200050E2    -8.456711659674257E1    -1.038003442643480E2    -1.330833983488883       2.746183570685844E1

 5.675400000000000E7    -3.504713852793597E-1   -1.256103996060385E2    -2.871547449265583E1     6.325792342218621E1    -7.619094336470545E1    -1.426189900643093E2    -6.879404671056470E1    -1.433253545247364E2
                        -2.875768821956719E1     6.325882834680740E1    -2.193278446748842E-1    7.272284248289431E1    -9.070160478819823E1     3.879360131196994E1    -8.721713397751077E1     1.736852883158614E2
                        -7.840650505739831E1    -1.340229225879636E2    -8.818600651194174E1    -2.180533955628470E1    -1.333648031340265       3.403577284542571E1    -8.953889806972799E1    -1.617213586703280E2
                        -6.733781401676112E1    -1.428122662212791E2    -9.284519902018340E1     2.810406855305447E1    -8.662495522593088E1    -7.435486393236332E1    -1.329295225169568       2.743582114478248E1

 5.675425000000000E7    -3.508697454037466E-1   -1.256407617129711E2    -2.861942601853106E1     6.307948275638965E1    -8.129601795152694E1    -1.000028544957888E2    -6.627919678307299E1    -1.475569011305759E2
                        -2.867177221589950E1     6.314045533835449E1    -2.127126971902721E-1    7.268628078808804E1    -8.512257747637995E1    -1.183847628391788E2    -8.294600469392607E1     9.039377653271261E1
                        -7.920744765779827E1    -1.128501443869393E2    -8.651247307141544E1    -4.069743407780952E1    -1.331144235497961       3.406609400877756E1    -8.674979236491069E1    -4.519679538765192E1
                        -6.758808434994465E1    -1.481127571924617E2    -8.427967238877639E1    -9.761825626667117E1    -9.757970108767339E1     3.149726915207065E1    -1.328750361940456       2.746871987109764E1

 5.675450000000000E7    -3.487642649511047E-1   -1.256621348433287E2    -2.859536308125099E1     6.329931322512465E1    -8.072514988642972E1    -1.609872854401013E2    -6.855550602594565E1    -1.285295142944044E2
                        -2.871967311472809E1     6.322535031851586E1    -2.193310082156755E-1    7.271358321986557E1    -8.660677695113230E1    -1.143070331964049E2    -8.604415050360240E1    -1.671515339246598E2
                        -7.867479206208878E1    -1.337884210653508E2    -9.015756545839770E1     1.450290099005937E2    -1.331523605755856       3.403953236179878E1    -8.176878665045260E1    -8.368304250490655E1
                        -6.733859061195084E1    -1.252464762055096E2    -8.511040041858743E1    -1.128221238846813E2    -8.407815265975648E1    -1.587110058422938E2    -1.330345905034351       2.744425713578882E1

 5.675475000000000E7    -3.532662286226889E-1   -1.256855278633204E2    -2.872921075037898E1     6.365453712694469E1    -8.536773997120008E1    -1.102850093652755E2    -6.786285315665259E1    -1.437900895465159E2
                        -2.868010836224959E1     6.354634658634740E1    -2.169846179148857E-1    7.268947666717740E1    -9.007095124896790E1    -3.539526672505079E1    -9.212170934395275E1     2.857324830437724E1
                        -7.982565799929770E1    -1.098690232568143E2    -8.740425711275584E1    -3.570487048540936E1    -1.331235765118219       3.402674810932688E1    -8.820610483429354E1     8.421503601201087E1
                        -6.776561864743317E1    -1.457180193763230E2    -8.818523038380380E1     1.321194786141535E2    -8.619915197982894E1     1.601085778064141E1    -1.333702609391442       2.743571081321519E1

 5.675500000000000E7    -3.540256591405778E-1   -1.256965100105070E2    -2.869814130492786E1     6.310753801022639E1    -8.356258172066609E1    -1.171706396842447E2    -6.912288843941427E1    -1.347549137698131E2
                        -2.866399257297847E1     6.325838466046590E1    -2.163081652521651E-1    7.271878082539570E1    -9.179389836081055E1    -1.478451039318244E2    -8.381011599489489E1    -1.037624310125545E2
                        -8.280338108121917E1    -1.170767103377889E2    -8.660311186256237E1    -1.340056371798630E2    -1.331291369136357       3.400517720789581E1    -9.471828579661829E1    -4.114299675537228
                        -6.910979702793493E1    -1.386865730368577E2    -9.126298743841286E1     5.731398231923336E1    -8.533303330472589E1     1.869562039978353E1    -1.336034102833083       2.744318608008845E1

 5.675525000000000E7    -3.484596323335832E-1   -1.257227572519912E2    -2.877393268830908E1     6.298843094062246E1    -8.510049121990309E1    -9.383608201700356E1    -6.867234161148693E1    -1.431485963280318E2
                        -2.869285934351258E1     6.350133843896477E1    -2.222776673482644E-1    7.267716302676087E1    -8.823475617403047E1     6.034980501836139      -1.074513252650986E2    -9.239637114905247E1
                        -7.738035775174279E1    -1.406045277982720E2    -9.225998067728106E1    -1.593046194171485E2    -1.331272234716253       3.402323035933922E1    -8.691343902909284E1     3.566882730558136E1
                        -6.777175348538715E1    -1.513469314815829E2    -8.449231846688201E1     1.028068539769670E2    -8.651580659925881E1     1.764333512619691E2    -1.331173339059768       2.745478172630593E1

 5.675550000000000E7    -3.479635045856977E-1   -1.257603068442891E2    -2.856715436587992E1     6.309667371927878E1    -7.789434026520358E1    -1.419462515143335E2    -6.727877365214296E1    -1.355452745091084E2
