#  HZ   S   DB   R     50.00 
! Rohde & Schwarz Vector Network Analyzer 
! Rohde-Schwarz,ZNB8-4Port,1311601044102961,2.82
! Created: UTC 2/8/2019, 2:49:59 PM
! freq[Hz]                db:S11                  ang:S11                 db:S12                  ang:S12                 db:S13                  ang:S13                 db:S14                  ang:S14
!                         db:S21                  ang:S21                 db:S22                  ang:S22                 db:S23                  ang:S23                 db:S24                  ang:S24
!                         db:S31                  ang:S31                 db:S32                  ang:S32                 db:S33                  ang:S33                 db:S34                  ang:S34
!                         db:S41                  ang:S41                 db:S42                  ang:S42                 db:S43                  ang:S43                 db:S44                  ang:S44
! 
 3.000000000000000E7    -2.182830149187393E-1    9.609434334928922E1    -6.989448724908944E1     1.675368915705978E1    -8.459073778358749E1    -7.657160725412398E1    -9.459005057986565E1    -3.058953003082738E1
                        -7.038406203859205E1     7.445289692282704      -1.724134902661274E-1    1.042732317288804E2    -8.380709559499515E1    -1.178041144513760E2    -8.559279947379591E1    -1.129629991952228E2
                        -8.571994830573637E1     1.164674547805748E2    -9.396350082024799E1     1.001802246211068E2    -9.053260244040524E-1   -1.035273569167974E1    -9.828840717093107E1     1.445022653181124E1
                        -9.414855843835737E1    -2.589403230890516      -8.589844962188982E1    -1.296767830297185E2    -9.174772178931303E1     1.485964952197150E2    -8.668256534561497E-1   -7.723870911399060

 3.002500000000000E7    -2.171203848008045E-1    9.573359742425130E1    -6.985210903890776E1     1.150480590524682E1    -8.415971910226202E1    -1.092431249379110E1    -8.883889569591810E1    -1.041457914608723E2
                        -6.893941173693224E1     1.143278592307635E1    -1.783702619040739E-1    1.039495662535341E2    -9.031616159309311E1    -1.542896511968724E2    -9.570597548632271E1     1.737937790532235E2
                        -8.312304148165593E1    -1.143288889006400E2    -8.040814960310158E1    -5.728247602845249E1    -9.002272769565047E-1   -1.065640538801468E1    -8.690553259821724E1     1.216837822317652E2
                        -8.287783854189753E1    -3.382652958018546E1    -8.578419246540399E1    -9.829898865120970E1    -8.876487097208666E1     5.476281029157401E1    -8.680468667704178E-1   -8.029142595348267

 3.005000000000000E7    -2.206125589606270E-1    9.543375852958125E1    -7.023824517566828E1     4.647094771948926      -9.218014404220358E1     1.699849923040714E2    -8.448181046764168E1    -3.339256813704524E1
                        -6.858335348174364E1     9.007464610096340      -1.799978679481878E-1    1.036436252320848E2    -1.026019018684347E2    -1.081855287278014E2    -8.114937997642896E1    -1.396674373900713E2
                        -8.667980500158228E1    -1.218866698408985E2    -8.413239273486880E1    -4.121049726064042E1    -9.043127068262407E-1   -1.101455813752192E1    -9.420085392588042E1     1.579215824292284E2
                        -8.306140726054282E1     1.655847182999198E2    -8.373712489720586E1     8.846967052279351E1    -9.109276786758004E1    -2.451908843590404E1    -8.705966467657156E-1   -8.301196947265472

 3.007500000000000E7    -2.233433550708321E-1    9.503876403411398E1    -6.874150576615261E1     5.849037099476717      -8.384994265250438E1     1.569679140914138E2    -9.306853464225310E1    -1.509780205091867E1
                        -6.966167000278345E1     2.248939412802584      -1.748313047620491E-1    1.032992025944659E2    -8.402466677828171E1     1.253160836628872E2    -8.554718129378612E1     1.328033930729110E2
                        -9.097951421699673E1    -1.610268402270613E2    -8.299998645824788E1    -1.224434808405727      -9.051602557674403E-1   -1.124563229961999E1    -1.018097029064003E2     1.760316920857968E2
                        -9.074958466952432E1     9.272694870656855E1    -8.322111056232986E1     2.417366528918255E1    -8.556993799421775E1    -3.277786536135961E1    -8.682286262030687E-1   -8.604885270508079

 3.010000000000000E7    -2.102998061198575E-1    9.469844171250668E1    -6.818892331815655E1     1.264979922493634E1    -8.492166987552156E1    -1.021878028842779E2    -8.565781464053697E1     6.605345147249167E1
                        -6.863126585239164E1     1.259219647996983E1    -1.705899264224318E-1    1.030984021970227E2    -8.927946161304739E1    -1.525933902184434E2    -8.374042725363408E1    -8.363414162997950E1
                        -7.991200236829948E1    -2.132086177048852E1    -9.120204711383192E1     1.397997454067534E1    -9.040209560677527E-1   -1.157320880822747E1    -9.891796432528025E1     2.420685406273267
                        -8.306548144248973E1    -5.296264770324092E1    -8.274254011518016E1    -3.537453283107345E1    -8.888438159138715E1    -1.134435091096615E2    -8.735544091837058E-1   -8.881826361336996

 3.012500000000000E7    -2.193442918206151E-1    9.438379167144980E1    -6.889369149114371E1     2.392909102210545E1    -8.658870825623565E1    -2.566752935477331E1    -8.363818171645285E1    -1.634122163622358E2
                        -6.935145787883279E1    -8.746310898901536      -1.762630949439566E-1    1.027611789042802E2    -8.999047418997003E1    -2.509770235534212E1    -8.898608796544394E1    -1.445875937375260E2
                        -8.341146004691171E1    -1.372234684681675E2    -9.100521654744267E1     1.040756818042773E2    -9.004664824365251E-1   -1.187131510196375E1    -8.467142414147799E1     5.568459997876806E1
                        -8.503462991063445E1    -2.845809496951835E1    -9.343998409334061E1     4.737011208556070      -8.464025780961123E1     1.172077839012044E2    -8.718473350936845E-1   -9.197046830618303

 3.015000000000000E7    -2.122369091028186E-1    9.395253592860134E1    -6.778389979025872E1    -2.677576768195557      -9.232327995197842E1     1.356424122353356E1    -8.062472138032109E1    -1.372151226272186E2
                        -6.834455069964474E1     1.283727907467914E1    -1.821416328765164E-1    1.024403273642204E2    -8.040455708425671E1     1.341097836736475E2    -9.025577846191234E1    -1.320575546358663E2
                        -8.455870472269078E1     6.920975984795204E1    -8.479600314705097E1     1.209481329973563E1    -9.040744748587903E-1   -1.216714581111124E1    -8.931253160194731E1    -9.146830430956739E1
                        -9.399447300703406E1     8.381331274902225E1    -1.007666903783911E2    -6.717487023063629E1    -8.270576582911568E1     6.545555161166111E1    -8.714412299313648E-1   -9.456349079485046

 3.017500000000000E7    -2.111533941380409E-1    9.368244184068595E1    -6.873404881314553E1     1.578016586161395E1    -9.007756501842314E1     1.009810356006246E2    -8.536529694312458E1     3.185208202054428E1
                        -6.993129932855132E1     3.320547746930659E-1   -1.793987423271834E-1    1.021317237899530E2    -9.675111708786331E1    -4.017211659908436E1    -9.358897554611409E1    -1.568026254379406E2
                        -9.078501669586888E1    -2.575764543991859      -8.600377310724315E1     1.270717100132518E2    -9.068916544029928E-1   -1.248357798404180E1    -9.084586796261104E1    -6.930033495852474E1
                        -8.690341462057788E1     1.446731917318079E1    -9.266992849349769E1     1.769118057858202E2    -8.622301402541677E1     1.424339694967584E2    -8.728559818283193E-1   -9.782001537208080

 3.020000000000000E7    -2.121645968936525E-1    9.331341829259812E1    -6.922999067809047E1     3.131898848749064      -8.662449365440725E1    -9.516032599970339E1    -8.587009119440175E1    -1.113772725363187E2
                        -7.237805724807009E1    -3.137906619003485E-1   -1.685967509124050E-1    1.019276853476077E2    -9.831802175184524E1    -1.708283905213990E2    -8.490027403807747E1     6.968940436831576E1
                        -8.442023031122591E1    -6.066922831519361E1    -9.667736547520504E1    -1.122077903287369E2    -8.952376042675758E-1   -1.279459040227990E1    -9.612688421667842E1    -7.018740251993886E1
                        -9.608279729021197E1     7.709771205872518E1    -9.150503069578218E1    -7.952005942384385E-1   -8.414099209531536E1     1.627585198642354E2    -8.691191103291106E-1   -1.006011492847736E1

 3.022500000000000E7    -2.071956445716948E-1    9.297932443350150E1    -6.789987515058394E1    -1.940301194553222E-1   -9.953433542661341E1     3.575914475946880E1    -8.480543591639859E1     3.270467974886650
                        -6.913934531956718E1     8.593244007284220      -1.805070012545850E-1    1.015445426797628E2    -8.478319065296859E1     1.276007600223350E2    -8.412415517742694E1     4.497507417264617E1
                        -8.886019050699395E1    -4.041812582012285E1    -9.314016484731096E1     9.895053974067841E1    -9.052529468413373E-1   -1.305001335825839E1    -1.001911431678024E2     1.555069632359023E1
                        -9.266715247820358E1    -1.296686484048229E2    -9.657785417235058E1    -9.765906451912005E1    -8.618198470106590E1    -7.515248678109239E1    -8.704185005952543E-1   -1.036658018671694E1

 3.025000000000000E7    -2.171548156867072E-1    9.265126489962529E1    -6.876974615089094E1     7.192455455664714      -8.836838233693079E1    -1.570767778820110E2    -7.945077430994844E1    -2.891780687683648
                        -6.981164975739047E1     1.548688821917570E1    -1.829767646614340E-1    1.011922831554803E2    -8.818420977815435E1    -5.784583013652231E1    -9.221646631974528E1    -1.784993001546119E2
                        -8.819097982346142E1    -3.727836776198036      -9.788347629752124E1     1.449562955137972E2    -8.968628725457071E-1   -1.339017095885189E1    -9.379839761891677E1    -6.626911469482708E1
                        -8.587959834924077E1     1.328912130858456E2    -8.971477540436416E1     2.748352205645810      -8.895089106915565E1    -3.417651173591361E1    -8.681197614869057E-1   -1.064236069792950E1

 3.027500000000000E7    -2.154998125717949E-1    9.224378275927569E1    -6.802252705935385E1     4.104502394793625      -8.532685750740826E1    -1.200894944341308E2    -9.352553678875948E1    -2.582526721816037E1
                        -6.870791016657749E1     9.852134266432469E-1   -1.685433006469822E-1    1.008591611635197E2    -8.407500189023443E1    -1.396624534622639E2    -9.113127794520761E1    -1.626328705824715E2
                        -8.467815794729322E1    -5.119730920403587E1    -9.651043453443818E1    -6.863671359820805E1    -9.035970267570779E-1   -1.374911099934089E1    -8.574373055246140E1    -6.553371931544632E1
                        -9.718191715784079E1     1.703573451987963E2    -8.497444052505708E1     1.201557991860638E2    -8.070917945034886E1    -1.306665870570090E2    -8.731127535543432E-1   -1.098329858017956E1

 3.030000000000000E7    -2.122005398150934E-1    9.195783628164507E1    -6.760227091430653E1     5.339874715829642E-1   -8.790968791470687E1     1.202167217379052E2    -9.004485247973526E1    -2.231544669383348E1
                        -6.916715203737500E1     3.920974423979632      -1.651849810220954E-1    1.005978959231851E2    -7.945939381325513E1     2.390150580774891E1    -8.391803847411831E1    -5.732305439394900E1
                        -8.775076719032924E1    -1.262665923004897E1    -9.440473208998014E1    -7.875865533973592E1    -9.022569770425981E-1   -1.402026027408853E1    -9.212292872614097E1     5.288410950846716E1
                        -8.103211883114165E1     1.545532638535313E2    -1.008054775529267E2    -1.216738709189753E2    -9.472155023381349E1     1.403984661059573E2    -8.684938104140582E-1   -1.122858359152452E1

 3.032500000000000E7    -2.184858248926294E-1    9.159585334303580E1    -6.577018776633987E1     3.083154131681718      -8.445488960011159E1    -8.442415527818189E1    -9.175796716019734E1     5.192943195719438E1
                        -6.715716365194544E1     6.211069874549602      -1.651049469859036E-1    1.003001169781007E2    -8.867241258055014E1     1.017727453659497E1    -8.123655933848727E1    -9.272438769872956E1
                        -8.618039811260131E1     9.304702962438267E1    -8.435089242984427E1    -4.803204903102981E1    -9.034681785548333E-1   -1.432706018151911E1    -8.643456512661174E1     4.248939437799555E1
                        -9.067492220823716E1     9.788989671330093E1    -8.397515621389040E1    -6.693450515218480E1    -8.244441536691865E1     9.874814683667023E1    -8.686767583218796E-1   -1.152133418872277E1

 3.035000000000000E7    -2.099785453793241E-1    9.126949124003619E1    -6.761680982825659E1    -9.555245381354862      -8.433061146586731E1     1.402242449295395E2    -8.685535328709266E1    -9.377423537786848E1
                        -6.731427773230581E1     8.097765873318669E-1   -1.692598934461399E-1    9.998434510708431E1    -8.337656604373984E1    -1.721311284871936E2    -8.673979766140988E1     7.783427451198938E1
                        -8.928632074892988E1     9.271883752143647E-1   -1.030380316938764E2     1.082390666339018E2    -9.027038067984687E-1   -1.461798866064553E1    -9.502296972170660E1    -8.826999031122361E1
                        -8.370476864231650E1    -1.324246859330069E2    -9.323721797930796E1    -1.110999773668693E2    -8.318130486237494E1    -9.607623107568733E1    -8.764798503591220E-1   -1.180161860372749E1

 3.037500000000000E7    -2.035730779910422E-1    9.091026120233003E1    -6.854236047929751E1     4.667193431187611      -8.079476922565382E1    -1.116558011348497E2    -8.722132991306553E1     4.425122411839759E1
                        -6.799391521102395E1     4.734890597662415      -1.743598119391014E-1    9.964423964523424E1    -8.580905631432896E1     1.255151625735501E2    -8.076326613426144E1     1.399038119624467E2
                        -8.455767167655317E1     1.000447651951986E2    -9.336427492824427E1    -3.352051640002882      -9.043606657337476E-1   -1.491807228532682E1    -8.804104152001074E1     5.252672546480000E1
                        -8.745031163872397E1     1.543971913117775E2    -9.017345248758301E1     2.124066775856826E1    -8.589374993814566E1    -1.633012562421840E2    -8.642267819699581E-1   -1.208494396450390E1

 3.040000000000000E7    -2.133491479484746E-1    9.059758387634264E1    -6.934784145991058E1     5.992947901820861E-1   -9.986963514366747E1     8.247807213982166E1    -9.386696478237921E1    -1.617026260591857E2
                        -6.845935499421248E1    -7.005375611790098E-2   -1.674724814285555E-1    9.932898911240888E1    -8.279205948080816E1    -4.706194161465673E1    -8.177121406800909E1     7.518436576702031E1
                        -8.829465918705468E1     8.264579321401415E1    -8.073783879896318E1    -1.555628841992609E2    -9.008853634465264E-1   -1.519664996499059E1    -8.727507976872124E1     1.413339337063058E2
                        -8.565690537344700E1     8.850571835517097E1    -7.922010150265139E1     7.146918161910314E1    -8.066209061922406E1    -1.097464344640296E2    -8.677967485276366E-1   -1.235283049540441E1

 3.042500000000000E7    -2.078341693032808E-1    9.020511606135065E1    -6.760825829599902E1     5.047125785009239      -8.281762394026018E1    -5.958197494059738E1    -8.694499694800443E1    -1.270614070925258E2
                        -6.650452638274159E1     2.208864944664116      -1.761845287976503E-1    9.906271723459483E1    -8.593900806636063E1     1.101659503690638E2    -8.223750136057861E1    -1.246617800191409E2
                        -8.713476846509519E1     2.572578731577408E1    -9.311918195289547E1     1.224998229627749E2    -8.951960108364734E-1   -1.556783231802530E1    -8.351560343816423E1     1.739867895030299E2
                        -8.564678475215314E1    -1.225516413694033E2    -9.481573253064514E1    -3.904553306028551E1    -8.178025964064489E1     4.867245396043667E1    -8.689504477338732E-1   -1.269982806784947E1

 3.045000000000000E7    -2.050505262042476E-1    8.986644445845481E1    -6.912626737627973E1     1.054836384107811E1    -8.005350670341127E1     1.783006757250248E2    -9.501547756129989E1     1.693996016728249E2
                        -6.772919149133750E1    -3.111180618498874      -1.649713870059942E-1    9.872905489873861E1    -8.215291070506081E1     6.188071918237331E1    -8.623095317431991E1    -1.411600901289559E2
                        -9.006963019212554E1     2.785394538331002E1    -9.420796325421664E1     1.637154902379641E2    -9.031844282042461E-1   -1.580842014930230E1    -8.691847021380539E1    -4.986972201533995E1
                        -8.481170390301968E1    -1.557823040229310E2    -9.540194871688982E1    -1.556876746022728E2    -8.368898516181680E1     1.092892026328031E2    -8.696323204537182E-1   -1.299852620052226E1

 3.047500000000000E7    -2.065842756495311E-1    8.951143939367718E1    -6.717718872652381E1     8.241983598082937      -8.492975879720288E1     1.624980924477484E2    -8.264920492929716E1     1.791755016420416E2
                        -7.124148094247127E1     1.082852844816159      -1.702690509259170E-1    9.840126241046573E1    -8.234182752819621E1     9.809486927124327E1    -8.888511245493687E1    -8.674883359565818E1
                        -8.988996131109397E1    -1.523385128306873E2    -8.570646791485342E1    -1.951074364735726E1    -9.026293439294779E-1   -1.612282869290695E1    -8.078562476715536E1     2.037645962378208E1
                        -9.094619447033807E1    -1.723390513554855E2    -8.574610140896246E1     1.689818126119833E2    -8.237994437660393E1    -1.556476424819639E2    -8.649895078885037E-1   -1.328972349783528E1

 3.050000000000000E7    -2.079639206312234E-1    8.915961769135453E1    -6.819485610025237E1     6.254657333968236      -8.813213516260578E1     1.532358187714148E2    -7.861253983196993E1    -1.919774606934949
                        -7.001455206498011E1     2.831932602997617      -1.665329902943852E-1    9.813976656973419E1    -8.474907610611332E1     4.727813686550264E1    -8.544036518569820E1     5.625974812395442
                        -8.922019343515754E1    -7.643019332920741E1    -8.492778854517744E1     1.793497984220926E2    -9.007322935326173E-1   -1.642153800994969E1    -8.322147734717758E1    -1.476204541045916E2
                        -8.372077611487657E1     6.677648665286330E1    -8.870055472529711E1     9.883992462268459E1    -8.655750359751424E1    -3.621298260981801E1    -8.689704612287432E-1   -1.355645163411948E1

 3.052500000000000E7    -2.028941196475492E-1    8.883096485806651E1    -6.766663047936331E1     5.611631740116355      -8.628387203338687E1     1.754377601903609E2    -8.154100899146053E1    -1.507944367958160E2
                        -6.734112799541943E1     6.683614718995365      -1.702316058660636E-1    9.781167887121080E1    -8.727850507898828E1    -8.597860342715245E1    -9.500921638878795E1    -7.275740035392357E1
                        -8.342607637010559E1     6.795923162117060E1    -8.503194333392904E1    -3.265380578424796E1    -9.050735713330362E-1   -1.672135428242692E1    -9.776779184834744E1    -6.550437393670975E1
                        -9.592736076935128E1    -4.015290546461162      -8.579811323695694E1     5.027161401893162E1    -8.176660659071973E1    -1.282501355327100E2    -8.707601848183917E-1   -1.384181532718227E1

 3.055000000000000E7    -2.074694021324147E-1    8.847368756068930E1    -6.816817878386470E1    -2.045226202836214      -9.278671746981107E1    -9.244593378969682E1    -8.192527625072870E1    -2.111482922974095E1
