#  HZ   S   DB   R     50.00 
! Rohde & Schwarz Vector Network Analyzer 
! Rohde-Schwarz,ZNB8-4Port,1311601044102961,2.82
! Created: UTC 2/8/2019, 2:27:48 PM
! freq[Hz]                db:S11                  ang:S11                 db:S12                  ang:S12                 db:S13                  ang:S13                 db:S14                  ang:S14
!                         db:S21                  ang:S21                 db:S22                  ang:S22                 db:S23                  ang:S23                 db:S24                  ang:S24
!                         db:S31                  ang:S31                 db:S32                  ang:S32                 db:S33                  ang:S33                 db:S34                  ang:S34
!                         db:S41                  ang:S41                 db:S42                  ang:S42                 db:S43                  ang:S43                 db:S44                  ang:S44
! 
 4.775000000000000E7    -1.730891787148445E-1   -1.015506303340950E2    -2.976627035145965E1    -1.377811806385220E2    -8.327761251597927E1     1.109926584764176E1    -9.043034483896724E1     1.783241078442881E2
                        -2.975843917679261E1    -1.379962617588686E2    -1.920994228701745E-1    5.579158906376315      -8.895485135364709E1    -1.784316335609306      -7.366187812027573E1    -2.761398460847482E1
                        -9.223534106397730E1    -1.719902216845115E2    -9.372821906828777E1     3.390516260641162E1    -1.351180094382815       1.324775630598651E2    -9.044550914730417E1     1.445683230449553E2
                        -8.993612596655190E1     3.766702926354013E1    -7.242828299897225E1    -1.659266371856399E1    -8.916846542100741E1     6.771129376204564E1    -1.350155650184999       1.398743735435596E2

 4.775025000000000E7    -1.720671819747192E-1   -1.015560041097295E2    -2.980278739854093E1    -1.380385011947644E2    -8.502120140718846E1    -8.815949675077695E1    -7.592638468306581E1     3.847963755870639E1
                        -2.976198637157859E1    -1.384353356343418E2    -1.914619701286917E-1    5.552095472278695      -8.017879536325994E1     5.810071016997627E1    -7.571570739233509E1    -1.961394974739897E1
                        -8.678738363460920E1     1.357429127218174E2    -8.542335576108725E1    -8.715360076586789E1    -1.349433919032752       1.325164212079640E2    -9.056125357343842E1    -3.230724188717552E1
                        -8.940588482305233E1     1.762306449553543E2    -7.324030509459809E1    -2.231558687899898E1    -7.990580043895227E1     1.102323289452623E2    -1.346042261818540       1.398565091809069E2

 4.775050000000000E7    -1.645146850318270E-1   -1.015581140926308E2    -2.977024104426461E1    -1.379494135499167E2    -9.108397901554554E1    -7.918442423122173E1    -9.986203658847254E1     1.042705257942044E2
                        -2.977455052836806E1    -1.376675358260006E2    -1.990493800159293E-1    5.496217132585937      -9.129365610154980E1    -1.105432299285899E2    -7.185173340039322E1    -2.544778942765221E1
                        -8.861877276035094E1     7.036686624415481      -8.762708412897331E1    -1.620983910373473E2    -1.348675536406403       1.324831090973358E2    -9.371236775630860E1     1.379072431322746E2
                        -9.022569702694463E1     1.428393639330214E2    -7.232807216498368E1    -1.785453961116485E1    -9.324979754343518E1    -2.091600485179774E1    -1.349660839715102       1.398709325640016E2

 4.775075000000000E7    -1.733964299359840E-1   -1.015427669914024E2    -2.984294933098922E1    -1.383523558185758E2    -8.725966938043968E1     1.431928414143963E2    -8.569424879140505E1     7.472481416887163E1
                        -2.976029531049601E1    -1.382805229416127E2    -1.958476282130783E-1    5.553436798125117      -8.030196431573390E1    -2.268772724731659E1    -7.105138066803357E1    -4.136765153810845
                        -9.335823925326920E1     9.951110756802063E1    -8.685413300380567E1    -1.040132222311455E2    -1.353502918571956       1.324725962841791E2    -8.476343165688932E1     1.317240172336076E2
                        -8.315562803035027E1    -9.061099547821897E1    -7.354260137376785E1     9.462889867821019E-1   -8.452368639483753E1    -2.717182774140231E1    -1.349985672519788       1.398556551169485E2

 4.775100000000000E7    -1.701921423540590E-1   -1.015643185120860E2    -2.982250191106274E1    -1.380181420080587E2    -9.255026594284055E1     1.472312942056505E2    -1.033731488500064E2    -1.383674405221923E2
                        -2.985138011286192E1    -1.385848800025130E2    -1.902505233231560E-1    5.513452295677712      -9.365234043929010E1    -1.294542586598125E1    -6.997568749186372E1    -2.846344105475079E1
                        -8.433731649253892E1     8.650130005090080E1    -8.545739003043651E1    -4.397660625601431E1    -1.348241917000923       1.324613136221268E2    -8.850068706568268E1    -1.607172212305811E2
                        -8.929644276153275E1     6.414065582229353E1    -7.547954840216751E1    -2.633943512965386E1    -8.207687950358773E1    -6.815759119658772E1    -1.348578641341882       1.398652915131816E2

 4.775125000000000E7    -1.708532986036191E-1   -1.015872650884429E2    -2.978322506621703E1    -1.381556707802112E2    -9.046310210376568E1    -1.557444109444305E2    -8.497859560441225E1    -7.814338123516329E1
                        -2.971946451942371E1    -1.383402262716989E2    -2.012158069398506E-1    5.498229366769987      -1.021364171151822E2     9.862985160396619E1    -7.436762742628459E1    -1.950113033093887E1
                        -8.557953046904574E1    -1.399978273473250E2    -8.423522770227231E1    -7.709206394049913E1    -1.349030481384143       1.324853652820010E2    -8.519868253652757E1    -1.655788941308842E2
                        -8.997551415269820E1     1.048402644143400E2    -7.380853664217958E1    -4.176981186502884E1    -8.383947197081277E1     1.026533064848112E2    -1.350057787324161       1.398530071704716E2

 4.775150000000000E7    -1.757414823494261E-1   -1.015590766193998E2    -2.986927660660988E1    -1.385653894544710E2    -8.350763265442920E1    -5.380321638879725E1    -8.984808401878740E1     8.747535240043784E1
                        -2.990651856027630E1    -1.379886125631317E2    -1.935558879976330E-1    5.468932799311475      -8.357816602318874E1     1.733427484824865E2    -7.275607165228627E1    -2.756787742757689E1
                        -8.259972348194313E1     8.897754008023789E1    -8.511754042719689E1     7.371714638600979E1    -1.343904387037549       1.324646462649045E2    -9.044973893481458E1     3.986694716889210E1
                        -9.328793206584780E1    -1.459704669940164E2    -7.301377302682047E1    -1.845489693202319E1    -9.080364767122742E1     1.445528073567684E2    -1.345617090614392       1.398706870288383E2

 4.775175000000000E7    -1.767642432348235E-1   -1.015452216421174E2    -2.979148453483461E1    -1.385408865493490E2    -8.528484486662916E1    -1.928271637844858E1    -8.707329259418833E1     1.709266836902370E2
                        -2.987440717553302E1    -1.386426915283374E2    -1.946084808903642E-1    5.457304146459260      -8.609161847998401E1     7.744605363175329E1    -7.299930557387989E1    -1.566560891162460E1
                        -8.939875484322803E1     1.288608940865055E2    -8.886049621072141E1     8.280382361528203E1    -1.351590391753021       1.324655430649123E2    -8.065682579468843E1     1.409137445336749E2
                        -9.027137690904624E1    -5.657441713356959E1    -7.432245336882106E1    -6.966878398157896      -9.481316460400390E1    -1.792619123459865E2    -1.352783985333544       1.398305344915713E2

 4.775200000000000E7    -1.725314491362205E-1   -1.015892972234593E2    -2.979713443315426E1    -1.388671600481389E2    -8.732187390658916E1     8.536265472201312E1    -8.435438453380952E1     1.508198982720213E2
                        -2.981830979339570E1    -1.382082288993741E2    -1.949481628504059E-1    5.432811391179836      -8.456078066614630E1    -1.032835999636064E2    -7.448466352362755E1    -1.931363486526846E1
                        -8.567201558626368E1    -2.591463145050257E1    -8.454608838196830E1    -1.245077936087757E1    -1.348926941270023       1.324605746277921E2    -8.127586423260313E1    -1.402527161878116E2
                        -1.028081111028995E2     1.559487271460620E2    -7.162655244416919E1    -1.982325692234979E1    -9.331517831549620E1     5.240680339336561E1    -1.345758118662312       1.398102432027319E2

 4.775225000000000E7    -1.766179727407549E-1   -1.015859639238497E2    -2.978950950657491E1    -1.381481618688222E2    -8.113287659162715E1    -1.672753040649235E1    -8.382036618406033E1    -1.763664306752607E2
                        -2.983761587297204E1    -1.385611075099377E2    -1.959240196731079E-1    5.429715151526064      -8.529994816285674E1     7.888718315518423E1    -7.213617594797239E1    -1.631803839930059
                        -8.984854821938392E1    -1.053058120318804E2    -8.449241597904458E1    -1.709617602004407E1    -1.353453103538736       1.324496319351096E2    -7.760119859635233E1    -9.809897402830545E1
                        -9.958049094230476E1    -1.697832044006210E2    -7.366812558351158E1    -2.486113796166488E1    -8.529405709289485E1    -4.188072093796155      -1.348785353142592       1.398458713856597E2

 4.775250000000000E7    -1.766199859701596E-1   -1.015675980743832E2    -2.971588030551127E1    -1.382671826275830E2    -8.003020841290552E1     6.698967694383909E1    -8.934137871565062E1    -1.766020876448596E2
                        -2.987073822385985E1    -1.389141239086609E2    -1.961889435720758E-1    5.394956330086105      -8.816852903171792E1     4.626608340365878E1    -7.358812546424026E1    -1.469589625497750E1
                        -8.764800181640322E1    -5.367848145905057E1    -9.244911038740888E1    -1.311852199904350E1    -1.344878188554497       1.324518344338191E2    -1.045680367525510E2    -4.615075821348267E1
                        -9.669360446844027E1    -1.789522184570174E2    -7.552263202118971E1    -2.354465350274456      -8.968452784611161E1     1.151790572192936E2    -1.349600464604666       1.398314702609494E2

 4.775275000000000E7    -1.748949109886157E-1   -1.015937343512872E2    -2.982586695138967E1    -1.383127489169955E2    -8.555338096853356E1     4.274827283863085E1    -8.674509706621811E1    -1.550681702320337E2
                        -2.976035140681380E1    -1.377568836254282E2    -1.960190712912602E-1    5.371211668389526      -8.951567571806760E1     1.550353298343971      -7.267511788597477E1    -9.779442591694249
                        -8.744630133778416E1     1.278231777902915E2    -8.926033342804760E1     9.475848742232599E1    -1.351786431114358       1.324881894119625E2    -8.407467990167399E1     4.614651124213652E1
                        -9.472522824062455E1    -7.817768285463880E1    -7.314232693636463E1    -4.260882472291521      -8.920474825013207E1     2.821170140750466E1    -1.352192568315749       1.398552428870216E2

 4.775300000000000E7    -1.717481741588921E-1   -1.015974599638814E2    -2.982483726994149E1    -1.386331455230956E2    -9.002093078326558E1    -1.196756048168493E2    -9.469128328018925E1    -1.411281686614350E2
                        -2.980386264850349E1    -1.389180746383388E2    -2.002385576746068E-1    5.380356585946201      -8.562316010319529E1     3.301645683369352E1    -7.509126164333347E1    -2.522910411859850E1
                        -8.528196114526452E1     3.516512502269497E1    -8.665624346905469E1    -8.461452695596861E1    -1.351317882781383       1.324708613974933E2    -7.958538818703450E1     4.863802750804140E1
                        -8.320289754313420E1    -9.117511796124528E1    -7.282510098552774E1    -1.991127741063806E1    -9.253181530275874E1    -1.170334859463666E2    -1.346932247834349       1.398044035462079E2

 4.775325000000000E7    -1.695107418340814E-1   -1.015969565913236E2    -2.980401760477077E1    -1.383167032832565E2    -1.072719275007550E2     8.411876774478877E1    -9.325993334509688E1     9.245986009116170E1
                        -2.987352228131787E1    -1.387372781708075E2    -1.941209937670068E-1    5.345369531868493      -9.661019881012717E1     1.719662767206171E1    -7.492180159225333E1    -2.408796038441065E1
                        -8.702863267275049E1     9.591345685194563E1    -8.976028633977293E1    -9.885835850033151E1    -1.349782629766330       1.324244678458388E2    -9.139160616010925E1     1.196784992140444E2
                        -8.379218729347956E1    -8.439049868575563E1    -7.262811907806298E1    -8.610738827634757      -8.815057770142646E1    -1.251576445008356E2    -1.348039228371328       1.398086118310424E2

 4.775350000000000E7    -1.738381999834854E-1   -1.016179637198918E2    -2.983549738051284E1    -1.381569660225761E2    -8.329491682909017E1     1.319349388169176E2    -8.222487683508950E1     7.786510493364474E1
                        -2.985290620279115E1    -1.386157785123185E2    -1.960942353797739E-1    5.322117760867985      -8.811819626115633E1     9.636390980708426E1    -7.283785094547352E1    -3.349198816725829E1
                        -8.315050414383504E1    -7.216261603278606E1    -9.183179239921091E1    -1.483849957292912E2    -1.342187492346508       1.324631610911999E2    -8.559666513299688E1    -1.560963459971059E1
                        -8.988204928224656E1     1.575062746611334E2    -7.313022672602408E1    -9.529224471712222      -9.126296380247879E1    -5.308520828718500E1    -1.346281805531540       1.397960045494633E2

 4.775375000000000E7    -1.703817573844238E-1   -1.016023265042871E2    -2.976656411711472E1    -1.379307962685381E2    -9.145287347308289E1    -9.271983495590942E1    -9.429744638649049E1     1.467637899946248E1
                        -2.983142255723152E1    -1.385348398243681E2    -1.937684654786084E-1    5.292018049249717      -8.566733011606314E1    -4.971433321642887E1    -7.285562048115654E1    -7.016523745959371
                        -8.490051380195176E1    -1.280986095089552E2    -8.359604145692174E1    -1.753233879179167E1    -1.351821147731936       1.324390400669936E2    -8.913878246695629E1     1.265685665034162E2
                        -8.611879743275168E1    -1.651393611829298E2    -7.224246078346924E1    -1.746723976837667E1    -8.741749739046993E1    -3.241313264215489E1    -1.346951374831070       1.398242308504351E2

 4.775400000000000E7    -1.743416364915806E-1   -1.016301984777254E2    -2.986376318814124E1    -1.384388450705020E2    -8.748041837255727E1     4.430551542466432E1    -8.606119809924230E1    -1.338137799666826E2
                        -2.981458366026995E1    -1.390825096256219E2    -1.920684103630412E-1    5.282648285293870      -8.540561274336849E1     1.248567686857586E2    -7.563322147134184E1    -1.883841567177837E1
                        -8.654134595978880E1     3.836068367108108      -9.176158010225500E1    -2.673134906701109E1    -1.350880432369334       1.324565062245498E2    -9.869694588270063E1     1.780436679460806E2
                        -8.516411246382013E1    -1.188631185197580E2    -7.195855876323026E1    -3.206168561246245      -8.643947686505777E1     9.058958413586034      -1.344626804676772       1.397964794232393E2

 4.775425000000000E7    -1.742433119783527E-1   -1.016465421992358E2    -2.974245982329019E1    -1.386054217471687E2    -8.246376387938136E1    -1.491820942310145E2    -1.018189869210861E2     8.110008701579669E1
                        -2.984509221057051E1    -1.379883335093180E2    -1.993168946180246E-1    5.287800934607640      -8.495494935203493E1    -1.036437163909818E2    -7.131383860747124E1    -2.689346248325691E1
                        -8.281940657500147E1     3.890841740001019E1    -8.093843813501321E1     6.684303025426767E1    -1.342874658059565       1.324652999052439E2    -9.573463560078042E1     2.238744836710626E1
                        -9.158800740447413E1     1.436531580736430E2    -7.449431835152967E1    -2.971644633099532E1    -8.788508104356113E1    -5.361715427467200E1    -1.346768031498903       1.398033133678221E2

 4.775450000000000E7    -1.708853444353518E-1   -1.016375321886487E2    -2.987603947986205E1    -1.382455040514265E2    -8.627700445964939E1     1.695030549866039E2    -8.338100753931698E1     9.694923679810849E1
                        -2.981930958762678E1    -1.380939398510705E2    -1.953371983416798E-1    5.297860477593339      -8.716795905850830E1     8.219738651814713E1    -7.176357181414676E1    -2.010988727443711E1
                        -7.976036582894696E1     6.659832563869705E1    -8.779200616907087E1    -8.370878325486947E1    -1.352548944020043       1.324674080568225E2    -8.139423512282406E1    -1.046125146260132E2
                        -8.468207934910710E1    -2.591018813670312E1    -7.314780755135462E1    -2.023598938087461E1    -8.705907838159638E1     7.371400052957638E1    -1.347428508949211       1.398219758578168E2

 4.775475000000000E7    -1.729322644576288E-1   -1.016387376574162E2    -2.985271484437936E1    -1.386080730001511E2    -8.264388123501776E1     1.488185819420361E2    -8.393981854484919E1    -1.533799266848785E2
                        -2.976797021775022E1    -1.382907153324975E2    -2.023328739758331E-1    5.258719568713461      -8.506781822979876E1     9.942395179395535E1    -7.157758953511065E1    -2.245763822526412E1
                        -8.487253229498833E1     8.806259299255946E1    -8.409212666894113E1    -1.099977327169646E1    -1.343178055163481       1.324688345853564E2    -8.713478844261999E1    -1.309360691549750E1
                        -8.946231732696211E1     7.422819633095743E1    -6.978973222840337E1    -1.141755346080162E1    -9.226583993204903E1     1.830720844072877E1    -1.347051531323654       1.398209483432038E2

 4.775500000000000E7    -1.663703232751441E-1   -1.016683901783342E2    -2.978019837783245E1    -1.383226444351515E2    -8.495532973222068E1    -1.789920791117476E2    -1.029357408577711E2    -1.084987008469297E2
                        -2.977400006152776E1    -1.385537714876858E2    -1.973528386498162E-1    5.244710884153209      -8.269427863908084E1     9.746965693125963      -7.318751129101032E1    -1.481494093405767E1
                        -9.058087000823301E1    -7.989985013392644E1    -8.949423067749981E1    -1.750444397377021E2    -1.348540450773192       1.324098742778514E2    -8.461671566503169E1    -1.072428465526226E2
                        -8.585155762924546E1     8.770657083899329E1    -7.315892530050928E1    -1.049961888546319E1    -8.749294312542935E1     6.446949760707291E1    -1.349581737622568       1.398021065584238E2

 4.775525000000000E7    -1.652307269274687E-1   -1.016465889334367E2    -2.974197737728372E1    -1.379594860971240E2    -8.303042422304824E1     1.643538549461414E2    -8.350149712577380E1    -5.733179165199775E1
                        -2.985938327948389E1    -1.384387787521756E2    -1.924721311726266E-1    5.214139185223910      -9.769198087095843E1    -1.482586534413046E1    -7.244076066979274E1     1.303173037716117
                        -9.259097754377599E1    -1.132770990117569E1    -8.590689719148273E1    -1.664147597846941E1    -1.344983567060457       1.324662231953941E2    -8.417248821783694E1     1.230777174466474E2
                        -8.945880994128920E1    -1.706975761543563E1    -7.292779844424534E1    -4.025607891219776E1    -8.291597637761677E1    -3.805225702672998E1    -1.351139792134989       1.397849401350229E2

 4.775550000000000E7    -1.703534594440717E-1   -1.016601415577947E2    -2.984283373245420E1    -1.383458870174316E2    -8.841834888847201E1     1.496395001170306E2    -8.391202907960896E1    -1.366736342260084E2
