#  HZ   S   DB   R     50.00 
! Rohde & Schwarz Vector Network Analyzer 
! Rohde-Schwarz,ZNB8-4Port,1311601044102961,2.82
! Created: UTC 2/8/2019, 3:34:47 PM
! freq[Hz]                db:S11                  ang:S11                 db:S12                  ang:S12                 db:S13                  ang:S13                 db:S14                  ang:S14
!                         db:S21                  ang:S21                 db:S22                  ang:S22                 db:S23                  ang:S23                 db:S24                  ang:S24
!                         db:S31                  ang:S31                 db:S32                  ang:S32                 db:S33                  ang:S33                 db:S34                  ang:S34
!                         db:S41                  ang:S41                 db:S42                  ang:S42                 db:S43                  ang:S43                 db:S44                  ang:S44
! 
 3.000000000000000E7    -2.524698902452219E-1    1.033288943074755E2    -6.275137173397069E1     9.300860821198510      -9.533068121391833E1     1.392464134686026E2    -7.943061323719863E1     1.576339067188215E1
                        -6.300547337995266E1     3.462077052200089      -1.785400358936774E-1    9.213581218282350E1    -8.951229795538680E1     6.008704331329358E1    -8.882669323383718E1    -1.796169409863730E2
                        -8.835952692872978E1    -1.630193725026778E2    -8.674468328105067E1     1.485637326542149E2    -8.915228102621695E-1   -2.236977085582242      -8.720313281559567E1    -6.667000583090945E1
                        -9.270009037051065E1     9.930912973859126      -9.741443941801016E1     3.792328100522744E1    -9.017487976111562E1     8.656926991151001E1    -9.002267322532999E-1   -7.228360880197712

 3.002500000000000E7    -2.420235978877323E-1    1.030352174909655E2    -6.265984833818790E1     8.579318460126313      -1.062222183639941E2     2.984077590813433E1    -7.881352353608318E1    -1.677980381480708E2
                        -6.360822513989038E1     2.311703344364098      -1.827151635601998E-1    9.171690570921814E1    -9.278586984524979E1    -4.638913273177439      -9.205130945151426E1    -9.732752397281989E1
                        -8.447807429055783E1     8.018804486947525E1    -8.539529825732954E1    -7.365297618829290E1    -8.963142384013868E-1   -2.570620330602942      -8.712937776379573E1    -1.585962393890773E2
                        -8.845980247476592E1    -1.635649733164208E2    -8.472986849523936E1     6.259843801738318E-1   -8.956561232133753E1    -1.555068580344554E2    -8.965965272417455E-1   -7.574932917086060

 3.005000000000000E7    -2.447175407845149E-1    1.027614530961529E2    -6.300881710009072E1     5.082913002064573      -8.510242801081823E1     2.139980675244875E1    -8.428168044900851E1     6.678643041334833E1
                        -6.235575913463454E1     1.076825528175531E1    -1.779619655546381E-1    9.137072111905499E1    -9.938924470479731E1    -6.509665117328150E1    -8.821831257644053E1     1.323724412374910E2
                        -9.167624227787152E1    -1.021131635303420E2    -8.662036440791820E1     9.263524072048983E1    -9.026042507531261E-1   -2.824642071963195      -8.699929053442119E1     1.858323139084343
                        -8.978546512796351E1     4.734464302506000E1    -8.422656243633726E1    -1.034975652040966E2    -8.137256263480275E1    -1.025442351771755E2    -9.000500050520811E-1   -7.847579283530188

 3.007500000000000E7    -2.469418295674922E-1    1.024354429762434E2    -6.303170223849968E1     6.108408908164093      -8.950192807493190E1     7.980664633859185E1    -8.464969784743552E1    -5.890976798551385E1
                        -6.323523738952112E1     1.508652869809978E1    -1.753408559390603E-1    9.098295921967475E1    -7.762677630562949E1     1.396294872022188E2    -8.787308092199986E1    -1.313630264873049E2
                        -8.827207346886992E1     7.504237911710577E1    -8.529332837740560E1    -3.460691931492316E1    -8.960119448131741E-1   -3.146360672111159      -9.045844612045977E1     1.163822734080939E2
                        -8.819077970370627E1     1.679027358096071E1    -8.360228447271531E1     1.234159418403403E2    -8.545864407641149E1    -1.571126252397429E2    -8.952771383016528E-1   -8.162275545421439

 3.010000000000000E7    -2.438408907540252E-1    1.021570600394522E2    -6.269307367222490E1     2.326251109944037      -8.001029360104749E1    -2.737601866501903E1    -9.279150598053292E1    -1.689998307662248E2
                        -6.325493839058683E1     9.818131231784385      -1.813350327975355E-1    9.064603421560527E1    -9.320820635117137E1     9.846144393263492E1    -8.722637977914845E1    -7.640241090144714E1
                        -9.419162300498796E1    -6.260055999484666E1    -8.955690952627791E1    -1.278047256601794E2    -8.970551884765819E-1   -3.417422839244930      -9.503778673556209E1     1.191782473907987E2
                        -8.901752390390286E1     5.807395052820093E1    -8.190347001739124E1    -6.005839124032541      -8.509850595606758E1    -8.100920080114764E1    -8.976214898700197E-1   -8.438850320608676

 3.012500000000000E7    -2.519597946211873E-1    1.018312119704098E2    -6.277909832601988E1     8.839788887713429      -8.847713353812057E1     1.100410854079449E2    -8.253785182050378E1    -6.520008481448035E1
                        -6.271203953953931E1     2.003456138169090      -1.799251729316984E-1    9.026341680246581E1    -8.780197313453047E1     1.651537960485973E2    -8.650243818766369E1     1.749261908522290E2
                        -7.930792887268673E1    -7.437954613332707E1    -9.382532289757812E1    -1.547398445961204E2    -8.934933412451741E-1   -3.714406952594303      -8.283048473328779E1     1.435206759349476E2
                        -8.458874362423870E1    -8.057130439250408E1    -8.704515576372225E1    -1.476938177851652E2    -8.603283221688885E1    -3.013498000736066E1    -9.033862596713564E-1   -8.778690352608765

 3.015000000000000E7    -2.470344070267444E-1    1.015061238301677E2    -6.258360120844677E1     2.914224480076741      -8.455434468160871E1     1.371664436741254E2    -7.849751503423212E1    -1.357518980376962E2
                        -6.339390377622063E1     2.932895357577430      -1.803949025716522E-1    8.982160171817824E1    -8.768467842473575E1     5.812240968060875E1    -8.606955466241431E1    -5.842043892606964
                        -9.050083310440243E1    -1.652182769745703E2    -9.256269537543932E1     4.112938980776286E1    -8.921880604008361E-1   -4.048965358301357      -8.478026006840651E1     9.670777234649012E1
                        -8.148418653420704E1    -6.015542948371389E1    -8.755185551640680E1     3.131646646179707E1    -9.031216296998719E1     8.561901581910870E1    -8.990800024395045E-1   -9.072067053458049

 3.017500000000000E7    -2.420726707271324E-1    1.012246546892644E2    -6.269160487878943E1     5.582142375396900      -8.952029051520429E1    -1.886228307014258E1    -8.121086170603527E1    -1.359128587674045E2
                        -6.304241456445009E1     3.572061494576594      -1.769150825120040E-1    8.945855474155428E1    -8.945680025020596E1    -4.636093255402225E1    -8.774125804634478E1     5.044616109162078E1
                        -8.010216258844906E1    -8.223359687269435E1    -8.595676422801276E1     9.206075359068846      -8.894979679871501E-1   -4.293714766198251      -9.443127579230296E1     1.738531486583093E2
                        -9.200872518769214E1     5.863460972786921E1    -8.526854331619936E1    -8.962424131770744E1    -8.688259000865975E1    -1.276793089742495E2    -8.982008975007674E-1   -9.357510446103346

 3.020000000000000E7    -2.460329340286406E-1    1.009055647001893E2    -6.222143155639945E1     4.028718900258949      -8.756543051822932E1     6.160154997918649E1    -8.669974103412912E1     4.433046950380777E1
                        -6.285424778986246E1     3.425947378470035      -1.761006002168081E-1    8.908683064451464E1    -8.781661169427804E1    -1.052300529642312E2    -8.450283404031291E1     4.703291146084329E1
                        -8.480064897924443E1    -3.386488777297663E1    -8.330735105603908E1     2.524307690105667E1    -8.957409775651881E-1   -4.572396352087277      -9.307698222761708E1     1.121685805672474E2
                        -8.833428485596635E1     6.051629853280038E1    -8.503785226148119E1    -5.149220847278681E1    -8.769720940353182E1     1.697432899650793E2    -9.017750139161058E-1   -9.667102610751513

 3.022500000000000E7    -2.469065465306890E-1    1.006060049781173E2    -6.184474242131769E1     6.666860836812353      -8.664656226902338E1    -8.023136078987804E1    -8.115488267479684E1    -1.283077529505336E2
                        -6.259231790880385E1     3.959407470585667      -1.798756522255684E-1    8.873012096958102E1    -7.966162442411806E1    -1.202617672757824E2    -8.645862202444052E1     9.559531480446535E1
                        -8.701732762365674E1    -6.392913838378102E1    -8.736867208790588E1    -3.632560449636044E1    -8.991482189850620E-1   -4.883878199349236      -9.277969925479994E1     1.402573753059052E2
                        -8.535010040818366E1     6.771255587467957E1    -8.873845126204672E1     1.184322064406906E2    -9.103583030195372E1    -2.836106606140258E1    -8.936952708636594E-1   -9.960697035834489

 3.025000000000000E7    -2.433545644932741E-1    1.003197467712467E2    -6.234464973292580E1     7.571028974969605      -8.777801122903708E1     7.614239270753697E1    -9.384365837753481E1    -4.333498368836120E1
                        -6.252004535796237E1     3.611811441675051      -1.847227518092644E-1    8.833050089643375E1    -8.024028685787629E1    -1.782270545141517E2    -8.596497870538867E1    -1.133119012378461E2
                        -9.335980636909939E1    -1.020013420706854E1    -8.863074652537988E1     1.275506811232126E2    -8.907283312373118E-1   -5.176779019018373      -9.262915387290519E1    -4.936500926072272E1
                        -8.657485647418228E1    -1.126862378224741E2    -8.474332891293784E1    -1.548084988162253E2    -9.109902650319567E1     1.070984746082922E2    -8.902578680879050E-1   -1.026705049361073E1

 3.027500000000000E7    -2.431976840322165E-1    1.000099573699458E2    -6.269094609167357E1     3.518335423458645      -8.886044628652728E1    -8.494571571357385E1    -8.738616431708918E1    -4.485114814460224
                        -6.227379335195722E1     6.128904201732351      -1.789437261878728E-1    8.790674809877160E1    -9.215994659912461E1    -5.476729605216715E1    -1.045998053489621E2     2.575604725292648E1
                        -9.169397430405660E1    -1.205294677273806E2    -9.173857866494518E1    -3.061871100795607E1    -8.897165549986703E-1   -5.479571625625059      -8.366114299717285E1     9.699422463460799E1
                        -8.745716620813741E1     1.093394933823995E2    -9.317996791684217E1    -2.838248037578552E1    -8.894773847026181E1    -1.424350539311798E2    -8.996068171502635E-1   -1.054987402127883E1

 3.030000000000000E7    -2.383227330838341E-1    9.971619521328225E1    -6.210736032477625E1     1.960300554028420      -8.516118363208571E1     7.187728616653433E1    -8.117624104541090E1    -1.841067352432289E1
                        -6.266727661698057E1    -7.042494747438070E-1   -1.731557881835008E-1    8.754608152223747E1    -8.417697578665144E1    -6.372293572850219E1    -8.497664882002603E1     1.720926634125949E2
                        -8.967972539580144E1    -1.378921630945565E2    -8.071045518321046E1     7.563807278591759E-1   -8.916432963863287E-1   -5.782360250530613      -8.514842342544756E1    -1.404251013045088E2
                        -8.593762430787818E1     6.653876357204982E1    -9.771461746909203E1    -6.533812006384480E1    -8.102872856051519E1    -3.191536434781496E1    -8.932321268884109E-1   -1.090708740281687E1

 3.032500000000000E7    -2.454479080000312E-1    9.938266621884567E1    -6.267107747288623E1     4.881982836229606      -8.520669152101175E1    -7.900168532084749E1    -8.166424903199339E1     8.401791911996376
                        -6.175175567432547E1    -1.218237598690651E-1   -1.781200156588725E-1    8.717459908480068E1    -9.482152286750446E1     1.341661130321944E2    -8.937347736495579E1     4.581033002567288E1
                        -9.007234573849603E1    -4.626923929094838E1    -8.476484447688507E1     6.630966577845500E1    -8.977534069285567E-1   -6.060790760995638      -9.548008440540838E1     5.400570517398001E1
                        -8.551252895216551E1    -1.020207675553472E1    -8.637259182138351E1     1.756576217052007E2    -8.963626261136341E1     1.264658127835905E2    -9.009321261822154E-1   -1.116784483589108E1

 3.035000000000000E7    -2.418016890546044E-1    9.913062488521778E1    -6.290193731673479E1     2.307916562018183      -8.941985437855064E1     1.737201051268038E2    -8.574848405844877E1    -2.875319598855513E1
                        -6.252520419633849E1     1.832514786464104      -1.693161218738580E-1    8.676640111738422E1    -8.079553336064565E1    -2.245650835227126E1    -8.799373102849626E1    -7.865176414326547E1
                        -9.012893970669700E1     6.492661928128875      -9.104474388705690E1    -8.220943062540174E1    -8.932699849850352E-1   -6.367069995034582      -1.012840129915578E2     1.601643579816881E2
                        -8.886595351247510E1     1.481204226524088E2    -8.278968355778845E1    -1.702747671751528E2    -8.934676270889747E1     4.571526387795765E1    -9.073290382060996E-1   -1.144766420189358E1

 3.037500000000000E7    -2.434354633286606E-1    9.880804655179708E1    -6.198541530180278E1     5.479556813016875      -8.199308768246640E1    -3.083274321539309E1    -8.648237565372074E1     1.010522639243368E2
                        -6.223434986603449E1    -5.470159095917822E-1   -1.771938739459220E-1    8.639505679985003E1    -8.121044718176159E1    -1.619804710400458E2    -8.411456680691731E1     1.776873525042205E2
                        -8.654870424801069E1     9.446614607805540E1    -8.491204935788934E1    -1.296745565754077E2    -8.999911330104164E-1   -6.659971599813188      -8.759942450325070E1    -5.673105466289057E1
                        -8.174111571855663E1     1.273575381302817E2    -8.861835258034824E1     1.601303947619678E2    -9.223897577181316E1    -1.287388861597141E2    -8.963965847195304E-1   -1.175133697596892E1

 3.040000000000000E7    -2.446711932808559E-1    9.855282977630235E1    -6.220582653816371E1    -2.170179603051624      -9.007546005828820E1     4.939625132759770E1    -8.581577249402216E1     1.149958521780664E2
                        -6.251473798689411E1     7.810991730486514      -1.643889949797474E-1    8.603956316021250E1    -9.748736179273260E1     1.538690006682724E2    -8.262388584897445E1     3.436955894584182E1
                        -8.209219861181767E1     1.696963246417699E2    -9.044462779011474E1    -1.069524837116984E2    -9.001225972511440E-1   -6.964573515926575      -9.380862982922241E1    -2.529185067771847E1
                        -8.526064118917211E1    -7.588260215268213E1    -8.477623770035130E1    -1.588866592494678E2    -9.337327247417176E1    -1.749138792511235E2    -8.981043436025109E-1   -1.209813764869121E1

 3.042500000000000E7    -2.432626057636438E-1    9.820943391632341E1    -6.263360080576486E1     2.015936266819344      -8.149267681489755E1     1.487163450647997E2    -8.514460041509216E1     1.773980162384473E2
                        -6.190338901040484E1     8.957272065994923      -1.821954062454770E-1    8.558823279160897E1    -9.045559033665424E1    -9.385245922062282E1    -8.965424755679565E1     7.414711514012656E1
                        -8.647443115992920E1    -1.708481934167760E2    -9.200067005644995E1     1.621164167430073E2    -8.906616551278100E-1   -7.230132289573232      -8.449509793157544E1     4.687084862985926E1
                        -8.970879314871132E1    -1.133149913933454E2    -9.106025168368360E1     1.154837997963267E2    -8.572297384250800E1    -7.665202778629194E1    -8.999933850445943E-1   -1.236696610459273E1

 3.045000000000000E7    -2.413779916581439E-1    9.791743816629786E1    -6.185777702423540E1     5.056046004359795      -9.621856976088013E1     1.295213515891591E2    -8.516298559768657E1     4.061229585722390E1
                        -6.187159125051906E1     2.606062205168105      -1.743509210677645E-1    8.525677001179291E1    -9.067343606468505E1     1.237694348482962E2    -9.548943343968969E1     5.528412456086996E1
                        -8.558336018672981E1    -1.470270748762205E2    -8.391135878812393E1    -7.443734339661599E1    -8.916118516149242E-1   -7.541864879499796      -9.075661470611047E1     1.669398818024383E2
                        -8.045884928175249E1     1.279120552666212E2    -9.200520911419960E1     1.640818172169728E2    -8.935254053716091E1     2.114305582377324E1    -9.008102557223783E-1   -1.266801309237141E1

 3.047500000000000E7    -2.449838185228412E-1    9.759275527978713E1    -6.068562841540620E1    -3.258170672345064      -8.654223005122630E1    -1.617400131638419E2    -7.970757197001362E1     1.677830216126058E2
                        -6.294288117083397E1    -3.779949664966462      -1.845670589013844E-1    8.481799215628627E1    -9.370751986374469E1     6.544390036791793E1    -9.150267311132986E1    -1.255775389692009E2
                        -8.066363909368695E1    -1.481454017876897E2    -8.756549945045984E1    -1.369814011541816E2    -8.942674419282968E-1   -7.802512555033142      -8.654431638484282E1    -7.740635881726295
                        -9.046263715463678E1    -1.208763449565335E2    -8.852788817167402E1    -1.421979745613624E2    -8.560018408998722E1     1.433876953267197E2    -9.005356758140576E-1   -1.296723709917897E1

 3.050000000000000E7    -2.387995727420107E-1    9.731769474871342E1    -6.144281272686215E1    -1.558950950914960E-1   -9.314776179873114E1     1.354053764488156E2    -9.620884066314153E1     1.335416804906097E2
                        -6.130845589131247E1     2.783498936919382E-1   -1.794900258976913E-1    8.446582910295747E1    -8.253627882678649E1    -4.332332233273852E1    -8.651856377366512E1    -2.643296138339869E1
                        -8.494612331907581E1     9.925252587509695E1    -8.109566252079637E1     8.853005533493811E1    -8.942966779363055E-1   -8.119993399422173      -8.743561420196792E1     1.432144070451602E2
                        -8.815301591348546E1    -1.515648861547701E2    -9.091595906898246E1    -1.253486146462927      -8.539809321862977E1    -1.540090512388412E1    -8.967961110454160E-1   -1.328461308690367E1

 3.052500000000000E7    -2.282581683797832E-1    9.698004195801772E1    -6.152491029401364E1     2.591833921972505      -1.021339224130773E2     1.304851523736094E2    -8.609499942033295E1     4.639943018971654
                        -6.196811340543611E1     3.128204354758584      -1.766234786950359E-1    8.404795177920154E1    -9.000142417252741E1     7.831896959665999      -8.906798819765035E1    -1.678459574290108E2
                        -8.795215806273085E1    -4.996966428427061      -9.116447871605290E1     2.440215502655390E1    -8.919514836986809E-1   -8.429872655985939      -8.838280482181675E1    -7.859784765078940E1
                        -8.658870046699236E1     1.242451345735360E2    -8.280270497399735E1    -1.047715631698310E2    -8.644295978168039E1     1.257436401036485E2    -8.994370698575099E-1   -1.356838038467485E1

 3.055000000000000E7    -2.406274157326377E-1    9.670233040590145E1    -6.152213040898096E1     1.324801014407916E-1   -8.980961318728427E1    -3.216869021105666E1    -8.348412961280599E1    -8.818155476798205E1
