#  HZ   S   DB   R     50.00 
! Rohde & Schwarz Vector Network Analyzer 
! Rohde-Schwarz,ZNB8-4Port,1311601044102961,2.82
! Created: UTC 2/8/2019, 4:24:10 PM
! freq[Hz]                db:S11                  ang:S11                 db:S12                  ang:S12                 db:S13                  ang:S13                 db:S14                  ang:S14
!                         db:S21                  ang:S21                 db:S22                  ang:S22                 db:S23                  ang:S23                 db:S24                  ang:S24
!                         db:S31                  ang:S31                 db:S32                  ang:S32                 db:S33                  ang:S33                 db:S34                  ang:S34
!                         db:S41                  ang:S41                 db:S42                  ang:S42                 db:S43                  ang:S43                 db:S44                  ang:S44
! 
 3.000000000000000E7    -2.411653406546239E-1    1.053507470459788E2    -6.808990955339030E1     1.083904242153305E1    -8.129412833257925E1     1.389600984748258E2    -1.055926935295875E2    -1.596226004079343E1
                        -6.957396448188783E1     7.887993184326932      -1.699681474635717E-1    9.218348227362476E1    -8.495703532280211E1    -9.806215474567881E1    -8.593725791502376E1     9.333511098237625E1
                        -8.905724073933912E1    -4.134827296109987E1    -1.003651706000227E2    -1.464998658903882E2    -8.959146422895060E-1   -2.247145054408037      -8.294118771399826E1     4.402063079062489E1
                        -9.119433127217265E1    -4.824158715361089E1    -8.427956764497580E1    -3.037482993617105E1    -8.738458446046690E1     5.689533075115261E1    -9.007360246765045E-1   -7.277536622095677

 3.002500000000000E7    -2.390627837771783E-1    1.050067453130639E2    -6.878735357254311E1     1.829619473726030E1    -8.311193470726833E1    -1.225305007191175E2    -9.112889955920284E1     1.911859955461514E1
                        -6.868143033080224E1     1.512156033208599E1    -1.724850338863861E-1    9.181872194132498E1    -7.940786125113986E1     4.594445890976623E1    -9.429139825054617E1     6.394446546580461E1
                        -9.430417301870665E1    -1.003821335099703E2    -9.731395366320527E1     1.262070209455311E2    -9.023205983222438E-1   -2.550563396642846      -8.129112810585249E1    -2.020763515441795E1
                        -8.560729440288856E1    -1.701928161396654E2    -8.183738763476077E1     5.985459003050764E1    -8.677118086009622E1    -1.930785333564714E1    -8.994517077464538E-1   -7.556586490409373

 3.005000000000000E7    -2.444477127232159E-1    1.047306656539100E2    -6.959518723672639E1     4.037821929298143      -9.240684980068377E1    -1.073217213351777E2    -8.208650507019294E1     9.569652979548124E1
                        -6.840770417850744E1     1.921423195705058      -1.654131742941831E-1    9.146624931547250E1    -9.014356401725860E1     8.506150213107976E1    -9.391907318538003E1     7.556697743624879E1
                        -9.382168121594376E1    -1.057079531344282E2    -9.283007852744905E1     8.500029695766602E1    -9.057400600068641E-1   -2.870647594763807      -8.235216927885155E1     1.372577350300865E2
                        -9.102235280892010E1     1.448533113280403E2    -8.852925442773420E1    -1.444713742973075E2    -8.689476756934312E1    -6.960883184786383E1    -8.996704948241312E-1   -7.886861600481044

 3.007500000000000E7    -2.434354721286714E-1    1.043804590062379E2    -6.836282460041210E1     1.073715509793597E1    -9.331804175710502E1    -1.798783794954746E1    -7.871762849643849E1    -1.611706402762058E2
                        -6.998482073659743E1     3.067483380864670      -1.722738927971038E-1    9.104704984624070E1    -8.713248212735070E1    -1.087143200259392E1    -7.941226040372881E1    -1.077459287669012E1
                        -8.749830115092784E1    -1.361836447498627E2    -8.753986916607443E1     3.432139230463404E1    -8.986063459664144E-1   -3.140071617639805      -8.611540039952928E1    -1.640444464208414E2
                        -8.772068083674137E1     3.764062485739302E1    -8.899258635893764E1    -1.740414122566815E2    -8.114975445825735E1    -7.520581153986055E1    -8.977100173745561E-1   -8.171580139593386

 3.010000000000000E7    -2.343685945541806E-1    1.041689755994759E2    -6.782584844120775E1     7.499293684889418      -7.923131038043272E1    -9.732828516670568E1    -8.816753879440094E1     1.755495142912817E1
                        -6.827081568875524E1     9.317805297761321      -1.713383702004540E-1    9.069295195524882E1    -8.227199896734763E1    -1.431646450623481E2    -9.970819827579254E1     1.311742038936748E2
                        -9.159737865253291E1    -1.290850493253248E1    -8.764044250903109E1    -2.971928274538096E1    -8.972160872541269E-1   -3.425353024671066      -9.472422610349770E1     1.292977699502259E2
                        -1.006452184928782E2     1.060533970534441E2    -8.560282121412406E1    -8.809749825438547E1    -8.049233061172386E1    -6.041149694725782E1    -9.004466842380916E-1   -8.455125021435110

 3.012500000000000E7    -2.392242770251823E-1    1.038839140156767E2    -6.866639067796935E1     2.343921346829202      -8.778013724334764E1    -9.639155158664950E1    -8.047349281490837E1    -2.295464824364398E1
                        -7.031816802934121E1     1.357235596455649E1    -1.744625062169797E-1    9.029898533300991E1    -8.129050680559524E1    -1.678170288589803E2    -8.371168491293153E1    -8.084849203562493E1
                        -9.888346731955673E1    -9.665186604782814      -8.177467179596393E1     4.017327970110218E1    -8.958292506403196E-1   -3.671821084796196      -8.360741287967493E1     1.018359996649824E2
                        -8.589292701939927E1    -1.313003810337826E2    -8.847710722939507E1     1.144862615011310E2    -8.360581778487307E1    -4.655373606104888E1    -9.034757931731586E-1   -8.780858417511205

 3.015000000000000E7    -2.382678029117347E-1    1.035272947061344E2    -6.757052610170274E1     1.391559375588148E1    -8.789082846126036E1     1.002986859358881E1    -8.498470577021635E1     8.388075382100446E1
                        -6.742670796293018E1     1.204011598680282E1    -1.681040147469308E-1    8.991931053836881E1    -9.041202491663526E1     5.611148730742639E1    -8.684662539449427E1    -9.103863886716650E1
                        -8.180458443244223E1    -5.961110176820022E1    -8.006524819378487E1     8.187923114938575E1    -8.989693979599366E-1   -4.075244201380411      -9.166631119071766E1     5.836435403354419E1
                        -8.470940053808465E1    -3.312677891212318E1    -9.406688260152575E1     1.108285771661031E2    -8.904004557122462E1    -1.064085484941495E2    -9.056865048860607E-1   -9.093314208435041

 3.017500000000000E7    -2.349328177930246E-1    1.032394220737283E2    -6.893496972508709E1     9.011347158005105      -9.548660972349238E1    -6.433584604292034E1    -8.054421049973472E1    -6.064535529595022E1
                        -6.775313930459015E1     5.724517441083544      -1.698743673586465E-1    8.953832016281253E1    -8.233820717484690E1    -7.768680162847925E1    -8.140770390205439E1    -5.394058641658064E1
                        -8.003912557648114E1    -1.441386062584633E2    -9.307842346893742E1    -7.832840951596526E1    -8.952934067095002E-1   -4.319711719010424      -8.434872065382984E1     9.904739070503986E1
                        -8.922517011893419E1     1.761469879043419E2    -8.091383077365995E1     1.791462739931646E2    -8.735711776757638E1    -1.217000813398804E2    -9.005131652748398E-1   -9.400039371499096

 3.020000000000000E7    -2.365121951276998E-1    1.029511857014622E2    -6.805228422468463E1     1.008214378856614E1    -7.988416120684848E1    -1.729080979203278E2    -8.352346164564260E1    -1.594993312366571E2
                        -6.833415489932236E1     9.993160362584895      -1.595651193089602E-1    8.917201737377653E1    -8.821774744630984E1    -9.235081219722017E1    -9.257253542155935E1    -1.634417608578319E2
                        -8.348735061123024E1    -1.092308740424684E2    -9.097557001588226E1    -1.339724767154546E2    -8.952405361606340E-1   -4.618921506072542      -8.587069745260976E1    -9.566267243944232E1
                        -8.681596916440128E1     5.598532169972486      -8.208008551175962E1    -3.803579142647781E1    -8.755220522416182E1    -1.669692678465763E2    -8.987451720546020E-1   -9.674637210026255

 3.022500000000000E7    -2.416954735098593E-1    1.026501256333834E2    -6.927029355092253E1    -6.978275555333886      -8.395971601708902E1    -2.611502950395061E1    -8.964612985565516E1     1.566201374692833E2
                        -6.899884734675077E1    -2.840709538036813      -1.745035653198796E-1    8.882523891305173E1    -8.046508466605600E1    -5.846518296279980      -9.340045465590313E1    -1.509379566011031E2
                        -8.741842289519219E1    -6.289213505938380E1    -8.866255060366208E1    -1.061967687264961E2    -8.950974400045525E-1   -4.865614077561696      -8.224746979266348E1     9.616406210289095E1
                        -8.704668629806562E1    -1.531621738799934E2    -8.149784095904599E1     1.747249987509905E2    -9.473565381140426E1    -1.099340155091615E2    -9.033728085472639E-1   -1.000830303720579E1

 3.025000000000000E7    -2.377100342614136E-1    1.024001518190440E2    -6.817320010182810E1    -1.501177225285491      -8.464596746177925E1    -1.253499069447047E2    -8.905993502804643E1    -6.883803211164585E1
                        -6.674407913675537E1     8.719088435995868      -1.776050069223906E-1    8.839249297182190E1    -8.013336160383770E1     8.960903936640943E1    -1.010469718879787E2     1.632944724610001E2
                        -8.649573982400759E1     9.070479808474605      -8.711931244280643E1    -1.742036636147492E2    -8.895374873375799E-1   -5.169644753922770      -8.874143505125784E1    -1.383957027035661E2
                        -8.763974269061211E1    -1.794786061667389E2    -8.104947807875413E1     9.398741396596942E1    -8.375545898880020E1     2.792810908646868E1    -8.974148630301542E-1   -1.029343818255650E1

 3.027500000000000E7    -2.395021838265922E-1    1.020764034965663E2    -6.920361791738800E1     9.626218810390961E-1   -8.237945676574077E1     2.432628089074615E1    -9.530198942006632E1     9.840035079174764E1
                        -6.762069918830660E1     3.686575654034610      -1.697944114258083E-1    8.798141242161961E1    -8.736088222975633E1    -1.738896952959315E2    -8.328444110159168E1     1.253154658371159E2
                        -9.221648599442722E1    -1.230472195445482E2    -8.715859964889054E1     1.236041443769959E1    -8.972626553130072E-1   -5.489291257481384      -8.827933094322032E1     5.529508647152084E1
                        -8.904296923032788E1     1.014947763240364E2    -9.107409154434177E1     9.229217641219622      -8.448120789077139E1    -1.292451839464198E2    -9.021380865438657E-1   -1.060320599058153E1

 3.030000000000000E7    -2.358065807857740E-1    1.017950867727432E2    -6.773594538289072E1     2.993491680323938      -8.028400767946474E1    -2.606939574742519E1    -8.838682966423247E1    -2.704351326065418E1
                        -6.838752575934824E1     1.245852588556946E1    -1.605088134493463E-1    8.764404743878525E1    -8.928978696061820E1     2.238866901121342E1    -8.481650538525415E1     2.894455278868072
                        -8.131022292586749E1    -2.501251799454602E1    -8.112583096099280E1     3.660520302769072E1    -8.942242545576666E-1   -5.771858430455687      -9.235318858199109E1     1.393589366121578E2
                        -8.883019241339498E1    -1.257307579440319E2    -9.663002507340083E1     1.194438865598896E2    -8.393109253599297E1     9.422933903658618E1    -8.975421267699035E-1   -1.088545821809577E1

 3.032500000000000E7    -2.338359693414431E-1    1.014829226814031E2    -6.821739640368702E1     6.359842676445017      -9.214839977217226E1     1.201056789738868E1    -8.676833835287525E1     8.407693289964166E1
                        -6.763836390587143E1     9.728623753987295      -1.689920441598198E-1    8.721836356915077E1    -8.821655377932302E1    -1.674255982593541E2    -8.810945273856243E1     2.825677800619323E1
                        -9.687499429486088E1    -1.684111190187358E2    -8.078777000463234E1     1.124873289379152E2    -8.974086596449715E-1   -6.086101933446265      -8.565492769014250E1     8.036247791667834E1
                        -9.283225079172367E1    -1.277952842038067E2    -1.005734653353971E2     1.283262849671024E2    -9.094136133401452E1    -4.947455920732264E1    -9.008264498147166E-1   -1.117135585040750E1

 3.035000000000000E7    -2.295018853158508E-1    1.011775908095509E2    -6.889174301366384E1     4.232482437331775E-1   -8.271300958755519E1    -1.576765833148178E2    -8.960280776784032E1     5.912292622095561E1
                        -6.874033953122917E1    -1.578480100127578      -1.577535513246379E-1    8.682948411708762E1    -8.566667991800303E1    -9.929053889627284E1    -8.901899079648602E1    -1.690574499390557E2
                        -9.222468587176527E1     1.731070504699771E2    -9.186502885812622E1     8.345495935027953      -8.955309014177662E-1   -6.345516372509875      -9.291657028535022E1     7.430004006643620E1
                        -8.492664348543057E1     1.779539007020386E2    -8.868492902566632E1    -1.154056396646458E2    -9.611363718857515E1     2.054418324060892E1    -9.009830172662372E-1   -1.148130520883128E1

 3.037500000000000E7    -2.330259972428303E-1    1.008739820114608E2    -6.868041551941536E1     1.002236242971919E1    -9.363454975222119E1     1.206012624403862E2    -8.719668822575090E1    -1.534481654546385E2
                        -6.818879277532321E1     3.588658634153837      -1.689945331830459E-1    8.649471441471634E1    -8.490282219055351E1    -1.136565022683838E2    -9.162119883303136E1    -6.509334598990640E1
                        -8.632985467344787E1     5.160616961290651E1    -9.969008047922826E1    -1.786880202935596E2    -8.925280856948723E-1   -6.646460401326992      -8.276502532666709E1    -7.740838757146898E1
                        -8.796609688429108E1    -8.283068100146298E1    -8.335308204616356E1     6.453132677507038E1    -8.879370429882019E1    -2.508768299019842E1    -8.990906478777667E-1   -1.179617548470271E1

 3.040000000000000E7    -2.332485030291191E-1    1.006299130167909E2    -6.901160254853265E1     7.651961045902566      -9.118396481031527E1    -5.621764508921760E1    -1.041658387427369E2     8.059654214438703E1
                        -6.839292250380940E1     1.390506439671916E1    -1.569149500217592E-1    8.605692210401203E1    -8.431140961356991E1     1.150335039073058E2    -8.672337878986170E1     1.235667850732783E1
                        -8.949992738620198E1     1.164039733617851E2    -8.089648257867981E1     5.535150927524403E1    -8.983886546543097E-1   -6.975880091815231      -9.079767906858906E1    -1.470766707549230E1
                        -8.770647508904290E1     1.553554663613791E2    -8.015587596810369E1    -1.535977454289271E2    -8.208837267081941E1    -1.166677319571587E2    -8.965559280169324E-1   -1.210574784493957E1

 3.042500000000000E7    -2.393359435095591E-1    1.003159726395582E2    -6.715171148319109E1    -1.460264156518451      -9.302739750872688E1    -1.413395439593299E2    -9.129735163794800E1     1.190786092206658E2
                        -6.822235093423092E1    -5.495694714482434      -1.641264448328630E-1    8.567305555742335E1    -1.077524752296172E2     5.904544342629887E1    -8.038525490822396E1    -1.504548437671802E1
                        -8.168211521490413E1     2.460907284396375E1    -8.176840017884982E1    -3.377170664327499E1    -8.958236385411420E-1   -7.241531553472324      -7.868894997777213E1     2.828568646672535E1
                        -9.345825717966896E1    -1.645731098377948E2    -8.215932525380646E1     1.639145590447910E2    -8.719062361821385E1     1.088937471619121E2    -8.988953544122945E-1   -1.237187042579487E1

 3.045000000000000E7    -2.312153754019218E-1    1.000231119655872E2    -6.753156515740270E1    -4.655624979922725      -1.007066574626045E2     1.012027080468029E2    -8.578052799933732E1    -3.955195725703329E1
                        -6.610858686328763E1     2.321343724883942      -1.632994113302619E-1    8.529804108382753E1    -8.369697530843190E1    -2.916565439486632E1    -8.597344755860496E1     8.078152223758151E1
                        -8.174067872692774E1    -7.944145316727487E1    -7.923016614147788E1    -1.489387260022490E2    -8.972717903430221E-1   -7.554840290697535      -8.666751829392223E1     5.434165037359862E1
                        -8.246196123080155E1    -3.024469877635071E1    -8.486221429276144E1     4.515737385231860E1    -8.521793461922394E1     1.350745818113701E2    -8.998257529243280E-1   -1.268872603149629E1

 3.047500000000000E7    -2.326210506126538E-1    9.974159465505184E1    -6.832457114332347E1     7.654211014358821      -8.237425682603394E1     8.419572770793856E1    -8.934984235078191E1    -3.751618118299684E1
                        -6.687016043497420E1     4.379139505695667      -1.666917597126792E-1    8.491066020755255E1    -9.971496104239250E1    -1.421530118254540E2    -8.314880066682846E1    -5.536201203001598E1
                        -7.957934828062605E1     1.579271989557608E2    -8.637321682994484E1     8.403908412773957E1    -8.964306533589060E-1   -7.838721985898657      -8.671205717540515E1    -1.479394130241408E2
                        -9.732318137197260E1    -2.980591214960441      -8.443226374366404E1     3.723402848213970E1    -8.285934936259190E1    -3.709098608763827E1    -8.979971797206574E-1   -1.302462801376242E1

 3.050000000000000E7    -2.304092736623803E-1    9.947237936837477E1    -6.660923012616460E1     1.993487830629364      -8.481514642651248E1     1.743333474841069E2    -9.550977065628872E1     9.109326647223676E1
                        -6.678005398629981E1    -1.750955424517923      -1.622049924402082E-1    8.454134066493560E1    -8.772337078296063E1     9.200476401548778E1    -8.826891587468515E1    -4.145875578945971
                        -9.554644018804781E1    -1.086720083288323E2    -8.635381611382080E1     7.444645647107190E1    -8.975158424926267E-1   -8.144231870519359      -8.805546688865449E1    -2.407361833344973E1
                        -1.025590741038747E2     1.717716970480545E2    -9.621837114929488E1     7.976465464690394E1    -1.078529020751467E2    -3.051663615378529E1    -9.004996898551348E-1   -1.327693847217433E1

 3.052500000000000E7    -2.257047228854781E-1    9.914304732269349E1    -6.745188281077370E1    -1.016669568316108E1    -8.778795702944410E1     1.672238534186062E2    -8.250801163673603E1     1.134298208748448E2
                        -6.808478186109042E1     7.177531220376294      -1.601401569310765E-1    8.409421950903422E1    -8.318529176011757E1    -6.846034934183118E1    -9.206802539073244E1    -1.197669960631255E2
                        -9.427116282220408E1    -1.250458357361558E2    -9.339634443684845E1    -1.197798759462439E2    -8.901052003954092E-1   -8.438280463095305      -9.284700972027602E1    -4.408519081978894E1
                        -8.680660946010744E1     1.628611852066223E2    -8.569163537727610E1     3.409440191558571E1    -8.895777053382703E1    -3.407522588874743E1    -8.971617094888125E-1   -1.360242915029757E1

 3.055000000000000E7    -2.310520866114530E-1    9.886121659870022E1    -6.739856286294996E1     4.101165273190039      -8.791795970394850E1    -1.384142342927285E2    -8.294133125176938E1    -2.567681095616440E1
