#  HZ   S   DB   R     50.00 
! Rohde & Schwarz Vector Network Analyzer 
! Rohde-Schwarz,ZNB8-4Port,1311601044102961,2.82
! Created: UTC 2/8/2019, 4:15:22 PM
! freq[Hz]                db:S11                  ang:S11                 db:S12                  ang:S12                 db:S13                  ang:S13                 db:S14                  ang:S14
!                         db:S21                  ang:S21                 db:S22                  ang:S22                 db:S23                  ang:S23                 db:S24                  ang:S24
!                         db:S31                  ang:S31                 db:S32                  ang:S32                 db:S33                  ang:S33                 db:S34                  ang:S34
!                         db:S41                  ang:S41                 db:S42                  ang:S42                 db:S43                  ang:S43                 db:S44                  ang:S44
! 
 3.000000000000000E7    -2.441818315510612E-1    1.050690499370089E2    -6.858125394176534E1     5.425430159284193      -9.671630261957918E1    -1.526372317171745E2    -8.007312951715228E1     3.388393381105370
                        -6.854869915296133E1     1.466589883700160E1    -1.650862262797445E-1    9.216378170185644E1    -8.766848113379251E1     1.121519278342200E1    -8.936292937602188E1     2.569602562185362E1
                        -9.800529795717972E1     2.015059627030158E1    -8.802051609156263E1     1.593730659529898E2    -8.976999918208856E-1   -2.241600208271097      -8.675547145390672E1     1.172696767491110E2
                        -8.722812213012352E1    -1.278720468329538E1    -8.974864818334437E1    -1.191014897788594E2    -7.908525644133152E1     1.743373551694234E2    -8.962817555258755E-1   -7.256169104255297

 3.002500000000000E7    -2.374119892478165E-1    1.047937616353295E2    -6.888179226154031E1     3.046435815085258      -8.637524346280328E1    -2.503689612830503E1    -8.578259097819520E1    -2.489422258212548E1
                        -6.668688046825196E1    -1.105615456140220      -1.729268065946928E-1    9.177684924237744E1    -9.384934953490537E1     2.661896277253915E1    -8.351936837105728E1     1.615353322532567E2
                        -7.980945493391219E1    -2.080836835458392      -8.623420250257061E1     6.012891236017116E1    -8.955991231524738E-1   -2.545793696062524      -8.471240868595160E1     1.515953280902741E2
                        -8.990557489868557E1     8.656072368405223      -1.010525502998733E2    -1.019604446827977E2    -9.873200123191550E1     1.172661697885989E1    -8.989258913130469E-1   -7.599919676716532

 3.005000000000000E7    -2.443967417895513E-1    1.045077213797371E2    -6.869829987002295E1     7.857298479078797      -8.762887155127913E1    -3.289974885534721E1    -8.288269351718959E1     6.830318911618574E1
                        -6.779989268604179E1     3.677018511935201      -1.631092155275704E-1    9.143844686504586E1    -8.743232669099015E1    -4.463498526313806E1    -8.305228703133226E1     5.736623926570518E1
                        -9.803963713239212E1     7.888653445122124E1    -9.281749834965098E1     1.496937802380769E2    -9.008667035191785E-1   -2.840992445217692      -8.488987522963751E1     4.873251455871345E1
                        -8.568056475303516E1    -1.115365283387994E2    -8.158444965700303E1    -5.386464320645477      -9.457099018042274E1     9.595647282267925E1    -9.010809799533593E-1   -7.874352071844425

 3.007500000000000E7    -2.410624426786244E-1    1.041538646243189E2    -6.946428055521233E1     7.401221708152405E-1   -8.736663179807067E1    -4.648164597055988E1    -9.506435547915429E1    -3.296027010562882
                        -6.840213149080564E1     4.161578250205394      -1.758028250313160E-1    9.103329526924408E1    -8.730244552747681E1    -7.446066534592168E1    -9.013657019487928E1     5.802512658088949E1
                        -9.384085349893412E1    -1.113823706385181E2    -8.947853418935473E1    -1.189404832265786E1    -8.980627108645145E-1   -3.154374465737913      -8.734468615503046E1     2.930760268734573E1
                        -7.931891825681564E1    -1.306854661822364      -9.618257177408535E1     4.637959608381797E1    -8.816528839715883E1     1.913319025019732E1    -9.033935593068885E-1   -8.158453374553050

 3.010000000000000E7    -2.361809559064075E-1    1.038967938250351E2    -6.658328270462690E1    -3.780798178563192      -9.151330878907589E1    -6.349678363606264E1    -9.054605111654811E1     1.005225536144669E1
                        -6.826891588822674E1     1.299542095810976E1    -1.688440809362488E-1    9.071088686632827E1    -1.050999849849792E2     1.271458275512099E2    -8.221877604543124E1    -5.871265817812960E1
                        -8.525352256827618E1     1.340062436740508E2    -8.538306962235389E1    -2.432508520092333E1    -8.980528686242130E-1   -3.430093225141534      -8.756199425145466E1    -6.045348854816911E1
                        -8.306418826768322E1     9.876332470498194E1    -8.516294891201900E1     7.397591743876323E1    -8.462091297703439E1    -1.078317985007374E2    -8.987772583264513E-1   -8.493999307245657

 3.012500000000000E7    -2.434750695316772E-1    1.036282233989633E2    -6.860494021721506E1     3.381366306647575      -8.845933500662619E1    -1.045996544514580E2    -7.682097822997028E1    -6.663887117860784E1
                        -6.807861734115653E1     6.886963605516668      -1.660203878215771E-1    9.029655343279849E1    -8.319238858850414E1    -1.696719364331182E2    -8.501395385227869E1    -5.640933002318385E1
                        -9.211302696265655E1     7.819223087792119      -9.486059325105204E1     9.917669750441090E1    -8.932027887918970E-1   -3.674008699415097      -8.422107665902432E1    -6.838915195747205E1
                        -8.248003738089948E1    -3.603645355837560E1    -8.437543340825613E1     5.878183329709819      -8.759300325879943E1    -1.474646857552339E2    -9.015840371343221E-1   -8.760888133894270

 3.015000000000000E7    -2.410610785678208E-1    1.032747566248286E2    -6.737037377116346E1     4.245059526398759      -8.372001894664969E1     1.338360223666621E2    -9.739261066950473E1     4.926960918319758E1
                        -6.686701641452177E1     3.961172309648181      -1.731186655219026E-1    8.991463364509032E1    -8.778802534065883E1    -5.274186425705241E1    -1.001878919709140E2     3.589168094602550E1
                        -8.012755930094754E1    -8.313423254464864      -9.607710837253025E1    -4.010554798217797E1    -8.972308474336002E-1   -4.021727269428062      -8.339338678110464E1     1.531511047621826E2
                        -8.508330990533349E1     8.997046338911032E1    -9.457087405699295E1    -2.801196636795964E1    -8.921782022196504E1     1.903677429399744E1    -8.973056318917881E-1   -9.100118181901044

 3.017500000000000E7    -2.335039611117455E-1    1.029781825010781E2    -6.873273818575106E1     7.514062008989316      -8.405547217721957E1     4.943615670961573E1    -8.873391668766399E1    -6.467106106591072E1
                        -6.724688512263649E1     1.014508468831379E1    -1.725101151944544E-1    8.951015774154992E1    -9.988274855701611E1    -1.140849167361174E1    -9.139845753558166E1     1.665542804847256E2
                        -8.587798279551546E1     9.504767483417536      -9.272475544649032E1    -7.279468091710605E1    -8.883907857631400E-1   -4.333534790246273      -9.293860798290530E1    -6.341819442875993E1
                        -8.806430138120075E1     1.550756689809080E1    -8.418537832545347E1     1.668009332348005E2    -8.905330327425226E1     3.026586814854000E1    -8.994730492122439E-1   -9.348635019266212

 3.020000000000000E7    -2.383132737507426E-1    1.027452561663246E2    -6.678062234355581E1     8.505184770970047      -7.955900810330158E1     2.450035562897755E1    -9.822372676648023E1    -6.979027347534414E1
                        -6.890583915539034E1     1.238468847971555E1    -1.620756982473244E-1    8.917153908700604E1    -8.323565397579282E1     1.153575224016693E2    -9.399800789079572E1     1.289144411759303E2
                        -9.302021216299535E1    -1.283606493279052E2    -8.493420063109603E1    -6.706243577425003E1    -8.950505545298169E-1   -4.611037942646179      -8.670600104302449E1    -1.235037816223106E2
                        -8.243019936344939E1    -9.885168136381937E1    -8.984956015472592E1    -8.789769331135755      -8.206704126608953E1    -2.372727592198822E1    -8.988549510318851E-1   -9.643378955796511

 3.022500000000000E7    -2.364830305738670E-1    1.023822167550948E2    -6.637472056632697E1     9.595798582809000      -8.146402424100742E1     7.129874295839143E1    -8.817946807941836E1    -7.930536957761214E1
                        -6.880454129364506E1     8.621008609116542      -1.716589829855992E-1    8.876230769444503E1    -8.703443054164012E1    -4.037986431159067E1    -8.200599480451508E1     4.186889827568450E1
                        -9.289137101172743E1     1.450695731373158E2    -9.306445721114056E1    -4.381441389586706E1    -8.965723025982246E-1   -4.871533051636703      -8.710918976596889E1     8.941749934338610E1
                        -1.136536289504879E2     1.648836644150378E2    -9.117399251491760E1    -6.018562660170540E1    -8.738908658849944E1    -1.493036627098986E2    -9.009377006429040E-1   -9.994340335089316

 3.025000000000000E7    -2.360032515247515E-1    1.021225973718676E2    -6.707124194993671E1     7.251327601494312      -8.512373314768384E1     1.380949871475569E2    -9.121901658323010E1    -1.450637649742859E2
                        -6.912618346090630E1     1.671869518530469E1    -1.775368925009316E-1    8.838917630627529E1    -8.827932482413245E1    -1.630497938349361E2    -9.452421369708050E1    -1.612957749123128E2
                        -8.492486349862999E1    -1.041712351414560E2    -9.711753169105919E1     9.260954139743568E1    -8.973776694310354E-1   -5.144660807142407      -8.347793771223445E1    -3.978245582158942E1
                        -8.355147423550486E1    -7.203925887815854E1    -9.118115043836063E1    -1.678766680789358E2    -9.051314434698598E1     7.246954641542705E1    -8.959353704005830E-1   -1.030615138911515E1

 3.027500000000000E7    -2.373444743504299E-1    1.018125157228170E2    -6.571628588145286E1    -3.438985032064495      -8.929376785652013E1    -4.430152580513336E1    -8.799717111381312E1    -6.539223042272896E1
                        -6.612811794813193E1     5.003606762649167      -1.680344449423032E-1    8.792481719106776E1    -9.286781674664329E1    -2.945868084630228E1    -8.441531570491905E1    -4.205891964066982E1
                        -9.049268766120622E1    -1.244754217793539E2    -8.915962196606694E1     4.955027204088874E1    -8.978086552078359E-1   -5.460329727806029      -9.355481238486962E1     4.982391453502238E1
                        -8.462437275809050E1     3.209018752798560E1    -8.582145303023863E1    -1.639532639438630E2    -8.919719066142564E1     1.041619734677967E1    -9.011935326504827E-1   -1.061223334937603E1

 3.030000000000000E7    -2.407530807319440E-1    1.015240168132377E2    -6.789259687739202E1     1.459543575419065E1    -8.095163713013511E1    -6.433944180184336E1    -8.859954365275530E1    -6.423791277363051E1
                        -6.861637940427292E1     1.198866950255630E1    -1.557581560610135E-1    8.762863044500760E1    -8.329671730493836E1     8.022065268933734E1    -8.712405261608544E1     8.511589673063007E1
                        -8.426785209703164E1    -7.347383281713375E1    -9.065832894365374E1    -6.924527952401903E1    -8.961186801306282E-1   -5.833572710456463      -9.757412292380226E1    -1.563512450000769E2
                        -8.609697700381358E1    -4.043091532220691E1    -1.012663114383831E2     5.596658656580257E1    -9.563264326186307E1    -9.465242211809778E1    -8.950888411208047E-1   -1.086850924103673E1

 3.032500000000000E7    -2.379276253466355E-1    1.012408566502873E2    -6.681927990537332E1     1.820103573352121      -9.170761706184449E1     1.424394967406565E2    -8.551544065638039E1     1.565158277924331E2
                        -6.913212787771316E1     5.336834527097641      -1.761247761270978E-1    8.724013543915535E1    -9.471509641985639E1    -1.158423528955568E2    -9.014616456028500E1     1.027631047998006E2
                        -8.772245461744157E1     1.384037395348062E2    -8.401859604934032E1    -1.304799046848539E2    -8.943398736593634E-1   -6.086287526692003      -8.912369102503362E1    -8.674443793324946E1
                        -9.785472824363166E1     4.935615755013933E1    -7.970918153560513E1    -1.406887063776148E2    -9.506632119917660E1     9.787426669211098E1    -8.929912881358187E-1   -1.120075133326547E1

 3.035000000000000E7    -2.331815928986983E-1    1.009683060759368E2    -6.692676568573863E1     5.192753665393338      -8.550535115789313E1    -1.483126253957764E2    -7.663255853264674E1    -6.608844939890909E1
                        -6.657639105133814E1    -3.337422060632207      -1.612147788554176E-1    8.682674366700783E1    -8.410566743495576E1     6.620647789337316E1    -9.550577348457743E1     1.701382318927543E2
                        -9.647740893097770E1     1.740344005254611E2    -8.365442672402894E1    -1.164820901198631E2    -8.909242716385739E-1   -6.368630151059436      -8.274631849869655E1    -8.423950667075981E1
                        -9.491436678915119E1     1.077854358307686E2    -8.874277313778103E1    -4.668827949066564E1    -8.666839609397141E1     7.482657023461186E1    -8.995747997470748E-1   -1.148943130005583E1

 3.037500000000000E7    -2.355495006984117E-1    1.006451450558179E2    -6.687204964049207E1     8.887369016124019      -8.848587462932517E1    -9.483310956362652E1    -8.708948157475946E1    -6.627269132350493E1
                        -6.613130112310223E1    -4.347499494536293      -1.737288574951176E-1    8.642325893845998E1    -9.052623944099267E1     1.738031359142302E2    -8.531050211977473E1     1.729436555953912E2
                        -8.081138988940127E1    -6.829468353291438E1    -8.886793226456413E1     3.275341507254295E1    -8.927291533965386E-1   -6.646976861664125      -9.644956888024113E1    -1.653086938959090E2
                        -8.311552429359321E1     8.602398817859776E1    -8.135473208376607E1     6.469301709840055E1    -8.275152213688128E1    -3.859066309606048E1    -8.988719335926017E-1   -1.178965622194221E1

 3.040000000000000E7    -2.353609671787170E-1    1.003454387981387E2    -6.648434214923307E1     3.093269249541649      -8.229405823569002E1    -1.903257485826105E1    -8.242890636445623E1     4.602911150236310E1
                        -6.668877007060802E1    -4.319546953074396      -1.617731729013812E-1    8.608291832453283E1    -8.300194830846054E1    -9.749462354035626E1    -9.268326441264915E1    -6.445392412223490E1
                        -1.075131485825944E2     9.774465600348509E1    -8.547140411806885E1     1.765038513817649E2    -8.906624199650000E-1   -6.977738926417268      -9.090383651365377E1    -1.296208807785779E2
                        -8.533568215312457E1     5.262571480030320E1    -8.034067343267523E1     1.031878051301032E2    -9.239534563928191E1    -1.730655950112307E2    -8.973686866692647E-1   -1.209010586617717E1

 3.042500000000000E7    -2.403652226744123E-1    1.000799818583029E2    -6.637528212395587E1     4.894404301063233      -8.428863943258335E1     1.105754506795318E2    -8.366043240743460E1     3.346985008688431E1
                        -6.789337766814076E1     2.776243299802810      -1.643038014950236E-1    8.565793533435345E1    -9.302872687936878E1     1.035579359860689E2    -8.061159265436345E1     3.687088327945228E1
                        -8.072084620049687E1     3.220428392382193E1    -8.993718377585813E1     3.646567213553543E1    -8.895552881530976E-1   -7.233139122411718      -8.327893602163000E1     3.506943065791938E1
                        -8.738109780240650E1     1.423776284762360E2    -9.103168508840135E1    -4.739799984794767E1    -8.528404962216385E1     8.188278430740542E1    -8.958294150581982E-1   -1.241152463142838E1

 3.045000000000000E7    -2.367838868219621E-1    9.974913120101328E1    -6.789211788054587E1     1.201874434693849E1    -1.000516958859333E2    -1.696977888967780E2    -8.306367975782179E1     4.420188589523092E1
                        -6.791364081768457E1     9.025046610857698      -1.672277062609912E-1    8.525912844361389E1    -8.350001654522806E1     9.492208484484429E1    -9.226233099602186E1     5.874020161418486E1
                        -8.178599849559463E1    -1.717890093796247E2    -8.845516096742185E1    -6.520309860449348E1    -8.949069077871370E-1   -7.557210933365004      -8.376167952238720E1    -1.086457297681002E2
                        -9.792710148510355E1     1.451717252218884E2    -8.706673669354876E1    -1.698316085353219E2    -8.423240802437292E1     1.460222078433804E2    -8.990228355248036E-1   -1.267581902703949E1

 3.047500000000000E7    -2.328437908354299E-1    9.943708921209093E1    -6.662439770273291E1     2.581666307561787      -8.306027094662115E1    -1.633736921931294E1    -8.741200736422064E1    -1.139880012556716E1
                        -6.568738853086859E1     1.786948982449645      -1.707026565094000E-1    8.489156085064630E1    -8.115516363248730E1     1.161632048373333E2    -8.358754325024745E1     8.887896165142423E1
                        -8.341924224946071E1     1.699122029145802E2    -8.367801520577348E1     1.786145032385235E2    -8.909868921371776E-1   -7.837618533286673      -8.335216760912219E1    -1.412564642980531E2
                        -8.617088256316356E1    -7.102391666721121E1    -8.199575364372066E1    -3.083786211054261      -8.357513066501369E1    -3.213716657268174E1    -8.981298935262783E-1   -1.298629474283425E1

 3.050000000000000E7    -2.304387661608531E-1    9.920496245535446E1    -6.768340323164775E1     2.285825105222090      -8.795830353884676E1    -1.570823917321075E2    -8.313363526739840E1    -1.316376126268299E2
                        -6.517062324919246E1     3.457867738322672      -1.634057637629248E-1    8.450539623795957E1    -8.958808620346198E1     8.401603854469329      -9.870985033056320E1    -6.442615351258478E1
                        -8.319952220830679E1     1.519708847319666E2    -8.865795393415044E1    -4.213244547581962E1    -8.969130935606472E-1   -8.146015057336641      -9.722251254994363E1    -6.025364176551576E1
                        -8.704289989663863E1     6.477136074346691E1    -9.269544658954986E1     1.188634691686834E2    -9.038352119706202E1    -9.907585260127453E1    -8.965557773047432E-1   -1.327803339846015E1

 3.052500000000000E7    -2.281339404481293E-1    9.888123508844741E1    -6.508545585174414E1    -4.047898297639041      -8.343758553517787E1     4.516141693946893E1    -8.419386500650415E1    -1.069278030027500E2
                        -6.667784657907200E1     2.075537753817064      -1.696400730063587E-1    8.408160544621495E1    -8.851603069252322E1     6.704067396899844      -8.217692271922709E1    -1.500161030627950E2
                        -8.167975740413147E1    -5.934730578743626E1    -8.997600641637786E1    -1.132098171576921E2    -8.953524444868193E-1   -8.415985602723939      -9.242044630500118E1    -6.318110814297349E1
                        -9.026984061850979E1    -1.513443378907745E2    -8.100668713152638E1    -1.679709033850202E2    -8.472651935517578E1    -2.433522025308456E1    -8.955943165007971E-1   -1.359704567455418E1

 3.055000000000000E7    -2.324724010412700E-1    9.861076362637452E1    -6.612152843235333E1    -7.501294876154027E-1   -9.176739923678817E1     1.391758477298488E2    -9.663706215221663E1    -1.240051871665865E2
