#  HZ   S   DB   R     50.00 
! Rohde & Schwarz Vector Network Analyzer 
! Rohde-Schwarz,ZNB8-4Port,1311601044102961,2.82
! Created: UTC 2/8/2019, 3:12:23 PM
! freq[Hz]                db:S11                  ang:S11                 db:S12                  ang:S12                 db:S13                  ang:S13                 db:S14                  ang:S14
!                         db:S21                  ang:S21                 db:S22                  ang:S22                 db:S23                  ang:S23                 db:S24                  ang:S24
!                         db:S31                  ang:S31                 db:S32                  ang:S32                 db:S33                  ang:S33                 db:S34                  ang:S34
!                         db:S41                  ang:S41                 db:S42                  ang:S42                 db:S43                  ang:S43                 db:S44                  ang:S44
! 
 3.000000000000000E7    -2.301084511827627E-1    9.608105467513109E1    -6.770853896513506E1     9.809735802533755      -8.119098614859901E1     7.831111701944640E1    -9.312481852450168E1    -9.848899202011273E1
                        -6.743112275436553E1     5.113880769875443      -1.705695848615154E-1    1.038134606446297E2    -8.766845820929521E1    -5.868308121972733E1    -8.618563665893396E1    -9.160914127769350E1
                        -8.157006516633740E1     1.173963685525330E2    -8.840873238646366E1    -1.776901447938200E2    -9.021047804005443E-1   -1.040803930623897E1    -8.677703935485297E1    -1.760820090331241E2
                        -7.958740094864477E1    -7.563518579366824E1    -8.606072381289708E1    -1.753587902805598E2    -8.796164012631149E1    -9.432306850256096E-3   -8.759458462056340E-1   -7.733076660858859

 3.002500000000000E7    -2.132984603898983E-1    9.572089200720950E1    -6.792518201811596E1     5.583801001888017      -9.446149136869359E1    -1.136363792624460E2    -8.043036926244938E1     1.674801570919920E2
                        -6.694018439171811E1     5.896593829271310      -1.726298587103205E-1    1.034647364238472E2    -8.635756748078508E1     6.651145481114180E1    -8.657251253244290E1    -1.277066856200851E2
                        -8.601264802473588E1     2.533121078550611E1    -8.364734407670021E1    -8.732744500776375      -9.069259048802442E-1   -1.067012651633922E1    -7.828308178797013E1     5.632324180650826E1
                        -8.878547020169043E1     1.023667513082850E2    -8.373852232392045E1     7.799882570930108      -8.593650238749093E1    -7.494133456522994E1    -8.715313112482975E-1   -7.989459290905397

 3.005000000000000E7    -2.215138206685852E-1    9.541492917912956E1    -6.653814873512316E1     4.571041238850734      -8.654722912562478E1     1.530908649451362E2    -9.203031134957990E1     1.698688788193846E1
                        -6.629917493233704E1     1.841469699842813E1    -1.712511758745605E-1    1.031836302429036E2    -8.909659714813199E1    -6.691438465278625E1    -8.401708680567607E1    -1.123409982639106E2
                        -8.272981349634625E1     8.633612993013813E1    -8.558325234905014E1     1.485965185198504E2    -9.068901202293429E-1   -1.100329323002028E1    -9.005972292562645E1     7.124728671603131E1
                        -8.118384227168981E1     1.782135479937769E2    -8.880225095155531E1    -2.572625808561686E1    -8.740681789040586E1    -1.519052366319839E2    -8.688509698313138E-1   -8.313120088364306

 3.007500000000000E7    -2.197703898063664E-1    9.502939345446607E1    -6.714144202303807E1     6.586810477759818      -8.271915357325230E1     2.952327189058171E1    -8.197738212337336E1    -1.022120243032336E2
                        -6.812862283698105E1     1.187514955748633E1    -1.759846979853723E-1    1.028148836404194E2    -8.473613564015915E1    -1.379033772304925E1    -8.466598273880253E1    -3.868598983595582E1
                        -9.113674674330238E1     1.449708870040892E2    -9.536050348506029E1     1.712744835528181E2    -9.013821065729722E-1   -1.127964949657119E1    -9.243304138689189E1     1.319227183166089E2
                        -9.309166603333379E1    -6.989914302499862E1    -9.939864266754657E1     1.086133157316284E2    -9.026038169524421E1    -1.255185184958774E2    -8.724554942303266E-1   -8.594323789653881

 3.010000000000000E7    -2.132716941307494E-1    9.468997519103216E1    -6.797225561085628E1     6.795116095498933      -1.023048520037539E2     6.675098861174395E1    -7.931079716523016E1     9.386493851448421E1
                        -6.699109639578444E1     1.688776588986088E1    -1.726425948965148E-1    1.025826459405677E2    -8.090573319269254E1    -1.448519646341666E2    -9.253523260343556E1    -9.223499478467591E1
                        -8.176651260818360E1     2.000947890282395E1    -9.171916547677137E1     1.699863756084123E2    -9.076416246077247E-1   -1.156061926732422E1    -8.667510976976003E1     1.000712175785146E2
                        -8.944354716468516E1    -5.347840117536883E1    -9.248283162712278E1     3.271437409790811E1    -9.500816996032128E1     1.600625360267221E2    -8.714485405742222E-1   -8.934813734583765

 3.012500000000000E7    -2.221537851374308E-1    9.438824516913095E1    -6.750464677381272E1     1.065995444799864E1    -8.849607708287024E1     6.361792618780039E1    -9.016695487431693E1     1.408962964818414E2
                        -6.894459713411908E1     6.155665934226513      -1.771274014345798E-1    1.022479593008106E2    -9.107334318674745E1     1.737159284908294E2    -8.121348285199835E1    -6.689322522631005E1
                        -9.325046611374120E1     1.286889569763880E2    -8.160227000945392E1     1.334014311726136E2    -9.020256885328710E-1   -1.187831325836114E1    -8.686501157817179E1    -1.462027590177578E2
                        -8.386735956442445E1     6.831839767272989E1    -8.979657271836655E1    -8.861406389938792E1    -8.790945634308024E1     2.719024620189740E1    -8.733097128680710E-1   -9.187351447504247

 3.015000000000000E7    -2.205009838060565E-1    9.398935124148136E1    -6.619096343178671E1     7.257823613756095      -8.510112732322068E1    -1.414026611154528E2    -7.846222019819550E1    -8.961021719870746E1
                        -6.702411860047390E1     6.774989620679785      -1.771046502320411E-1    1.019276713972199E2    -9.387847807930558E1     2.886367152471193E1    -8.111792172724449E1     4.410155156399884E1
                        -8.182531448484778E1    -1.224242230853250E2    -9.545831561407130E1     3.809294249865233E1    -9.067421870747696E-1   -1.216079167209545E1    -1.080464084583183E2    -1.548396184126137E1
                        -8.599781065668041E1     9.989345704636659E1    -8.369137972471526E1     1.762993630019359E2    -8.742560384329920E1     5.873453870807433E1    -8.727927288394697E-1   -9.496700217593089

 3.017500000000000E7    -2.163399671561660E-1    9.364408372526637E1    -6.718917925182345E1     1.219674418755561E1    -9.128935800268448E1    -8.309691088344479E1    -8.869285346837003E1     1.573473384903386E2
                        -6.593318126388898E1     1.328927939356020E1    -1.753344004914149E-1    1.016371064661324E2    -8.708528146763904E1     3.428589640041852E1    -8.166376156534145E1    -1.571903660696088E2
                        -9.370270892241018E1    -8.977703452065558E1    -9.589676328274916E1    -1.488717937552167E2    -9.038400573689458E-1   -1.246959399936715E1    -9.416392595019615E1    -1.611722258480415E2
                        -8.349082160619037E1     6.296393039752966      -1.068690681520840E2     1.461297817264686E2    -8.778724598920240E1     1.395853277302959E2    -8.720158460620077E-1   -9.776991244719634

 3.020000000000000E7    -2.157984267767108E-1    9.329482400189032E1    -6.756530954193941E1     1.552164013688627E1    -9.447549821333296E1     1.653641898151934E1    -8.003632851834800E1    -4.512589570556787E1
                        -6.632380059224721E1     8.373863215735915      -1.611241035945379E-1    1.013712231923168E2    -7.975247136704998E1    -3.063241636052767E1    -7.818198792456012E1    -9.365073726361516E1
                        -8.184340312392935E1     7.860763015550029E1    -8.721811216643343E1     9.544461453793937E1    -8.995925381353941E-1   -1.277920464507248E1    -9.092478774240891E1    -1.754334978873132E2
                        -9.295824331745409E1    -1.630861856019386E2    -8.526069108288525E1     1.790371412337518E1    -8.236064953105638E1     1.629424846334909E2    -8.732048815103194E-1   -1.003962238708899E1

 3.022500000000000E7    -2.108440520419974E-1    9.298919956220330E1    -6.662260817694087E1     4.272630007030614      -8.455295334312673E1    -1.614354325249005E2    -9.215346232544796E1    -1.306577905762002E2
                        -6.656578965544513E1    -9.555397061701644      -1.718505057717611E-1    1.009870186708006E2    -9.241468545683446E1     9.879124427196452E1    -8.654590665315175E1    -1.280214709843410E2
                        -8.821437880423022E1     1.093977959068479E2    -8.286648910617490E1    -8.912377851945352E1    -9.094860236142728E-1   -1.301899923524610E1    -8.639388784798942E1     1.158630972372427E2
                        -8.272458119138204E1    -5.294004388990378E1    -8.380550220141689E1     1.607592485909819E2    -9.122243449628795E1    -9.814608354787607E1    -8.697138350198873E-1   -1.038303237475895E1

 3.025000000000000E7    -2.179543281136870E-1    9.268540837922016E1    -6.787074114714258E1     8.112450050077689      -8.631594052223031E1     4.286859011419293E1    -8.790217990712948E1    -5.978393918133371E1
                        -6.737007941414858E1     1.661171547922419      -1.726395451729365E-1    1.007076102753679E2    -8.817528663365734E1     1.031962881587446E2    -8.787124589698307E1     8.630065595567959E1
                        -8.652801810365406E1    -1.792741336290565E2    -8.957818383037042E1    -1.246786049941989E2    -8.996738522259971E-1   -1.336818745735302E1    -8.456301919200728E1    -8.435610275587065E1
                        -8.195231272482218E1    -4.678657484078600E1    -9.017482123380668E1    -8.590733300366992E1    -8.759680778387011E1    -5.493935040962383E1    -8.675334803682789E-1   -1.064709556607735E1

 3.027500000000000E7    -2.180440804224594E-1    9.231196603745194E1    -6.662885378557688E1    -1.491243593021275      -9.206484762188339E1    -1.591822481139996E2    -8.531440570471979E1     4.269661233939149E1
                        -6.832874346215398E1     8.086319849337858      -1.706002303195701E-1    1.004048650200971E2    -9.153773703410195E1    -6.426677212881580E1    -8.384395282474273E1    -1.152586733549484E2
                        -8.872114205363243E1     6.659228988978168E1    -8.171214834329913E1    -7.504820381336005E1    -9.051558954988825E-1   -1.368262972776352E1    -9.777672395888985E1    -1.387074899026321E2
                        -8.524942426805612E1    -1.535757273091773E2    -8.445206311069163E1    -7.603195156573653E1    -8.439456556898945E1    -5.969774826946984E1    -8.702438128933260E-1   -1.096557939816793E1

 3.030000000000000E7    -2.177235456176220E-1    9.191242924543619E1    -6.691015367617000E1     2.453893181181057      -7.817586140494993E1     5.408439549845581E1    -8.996727910644830E1    -1.364884073991550E2
                        -6.604542559503015E1     1.192492944122768E1    -1.645862399706159E-1    1.001609838183538E2    -8.906611004729150E1    -6.327847373633744E1    -8.276059413189171E1     5.329092028721687E1
                        -8.632622107959963E1     1.029780880702869E2    -9.658912900869265E1    -5.760153856208585E1    -9.102563732243773E-1   -1.402399700630933E1    -8.350373416553009E1    -4.883393702873864E1
                        -8.898645171670323E1    -1.448640810139428E2    -9.067129479833119E1    -1.260373500391376E2    -8.645252651126698E1     5.745703216942575E1    -8.719522184042722E-1   -1.129307198882279E1

 3.032500000000000E7    -2.126447705444396E-1    9.160808307933039E1    -6.634421201783619E1     6.910247258546199      -9.357058832868631E1     8.971835501395556E1    -9.049834914419895E1    -2.499984057333266E1
                        -6.780067630988776E1     3.045232526405090      -1.667508953653852E-1    9.978035859715007E1    -1.037963087621308E2    -4.806748778699511E1    -9.594649178966294E1    -1.265956437666021E2
                        -8.917517414406986E1     4.624707086783248E1    -8.029122691055082E1     1.601696266048985E2    -8.996328665142993E-1   -1.431923708576489E1    -8.331338621154407E1     3.314329223599915
                        -8.265067178740212E1    -1.717112410726305      -9.884834737622370E1    -4.849695027630466E1    -8.037504283958063E1    -1.348928068189917E2    -8.668465190246357E-1   -1.152436405648524E1

 3.035000000000000E7    -2.134650516924037E-1    9.123665783295827E1    -6.757029059584878E1     5.007224138937056      -8.888925175777061E1     1.110733081773241E2    -8.539809569600686E1     1.216675209914891E2
                        -6.708863341232134E1     1.248664948461525      -1.621274400163600E-1    9.947695209849526E1    -8.145031396204173E1    -1.708908089708955E2    -8.815657750338004E1    -8.241565504770767E1
                        -9.292798780021117E1     2.035245958665928E1    -8.769325403500945E1     1.222274542515153E2    -8.985303514883951E-1   -1.465667352521305E1    -8.595871648025971E1     1.511397178960862E2
                        -7.993289031958992E1    -2.476948805801079E1    -8.879255292819775E1     3.107619525679592E1    -8.909840736441295E1     6.915157602250596E1    -8.785694761916009E-1   -1.182619763195442E1

 3.037500000000000E7    -2.115030243637387E-1    9.088639574069785E1    -6.766515757054702E1     8.772530063528494      -9.008795198663859E1     1.795496883810484E2    -8.109920716193216E1    -4.239864925709603E1
                        -6.647508041253937E1     5.542110094415363      -1.713166808515400E-1    9.911913518031656E1    -8.508524154985592E1    -1.294256354686648E2    -9.437801242462355E1    -1.445982158768008E2
                        -8.438297386870471E1     9.112889128038457E1    -8.565688037525901E1    -1.443000477441987E2    -9.001274759408127E-1   -1.492123702979892E1    -9.161370449458855E1     7.287415534306639E1
                        -8.465297995318666E1    -1.295501462113246E2    -8.132750042986116E1     1.623765005974295E1    -8.342751421150712E1     4.700671658208432E1    -8.698476621621012E-1   -1.211671846580074E1

 3.040000000000000E7    -2.083422004915721E-1    9.057359922240731E1    -6.717136228764886E1     9.269854216318112      -9.493245356962859E1     1.464701524766999E1    -8.342674962497546E1    -6.916458604721089E1
                        -6.675660646035618E1     1.878290535995485      -1.554061883188607E-1    9.887215090868490E1    -8.385943088035226E1    -2.693569065964331E1    -8.432667489207444E1     1.337423185097385E2
                        -9.082616496972952E1    -2.505527697291275E1    -9.047834291293657E1    -3.723658445845229E1    -9.025846404177074E-1   -1.521084933449135E1    -9.204017791366347E1     1.444304285481960E2
                        -1.076200213721237E2     9.579742937306942E1    -8.546859321238266E1    -1.374917255409994E2    -8.331035905898945E1    -1.317055594975575E2    -8.694809670427921E-1   -1.239026295698210E1

 3.042500000000000E7    -2.169988916020041E-1    9.019804801489528E1    -6.648794283503118E1     5.858531603100944      -7.730040255867642E1    -1.775716349081262E2    -8.217907548126510E1     5.112058988719409E1
                        -6.613723132394851E1     2.313396928424929      -1.726193924655076E-1    9.854456306923636E1    -8.661355334078957E1    -1.380661168400174E2    -8.087264979378057E1     8.022626905119820E1
                        -8.876612875506541E1     1.728600650117592E2    -8.444477049158223E1     7.688334538088455      -8.951876049422392E-1   -1.556491207572904E1    -8.120548509677560E1    -7.248514109634076E1
                        -8.342409003193492E1    -7.401178276048147E1    -1.020199294748244E2    -1.705976431612958E1    -1.037563880313959E2    -1.156878057972843E2    -8.690309016728666E-1   -1.270282845972328E1

 3.045000000000000E7    -2.139025691113813E-1    8.986618491884728E1    -6.626352272583604E1     2.629574265086477E-1   -8.456529355217690E1    -4.356323348105680E1    -8.239749856057699E1     9.689633513544270E1
                        -6.659682676543666E1    -1.354597447339468      -1.667831051735538E-1    9.822302075832789E1    -8.273964187315056E1    -1.189869057056457E2    -8.325043161123853E1     3.776497946667885E1
                        -9.342254290234007E1     1.523551179222602E2    -1.001390392929989E2    -2.144407248015646E1    -9.015484413691255E-1   -1.584324969407514E1    -8.463562349712815E1     1.200799187352474E2
                        -8.388584554170195E1     6.585885393607305E1    -7.990927467073279E1    -1.599681374003566E2    -1.017639555261075E2    -1.461459824355660E1    -8.681739382003431E-1   -1.297196732559372E1

 3.047500000000000E7    -2.100705749303429E-1    8.949655145018258E1    -6.669692016476589E1    -4.681376730639153E-1   -9.165285746928737E1     1.287420553418674E2    -8.079640053181649E1    -1.555204410951987E2
                        -6.666246288671773E1     9.008709277104872      -1.697837702191968E-1    9.792650537853785E1    -8.792651031158115E1    -1.391508085620842E2    -8.606561542228020E1     8.175686464487681E1
                        -8.711649803190861E1    -1.768726812954177E2    -8.754204663207268E1    -6.956340651889525E1    -8.911491430069329E-1   -1.614353508909327E1    -8.637591153623387E1    -1.199943983180295E2
                        -7.962262612479645E1     8.395154849426258E1    -8.938226400447854E1     2.830950305478718E1    -8.487479936471306E1    -1.730634278801460E2    -8.695662181173582E-1   -1.330628296476155E1

 3.050000000000000E7    -2.137721470364081E-1    8.916947910346704E1    -6.771058417353754E1     3.625180579501030      -8.802253265621846E1     1.481078250002341E2    -9.436783972531987E1    -1.294989596269697E2
                        -6.637080323840743E1    -3.681759411486651      -1.660963742411783E-1    9.762209551413892E1    -9.298570695818576E1    -1.435203840345163E1    -8.372035142754784E1     7.317185319966738E1
                        -8.595517842002481E1    -1.092501272180026E2    -8.865165020895334E1    -9.220733428673339E1    -9.004145386039595E-1   -1.643865473540070E1    -8.943797998997167E1     5.383784794317509E1
                        -8.123240254121804E1    -1.334418375259390E2    -9.764307212213920E1     8.043355424562158      -8.483264410919702E1     4.298917392917415      -8.683629657816372E-1   -1.358111378789490E1

 3.052500000000000E7    -2.043648903702143E-1    8.882766313380365E1    -6.553747384657115E1     4.136600133646063      -8.423499548019129E1    -1.052455281454075E2    -7.967158715448322E1    -9.640473307651392E1
                        -6.725239704792935E1     1.663301437314629      -1.648737065397851E-1    9.730099340762922E1    -8.518791922155870E1     1.029715668374451E2    -8.229225955470655E1    -7.764922263129601E1
                        -9.387107989427008E1    -4.935275152480551E1    -8.597612644975776E1    -7.103191375069142E1    -9.000124303852995E-1   -1.674996031103372E1    -8.961627130997306E1    -1.093039586216465E2
                        -8.385694522106050E1     3.700978177009053E1    -8.479990958132322E1    -5.595678083024597      -8.744183859988857E1     5.603073896399985E1    -8.683908249988176E-1   -1.388058177037315E1

 3.055000000000000E7    -2.102788027185706E-1    8.846029410734991E1    -6.521938028501312E1     2.918757007684883      -1.080604647164049E2     7.547186013664064E1    -8.381037058262784E1     9.713503522168382E1
