#  HZ   S   DB   R     50.00 
! Rohde & Schwarz Vector Network Analyzer 
! Rohde-Schwarz,ZNB8-4Port,1311601044102961,2.82
! Created: UTC 2/8/2019, 3:50:53 PM
! freq[Hz]                db:S11                  ang:S11                 db:S12                  ang:S12                 db:S13                  ang:S13                 db:S14                  ang:S14
!                         db:S21                  ang:S21                 db:S22                  ang:S22                 db:S23                  ang:S23                 db:S24                  ang:S24
!                         db:S31                  ang:S31                 db:S32                  ang:S32                 db:S33                  ang:S33                 db:S34                  ang:S34
!                         db:S41                  ang:S41                 db:S42                  ang:S42                 db:S43                  ang:S43                 db:S44                  ang:S44
! 
 3.000000000000000E7    -2.494218248744111E-1    1.046265688421720E2    -6.639746293691636E1     1.116629669863027E1    -1.010082225904420E2    -4.386257950447271E1    -8.694292581480681E1    -3.352391061512893E1
                        -6.720314263660882E1     3.815234281710969      -1.751918565817280E-1    9.212431595781789E1    -8.325454469452281E1    -1.561187215681993E2    -1.039320733307703E2    -7.442921902729641E1
                        -8.966680610174655E1     1.674170046183909E2    -8.460994850123471E1     8.338974444651605E1    -8.920942491021591E-1   -2.254347676289878      -9.579260538632994E1     3.029912112282991E1
                        -1.016015021209915E2     5.900442990333744E1    -8.822298278098722E1    -1.772638411069618E2    -8.395668361111632E1    -2.673844366060495E1    -8.966567761079770E-1   -7.250448480323144

 3.002500000000000E7    -2.403882286198772E-1    1.042816981590909E2    -6.583393327475824E1     8.097931099540478      -8.158637369144509E1     8.130094331327783E1    -8.017680458160571E1    -1.273258737800048E2
                        -6.606115524825088E1     1.004625802218251E1    -1.779189471428053E-1    9.176425804258318E1    -8.348405014639275E1     7.081100696753472E1    -8.848145350247677E1     7.968361094686604E1
                        -8.260255717801188E1     1.488641862427297E2    -9.463559404517808E1     5.040399223842158      -8.973841977445454E-1   -2.568630445531173      -9.140641964526608E1     9.521289260530139E1
                        -9.741520098318802E1     3.087776286339661E1    -9.001400003838072E1    -1.467607632061269E2    -8.546553427982039E1     1.587759017763170E2    -9.005939040627400E-1   -7.536592330400738

 3.005000000000000E7    -2.482654519914086E-1    1.040085756369414E2    -6.675421925113764E1     1.091494075167379E1    -8.642562399153670E1    -1.357195502410799E2    -8.931787161207549E1     8.227417505830712E1
                        -6.520020011045043E1     7.560374562419566      -1.749403072835682E-1    9.140704181677197E1    -8.248406943330767E1    -2.197051678183032E1    -9.796215999398369E1     1.703587936105187E2
                        -8.713545279619081E1    -6.905063131008156      -9.910714143253358E1     1.549798148911400E2    -9.029020557275440E-1   -2.862679808331226      -8.602020827042881E1     1.740615451104268E2
                        -8.914292311416206E1     8.102149260404960E1    -9.276061474575090E1     1.352213443420767E2    -8.985531005294057E1    -1.402082516850127E2    -8.973388612759252E-1   -7.888722530401623

 3.007500000000000E7    -2.511050119379562E-1    1.037250264663268E2    -6.624671579011364E1     1.263472699669860E1    -8.379657752487262E1    -3.999339170456568E1    -9.351625086745833E1     9.253428578383908E1
                        -6.530244025312639E1     5.181763780800806      -1.824973861504927E-1    9.099308902770666E1    -8.463532398270182E1    -1.320360808584678E2    -8.392830150314937E1     7.144922009761700E1
                        -8.641628507111052E1     1.049892158788414E2    -8.538630737026251E1    -3.339344337724512E1    -8.996532950795398E-1   -3.157668606750552      -9.148602635357054E1     3.579901417970549
                        -8.412211155693926E1    -1.639440321201583E1    -8.373040844059914E1    -4.638486464702314E1    -9.945553267803923E1    -1.007042193183669E2    -9.006821550819959E-1   -8.166342841791426

 3.010000000000000E7    -2.370971911168198E-1    1.033936609127804E2    -6.762600327050410E1     1.356948069868173E1    -8.746365352937067E1     3.050719231157391E1    -8.592086810103295E1     1.258874375870702E2
                        -6.442276912977286E1     7.397513198610509      -1.774663957334086E-1    9.068156048458887E1    -8.227143703464543E1    -1.762448970170972E2    -8.603268252626206E1    -9.154295306694779E1
                        -8.924097811005356E1     4.158997007291990E1    -8.343106224325879E1     1.141126610891981E2    -9.042836272030741E-1   -3.431334844833269      -8.315821454050108E1     4.398149504580472E1
                        -9.884098342900964E1    -3.719092447454106E1    -8.822634130005997E1     1.129571179061753E2    -8.495107342027376E1     5.619819283090811E1    -8.968002011470901E-1   -8.502352890003811

 3.012500000000000E7    -2.449195657715855E-1    1.031157972360251E2    -6.645976255724638E1     1.196932526084024E1    -8.875989815327944E1     2.512281497317724E1    -8.944760871416990E1    -4.371514629057487E1
                        -6.643372841417397E1     4.133578644996065      -1.728648317499494E-1    9.024610867374616E1    -8.432651717633902E1    -5.495988603195447E1    -9.440473238237046E1     3.950691922967693E-1
                        -8.828912345629789E1    -1.221240811115809E2    -8.601992470597872E1    -9.906439463551430E1    -8.933564642804830E-1   -3.711898685757549      -9.860848777646174E1    -2.241362398020890E1
                        -9.368557890254080E1    -1.143810286090377E2    -8.489644006381505E1    -8.244135616794158E1    -8.280880995938212E1    -1.778539383391123E2    -9.007322511093756E-1   -8.752323577344559

 3.015000000000000E7    -2.415670612272372E-1    1.028011848937394E2    -6.484993953999266E1     5.636834006978448      -9.250305497655481E1    -4.614185954265152E1    -8.916181709067681E1    -1.208321322003342E2
                        -6.533758884950989E1     9.881993815903169      -1.728816388271233E-1    8.989291142814226E1    -8.351518222126768E1    -1.250575641739851E2    -1.059442830666201E2     9.305548338687851E1
                        -9.478731339784898E1    -4.791881007993192E1    -8.990322393175393E1     3.530156378620236E1    -8.939857298106952E-1   -4.013790870763736      -8.979023466124646E1     8.462009988415841E1
                        -8.356972034212566E1    -1.304765711405043E2    -9.046143664659158E1     1.680532299571974E2    -8.366172116681085E1     1.628364775393870E2    -9.017148259515601E-1   -9.088627957388159

 3.017500000000000E7    -2.400760595317979E-1    1.025128500625071E2    -6.587137987803874E1     9.689762328388380      -9.020397090220274E1    -6.983513010213667      -9.015581591134824E1     7.640780328638527E1
                        -6.551424382610587E1     6.131844534114512      -1.738164504328024E-1    8.949031974977959E1    -9.132773196083646E1     1.045616040294517E2    -8.563437150139450E1     1.598001412376339E2
                        -8.564863410294274E1     6.721678589805453E1    -1.050583429134406E2     1.759950291063562E2    -8.936032360028685E-1   -4.303407212156821      -9.104254492008577E1    -9.547709587527541E1
                        -8.360462843049700E1    -1.334539174256996E2    -8.859299892829861E1     9.768317022939736E1    -8.312038334363217E1     9.201959953173815E1    -8.991853293415622E-1   -9.336157266607962

 3.020000000000000E7    -2.398277969708096E-1    1.022237569021909E2    -6.617935985219592E1     2.012305877826536      -8.782377039812215E1    -4.822425833065952E1    -8.480956191196211E1     8.872180185518432E1
                        -6.597141253243782E1     1.295926760855268E1    -1.639017179371515E-1    8.914203827439290E1    -7.832753805107514E1     1.018333942647504E2    -9.203822764399548E1    -8.864503921248171E1
                        -9.410350115682853E1     1.182058979524674E2    -9.157623007258962E1    -7.832540741453427E1    -8.929829185193196E-1   -4.603362198782940      -9.026731634936354E1    -1.554897632899042E2
                        -8.503431350411432E1    -8.228388445897321E1    -1.004424951252901E2    -1.337485607140651E2    -9.087708707856136E1     1.626517688313793E2    -8.974880823890765E-1   -9.701014057624658

 3.022500000000000E7    -2.341335566930897E-1    1.019113548580831E2    -6.515093546604534E1     5.110888384718790      -8.777082426217662E1     6.170047042944429      -9.511425541117889E1    -1.123632401646469E2
                        -6.582453733835428E1     9.511134403436660      -1.739981944139843E-1    8.876874577712708E1    -8.874817059405962E1    -7.896989024718164E1    -8.013016222905918E1    -7.644893945349639E1
                        -8.152169310028009E1     1.027250875987186E2    -8.290520099437705E1    -1.614898735144792E2    -8.906152725571698E-1   -4.856882389328081      -8.006728194706216E1    -1.718374981484227E2
                        -8.289366680056830E1     7.922596544665275E1    -9.301105515142005E1    -1.181274340930825E2    -8.153451388572356E1    -1.660370624021131E2    -8.988330907547116E-1   -9.985133079308355

 3.025000000000000E7    -2.390917245127556E-1    1.016467907771635E2    -6.580283995497028E1     3.634617929188910      -8.436154893834097E1    -1.320370551487584E2    -9.560581627754944E1     1.754870562342573E2
                        -6.683758823819888E1     3.322837621818222      -1.794806679598840E-1    8.837138270731360E1    -8.689854642533780E1     1.455086884561221E2    -9.383415229334715E1     7.867958746531568E1
                        -9.392553646054145E1     2.699408773923084E1    -8.568500496956746E1    -2.480537432796459E1    -8.970444483459551E-1   -5.153173384352883      -1.003704162117697E2     1.250407339833164E2
                        -8.118287776347958E1     1.582998496070890E2    -8.695353673307493E1    -5.854518945764490E1    -9.012088198021742E1    -1.031789544958254E2    -8.985586894605785E-1   -1.027550034795618E1

 3.027500000000000E7    -2.412361627874390E-1    1.013302356758873E2    -6.640799991049187E1     7.222013408390230E-1   -8.223080968766068E1    -1.473900682443304E2    -8.178415749387015E1     1.278651970807310E2
                        -6.531456269501148E1     2.504354331881697      -1.695373378422022E-1    8.791095074406414E1    -1.142692101828907E2    -2.653051497397543E1    -9.160787391958017E1    -1.463774530855588E2
                        -9.205787818406422E1     1.078079434777393E2    -8.339270929264697E1     1.629533805221832E1    -8.936997658102328E-1   -5.456127813229363      -9.464091176230895E1    -1.295537580971373E2
                        -8.885176991044776E1     9.310303681393897E1    -8.972813191676515E1     1.597589339726136E2    -7.801923658484999E1    -5.298395428001840E1    -9.013493098869456E-1   -1.057689653411427E1

 3.030000000000000E7    -2.375983091570004E-1    1.010445077636674E2    -6.526499284701581E1     6.820762110027419      -8.806040765138835E1     1.276531619711440E2    -8.527937568746057E1    -1.496492209935275E2
                        -6.511206314649334E1     2.640727552859080      -1.706842467395857E-1    8.759739586418837E1    -8.426702690445111E1     1.616214858643856E2    -8.465990432625472E1    -1.152757388328839E2
                        -9.348399972564732E1     1.535517891751067E2    -8.914092954599953E1    -1.216180307738155E2    -8.944649834976957E-1   -5.802111229857125      -8.843725648106384E1    -1.240133324997852E2
                        -8.960450832116747E1    -1.238410036906029E2    -9.193382654147240E1    -1.295464858314724E2    -8.508841002594336E1    -6.632796473389362E1    -8.938154505086277E-1   -1.088423694756759E1

 3.032500000000000E7    -2.437568498851442E-1    1.007055925176485E2    -6.608411971158901E1     1.986612446106249      -8.580029349232856E1     1.289915912705377E2    -8.121155317145761E1    -1.399361654854939E2
                        -6.711762610186398E1    -8.313561784187391E-1   -1.704847757588628E-1    8.720102217223857E1    -9.274796965802449E1    -3.538917649253584E1    -8.473922262688646E1    -9.082798154774203E1
                        -9.783018943701471E1    -9.650887167731979E1    -9.071412589088340E1     1.028912096917168E2    -8.954630278506530E-1   -6.057479512767938      -9.326146326383352E1    -3.580266536665335E1
                        -9.074888773885654E1     1.703427874647971E2    -9.303627910929129E1     1.197767165652347E2    -8.768815753465580E1    -1.296032384660986E2    -8.957468050694294E-1   -1.118812298662725E1

 3.035000000000000E7    -2.355633361851670E-1    1.004379350598898E2    -6.541044397284639E1     5.747937679389803      -8.286687917581727E1    -5.583555048732052E1    -8.441639739131709E1    -5.450703798050898E1
                        -6.545106566047099E1     6.848448478415211      -1.742324349576886E-1    8.680748623348630E1    -7.979877642799254E1     2.339904486800771E1    -9.016577855572743E1    -1.091031262943505E2
                        -8.785177795169638E1    -4.186686978336954E1    -8.606506644534200E1    -1.239382156859845E2    -8.925867747733125E-1   -6.354049742077072      -8.610443647123293E1    -1.321260384517639E2
                        -8.254148933781545E1    -2.727285821049831E1    -9.559592133963706E1     7.182221013189623E1    -8.983919751007574E1     1.933436760322960E1    -8.995856211367861E-1   -1.145404593875106E1

 3.037500000000000E7    -2.391372044366802E-1    1.001283927816546E2    -6.591425724533048E1     3.325034204360132      -8.561282743293317E1    -4.843407788134955E1    -9.529793150617307E1    -1.364406332356209E2
                        -6.420643829185883E1     1.265667580206823E1    -1.644742508426152E-1    8.638806190562369E1    -8.226621453414909E1     1.691324953146592E2    -8.020526034694314E1    -1.472032597796945E2
                        -8.077522236506985E1    -2.017012448584815E1    -8.656105489449425E1    -1.358073466166057E2    -8.918535301563573E-1   -6.650193779261786      -8.000327967944057E1     1.869683081314250E1
                        -7.810438369146847E1    -7.010391309657878E1    -8.949902097287716E1     4.643975579454781E1    -9.927020355883046E1     9.198112428686829E1    -8.956154473820903E-1   -1.179319710028222E1

 3.040000000000000E7    -2.373875040822037E-1    9.987498034167207E1    -6.517926949492232E1    -7.122460069786342      -8.376910758476339E1     3.209449043881465      -8.342267745594529E1    -8.495022635506042E1
                        -6.464076271794539E1    -5.059939831992020      -1.675843531287313E-1    8.605693958585235E1    -8.618768840540457E1     7.851841714065900E1    -8.371769515310581E1    -4.029728117693597E1
                        -9.169367878078322E1     1.250153992786137E2    -8.481902897366199E1    -2.535841555101533E1    -8.942041938849628E-1   -6.963227385489697      -8.374291769894683E1    -1.245055705532392E2
                        -8.351234183160165E1    -6.832800945073825E1    -8.643326367700695E1     1.586890397901542E2    -8.359408095432480E1    -1.722803324533920E1    -9.051160661217803E-1   -1.205907661988157E1

 3.042500000000000E7    -2.396579112606125E-1    9.961063120640117E1    -6.423527392955202E1     7.851541100777517      -1.024804567400458E2     1.319442014180020E2    -8.693417212174390E1    -3.883292142746224E1
                        -6.580587095686838E1     2.461022354515725      -1.751823368410527E-1    8.564686195461604E1    -9.603891396114821E1     8.676314571687595E1    -7.891895410621883E1    -7.863398179260373E1
                        -8.954867000312312E1    -1.359620659725825E2    -8.666676310882609E1    -9.425605511770081E1    -8.877437728162219E-1   -7.250852774921651      -1.008919459041885E2     1.546940360661942E2
                        -8.043984789247313E1    -4.674361823488320E1    -8.787757759802381E1    -1.635237876868592E2    -8.613018051037861E1     1.260480981531004E1    -8.999653328752422E-1   -1.237928931481303E1

 3.045000000000000E7    -2.399537933027089E-1    9.926221269837630E1    -6.544402694152582E1     4.924789583395352      -8.125039674906746E1     6.648011969356207E1    -8.034142802177023E1    -8.885356189016369E1
                        -6.463299172012447E1     2.275280976626186      -1.701420157565864E-1    8.521757600685396E1    -8.169905175362786E1    -4.352255440376572E1    -8.236123226379800E1    -4.124025806686436
                        -8.395535724134902E1    -3.713247068923185      -8.562526433834739E1     1.336845772966845E2    -8.929065775526646E-1   -7.530028558702477      -8.095523991383877E1     1.000388670084644E1
                        -8.356806529434053E1    -7.316759567108132E1    -8.876119180734548E1    -1.253229216375717E2    -8.491428322426857E1     6.197836720775877E1    -8.993601444217448E-1   -1.265665796690608E1

 3.047500000000000E7    -2.346579712327718E-1    9.895943714370858E1    -6.426882251213624E1    -1.588730811978575      -8.047907559803568E1    -5.447586759981806E1    -8.888780242454864E1     4.153499181824201
                        -6.475482462089845E1     4.532940571820507      -1.712844030146248E-1    8.481898814882089E1    -8.039089536706429E1    -1.797187162182441E2    -9.055447713987610E1    -1.156349549152768E2
                        -9.084780112381787E1    -3.975948571547097E1    -8.635678801503644E1    -2.436813681691121E1    -8.934054854870883E-1   -7.814855531073345      -8.431343670061230E1    -8.720341336154387E1
                        -8.389357387016077E1    -1.271872113074576E2    -9.512389620000319E1    -1.129941071959496E2    -1.098787634627617E2    -2.687966217048498E1    -8.988805998852106E-1   -1.297449630761317E1

 3.050000000000000E7    -2.371713438474391E-1    9.869935369815143E1    -6.531031002794688E1    -1.623652199874459      -8.175007887346730E1    -4.281196476035852E1    -9.738715839036921E1     9.459874035511031E1
                        -6.423525075381573E1    -7.482092552623215      -1.702533770046185E-1    8.447893155755803E1    -8.868108109753160E1     1.303719170971817E1    -8.813793877078530E1    -1.634656449328913E2
                        -8.433316258979653E1     5.680655552782805E1    -9.103938004577194E1    -1.337811811314782E2    -8.939287032305594E-1   -8.143942921771366      -8.336250497966363E1    -7.307642030017541
                        -8.259474353471524E1    -1.275435699511631E2    -8.593890765876311E1    -1.013979378363016E2    -9.534570266383987E1    -1.114686560368601E2    -8.989793886903951E-1   -1.329554121414487E1

 3.052500000000000E7    -2.310922245931302E-1    9.837570586401508E1    -6.411967776999671E1     6.653849011980826      -8.417376838813217E1     3.172044316533064E1    -8.846512404100042E1     3.611260844474524
                        -6.523720452046892E1     7.876469261318473      -1.703407667643287E-1    8.407208976218065E1    -9.983556674360436E1     1.133299737375944E2    -8.565666749710442E1     1.442102413669486E2
                        -8.378483647019196E1     6.314999575636222E1    -8.194683536782165E1    -1.348205187728113E2    -8.905918522762226E-1   -8.445897746827624      -8.334215582767135E1     6.911255545591023E1
                        -8.408202137221193E1     3.439675787198495E1    -8.727001974913301E1     1.646429637949182E2    -8.678291392956336E1    -9.674130405664262E1    -9.000301031456004E-1   -1.358068543684156E1

 3.055000000000000E7    -2.373847283384639E-1    9.806896538493832E1    -6.425533386052453E1    -5.532746384864542      -8.546691911163106E1    -1.244517345223913E2    -8.152038973027295E1     3.325777293428752E1
