#  HZ   S   DB   R     50.00 
! Rohde & Schwarz Vector Network Analyzer 
! Rohde-Schwarz,ZNB8-4Port,1311601044102961,2.82
! Created: UTC 2/8/2019, 2:59:22 PM
! freq[Hz]                db:S11                  ang:S11                 db:S12                  ang:S12                 db:S13                  ang:S13                 db:S14                  ang:S14
!                         db:S21                  ang:S21                 db:S22                  ang:S22                 db:S23                  ang:S23                 db:S24                  ang:S24
!                         db:S31                  ang:S31                 db:S32                  ang:S32                 db:S33                  ang:S33                 db:S34                  ang:S34
!                         db:S41                  ang:S41                 db:S42                  ang:S42                 db:S43                  ang:S43                 db:S44                  ang:S44
! 
 3.000000000000000E7    -2.276549981114857E-1    9.606905387040371E1    -6.952236165906767E1     6.457706967760470      -9.398684155753408E1    -1.102260554654512E2    -8.124153750022011E1    -1.472728050615046E2
                        -7.226818863512625E1     8.916956594943153      -1.774430485118023E-1    1.045503628010245E2    -9.027829817358126E1     1.441805034291837E2    -8.709337933745870E1     1.543791174960311E2
                        -7.976695910924724E1    -1.395544329678118E2    -8.725565517064332E1     1.636223589589149E2    -9.019806585385414E-1   -1.039954376290792E1    -8.623172381093369E1     8.053816924926824E1
                        -8.707685203206836E1     5.648969175294435E1    -9.093069424514921E1    -7.121200565639053      -8.868553124818604E1     1.771686370056565E2    -8.733300999286103E-1   -7.725202568347147

 3.002500000000000E7    -2.171664575271176E-1    9.568707237368105E1    -7.019908691527414E1     1.625428501713062E1    -8.191624458230950E1     1.736371852416862E1    -8.445937862103817E1     1.557692470098767E2
                        -7.247861423449149E1     1.049728116508338E1    -1.764623120715305E-1    1.042264844033630E2    -8.463038790612114E1    -1.036790492813520E2    -8.308230586478713E1     1.378199339432432E2
                        -7.957180417346250E1     1.732585225121066E2    -8.831776463334757E1    -2.801831303712691E1    -9.024838980608897E-1   -1.064851168516319E1    -9.298635218491629E1    -3.535893293138157E1
                        -8.297146360888422E1    -2.852565605369931E1    -8.743986420764048E1     1.538293699457493E2    -8.646161118927907E1     8.332964475474111E1    -8.703448138659998E-1   -8.027165818838196

 3.005000000000000E7    -2.258109656858638E-1    9.540005174031248E1    -6.982259677049521E1     6.556089406880640      -8.575971164682855E1    -4.935107350415152E1    -9.485486514400115E1     1.780984401686011E2
                        -7.082723060881351E1     1.153620271359799E1    -1.719842691337057E-1    1.039168424696176E2    -8.279648945973574E1     2.198725371896825      -8.031464034720156E1     1.351879248430401E2
                        -9.285858425905562E1    -1.221031487299440E1    -8.682529166902961E1     7.178688522878161      -9.079386359573951E-1   -1.093654269243245E1    -8.065266066884183E1     1.369047574193174E2
                        -9.392564837661044E1    -1.368882875192527E2    -8.871641934781204E1    -1.352967402790112E2    -9.272739578735994E1    -6.026562089344611E1    -8.716747790346824E-1   -8.316319785919234

 3.007500000000000E7    -2.237680234297948E-1    9.498148050196961E1    -6.956399882904188E1     1.644680614865667E1    -8.251577409742674E1    -1.140954600233332E2    -8.123330891765620E1    -3.706610838546649E1
                        -6.992375205752285E1     3.233539739914457      -1.785936989648273E-1    1.035501376383637E2    -8.789789898582311E1     3.889891880073400E1    -8.232018139457787E1     1.272871621282862E2
                        -9.004126059656316E1    -1.017343962411103E2    -8.288539316325642E1    -8.731699979650580      -9.054369474709302E-1   -1.123608192411462E1    -8.166056465013726E1    -6.801530112913552E1
                        -9.525323635174514E1    -1.619567527067792E2    -8.282368607439621E1     1.755709092156781E2    -7.964196177647193E1     1.587363304106276E2    -8.720188763411150E-1   -8.603064487672860

 3.010000000000000E7    -2.205484822154917E-1    9.468533339870065E1    -6.989480584667160E1     2.675300383056068      -8.019796598017534E1     1.781060070276238E2    -9.011568252154079E1     1.160308436404954E2
                        -7.013579075658269E1     1.456916766427052E1    -1.720383134691579E-1    1.033770926971664E2    -8.671317905460391E1    -3.553399373168743      -9.503537682676594E1    -6.927218809651309
                        -9.556545572902570E1     1.597123711136860E2    -9.266157328169156E1    -1.413451292684758E1    -9.044808742066599E-1   -1.156872563862304E1    -8.741629832271460E1    -9.744178016444036E1
                        -8.622620151145469E1     8.828430883626962E1    -8.685276904574644E1    -1.357060841524388E2    -8.777814574062748E1     5.322551743808045E1    -8.680225163353537E-1   -8.918055101208486

 3.012500000000000E7    -2.234171618221096E-1    9.432220511255640E1    -7.117085647755157E1     4.988207067220551      -8.158223983543495E1    -1.495686131458425E2    -8.096505326539278E1    -1.122516066094858E2
                        -6.986820432572100E1     7.774059275597347      -1.749713386719984E-1    1.030381936652343E2    -8.362568661068103E1    -1.477601729820305E2    -8.246826753365875E1    -7.969935327030989E1
                        -8.969408857390070E1     1.294221379071692E2    -9.467940547544801E1    -5.697269790310448E1    -8.986724980115414E-1   -1.186086860800320E1    -8.440434709084144E1    -6.687516876946995E1
                        -9.604517092699390E1    -1.303039783629533E2    -9.148910123108728E1    -1.767411289125814E2    -8.571637556263289E1     1.138793588825387E2    -8.722473681252817E-1   -9.190382079113595

 3.015000000000000E7    -2.248398990128869E-1    9.393000265657068E1    -6.947395973722739E1     1.280067258678511E1    -8.539557719088677E1     1.286717563045490E2    -8.575841152472535E1    -7.936185029136223E1
                        -6.781059972720435E1     1.482136053898339E1    -1.685243140585299E-1    1.027123555827937E2    -9.190788981768164E1     1.473770046110859E2    -8.090251704660894E1     5.591152940502742E1
                        -8.285044771526256E1    -1.183721225738565E2    -9.123626820825722E1     1.267429748474676E2    -9.050115935665658E-1   -1.218138211798549E1    -8.024184605269969E1    -1.606755075230171E2
                        -8.575768814078887E1    -4.636117813920563E1    -8.675386161484906E1    -1.256413995972557E2    -7.837408658968143E1    -4.078330832343908E1    -8.746640682793110E-1   -9.518656989445677

 3.017500000000000E7    -2.207103276600575E-1    9.360385902071785E1    -7.061066362619454E1     1.006595393394988E1    -8.375344825478319E1     8.697372660877436E1    -8.420797040265752E1    -1.763365040122413E2
                        -6.982683027827557E1     1.639392820715467E1    -1.776530531749329E-1    1.023833552159344E2    -9.244575061630141E1     4.432758234446069E1    -8.724322350674902E1     3.793073247529719E1
                        -8.045687316449454E1    -2.939342644020520      -9.135792930684060E1    -1.771316286682365E2    -9.023736678105374E-1   -1.248225451163968E1    -9.647049886089215E1    -1.891273485491990E1
                        -8.557784377739677E1    -1.427874550372606E2    -8.910622479530585E1    -9.680944727133360      -9.096957760150373E1    -5.688647450376001E1    -8.658419960438535E-1   -9.780045102813993

 3.020000000000000E7    -2.232686443342834E-1    9.327342738785059E1    -6.984658397133094E1     1.851573467025729E1    -8.124224833059650E1     1.206996293663364E2    -8.384979419121632E1    -5.101582978303673
                        -6.784879349061004E1     1.967494592621489E1    -1.667106282905650E-1    1.021363416308171E2    -8.361777056903945E1    -8.201905502969646E1    -8.375743611020020E1    -3.220258988544849E1
                        -9.057974999828798E1     4.202514682013112E1    -9.814052893864636E1    -1.415192016093756E2    -9.040158496247176E-1   -1.278482600056684E1    -9.398465668466906E1    -1.208654560219658E2
                        -1.071327583912051E2    -3.137722190845791E1    -8.687706338234462E1    -1.568975410015020E2    -8.952170569333198E1     1.240076126565894E1    -8.714202919048739E-1   -1.007350348819421E1

 3.022500000000000E7    -2.209992342393703E-1    9.291869521300995E1    -6.931668430508574E1     8.517305437365243      -8.847231895235787E1    -2.670589445759937E1    -8.052818764181735E1    -1.762644471483301E2
                        -7.192078920412303E1    -5.029533163852335      -1.785556762178898E-1    1.018210376841622E2    -9.087853413178198E1     3.388040958262028E1    -8.504970963020438E1    -5.748738971479502E1
                        -9.594314762071180E1    -1.294039999914366E2    -8.534051735487090E1    -1.116931497399548E2    -9.059675900081587E-1   -1.308412523345004E1    -8.587909324921016E1    -8.409299813717452E1
                        -8.179232208737027E1     6.478296888323877E1    -9.559466492130716E1    -1.431903644818327E2    -9.638007518846865E1    -1.658188372078743E2    -8.708173700541154E-1   -1.036187647788315E1

 3.025000000000000E7    -2.238621759902279E-1    9.262427184345451E1    -6.868039783102765E1     6.358893813107883E-1   -9.173810106787136E1     4.957936012048745E1    -8.502930518353297E1    -8.162102918233695E1
                        -6.920680734218588E1     1.346949121768253E1    -1.727004858121735E-1    1.014815571703995E2    -8.763230120656674E1     1.741599282513912      -8.670659181798553E1     4.711188590060607E1
                        -9.235525433268846E1     1.657652806669165E2    -8.309436985706554E1    -1.877055142919407E1    -9.092658721729294E-1   -1.332519675735192E1    -9.087204413025052E1     3.413003131592301E1
                        -8.304645489106167E1     1.783522108405582E1    -8.588572085994983E1     7.206178941583679E1    -9.854027043618115E1    -8.705672888071452E1    -8.668329908426848E-1   -1.061204459413997E1

 3.027500000000000E7    -2.245391207109172E-1    9.226295255215200E1    -6.934662370220161E1     9.596059271938321      -8.344438738851251E1    -4.461713691728088E1    -9.795409165100506E1    -4.429800710590794E1
                        -6.912340546892976E1     6.278990326585329      -1.783750627766094E-1    1.011392534458473E2    -9.504739060335649E1    -1.207528416825724E1    -8.708967452358687E1     9.146454228383904E1
                        -8.483313447164611E1     1.503711935331225E2    -8.659965444014922E1    -6.892197264500119E1    -9.069284840987448E-1   -1.365871377317988E1    -8.915975051748730E1     1.400959709323172E1
                        -8.493217650122845E1    -8.531903065201854E1    -8.524799949192776E1    -1.362060014300802E2    -9.698851389180254E1     5.951900686278493E1    -8.719560786548490E-1   -1.095457788638917E1

 3.030000000000000E7    -2.217326635087799E-1    9.191938066803442E1    -6.837980438804624E1     4.338416123773862      -8.551846947472100E1     7.450298645915430      -8.422954616516131E1     1.138580144429576E2
                        -6.891565260922312E1    -4.976658262880357E-1   -1.665290469115363E-1    1.008462874283526E2    -9.363297783137082E1     1.800903019056054E1    -8.736157717184641E1    -9.853730682820393
                        -8.503755391885977E1     1.769494832623385E2    -9.197467459287773E1    -8.088504085740453      -9.013767673047302E-1   -1.404803538997063E1    -8.636244584392617E1     1.480031065949873E2
                        -8.598066532052754E1    -1.339015638824989E2    -8.608868246201494E1    -1.260877671121287E2    -8.934259210613477E1     8.590968756303758E1    -8.685257703704125E-1   -1.124571475194787E1

 3.032500000000000E7    -2.222530311751517E-1    9.159188152840159E1    -6.938612540760306E1     9.250398186358961E-1   -8.438221598131797E1     7.653761904476463E1    -8.564179777459762E1    -4.691220479617100E1
                        -7.170741469676679E1     7.150360940933324      -1.790823241189102E-1    1.005333473059072E2    -9.486586483693129E1    -1.245849971298527E2    -8.194599871428625E1     9.804388923771498E1
                        -8.519077241697528E1     4.103435100396307E1    -8.095612608894410E1     4.947779678333333E1    -9.070806208794364E-1   -1.431120632244269E1    -9.266100409355722E1    -5.794486311643575E1
                        -9.017532262508910E1    -7.186405135731543E1    -8.893984031419220E1     4.888788079127323E1    -9.400869485827610E1    -8.804543968114554E1    -8.701843673482410E-1   -1.152302562111822E1

 3.035000000000000E7    -2.166717100420808E-1    9.122126678855091E1    -6.885295118892090E1     1.717049608774642E1    -8.341569605723664E1    -1.386616347304742E2    -1.069375730755426E2    -3.332476265977680E1
                        -6.919202129118757E1     2.051897447533179E1    -1.639764853845325E-1    1.002450216870778E2    -8.478199222366169E1    -8.921609567962966E1    -9.135560306134838E1     1.000152379145100E1
                        -9.100748868452041E1    -1.517346776318700E2    -8.790302555303506E1     4.177186878138144E1    -8.986823453774686E-1   -1.456996809954045E1    -8.690873738929632E1    -6.282471602000804E1
                        -8.404655353753567E1     1.215783924785623E2    -8.269425444035120E1    -8.604294136133366E1    -8.249032620642294E1    -1.180752149474992E2    -8.703868440636833E-1   -1.178601624687833E1

 3.037500000000000E7    -2.146797102813869E-1    9.086022723668806E1    -6.939706101732600E1     5.690492982192438      -9.444524781339499E1    -9.340730920997919E1    -9.442150087383629E1    -1.001175774875036E2
                        -6.902514131742304E1     2.356472243496433      -1.734418042700699E-1    9.993096952604520E1    -8.987107466486651E1     1.315264845371660E1    -8.469446339038358E1    -4.968931138888459E1
                        -9.788498878578722E1    -4.831377011812117E1    -8.329524377696041E1     1.438694008784387E2    -9.050141168282027E-1   -1.489839323459781E1    -8.413662274988496E1     9.213780308280798E1
                        -8.951146056592012E1     1.346937511628080E2    -8.348240539625927E1     1.323021148862813E2    -9.721267770812267E1    -1.291000950775503      -8.646424478872115E-1   -1.209819188779042E1

 3.040000000000000E7    -2.200302163518219E-1    9.053194538936862E1    -6.840681202091245E1     2.664552977194323      -8.533841397776848E1     1.667158468329403      -8.034906436882520E1    -6.831804849939945E1
                        -6.898666197279498E1     6.931613036578091      -1.642688004655045E-1    9.967463275943715E1    -9.398327587647930E1     1.453108536542888E2    -8.159760992200447E1    -1.371861081890182E2
                        -8.886767669890539E1     1.646690466514797E1    -8.213085322982538E1     1.106641901373190E2    -9.058829422435848E-1   -1.521343689729709E1    -8.844538839148093E1    -7.963014405001668E1
                        -9.356778025010497E1    -9.342555602359947E1    -8.843332397540110E1    -3.048957396772504E1    -9.430711011984838E1     5.033847399578814E1    -8.725324907211008E-1   -1.239550086798610E1

 3.042500000000000E7    -2.238412572151753E-1    9.019408630778945E1    -6.907337312405809E1    -5.314483976242976      -7.873239109670519E1     1.573141735078978E2    -8.859752970512506E1     1.349487351650851E2
                        -7.137159307450686E1     3.599227840170196      -1.737232337390915E-1    9.936408679590946E1    -8.824319760169210E1    -5.776314315024506E1    -8.909733388557822E1     2.821876426855860E1
                        -9.090081955531011E1     3.598809524628278E1    -8.352514641417655E1     1.469821300800225E2    -9.007090546303614E-1   -1.553568614970089E1    -8.600795782484374E1    -8.880161402630303E1
                        -8.362116399370591E1     1.430930737170370E2    -8.179650956166600E1     5.737299635295464E1    -8.763154657639062E1     7.222598720150201E1    -8.715057989098501E-1   -1.270481338890331E1

 3.045000000000000E7    -2.180847465149586E-1    8.980098672856232E1    -7.136576079081505E1     1.160724579473166E1    -8.101985151461115E1     5.445749580438815E1    -8.733756663383899E1     5.005654500697910E1
                        -6.953124401353159E1     8.264855841979234      -1.657359912845549E-1    9.906272612964258E1    -8.641164891483231E1     1.418140980804483E2    -8.645969289973817E1     8.674995273683619
                        -8.626316280757760E1     9.615273416715334E1    -8.659708657977639E1    -9.812345214892784E1    -9.043026626888818E-1   -1.583152475074853E1    -9.196878429448518E1     7.517673726010757E1
                        -8.752850676427654E1    -4.140510390597386      -8.553691839359816E1     1.472439620906675E1    -8.494199823797513E1    -9.207921729496430E1    -8.672072038026362E-1   -1.300834175979457E1

 3.047500000000000E7    -2.192164800130418E-1    8.947352926351677E1    -6.781273717441835E1    -5.440738382335187      -8.641367623621137E1     1.754564607052867E2    -8.575489887279402E1    -1.246689791067194E2
                        -6.969935237128109E1     1.638327099743357E1    -1.760075051414972E-1    9.870611493823158E1    -9.555208859908080E1     4.271005025175744E1    -9.665218910092565E1    -1.068076889219429E2
                        -8.589625812398857E1    -1.107836121211273E2    -9.027185428722318E1     2.357649812104567E1    -9.006731047771401E-1   -1.610361809366159E1    -8.103131701672601E1    -5.358688261811688E1
                        -9.571877655552378E1    -1.185242425805478E2    -8.412291098183501E1    -2.499824363501076E1    -1.094547279274214E2    -1.487032973240674E2    -8.683851357370819E-1   -1.330790041577663E1

 3.050000000000000E7    -2.139603519482491E-1    8.915711006848748E1    -7.032830502509383E1     5.483210216121288      -8.388056094417883E1    -1.345961417249833E2    -8.198032190984989E1    -2.446763959071825E1
                        -6.918436914534802E1    -6.355972721208014      -1.611791611105749E-1    9.841139354416467E1    -8.101649219720953E1     2.739476841038921E1    -8.379576915683452E1    -1.662159046557378E2
                        -8.659601281000482E1     4.591933527998446      -9.206743189771346E1     1.098038216191998E2    -9.073100790818546E-1   -1.643783287259204E1    -8.500961099051828E1     6.157709086220080E1
                        -8.715953029418222E1     1.303292543291373E2    -8.152832247389739E1     2.139293320148353E1    -8.866819782044651E1     1.279088632297016E2    -8.712700535420636E-1   -1.356277533934637E1

 3.052500000000000E7    -2.141201291226033E-1    8.877365131682603E1    -6.834698716656160E1     1.273529728541218E1    -8.916526430076424E1    -1.278417025867026E2    -9.062585911534464E1    -8.980191372966290E1
                        -6.832032509353654E1    -1.799809302840371      -1.674513483616501E-1    9.811193514650047E1    -9.143190094255692E1    -1.149324564234274E2    -9.359708892875965E1    -7.063924354000939E1
                        -8.895293850893368E1     5.843693183397070E1    -9.286131579082506E1    -6.187094587316184E1    -8.989176179630680E-1   -1.676375364985070E1    -8.542745754163602E1    -4.918708856499749
                        -7.794838866801364E1     3.393158703776785E1    -8.453818931439713E1     9.944107230272850E1    -9.026270046207563E1    -1.212957102462788E2    -8.695568104202467E-1   -1.388864849064576E1

 3.055000000000000E7    -2.164145141139608E-1    8.840989406444103E1    -6.998933506460594E1    -1.100485246337373      -8.334533444704019E1    -1.757207901333100E2    -9.497385595788757E1    -1.273416093482670E2
