#  HZ   S   DB   R     50.00 
! Rohde & Schwarz Vector Network Analyzer 
! Rohde-Schwarz,ZNB8-4Port,1311601044102961,2.82
! Created: UTC 2/8/2019, 3:15:09 PM
! freq[Hz]                db:S11                  ang:S11                 db:S12                  ang:S12                 db:S13                  ang:S13                 db:S14                  ang:S14
!                         db:S21                  ang:S21                 db:S22                  ang:S22                 db:S23                  ang:S23                 db:S24                  ang:S24
!                         db:S31                  ang:S31                 db:S32                  ang:S32                 db:S33                  ang:S33                 db:S34                  ang:S34
!                         db:S41                  ang:S41                 db:S42                  ang:S42                 db:S43                  ang:S43                 db:S44                  ang:S44
! 
 5.275000000000000E7    -3.816085206481624E-1    1.505925215705221E2    -2.940286731398994E1     1.321520232155463E2    -7.961521434191134E1    -2.181360960453498E1    -8.687167226116431E1     1.051857392407826E2
                        -2.945927499930620E1     1.320888718603250E2    -2.079464419491404E-1   -6.455639435109012E1    -8.514168649939676E1    -3.975169175905479E1    -6.915879147876439E1    -9.048784400743550E1
                        -9.286053843411051E1    -1.150343203458814E2    -9.503640513804160E1    -1.729961663165243E2    -1.377786742563948       7.195504933256915E1    -8.419485000596794E1    -1.468504362208804E2
                        -8.765118900398397E1    -1.252773109999215E2    -6.832489045369100E1    -8.101708386099503E1    -8.596175871763889E1     1.205696627218595E2    -1.394341052714730       7.881960087246590E1

 5.275025000000000E7    -3.751657209729759E-1    1.505987828037123E2    -2.945505795301150E1     1.332261280824503E2    -8.207798096287361E1     1.752726006832596E2    -8.418436876391928E1    -8.721198171313419E1
                        -2.946833531481179E1     1.324759495430715E2    -2.030372398343418E-1   -6.457478833954507E1    -9.026753916492203E1     1.643204298614621E2    -6.903136424632079E1    -9.352162652295962E1
                        -9.691145283482473E1     1.281461619797350E2    -9.170339815690996E1    -9.059351086857076E1    -1.376625966421367       7.198821038411448E1    -8.467450514569077E1     9.425439370572629E1
                        -8.733125338817105E1     9.566578766926571E-1   -7.087489134734723E1    -7.261571416559465E1    -7.834178169467900E1    -5.100740626106636      -1.391682872909175       7.878663221148779E1

 5.275050000000000E7    -3.736656523271487E-1    1.505973099883042E2    -2.946854370353823E1     1.331935482853515E2    -8.485135265272085E1    -1.623339260078321E2    -8.635398948675210E1     5.282825089241913E1
                        -2.941401841552041E1     1.325827539346847E2    -2.086447931089221E-1   -6.459009225478627E1    -8.683363706793371E1    -1.283906203365633E1    -7.331229684269420E1    -7.704051249201773E1
                        -8.307397105810416E1     7.594201114000472      -9.390371818691804E1    -5.220652259806412E1    -1.377553823557561       7.195660811096121E1    -8.208011267090262E1    -1.621705336273780E2
                        -8.468935050089283E1     1.240824832004111E2    -7.037178853102085E1    -7.957770958158687E1    -8.620557232325048E1    -1.525069707224260      -1.394598622421190       7.878639551444908E1

 5.275075000000000E7    -3.756876720901561E-1    1.505863204016313E2    -2.936424384989169E1     1.328188043632066E2    -9.340692871076564E1    -9.788882182308603E1    -8.006119095931901E1    -1.608245526941753E2
                        -2.945512838007046E1     1.326267387807596E2    -2.099446612988279E-1   -6.461169212951050E1    -8.654286708614164E1    -2.258180112317934E1    -7.066599933287903E1    -6.808132577660200E1
                        -9.745877329175588E1    -4.037681936606969E1    -8.273770816463764E1     2.641399411208815E1    -1.379604021282732       7.195455954396407E1    -8.841249260684963E1     1.732206253212740E2
                        -8.764743028413358E1     7.720625390580766      -7.178240832862464E1    -7.819693985385891E1    -9.011031754779413E1     3.820875581845233E1    -1.392771126037286       7.879207380899187E1

 5.275100000000000E7    -3.760372110590380E-1    1.505861336251057E2    -2.942140753129227E1     1.330216317586646E2    -8.696290064844948E1     1.380657853580423E2    -1.035014064653666E2     7.093953189785663E1
                        -2.945342652319541E1     1.326015199287282E2    -2.076397440079618E-1   -6.462913794920402E1    -8.375351576205433E1    -5.401673216260868E1    -7.014396243457500E1    -7.792178033029408E1
                        -9.310745757046098E1    -1.248175009952000E2    -9.092268753470529E1     1.294821460616906E2    -1.378309668416458       7.193312032384287E1    -9.339288980222349E1     1.450739143869665E2
                        -8.695509970879010E1    -2.069052942380362      -7.257000072591410E1    -8.952446500881182E1    -8.531412442036850E1     4.377006295862698E1    -1.393136098159612       7.878597757374099E1

 5.275125000000000E7    -3.735265048310441E-1    1.505713979428313E2    -2.941076808701424E1     1.327800486404199E2    -8.124968600611133E1     4.170854190468164E1    -8.663053442169128E1     1.617446180671467E2
                        -2.940487687759608E1     1.324797376345770E2    -2.092388640268675E-1   -6.462444337058253E1    -9.673816908687996E1    -4.592140227246258E1    -6.889829385717077E1    -9.850225278262249E1
                        -8.481900542197769E1     5.429638041886519E1    -8.699125702623473E1    -5.447564525885077E1    -1.377891145327621       7.194976646762758E1    -8.159912118716095E1    -5.304468178930085E1
                        -8.524562904699975E1    -3.570241605780117E1    -6.971151840530825E1    -8.299835437082471E1    -1.128391501423562E2    -1.431871115190903E1    -1.388626330917849       7.878075859017122E1

 5.275150000000000E7    -3.741855602381798E-1    1.505825555019697E2    -2.941189577423908E1     1.327130906128056E2    -9.695031165959995E1     1.291241829011592E1    -8.701103766691851E1     5.498171363743360E1
                        -2.944685193014786E1     1.321906008885627E2    -2.048475053133751E-1   -6.465916926285884E1    -8.527462802929969E1    -1.335324845781252E2    -7.220658281052776E1    -8.989558630191186E1
                        -8.870373868644961E1    -1.700416632659808E2    -1.001037646224574E2    -6.265357786432416E1    -1.379950932565293       7.195768457202721E1    -9.623397900914887E1     1.384812551200657E2
                        -9.326849196670926E1    -4.858593020365684E1    -7.106507910670510E1    -9.342088388826208E1    -8.230582206226528E1    -6.390940243582071      -1.395034724975022       7.878116097773031E1

 5.275175000000000E7    -3.712268981909933E-1    1.505917795311900E2    -2.936587617983906E1     1.324615935087016E2    -8.491775950081615E1    -1.452147512929873E2    -8.461802483331731E1    -7.049168961752599E1
                        -2.941236274695236E1     1.324912418085685E2    -2.072545272229506E-1   -6.464105362709353E1    -8.472875545487368E1    -5.992005514240309      -7.069495888539588E1    -7.737692289707807E1
                        -8.434548839617753E1    -1.023526798773724E2    -9.197788891312007E1     1.397658696317727E2    -1.378405921569270       7.192806278817331E1    -8.642231962346442E1     1.559850761006979E2
                        -8.169333242003985E1     1.635418522287095E2    -6.809576503714182E1    -9.185208915144445E1    -8.426294451444419E1     4.043050119261998E1    -1.392099445589617       7.877745670191256E1

 5.275200000000000E7    -3.715673119699388E-1    1.505684480750567E2    -2.937737990865303E1     1.323522129299301E2    -8.581730411608645E1     3.530913450389609E1    -8.587410568355247E1    -1.520963540439713E2
                        -2.943599532213387E1     1.323783794920321E2    -2.062967992698647E-1   -6.469245598822069E1    -8.090365937288840E1     2.495198912758082      -7.148136720879255E1    -8.144315460868913E1
                        -8.008359316180716E1    -7.094221941135841E1    -9.023212888914259E1    -2.833255154521503E1    -1.379243257080518       7.195538016235400E1    -8.482875041236341E1     1.717870870577450E2
                        -8.833514693560458E1    -3.189543583229886E1    -7.144065037116880E1    -8.098965883773550E1    -8.622056466886031E1     1.406763158938444E2    -1.392322988423162       7.878501453904819E1

 5.275225000000000E7    -3.708179106741695E-1    1.505811664872263E2    -2.935264277836245E1     1.322902554659092E2    -9.642813771147311E1    -3.028669652781133E1    -9.036510710396325E1     5.904268929659477E1
                        -2.941731782304585E1     1.328322981790141E2    -2.092957013729228E-1   -6.472753396667532E1    -8.633108819977416E1    -4.857615318308848E1    -7.060690196336408E1    -8.394480366672221E1
                        -9.153112481850444E1     2.709642687530749E1    -8.750159026754344E1    -1.177563483496216E2    -1.375409497892195       7.193441157229285E1    -8.725507359437427E1     1.453030056560211E2
                        -8.890460048505727E1     9.105680251150081E1    -7.010799202201557E1    -8.433996472282186E1    -8.376007866414349E1     9.938340959349756E1    -1.394171930867805       7.877508647017270E1

 5.275250000000000E7    -3.728989940413500E-1    1.505539244596357E2    -2.943149307535929E1     1.327021889621267E2    -8.392737944557473E1     9.784445252674436E1    -9.260435688977312E1    -6.701618541107781E1
                        -2.940534852596481E1     1.326278254255744E2    -2.095256520931519E-1   -6.476444802576339E1    -8.949528838128288E1    -4.808175187713952E1    -6.914664697192248E1    -6.640482403859029E1
                        -8.609300952084422E1     1.372124084890070E2    -8.329635126011655E1    -8.774160066903824E1    -1.378751703481605       7.193619254599767E1    -8.821193248056373E1     9.833048678409189E1
                        -8.254969163918317E1     1.605670395938850E2    -6.884635293546728E1    -8.783399279943686E1    -9.046747348084203E1     1.521226776403703E2    -1.394132510830118       7.876266176158769E1

 5.275275000000000E7    -3.724900382118038E-1    1.505482433053890E2    -2.942154980556240E1     1.328168289033272E2    -8.075157896808896E1    -1.339919101056585E2    -8.908635588665511E1    -4.433510654830362
                        -2.940116649201750E1     1.323646464102191E2    -2.013049464512604E-1   -6.472518270263005E1    -8.021429466964935E1    -3.923468081815078E1    -7.329164174817174E1    -9.265524996449672E1
                        -9.264473629006899E1    -8.457622432910468E1    -8.571981204486151E1    -1.281282308970318E2    -1.373841101964520       7.191322348978181E1    -8.495248478909508E1    -1.541735356268389E2
                        -8.332751867286493E1     1.667190641207815E2    -7.176312500115000E1    -9.082684378602673E1    -9.295562002839453E1    -1.225754663065234E2    -1.390948525705572       7.877431315117211E1

 5.275300000000000E7    -3.736652624483532E-1    1.505405370814996E2    -2.932834139298179E1     1.327236143574563E2    -9.043842510237528E1    -1.359496148605713E2    -8.846962684604512E1    -1.279030975649235E2
                        -2.936443732142616E1     1.318921654656965E2    -2.062802581272169E-1   -6.477671972253211E1    -8.105749353910157E1    -5.454511742614658E1    -7.032095551039393E1    -9.989663768126353E1
                        -8.517160727321758E1    -1.056894164780104E2    -8.225050069665824E1    -8.318056935022021E1    -1.378326460008714       7.195024022397958E1    -9.413126489883572E1     1.335505790178744E1
                        -9.011955486480468E1     7.938358953166940E1    -7.023144296059651E1    -8.445795553275923E1    -7.961171156166809E1    -3.481747403409469E1    -1.389749598542267       7.877394827360195E1

 5.275325000000000E7    -3.750472278991217E-1    1.505736591197632E2    -2.942532599339110E1     1.322000783729841E2    -8.653397952614608E1    -1.622053609926739E2    -8.624724500682109E1     1.108627610563214E2
                        -2.937691645761559E1     1.324343678797167E2    -2.048589533107972E-1   -6.480676230279455E1    -8.326915644046994E1    -4.749741733133015E1    -7.025362938964514E1    -8.206720653942190E1
                        -8.931503122919926E1    -8.647125156361115E1    -8.833771223646083E1    -1.376252173612377E2    -1.382713957769129       7.192801876660261E1    -9.477578870119692E1     1.981116666834181E1
                        -9.203766406539978E1     8.552451648536896E1    -7.092978449719283E1    -8.334222539142439E1    -8.658441648658368E1     1.164028120293374E2    -1.393662069197495       7.876593349228232E1

 5.275350000000000E7    -3.708216672075766E-1    1.505631209868084E2    -2.934094746190417E1     1.324587646633185E2    -9.030432268275820E1     6.157631538984757E1    -8.682044845144424E1     2.790870270508354E1
                        -2.950126099759450E1     1.320124488417185E2    -2.091567155339400E-1   -6.483005028084634E1    -7.960021425943025E1    -1.028912338764524E2    -7.174500104898607E1    -8.605362649579539E1
                        -8.758884974578756E1    -2.179917690721204E1    -8.722371746238801E1    -7.475704253747026      -1.377969544255051       7.192031203471073E1    -8.756295932389853E1    -1.653850204964931E2
                        -8.258376078696469E1     1.302726494870606E2    -6.979320854274414E1    -7.431374701336328E1    -8.146751091713898E1     9.044600052566727E1    -1.392768706367040       7.873935215650539E1

 5.275375000000000E7    -3.752103301013648E-1    1.504993783853591E2    -2.940294644687971E1     1.323901303511191E2    -8.482613004289121E1     5.812123629935010E1    -8.252652854786389E1     1.014524689179734E2
                        -2.932669157725132E1     1.328621240861032E2    -2.077949567057534E-1   -6.483558206436005E1    -8.539076311792904E1    -4.931372053034983E1    -7.192797218197325E1    -9.312121349436390E1
                        -9.471876878338989E1    -8.385443342159967E1    -8.141117695861894E1    -1.346181518875086E2    -1.377769455460952       7.194908790483912E1    -9.822232372549451E1     7.284391290544969E1
                        -8.200289604901799E1    -4.279310926397581E1    -7.062007108114904E1    -8.929766892821078E1    -8.184595893033591E1     3.808372153309974E1    -1.393382991896053       7.875277588716864E1

 5.275400000000000E7    -3.735559373592811E-1    1.505645083280980E2    -2.942966397288478E1     1.326176082451408E2    -8.068121413466209E1    -3.174641083219093E1    -9.008506058406084E1    -5.140235882961791E1
                        -2.942149459521394E1     1.326770557126656E2    -2.106071142772556E-1   -6.487472263954395E1    -8.799039840761976E1     1.700411976017079E2    -7.188298820559882E1    -1.050257325221033E2
                        -8.444049742824282E1    -1.464856965536563E2    -9.249139242532655E1     3.218336124670083E1    -1.382225688793539       7.189987335474551E1    -8.879467828429119E1     1.861040393146865E1
                        -8.741299944490154E1    -1.327183049466115E2    -7.127265240237094E1    -8.454351923457577E1    -1.000496670797145E2    -8.681106519801500E1    -1.391867218905769       7.876196773111637E1

 5.275425000000000E7    -3.702189847944390E-1    1.505241102580625E2    -2.934647168760902E1     1.325215738501435E2    -8.411489051179839E1    -1.539701323449356E2    -9.187684648634007E1    -3.154156399834844E1
                        -2.936590619930011E1     1.318514618364533E2    -2.142445100294721E-1   -6.483039876629765E1    -8.478933054382345E1    -6.326138098976593E1    -7.207143767670974E1    -7.382833654789096E1
                        -8.115552588582845E1     3.288500155100703E1    -9.667618353459490E1    -1.377958721972852E2    -1.380031161765633       7.191147935904279E1    -8.432513972697430E1     8.785748953412250E-1
                        -8.900516008968978E1    -1.300597789754480E2    -7.050751545054635E1    -8.632383583904985E1    -9.527752438772355E1     9.938525956291836E1    -1.394531762872164       7.875161838199323E1

 5.275450000000000E7    -3.741836182928962E-1    1.505137847168094E2    -2.936246307511050E1     1.324364110988439E2    -8.570690238631057E1     1.060778387310403E1    -8.225675169396267E1     5.304584108438301E1
                        -2.933025228614973E1     1.321497259441592E2    -2.068600857993053E-1   -6.487537327808241E1    -1.065595153345022E2     1.396266039916797E1    -6.903696789376176E1    -9.417112863104588E1
                        -9.406950018173647E1    -1.663430545816692E2    -8.255663180259732E1    -4.268344919142357E1    -1.376130978094199       7.192782977983687E1    -7.862022883525620E1     5.939443436755995E1
                        -9.736496091843763E1    -4.962990639725609E1    -7.128182648048292E1    -7.810142011107470E1    -9.408811320491091E1     1.151403068316450E2    -1.394826805886005       7.872339813085607E1

 5.275475000000000E7    -3.707165845368838E-1    1.505151233177660E2    -2.944672766311556E1     1.325818820444234E2    -8.583885799548263E1    -8.394719340100315E1    -8.863475267571002E1    -1.596029709318258E2
                        -2.939392083466098E1     1.326626579493007E2    -2.075085695868030E-1   -6.489801292671831E1    -8.428165029499033E1    -7.629996907372917E1    -7.114554340041107E1    -7.822689436069054E1
                        -1.015679042917131E2    -1.153337484196997E2    -8.729735319044463E1    -9.670678210936102E1    -1.377394407042924       7.193158924499814E1    -8.357733117231661E1     1.777013530180031E2
                        -1.025384351272327E2     1.179072634834490E2    -7.088216000353378E1    -8.808712531245129E1    -8.993914547309183E1    -1.233078616257092E2    -1.393917962771416       7.874827924006915E1

 5.275500000000000E7    -3.724658485226660E-1    1.505130834819882E2    -2.935673365362385E1     1.325460970489491E2    -8.015048019145075E1    -4.931883946763349E1    -9.572991158102128E1    -1.385823020113935E2
                        -2.947391553195269E1     1.334124016403389E2    -2.102836296172471E-1   -6.490802769969905E1    -8.763202146945784E1    -8.559092075449931E1    -7.097277104942423E1    -9.608657581342226E1
                        -8.579375257062844E1     1.246699395738757E2    -8.241507523139246E1    -1.268695443599786E2    -1.374448074828274       7.189833902641101E1    -8.371485934164079E1    -1.013968295249455E2
                        -8.924670619530204E1     3.618882297297726E1    -7.080522723219943E1    -7.926982680529373E1    -8.638919038682353E1    -6.842255152136558E1    -1.395761407908139       7.873710092415141E1

 5.275525000000000E7    -3.697608343171095E-1    1.505045575755365E2    -2.951367727280298E1     1.321627681222037E2    -8.553683503544546E1     7.448825928070100E1    -8.272018932910852E1     8.034352629396857E1
                        -2.943606982680262E1     1.325678843212788E2    -2.092332350787889E-1   -6.494949733325561E1    -8.552501045185264E1    -5.762819663487210E1    -7.352961890008626E1    -8.687559701435947E1
                        -9.057225797783049E1    -1.293025870694343E2    -8.343831242488525E1    -7.055165681441461E1    -1.379170467440260       7.188393194691412E1    -9.145531906994626E1     1.330583080752284E2
                        -8.859326724120272E1    -6.078252645360168E1    -7.025956781304738E1    -7.510575218828441E1    -1.034119556425465E2    -3.203331885995908E1    -1.392286617914775       7.874089869237794E1

 5.275550000000000E7    -3.731159114453919E-1    1.504988053902043E2    -2.945080727406594E1     1.319895377696107E2    -7.909326741564559E1     1.232454906579547E2    -8.543010216446662E1    -7.904096767531985E1
