#  HZ   S   DB   R     50.00 
! Rohde & Schwarz Vector Network Analyzer 
! Rohde-Schwarz,ZNB8-4Port,1311601044102961,2.82
! Created: UTC 2/8/2019, 4:14:59 PM
! freq[Hz]                db:S11                  ang:S11                 db:S12                  ang:S12                 db:S13                  ang:S13                 db:S14                  ang:S14
!                         db:S21                  ang:S21                 db:S22                  ang:S22                 db:S23                  ang:S23                 db:S24                  ang:S24
!                         db:S31                  ang:S31                 db:S32                  ang:S32                 db:S33                  ang:S33                 db:S34                  ang:S34
!                         db:S41                  ang:S41                 db:S42                  ang:S42                 db:S43                  ang:S43                 db:S44                  ang:S44
! 
 5.525000000000000E7    -2.994973592213358E-1   -1.008822041495968E2    -2.891706042130691E1     8.834409037006681E1    -8.721857684752935E1    -1.103036438917092E2    -6.894725850985762E1    -1.225218520428477E2
                        -2.895019998107348E1     8.839825576419442E1    -2.469813997399710E-1    9.872626872478344E1    -9.382309055845475E1     9.381707851448546E1    -8.361448942738608E1     1.243707018235013E2
                        -9.417580149463392E1     1.453259320854897E1    -9.351223619651755E1     1.729002045572650E2    -1.359299398079475       5.150876065865608E1    -8.205440933280733E1     3.541597674793047E1
                        -6.915929984741804E1    -1.279788834379650E2    -8.880685674320823E1     7.474832913125484E1    -8.837099731189427E1     9.693637719598047E1    -1.339700117138163       4.543635864344270E1

 5.525025000000000E7    -3.016686334274371E-1   -1.009021434517256E2    -2.888377211507469E1     8.870573312116459E1    -8.161384136054407E1    -4.970997331012468E1    -6.848627456466326E1    -1.135834152358769E2
                        -2.890490211745266E1     8.827491725140337E1    -2.510272568602560E-1    9.873210677371444E1    -8.838537001590191E1     1.707656599737697E2    -8.833014703990736E1    -1.501632260940865E2
                        -8.380094709359773E1    -1.731141628566496E2    -8.677173294191213E1    -1.117930618004116E2    -1.363828224591688       5.150928277535812E1    -8.921261786557851E1     5.747345160096165E1
                        -6.766356424277697E1    -1.169113860810881E2    -9.048703044521785E1     7.195861836300968E1    -8.748849059382538E1     3.162831134789427E1    -1.339557216863293       4.543744923419332E1

 5.525050000000000E7    -3.004714610397162E-1   -1.009038563330846E2    -2.895062962767537E1     8.905334462434053E1    -8.560767955311773E1    -8.728926220467157E1    -6.723949764557072E1    -1.246133714745331E2
                        -2.891789011215009E1     8.935142030283828E1    -2.531054990335354E-1    9.871703237403277E1    -7.612001297166795E1     7.172588566649128E1    -8.811658164864413E1    -1.670948739803981E1
                        -8.379918362169218E1    -1.335028632586322E2    -8.605881934600618E1     1.413560276761195E2    -1.354276967658095       5.151633553892210E1    -8.414544540473094E1     1.303350734792256E2
                        -6.779599839697238E1    -1.241718572210913E2    -8.400895839862474E1     1.731518533082640E2    -8.206589325069943E1    -1.609345357941701E2    -1.339057897328133       4.539167009837421E1

 5.525075000000000E7    -3.004730594709899E-1   -1.009756607463050E2    -2.885139887691702E1     8.842729488436343E1    -7.834267250080730E1    -6.629657413616873E1    -6.901310355254915E1    -1.204196981771337E2
                        -2.891699464811907E1     8.884415754598196E1    -2.479830258231773E-1    9.869227220326182E1    -7.909207953854421E1     9.002897452549641E1    -8.119347074644223E1     1.512191630654081E1
                        -8.600599896921145E1    -1.189406053864386E2    -8.872159503528974E1    -4.267882637281466E1    -1.360092598044911       5.154699041145801E1    -8.573123928581478E1     1.672508881739955E2
                        -6.899259141808207E1    -1.209807695651213E2    -9.468548947138218E1     4.368692640995783E1    -8.354639886192585E1    -6.001845544950533E1    -1.342047368541470       4.538766753572475E1

 5.525100000000000E7    -3.050566630196060E-1   -1.009404697658246E2    -2.887568861832755E1     8.888317499645778E1    -8.517888261923991E1    -1.581408498974510      -6.742216689041153E1    -1.187940856897365E2
                        -2.881658856518338E1     8.894997157807211E1    -2.508873195472440E-1    9.872647241727725E1    -8.638387931655669E1     3.263359944313505E1    -8.129687950066821E1     1.410453321019865E2
                        -8.025930865309256E1    -7.863210644095292E1    -9.721772821263571E1    -1.565238428094873E1    -1.354720555776667       5.152293368055896E1    -8.397076129443033E1    -1.479830366762393E2
                        -6.915302933317375E1    -1.274990105208196E2    -8.802776352796471E1    -6.487135879198256E1    -9.634003111273643E1    -1.358015012551463E2    -1.340200539692760       4.540172504265192E1

 5.525125000000000E7    -3.005589171592141E-1   -1.009862074781687E2    -2.889446805681738E1     8.889147737163390E1    -8.671365728715416E1    -8.149921605833794E1    -6.867434929325998E1    -1.275725419270850E2
                        -2.894282859646813E1     8.886930847200173E1    -2.476952472892900E-1    9.868824426857125E1    -9.113746371954457E1     8.794846866299768E1    -9.341697953871510E1    -1.071914111868969E1
                        -8.537493628386295E1     1.513753402563111E2    -8.835926640467918E1    -5.150031445073405      -1.357624914701179       5.149911907232870E1    -9.088310299896841E1    -1.711560984265259E2
                        -6.783076871654488E1    -1.307057738332283E2    -8.384849696502050E1    -1.078681870886830E2    -8.056727415498190E1    -6.999112779365900E1    -1.343071624660529       4.540606502028889E1

 5.525150000000000E7    -2.997651274987325E-1   -1.010252914442975E2    -2.894806761023055E1     8.845363014859373E1    -8.655418545401705E1    -1.412520114774271E2    -6.894067621131921E1    -1.256886261355832E2
                        -2.889995649930551E1     8.879469346700651E1    -2.534846888804962E-1    9.868407912727690E1    -7.855634524077098E1    -1.619229342257741E2    -8.329952822499814E1    -1.321113034176001E2
                        -8.366746626331653E1    -1.241818045013517E2    -9.398213938976596E1    -1.284574715133226E2    -1.359064441860567       5.148442136431551E1    -8.054036706423307E1    -4.181235545432572E1
                        -6.860316908914305E1    -1.150860766132715E2    -8.107859189104630E1     1.744510704342902E2    -8.616345137331508E1    -1.366301818475461E2    -1.341394956341887       4.538602435424068E1

 5.525175000000000E7    -2.974861948855956E-1   -1.010357588493913E2    -2.897737828830680E1     8.869647250385977E1    -8.030235805427118E1    -7.946384015805963E1    -6.759693906165599E1    -1.234345583262067E2
                        -2.881602492604280E1     8.878372980243418E1    -2.562028674069784E-1    9.865529617652162E1    -8.459464519656126E1     1.534587365826621E2    -8.506167714976814E1     1.592066436179640E2
                        -9.111768303313723E1    -9.642209016287931E1    -8.326065693962684E1     1.257769739890810E1    -1.352703579833877       5.148701208446320E1    -8.271468942107148E1     8.847156224841686E1
                        -6.808957252036008E1    -1.255387666270539E2    -8.380195391329121E1    -1.698451432705673E1    -1.039743279644131E2     1.109352924252211E2    -1.341178215572633       4.540957625064539E1

 5.525200000000000E7    -3.049111499068031E-1   -1.010387061361024E2    -2.883018149647705E1     8.850943362577151E1    -8.239592010468579E1    -1.101510955920699E2    -6.909876752065564E1    -1.326744212825120E2
                        -2.892838690452194E1     8.862554140432164E1    -2.485456570949000E-1    9.868185858533445E1    -8.439442723971290E1    -1.369455504725943E2    -8.550757221734864E1     5.592797168597970E1
                        -8.207888869621407E1    -1.027017253371797E2    -8.807147790012287E1    -1.100425167296654E2    -1.357638656688324       5.151856172085756E1    -8.493770756460960E1    -3.240984580477156E1
                        -6.828391916170446E1    -1.205920840528883E2    -8.885345157258647E1    -1.561673892274930E2    -8.327210707001670E1    -1.335884662164976E2    -1.340190086771191       4.537662080576462E1

 5.525225000000000E7    -3.064142288021287E-1   -1.010685622422380E2    -2.891059770164408E1     8.842472196560777E1    -8.699743346815360E1     1.161157786150866E2    -6.866082232181944E1    -1.213219316691823E2
                        -2.886807605666800E1     8.856918315502614E1    -2.511908353692290E-1    9.869628048381904E1    -9.204631316282982E1    -1.040441825933264E2    -8.365337538784061E1    -2.517412179745605E1
                        -7.728993868395109E1    -1.123889305608324E2    -9.872977555331141E1    -1.276204607599538E2    -1.358146550080404       5.147571896749571E1    -1.045948463741067E2    -9.455391095566664E1
                        -6.937762529732446E1    -1.188507147883171E2    -8.651166007485051E1     3.591365408457828E1    -7.985280871145938E1    -1.222919955692894E2    -1.340838512310479       4.536250681080660E1

 5.525250000000000E7    -3.008695080617619E-1   -1.011127731043466E2    -2.900498415684439E1     8.848103807649095E1    -7.986117445837307E1    -9.747559241338959E1    -6.846829032583636E1    -1.287856900051126E2
                        -2.885565159801345E1     8.849580645923984E1    -2.504035106243668E-1    9.868455861399194E1    -9.329777797479827E1     1.622937680982997E2    -9.397198627286316E1     5.804111796431162E1
                        -8.444756502797297E1    -1.231181794144160E2    -9.508312137453594E1    -1.533818080930953E2    -1.353846255913921       5.147135497202378E1    -9.590062197821921E1     4.614002789141527E1
                        -6.718690793253801E1    -1.140066123418657E2    -8.303195707639927E1     2.925771146404808E1    -8.463524843212761E1    -4.976561200109924E1    -1.342428768143549       4.535549786364874E1

 5.525275000000000E7    -3.035115824274928E-1   -1.011133982859940E2    -2.891395276759104E1     8.832106294362478E1    -8.368519542441302E1    -4.361464336550208E1    -6.838419286175106E1    -1.201245212739706E2
                        -2.890443206925264E1     8.922849040860088E1    -2.521377074580937E-1    9.863955042042829E1    -7.706832043610710E1    -1.326779777393481E2    -9.247405630032084E1    -1.559987669402810E2
                        -9.420629896151026E1     1.457800950206194E2    -8.081139213813863E1    -9.577739457374244E1    -1.357131806401917       5.150108989596707E1    -8.703967771866063E1     7.704966038452749E1
                        -6.719292620842862E1    -1.220153180962165E2    -8.245756793937554E1     8.350456712333754E1    -8.117097882414493E1    -1.228427796360035E2    -1.342167625385212       4.537159164402717E1

 5.525300000000000E7    -3.034291171421885E-1   -1.011327820780416E2    -2.889922410524824E1     8.858921434757475E1    -8.095381356184603E1    -9.533905820903073E1    -6.772734337724521E1    -1.224872667042080E2
                        -2.884206441469535E1     8.881918764519102E1    -2.533486461813211E-1    9.866582031480851E1    -8.489080799325660E1    -8.534295164571880E1    -8.772542599270295E1     9.701139091325717E1
                        -8.166361191460526E1    -9.913782854831196E1    -8.233211638596394E1    -5.655823644204666E1    -1.354373043644459       5.146469497156230E1    -8.767886483245633E1     1.006927220182533E2
                        -7.011590105459719E1    -1.152033845630833E2    -8.691100921928350E1    -8.807721102124673E1    -8.908638516641558E1     1.043436497754350E2    -1.338638435001388       4.540165590947419E1

 5.525325000000000E7    -3.047497679834016E-1   -1.011451102262875E2    -2.898828512653176E1     8.872995032382271E1    -8.768084951761396E1    -1.052273815950646E2    -7.013687680058713E1    -1.205447068878684E2
                        -2.896961913052380E1     8.903345089946126E1    -2.499541952390045E-1    9.864743064097873E1    -8.398818740517064E1     1.440108602135106E2    -8.727155886937860E1     8.633608968998914E1
                        -8.924919210457256E1    -6.254574635550549E1    -8.656949989428571E1    -5.605624366417917E1    -1.358121345315986       5.141711156388911E1    -8.221231082448770E1     4.795178036767062E1
                        -6.830973980876402E1    -1.074795041285762E2    -8.305016690600452E1     1.338635775061319E2    -9.604943991944163E1    -1.670801361353844E2    -1.342606181734997       4.536985510561337E1

 5.525350000000000E7    -3.004826630619898E-1   -1.011879246903900E2    -2.888529300151115E1     8.818872335731153E1    -8.093925539294084E1    -9.637782192215094E1    -6.803692571522132E1    -1.293804707830409E2
                        -2.885519476100111E1     8.816155343408839E1    -2.490889869972073E-1    9.864084737924087E1    -8.923103561674354E1     1.661206657986915E2    -1.014916609990527E2    -1.449120698729084E2
                        -8.237200989008539E1    -8.004342537258172E1    -8.208215819289455E1    -1.127781209340160E2    -1.356725496982723       5.145225416986832E1    -8.407892799738042E1     3.661877074656047E1
                        -6.873532071334454E1    -1.203139230767556E2    -8.749977719638294E1     1.244705026386258E2    -8.786992400242085E1     1.482822115635605E2    -1.340318619290173       4.535621821455312E1

 5.525375000000000E7    -3.048036612956711E-1   -1.011945840496194E2    -2.892177359059537E1     8.815625448532668E1    -7.742226528021000E1    -1.190263531367950E2    -6.819470462972214E1    -1.221435181137676E2
                        -2.893456050912807E1     8.851041730975581E1    -2.554703960382457E-1    9.863537967415583E1    -8.660561896875373E1     2.197143679019771E1    -8.942465700351433E1    -1.180510752268573E1
                        -8.328112977850188E1    -1.478501388237460E2    -8.813156331639561E1     1.139733870452818E2    -1.358328785979248       5.148015401367986E1    -8.812681128466004E1    -3.764645346021634E1
                        -7.067904805631909E1    -1.204113197537354E2    -8.875930539409259E1     8.969216485141257E1    -9.300116595508163E1     8.285671600004730E1    -1.338624673523874       4.539367893660965E1

 5.525400000000000E7    -3.011134478824470E-1   -1.012164188688428E2    -2.892678143214164E1     8.897193889533902E1    -8.602010217450572E1    -1.005111762772207E2    -6.854764861882153E1    -1.252410726173587E2
                        -2.890438017790051E1     8.855305901797121E1    -2.525015591444042E-1    9.867015387446200E1    -8.561406529210478E1     3.115362043570764E1    -8.340089256822577E1     1.336134055352607E2
                        -8.695077602957494E1     8.769179122541075E1    -8.231923215643649E1    -3.985757285998823E1    -1.356785772176848       5.147782882149321E1    -8.526715702835524E1    -1.294019620694361E2
                        -6.790737468524596E1    -1.288184034171600E2    -8.483881686090501E1    -9.186643192076720E1    -8.465289423861469E1    -8.112708702466308E1    -1.338739227981656       4.537260402323273E1

 5.525425000000000E7    -3.047679547359412E-1   -1.012736555348682E2    -2.889659061983651E1     8.840531908511503E1    -8.416957115776610E1    -7.794046794758074E1    -6.721484588451166E1    -1.265346097080691E2
                        -2.885875515531520E1     8.830193845046952E1    -2.473312535816746E-1    9.862646544706810E1    -9.069760188912328E1    -9.484935520125741E1    -8.553914858509877E1    -1.075891228793831E1
                        -7.669769099606918E1    -9.437031500408563E1    -8.548977764108452E1     1.577315866749685E2    -1.353623298817586       5.145968015579011E1    -9.215629716432733E1    -9.647372499435549E1
                        -6.840427142422010E1    -1.232247065355406E2    -8.942009689722197E1     5.569972984447886E1    -8.730868569890765E1     2.616051580018806E1    -1.341675605931573       4.533849012156668E1

 5.525450000000000E7    -3.011021045763239E-1   -1.012571776777822E2    -2.887745009769520E1     8.891715913273151E1    -7.713990892348276E1    -1.673789029335803E2    -6.810277663788688E1    -1.136071940080566E2
                        -2.882995353976698E1     8.833167152286210E1    -2.496488293749666E-1    9.864759881189580E1    -8.188767327555739E1    -1.727866012615820E1    -8.163354501846595E1     2.641030082180101E1
                        -8.748558897730152E1    -1.354195181500553E2    -8.798658876157165E1     4.885746334567234E1    -1.357982886838122       5.146896504306678E1    -8.308515888659629E1    -1.752890361043205E2
                        -6.637835270567324E1    -1.187554668739655E2    -8.372929330716801E1    -1.361051681280870E2    -8.837869615895998E1    -1.040344781148624E2    -1.340654738398698       4.536502367505766E1

 5.525475000000000E7    -3.040931476891372E-1   -1.012598042341774E2    -2.893695168064956E1     8.847611437063297E1    -8.314964429963712E1    -1.391106002764842E2    -6.933077328551438E1    -1.087035001832929E2
                        -2.890398831019476E1     8.857910232439785E1    -2.508381910108740E-1    9.863579454334743E1    -8.134784759690709E1    -9.577740447624936E1    -8.451829411484579E1    -7.835338128802815E1
                        -8.379116922023265E1    -8.931581530800328E1    -8.819236501368017E1    -7.198195999733268E1    -1.358903764946411       5.145868009905481E1    -9.436610638750361E1    -1.382952425849872E2
                        -6.872248589172280E1    -1.205608243608271E2    -8.579388531798293E1     1.486260625395179E2    -8.412986963729603E1     1.318066663534846E2    -1.335661044159831       4.537090162605232E1

 5.525500000000000E7    -3.064163748702767E-1   -1.013369859019250E2    -2.887448025904319E1     8.846088002105697E1    -7.955808034020679E1    -1.067429180153986E2    -7.010049621206046E1    -1.246869940608814E2
                        -2.887140875000771E1     8.859918348715057E1    -2.521182879323513E-1    9.862758020328286E1    -8.712370902100557E1    -2.426918589271919E1    -9.506328061206894E1     5.955049179822127E1
                        -8.670993904069042E1    -1.285515925371159E2    -9.596857265392629E1     4.891000692333164E1    -1.353951844244734       5.143937124563969E1    -8.967635085195371E1     3.841514026042449E1
                        -6.724013568061473E1    -1.213209894477667E2    -9.469223445861229E1    -4.879998636832844E1    -8.996281649790247E1    -8.117164813601430E1    -1.341339673438465       4.536851787939048E1

 5.525525000000000E7    -3.050911117360559E-1   -1.013088261369835E2    -2.893274413337991E1     8.866719963158289E1    -7.978419299416085E1    -1.206379923193994E2    -6.792092162809665E1    -1.222891350955300E2
                        -2.889624096979608E1     8.796413219167357E1    -2.522701319288380E-1    9.863249217170289E1    -8.441503914132707E1    -1.713756829383517E2    -9.129964378161122E1     7.830092874736575E1
                        -8.107232908185183E1    -1.459265795976072E2    -8.092951507425518E1    -1.101392149769775E1    -1.355220743615691       5.145844764199543E1    -8.121305757652311E1    -2.896109273286575
                        -6.837429091245764E1    -1.157204011303936E2    -8.911334218020852E1    -5.262533753475387E1    -1.091797867470836E2    -2.430774907337168E1    -1.338299191119779       4.535432234960675E1

 5.525550000000000E7    -3.033571789745157E-1   -1.013543825944829E2    -2.886300787931779E1     8.803188379397386E1    -8.852565349099149E1    -5.487424372885270E1    -6.820007942815013E1    -1.240278760225793E2
