#  HZ   S   DB   R     50.00 
! Rohde & Schwarz Vector Network Analyzer 
! Rohde-Schwarz,ZNB8-4Port,1311601044102961,2.82
! Created: UTC 2/8/2019, 3:30:37 PM
! freq[Hz]                db:S11                  ang:S11                 db:S12                  ang:S12                 db:S13                  ang:S13                 db:S14                  ang:S14
!                         db:S21                  ang:S21                 db:S22                  ang:S22                 db:S23                  ang:S23                 db:S24                  ang:S24
!                         db:S31                  ang:S31                 db:S32                  ang:S32                 db:S33                  ang:S33                 db:S34                  ang:S34
!                         db:S41                  ang:S41                 db:S42                  ang:S42                 db:S43                  ang:S43                 db:S44                  ang:S44
! 
 4.775000000000000E7    -2.744618246213660E-1    5.419767678452889      -3.080850906215489E1    -1.425105267914952E2    -7.430047114299499E1    -2.138384896281537E1    -8.733374387328190E1     4.395490011020231E1
                        -3.083650350502694E1    -1.427055126288628E2    -2.161343214219151E-1   -1.107340737430248E2    -9.246180816101992E1     8.985340811639806E1    -9.584991179707998E1     6.498970332328952E1
                        -6.998124734552420E1    -1.167487509100927E1    -9.146187780537102E1     1.450913573113457E2    -1.375062390728422       1.411146867243978E2    -8.368210830815342E1    -1.442426910948032E2
                        -8.774689372261774E1     1.243262182200370E1    -8.432736538584264E1     5.265259449616896E1    -8.766897148285923E1     1.525161268971680E2    -1.329981721160516       1.352668053510654E2

 4.775025000000000E7    -2.701468623529613E-1    5.378303523372407      -3.088983004209706E1    -1.423214375482895E2    -7.124658995377817E1    -2.990488132707505E1    -8.201525530000460E1    -1.069679343808619E2
                        -3.090363621205547E1    -1.423691488143846E2    -2.140578182972998E-1   -1.107195664515132E2    -8.874025039963010E1    -7.147510331142418E1    -9.155631871747366E1     8.835257712428327E1
                        -7.076145461285107E1    -2.646436063000110E1    -8.581746871041817E1    -1.306485066677415E2    -1.373253834689876       1.410835031536843E2    -8.457099833012551E1     4.092025932300357E1
                        -9.393278201217214E1     1.001631436760077E2    -8.361772335878513E1    -3.241761440450583E-1   -9.219398867849850E1    -4.442864046807169E1    -1.326740682914135       1.352973207640182E2

 4.775050000000000E7    -2.760471760971024E-1    5.390099292053005      -3.081018296154733E1    -1.418657363659876E2    -7.186296134540061E1    -6.779753648021289      -8.482996831431171E1    -2.843542186084489
                        -3.079290510598484E1    -1.422987502271658E2    -2.180666463508344E-1   -1.107552622402986E2    -8.773262144378276E1    -1.373867733841882E2    -8.655070219999786E1    -3.657982879931441E1
                        -7.000200440683119E1    -6.732019345365815      -9.215514579679434E1     8.372699282583096E1    -1.377903722350728       1.410858176749328E2    -9.356646620274981E1     3.426451917535416E1
                        -8.367083251917188E1     8.370527602584188E1    -8.907185117089097E1     1.020795293298170E2    -8.496927642256603E1    -4.329182932686931      -1.325950487770944       1.352891734936282E2

 4.775075000000000E7    -2.792194152238894E-1    5.374757591641328      -3.084447444023420E1    -1.429366187367508E2    -7.231793704614296E1    -1.967159873503314E1    -8.349357785048764E1    -2.033245713678245E1
                        -3.090467583343499E1    -1.434768437627933E2    -2.165672380404896E-1   -1.107201392128494E2    -9.087151768945651E1    -1.569839396826424E2    -9.235919641904472E1    -1.490666048563359E2
                        -6.942787277124444E1    -2.416600668740480E1    -1.068249914281661E2    -1.444423829533624E2    -1.375418791017232       1.410767971487830E2    -8.661279448362465E1     1.756248101236207E2
                        -8.668073869613156E1    -8.094405266782033E1    -8.713834785468529E1     2.746251741883067E1    -9.108313522682798E1    -1.624838930193737E2    -1.329462597235981       1.352891231353526E2

 4.775100000000000E7    -2.801871281826646E-1    5.333749680006028      -3.079414559964244E1    -1.424908797311850E2    -7.412485770053938E1     6.749935668283535      -8.645311557545499E1    -2.577214028038003E1
                        -3.091083616695179E1    -1.428730171284979E2    -2.161714714613450E-1   -1.107570442876930E2    -8.586833815771657E1    -4.567239931024214E1    -8.237332412433672E1    -1.682140482390803E2
                        -7.129416562823576E1    -2.085160672306175E1    -8.961952058164420E1     1.337020456588720E2    -1.377936782281637       1.410728058041113E2    -8.661202057311171E1     1.448653562457083E2
                        -9.379872261347794E1     1.058237983825277E2    -8.390579522152891E1    -9.161560408451122      -9.468290243423357E1    -9.335509932464829E1    -1.330492297372140       1.352857474184131E2

 4.775125000000000E7    -2.725376098441702E-1    5.327051222137720      -3.093831747058767E1    -1.429690915347738E2    -7.317175823366527E1    -1.107811197583312E1    -8.399557845758136E1     4.187290772424817E1
                        -3.087594352792859E1    -1.417321455312881E2    -2.192577401993905E-1   -1.107788213740060E2    -8.368457507379955E1    -4.421023605650402E1    -8.180675126890195E1     1.107293205086565E2
                        -7.087286027291388E1    -1.837960293412198E1    -8.250850172210056E1    -3.357067483387297E1    -1.372162771089078       1.410876173704932E2    -8.337196404116239E1     2.423150206555082E1
                        -8.464694477052848E1     8.382759263683967E1    -1.003023120669663E2    -7.598516746936643E1    -8.119963738133188E1    -4.754013592811476E1    -1.328346654965494       1.352924674684633E2

 4.775150000000000E7    -2.742586645765551E-1    5.332318902677987      -3.087383993632227E1    -1.422769513118871E2    -7.338585823232850E1    -3.198522549078096E1    -9.180622189898229E1    -3.203799151900572E1
                        -3.084973385414713E1    -1.423891863748274E2    -2.119026257171172E-1   -1.108034705994071E2    -8.234218235143229E1     1.164053584974987E2    -8.110178990401366E1    -1.218231220369457E2
                        -7.226922195576019E1    -6.351925062480691      -9.718686773177664E1    -3.841261021599759E1    -1.375544345194621       1.410495495089010E2    -8.273399469375127E1    -1.301012098598875E2
                        -9.526900523964379E1    -1.235500489686377E2    -8.767875558287625E1     1.559634739691041E2    -9.116929085161283E1    -1.616146392245948E2    -1.327595573970947       1.352842422908100E2

 4.775175000000000E7    -2.809601262548840E-1    5.268989296401404      -3.089451285423954E1    -1.422663721305783E2    -7.195721330615729E1    -1.970172894562462E1    -9.883793665904305E1    -1.466107588761409E2
                        -3.076728168888075E1    -1.426646910303514E2    -2.097000685983729E-1   -1.107734047695011E2    -8.638432398670423E1    -1.493143364841410E1    -8.734163262485980E1     7.819529364222730E1
                        -7.141256806095426E1    -2.472551508538817E1    -8.337555414320599E1    -1.517944410518996E2    -1.372387832069008       1.410802149950789E2    -8.502761845520233E1    -1.819204531737505
                        -8.357508471270434E1    -5.913050102588787E1    -9.280430137980207E1    -1.105213655279261E2    -8.977848685570490E1     1.122353298339321E2    -1.326332012806626       1.352711356600729E2

 4.775200000000000E7    -2.808502774227348E-1    5.296155856826931      -3.083166045815303E1    -1.426741384447004E2    -7.085365996012241E1    -1.594599334726042E1    -1.022158341721462E2     2.380743893911238E1
                        -3.085530245179211E1    -1.415056776196712E2    -2.122037649839473E-1   -1.108013784210519E2    -8.596182573364752E1    -1.523503496826652E2    -8.061143726953610E1     4.896253682411135
                        -7.032022239094113E1    -1.723433339098337E1    -9.777161401788479E1    -9.152470304341462E1    -1.375264925470811       1.410478054927700E2    -8.802342392818392E1     1.724781812724179E2
                        -9.137586830560373E1    -6.261204043518296E1    -7.708517355786329E1    -9.738459411073569E1    -8.532630380819063E1     3.068818627674373      -1.323356137223715       1.352623037327153E2

 4.775225000000000E7    -2.764187826503194E-1    5.270919433426812      -3.101188494165301E1    -1.433352364119210E2    -7.292830290240808E1    -1.228751816423109E1    -8.145596875872839E1    -1.114782197571443
                        -3.090731052874098E1    -1.417965927452283E2    -2.138489788838729E-1   -1.108018631919833E2    -8.617183624525060E1     1.637843170918218      -8.882257772639575E1    -1.285669607452955E2
                        -7.343930672630626E1    -8.473560581053624      -7.956206050175450E1     5.854073889351799E1    -1.372557328731059       1.411058407194399E2    -9.123684259882545E1     1.272742463872333E2
                        -8.285333704572352E1     3.393038934156120E1    -8.994536383506251E1    -6.365557265970375E1    -8.449204218988528E1     6.383166813065382E1    -1.330192657771613       1.352836350673121E2

 4.775250000000000E7    -2.764217201658685E-1    5.246185723507043      -3.095951521328047E1    -1.426145297607734E2    -7.111465845823028E1    -2.961763415601797E1    -8.394166154513938E1     1.041876611977037E2
                        -3.078445555250136E1    -1.430738942542476E2    -2.091577568101360E-1   -1.107793412686789E2    -8.539423271130593E1     2.331375063183978E1    -8.693766069937341E1     1.036292052190423E2
                        -7.019110260480674E1    -2.397439872744816E1    -7.904173171403129E1     9.759806179796102E1    -1.374447013372909       1.410497365907384E2    -8.042695944397856E1    -6.216000124107774E1
                        -8.439689059084699E1     7.869725547531860E1    -8.847927431665568E1     5.691196208728178E1    -8.932609906984153E1     6.098108590531948E1    -1.324572659289575       1.352372758969273E2

 4.775275000000000E7    -2.746506078556122E-1    5.218808514814441      -3.090739266542778E1    -1.425139205008294E2    -7.036851093059593E1    -1.212679871784545E1    -8.767994350651023E1     4.602858892589740E1
                        -3.085158035640889E1    -1.428659081359077E2    -2.140527098387894E-1   -1.108097595046662E2    -8.599737504115927E1     3.289613730005925E1    -8.504575121591222E1    -5.935679853912075E1
                        -7.220246314856762E1    -5.859989863116590      -8.191895820955475E1    -1.740461594301713E2    -1.378580047403298       1.410740695448824E2    -8.165594461759413E1    -1.292365287334457E2
                        -8.878838298612106E1    -1.587404891975991E1    -9.247888957558902E1     3.809139853017288E1    -8.640698223890352E1     3.291562461405005E1    -1.326147705116038       1.352579333834515E2

 4.775300000000000E7    -2.767926926030514E-1    5.228247003749043      -3.086788283395127E1    -1.430222459869863E2    -7.050606550131080E1    -1.613699494349067E1    -8.747455516493150E1    -5.864977171172264E1
                        -3.082163517239248E1    -1.430799049329219E2    -2.138124588173556E-1   -1.107677820036139E2    -9.123453547243483E1    -2.524008389294176E1    -8.504548047088025E1    -1.759945467516360E2
                        -7.200634491926999E1    -1.821082763922543E1    -8.448275835086106E1     7.011794077952979      -1.373047286636206       1.410410530909437E2    -8.724382131211317E1    -1.874808457869527E1
                        -8.428943061242869E1    -1.378564395265349E1    -8.139648298370389E1    -1.008465187680531E2    -9.045070305125968E1     1.107039993087512E2    -1.325618187484900       1.352465310032418E2

 4.775325000000000E7    -2.742541735130134E-1    5.207953166678997      -3.088295639699883E1    -1.425930042469060E2    -7.092728196782397E1    -1.842013690704361E1    -9.348121180435592E1    -1.159148019693535E2
                        -3.096920649169473E1    -1.429386867855623E2    -2.180916928564858E-1   -1.108177805174033E2    -8.932231955896901E1    -1.728418979749476E2    -8.859519943260297E1     9.395130774428377E1
                        -6.996992955670892E1    -1.373938517067207E1    -8.823277192929899E1     1.594121158109323E2    -1.377779893203942       1.410623917677517E2    -8.417631992192290E1     1.165141978623442E2
                        -8.614861857210661E1    -1.766548910838412E2    -8.622517219391324E1     1.387506750722827E2    -8.566835594351751E1    -1.581936851726561E2    -1.328046196975333       1.352451375556681E2

 4.775350000000000E7    -2.722803283603635E-1    5.140160977180249      -3.086954067153521E1    -1.430561441253431E2    -7.438271671004645E1     6.652367977054591      -8.518445176528154E1     1.652597471691303E1
                        -3.085278497208853E1    -1.426455414197559E2    -2.131487269224133E-1   -1.108165088875417E2    -7.994486708121158E1    -1.373332512562528E2    -8.792260798842526E1    -1.194898474308787E2
                        -7.026949414503457E1    -1.432654481891157E1    -8.770087019139693E1    -1.357741954208344E2    -1.376103189849123       1.410465303952674E2    -9.294429529235387E1    -6.988090835985101E1
                        -8.758840668272497E1     1.604852782691594E2    -8.334621694390390E1    -6.350934934933212E1    -8.749691427875179E1    -1.471130118895154E2    -1.329458730117603       1.352371066548927E2

 4.775375000000000E7    -2.747459214070303E-1    5.153143860848650      -3.080453883858048E1    -1.431338232591322E2    -7.183031332797852E1    -2.008972639464352E1    -9.171797159044661E1     1.157546660740719E1
                        -3.092538469760824E1    -1.437864094373651E2    -2.208001667350392E-1   -1.108512788042916E2    -8.415201264116219E1     6.826572153593827E1    -8.815796855628628E1     6.855571617136727E1
                        -7.077975649015295E1    -2.550684353364994E1    -9.393323696057580E1    -8.458543101350776E1    -1.376768182148010       1.410003251608243E2    -8.696860394947750E1     8.683121400585516E1
                        -8.628393548891026E1    -3.478546697716980E1    -8.305307199223954E1    -3.016271055784391E1    -8.976395582769960E1    -4.564536161198683E1    -1.329885165282409       1.352470853186070E2

 4.775400000000000E7    -2.727667302029244E-1    5.155717937478953      -3.086625564950181E1    -1.419289981642370E2    -6.997096888273694E1    -2.125485776325527E1    -8.583765848350296E1     8.601706948057024E1
                        -3.084584586898059E1    -1.417420799711721E2    -2.215390886218064E-1   -1.107820272348968E2    -9.090332236609439E1     6.857234829464073E1    -8.794322898778256E1    -1.676681991613022E2
                        -7.219441517355423E1    -3.387365412911183E1    -9.718786946149373E1    -1.462420673800031E2    -1.380448013058087       1.410627311750762E2    -9.758412312295492E1     4.110177976296966E1
                        -8.543955430047379E1     1.431927785230458E2    -8.645908951062754E1    -1.146819811163426E2    -8.573121171084040E1     1.499789096061887E2    -1.323679734765940       1.352405045619980E2

 4.775425000000000E7    -2.769473474194372E-1    5.113730561405054      -3.091375942737674E1    -1.422877687129933E2    -7.151283821873369E1    -1.466463655760131E1    -8.692973234682398E1     7.981884008850401
                        -3.086192448328072E1    -1.422686169874017E2    -2.143693642424074E-1   -1.108340488007463E2    -8.743446474320983E1     1.190059275453217E1    -8.685608180390983E1    -2.601162878049271
                        -7.152627639601421E1    -1.071615744220680E1    -8.167587497445274E1    -9.544649200495005E1    -1.375704757587097       1.410546546149444E2    -9.152595747934809E1    -7.545004699742837E1
                        -9.507375876899688E1     1.304601051858629E2    -8.803060456893674E1    -1.787400657906448E2    -7.999148843459781E1     5.779629203750353E1    -1.325120005099464       1.352432266063766E2

 4.775450000000000E7    -2.750132095336587E-1    5.100803740166430      -3.096890065497950E1    -1.421814835534177E2    -7.055082016384424E1    -1.962993594755440E1    -9.584174317825897E1    -5.854512698041270E1
                        -3.089990624031907E1    -1.431183505516147E2    -2.142861155334702E-1   -1.108320463575329E2    -9.234634068238890E1     1.992237137122784      -8.587157790912167E1     4.147693748385988
                        -7.129284150500698E1    -2.112012073913984E1    -9.139953575936544E1    -1.624356945991356E2    -1.381284514175356       1.410652318972732E2    -7.987549252775396E1    -1.607394375631517E2
                        -8.514939859964611E1    -9.337730206619555E1    -9.015613319808571E1     9.249921721802224E1    -8.742590398118014E1    -5.640307213083227E1    -1.323123019074580       1.352297230145414E2

 4.775475000000000E7    -2.739334024883223E-1    5.090320368498656      -3.077787640999543E1    -1.422572571025232E2    -7.151190462828302E1    -1.070424522772465E1    -8.379095367764225E1     4.368796969133441E1
                        -3.077522150389387E1    -1.430316975468279E2    -2.112171975112579E-1   -1.108551186715557E2    -1.192275032914472E2    -1.684556949851313E2    -8.610508835757804E1     1.703933416058631E2
                        -7.189304143583965E1    -2.601770897016357E1    -9.127696303626449E1     1.736085644761276E2    -1.370527702009886       1.410519195890447E2    -9.213209579647931E1     4.631065242654717E1
                        -8.568402893610642E1    -6.013996274570470E1    -9.299726200591054E1    -5.489154603336338E1    -8.635937541728987E1     4.566200763579583E1    -1.325093068392922       1.352515611017549E2

 4.775500000000000E7    -2.770727398473002E-1    5.081121250925323      -3.089240177659161E1    -1.428229202441466E2    -7.045638205518065E1    -1.954660021891602      -9.979599104717531E1     1.346321002742653E2
                        -3.096202643700483E1    -1.433038702498894E2    -2.209863163482780E-1   -1.108506126065170E2    -8.320597253886788E1     1.750692497045730E2    -8.521790501281578E1    -5.865352544399926E1
                        -7.170021733551864E1    -1.308363351430235E1    -8.020144661625690E1     1.647934109402146E2    -1.375184181569214       1.410310037433999E2    -8.894390143841000E1    -5.512781898495045
                        -8.512559533465063E1     1.599544197184772      -8.679425510652655E1     9.489369418045159E1    -8.195418416293926E1    -1.499825803227851E2    -1.325068097984753       1.352224228605318E2

 4.775525000000000E7    -2.797795429518073E-1    5.032597142724991      -3.094604075058282E1    -1.431117980926158E2    -7.261572775018793E1    -6.869745584243812      -8.790022134420866E1    -2.793172379767609E1
                        -3.094396141207772E1    -1.425927830752321E2    -2.153304309883113E-1   -1.108186237710364E2    -8.189394374801415E1    -1.392255856026376E2    -8.216114060697522E1     1.443465996857812E2
                        -7.117016516240392E1    -2.527972127801089E1    -8.320541728961621E1     1.688842189883600E2    -1.373198929709052       1.410241196556357E2    -8.675542358213829E1    -1.695414246128318E2
                        -8.234314394952733E1     6.438063844043226E1    -8.293146722004964E1     3.124804951728782E1    -8.447959571272870E1    -1.623288938627386E2    -1.331644444786237       1.352173618860187E2

 4.775550000000000E7    -2.764537372633396E-1    5.032305111576894      -3.093355100107972E1    -1.421505952856645E2    -7.089651788915121E1    -1.795316352091848E1    -9.370753602959005E1    -7.809049810848373E1
