#  HZ   S   DB   R     50.00 
! Rohde & Schwarz Vector Network Analyzer 
! Rohde-Schwarz,ZNB8-4Port,1311601044102961,2.82
! Created: UTC 2/8/2019, 4:11:19 PM
! freq[Hz]                db:S11                  ang:S11                 db:S12                  ang:S12                 db:S13                  ang:S13                 db:S14                  ang:S14
!                         db:S21                  ang:S21                 db:S22                  ang:S22                 db:S23                  ang:S23                 db:S24                  ang:S24
!                         db:S31                  ang:S31                 db:S32                  ang:S32                 db:S33                  ang:S33                 db:S34                  ang:S34
!                         db:S41                  ang:S41                 db:S42                  ang:S42                 db:S43                  ang:S43                 db:S44                  ang:S44
! 
 5.525000000000000E7    -2.947725755781280E-1   -1.005909206719705E2    -2.955897600256538E1     8.895227636551654E1    -6.795107683032536E1    -1.086178078780538E2    -8.682257957568251E1    -8.747864605812499E1
                        -2.954834440077038E1     8.898209109922992E1    -2.494090353767357E-1    9.870599731948862E1    -7.922675707412037E1    -1.070455450389691E2    -8.310471432226443E1     4.573220091458034E1
                        -6.687914080925114E1    -1.197908979854530E2    -8.521493314227234E1     1.552273832272908E2    -1.358786843577086       5.151033535472226E1    -8.551553244623233E1     6.570318363569164E1
                        -7.958046102787674E1    -1.137379241484362E2    -8.197786317412123E1    -1.338921819274170E2    -8.020877808128589E1     4.251561852393805E1    -1.339881866833926       4.542244783750942E1

 5.525025000000000E7    -2.949401041767181E-1   -1.006178067122615E2    -2.949827554603873E1     8.950813224958850E1    -6.870706058672053E1    -1.114196749020806E2    -8.672934964468603E1    -1.672072989030218E2
                        -2.962987615971187E1     8.932573067481951E1    -2.507055318394107E-1    9.871285584581040E1    -8.750084297816488E1    -2.668764860921957E1    -8.790654281561919E1    -9.685435484964634E1
                        -6.740107388104374E1    -1.162593819296881E2    -9.035010801316538E1     4.990719800482494E1    -1.358714718716846       5.154186870333220E1    -8.362226792218584E1     4.218842239362542
                        -8.830228849479568E1    -1.613831038675481E2    -8.914326062572530E1     5.360527019146534E1    -8.702254223396123E1    -1.471414593815320E2    -1.340908347278983       4.542236448439707E1

 5.525050000000000E7    -2.961043376325444E-1   -1.006365506734702E2    -2.957084995903554E1     8.918727031985910E1    -6.743589663651154E1    -1.162072929380387E2    -8.288520297160622E1    -7.333847916940393E1
                        -2.953444344519752E1     8.952267032118671E1    -2.531713376071448E-1    9.871302821660633E1    -8.516725863056898E1    -6.648874252830144E1    -8.754797351770887E1     1.631729041980323E2
                        -6.701978250749494E1    -1.164548450508664E2    -8.402180938706265E1     1.253668787565304E2    -1.358833414882295       5.152180922441782E1    -8.552961575027993E1     3.889029117645582E1
                        -8.510051975719050E1     1.640429226128915E2    -8.566788435073971E1     1.237758005984539E2    -8.069448410559963E1    -8.351712517861458E1    -1.341171681942942       4.540624723667349E1

 5.525075000000000E7    -2.969661045856177E-1   -1.006447814516244E2    -2.952790694904959E1     8.943078756764376E1    -6.761859917979011E1    -1.205227667400722E2    -8.992076470537540E1     6.076456886124633E1
                        -2.949159205307418E1     8.902627966565663E1    -2.513869732190320E-1    9.871847718755296E1    -9.583293523829480E1    -1.171395908142086E2    -8.745742100605102E1     3.649872135595641E1
                        -6.625631489423932E1    -1.061321220503868E2    -8.081133470974413E1     8.731044741347554E1    -1.357988634369914       5.149991482417560E1    -8.691269821770241E1     4.791630896772092E1
                        -8.127943924000280E1    -8.086618381925202E1    -8.073463125743280E1    -3.063151315963196E1    -8.819397102971658E1     1.232747541682879E2    -1.341909376420641       4.542849284825298E1

 5.525100000000000E7    -3.016510616767699E-1   -1.006689031497186E2    -2.953307431500347E1     8.911400021916191E1    -6.582091184465614E1    -1.255724406098402E2    -8.370052808145964E1    -7.833456170076353E1
                        -2.949115261880248E1     8.879466578188477E1    -2.497288412101167E-1    9.866236119349604E1    -9.095832221151275E1     3.570753003786552E1    -8.762107408982135E1    -1.473836537359770E2
                        -6.925521828171770E1    -1.100340050955069E2    -8.546348292201006E1     1.329623039292076E2    -1.360376375492957       5.150587698429791E1    -8.855495056080230E1    -1.498861867955227E2
                        -8.162214423375545E1    -1.387535821750191E2    -8.761684493304702E1    -4.379744764373407E1    -8.231720840598611E1     1.656584998895315E2    -1.340175887513603       4.541043793522480E1

 5.525125000000000E7    -2.965394344695423E-1   -1.007261676759314E2    -2.950992903643832E1     8.876860500666443E1    -6.788374016427486E1    -1.213357967846319E2    -8.374224488902308E1     1.258122635801578E2
                        -2.960541580023701E1     8.912312269744683E1    -2.494284985624010E-1    9.868918677939001E1    -9.053207452829803E1     1.583663674892909E2    -8.592186327189977E1     1.234628954952184E2
                        -6.789838235325578E1    -1.154788847752777E2    -8.409179832715884E1    -8.944319609663140E1    -1.358554732653697       5.149299998513533E1    -8.746137606486317E1     1.576817349362637E2
                        -8.071267675261284E1    -5.384641353870259E1    -8.461537034699413E1     6.453041565436337E1    -8.897060351828331E1     1.142384681990634E2    -1.343067439472626       4.539472720482945E1

 5.525150000000000E7    -2.992192254324024E-1   -1.007162813826168E2    -2.952204277645539E1     8.874635641286093E1    -6.766607905388617E1    -1.168446458268378E2    -8.701412848797853E1    -8.683471153453337E1
                        -2.956503960790993E1     8.898838745081469E1    -2.536117673758158E-1    9.868555565013247E1    -8.144748695980374E1    -9.517152915821246      -8.067007671439410E1    -1.203511563197616E2
                        -6.720420716604252E1    -1.150156610415759E2    -8.137517146612949E1    -1.778993618380888E2    -1.359154339940173       5.148581943507409E1    -9.242316263221113E1     1.629366672300666E2
                        -8.089750908306891E1    -1.278533708249660E2    -8.020383486950760E1    -6.284110910412653E1    -8.103731839126537E1    -3.505633302710940E-1   -1.340063163997359       4.538813734934261E1

 5.525175000000000E7    -2.973375447924947E-1   -1.007173215814834E2    -2.956218364179999E1     8.902770818386861E1    -6.748944899538856E1    -1.203515070156249E2    -9.116394949514873E1     1.361619783016055E2
                        -2.948330906111969E1     8.932887227571493E1    -2.536045137790416E-1    9.866967178454053E1    -8.132211378749589E1    -8.379144628403333E1    -9.073779796169515E1     1.287189315149431E2
                        -6.725315030932337E1    -1.168860978904183E2    -9.325811794190625E1    -1.754032959932518E2    -1.359492001049670       5.150803494318085E1    -9.655746199463550E1    -1.297422028192453E2
                        -7.554346877249071E1    -1.225461878443832E2    -8.493270132678745E1     8.827843686236909E1    -8.975762966024924E1     7.949788367638394E1    -1.337127256524464       4.540191885909076E1

 5.525200000000000E7    -2.971701181338137E-1   -1.007387277664575E2    -2.953179779786586E1     8.917351553094461E1    -6.806984489290923E1    -1.115928363839494E2    -8.329634724741788E1    -1.398945239859994E2
                        -2.943247383490533E1     8.960180510778996E1    -2.521249330896488E-1    9.867492322113495E1    -9.090576800788296E1    -4.511293591825576E1    -7.931503464615629E1     1.347381815740076E2
                        -6.670136195945091E1    -1.113264898612817E2    -8.928998215174291E1    -1.429186658112504E2    -1.363064491303891       5.149173977720774E1    -9.514803393676486E1     9.926260971700712E1
                        -7.599844650308954E1    -1.599197645265370E2    -9.019795006672551E1     1.312968779018005E2    -8.301194618916921E1     4.961197639891670E1    -1.335944956771107       4.540006173590885E1

 5.525225000000000E7    -2.922096358542965E-1   -1.007636492680202E2    -2.959410625642665E1     8.931297887389614E1    -6.758645413304873E1    -1.055705826223303E2    -9.361540706961671E1    -2.786770561607223E1
                        -2.964374667534008E1     8.882563256622592E1    -2.490014823336204E-1    9.866388538284069E1    -8.752779854647918E1     1.315159845436891E2    -8.164791073427654E1     1.224021056761570E2
                        -6.823563549082188E1    -1.272310052352852E2    -8.347911300493649E1    -8.465228153432828E1    -1.360628037319065       5.148736123594289E1    -9.875906956217911E1     2.246253715314051E1
                        -8.651181697263624E1    -7.896453068255029E1    -8.049418766267431E1     1.671286280493667E2    -8.770114520738177E1     2.189754729689117E1    -1.338692095782149       4.538526242816661E1

 5.525250000000000E7    -2.999220792660503E-1   -1.007931455805620E2    -2.952970812555024E1     8.909472392395679E1    -6.937780493830790E1    -1.077978868067328E2    -9.415810894881757E1    -1.026112800057552E2
                        -2.952785100505564E1     8.905443561596248E1    -2.525596725027948E-1    9.865955875542362E1    -9.675213812141146E1    -1.191709135866487E2    -9.542408911893369E1    -6.383965107999510E1
                        -6.647238263097712E1    -1.158122066908982E2    -8.952807234312769E1     1.123865128860996E2    -1.356830665824073       5.149756439982184E1    -8.735802027852471E1     3.322274815168159E1
                        -9.058921538493695E1    -6.297912895413528E1    -9.018655077372848E1    -1.131277469910176E2    -8.482685869252538E1    -6.236390256377528E1    -1.340834112292294       4.539884201600081E1

 5.525275000000000E7    -2.964993818740468E-1   -1.008207944435447E2    -2.950202263677284E1     8.932005836576022E1    -6.815324092936766E1    -1.171645226159596E2    -9.588821616117683E1    -1.412304054974630E2
                        -2.955409260534594E1     8.885786836307636E1    -2.462345861916321E-1    9.863683420380370E1    -8.256161284666575E1    -1.696333187688212E2    -8.802373781257082E1    -1.618864322418750E2
                        -6.779553592668277E1    -1.139016928037901E2    -8.734248593083464E1     8.250253343654327      -1.358275562035693       5.147307985112644E1    -1.132234244709887E2     9.724376251905542E1
                        -9.044709284947692E1    -8.801912406709818E1    -9.382619390116119E1    -2.232419111162789E1    -8.552223848873865E1     8.367936214920228E1    -1.336390682485024       4.540903303691225E1

 5.525300000000000E7    -2.975121152486682E-1   -1.008364747869076E2    -2.955426109872000E1     8.858119616059922E1    -6.637685534101321E1    -1.187623142079867E2    -7.876902622218144E1    -1.157719889633945E2
                        -2.959957986885329E1     8.897435089674384E1    -2.519469770797431E-1    9.866346784348610E1    -8.450807860448430E1     1.609322762525901E2    -8.244947693728457E1     1.446128155453085E2
                        -6.827165014691946E1    -1.126183226974643E2    -9.497510393741200E1    -2.762407009249197E1    -1.356025616055545       5.146293778817255E1    -8.773885132130147E1     1.713591584405751E1
                        -1.018956596071447E2     1.153589983326596E2    -8.899007773451115E1     5.747936507252503E1    -8.486540967854955E1     2.821034181441416E1    -1.340892478227495       4.538173681190921E1

 5.525325000000000E7    -2.972671248133948E-1   -1.008802824414647E2    -2.949110057466447E1     8.864015875687743E1    -6.679863473816961E1    -1.224386358269212E2    -8.065790890855560E1    -4.459466636981158E1
                        -2.957840211034568E1     8.889508750615697E1    -2.498000856933652E-1    9.863621911487736E1    -8.057938650932121E1    -1.131848180903507E2    -8.704471248982742E1     9.721113657212953E1
                        -6.699827907697993E1    -1.154404328577463E2    -9.266781292183455E1     6.441944299234582E1    -1.358998794395340       5.148841067611726E1    -8.239529808044449E1     3.840956057369480E1
                        -8.991135786738221E1    -4.860978781522282E1    -8.722557297232072E1    -8.021598556517888E1    -8.895697189963187E1     1.413154162593612E2    -1.340952212810755       4.538459182278407E1

 5.525350000000000E7    -2.976929179100916E-1   -1.008586086685621E2    -2.963910703721233E1     8.820269862847610E1    -6.830273831852713E1    -1.156205174643425E2    -8.517118630480256E1    -9.083940517365548E1
                        -2.952719226305358E1     8.886782757053014E1    -2.579698374242686E-1    9.863879398545468E1    -8.486945665320980E1    -1.084622969831956E2    -8.390993896442998E1    -1.260065422731134E2
                        -6.889216137527929E1    -1.244827668183206E2    -8.103256552684846E1    -5.171639747024305      -1.360236339241012       5.150209208541916E1    -9.727967136003602E1     6.061036042346997E1
                        -9.025377264835555E1     4.247789951021333      -8.627748556989941E1     1.087454718410074E2    -8.968854441767810E1     8.721776990700799E1    -1.343376375665271       4.537392096705049E1

 5.525375000000000E7    -2.951374008928207E-1   -1.009262602569323E2    -2.953142904693154E1     8.894165762950850E1    -6.899951616822135E1    -1.189654014240965E2    -9.086012602251347E1     7.118171974492625E-1
                        -2.953090862925566E1     8.853813714201866E1    -2.550471646672439E-1    9.864715673310118E1    -9.052579215278578E1    -1.087812897916834E1    -8.462893543759117E1     7.422544979777337E1
                        -6.775607783721901E1    -1.172414783941040E2    -8.289518613543595E1     1.061277134358677E2    -1.356514208310949       5.146849016178948E1    -8.810082820440826E1     1.377091049899616E2
                        -8.426614835497028E1    -1.750453085956293E2    -8.951199953166162E1    -1.553076128649543E2    -9.227923252857968E1    -1.406864215192647E1    -1.339249070293278       4.536979179586291E1

 5.525400000000000E7    -2.970981703109416E-1   -1.009040405311180E2    -2.957757877213966E1     8.863018619953463E1    -6.650325061386526E1    -1.192152493123301E2    -7.958452949042058E1    -3.726162006469287E1
                        -2.963046923811896E1     8.837569303588498E1    -2.507596021789605E-1    9.860690323041439E1    -8.639359296802493E1    -1.740033479223960      -8.416547093520049E1     1.373302721368279E2
                        -6.698306271422327E1    -1.072734486773927E2    -8.879755622596768E1     2.744381046367982E1    -1.359654611163805       5.148855784604313E1    -8.293108296860190E1     1.041229827425518E2
                        -8.493873252325925E1    -1.519352473310893E2    -9.295603677100054E1     4.965724287483813E1    -8.431921121194868E1     1.297950355335739E2    -1.339833441086773       4.536650473604696E1

 5.525425000000000E7    -2.964412952537391E-1   -1.009495512228136E2    -2.955680017005434E1     8.893098525931193E1    -6.724140345310774E1    -1.146473278973386E2    -8.164174595187801E1    -4.901972187814705E1
                        -2.950994193023236E1     8.866264124735555E1    -2.527725795402879E-1    9.862757966348269E1    -8.739489026250227E1    -1.397855746739127E2    -8.796392431045069E1     1.348671571788599E2
                        -6.673820184403391E1    -1.161036003625221E2    -8.675768886921350E1    -1.522897182387975E1    -1.358535673771930       5.150380032226472E1    -8.142884917859327E1     1.334655185372556E2
                        -8.225955842385359E1    -1.008659310785284E2    -8.426040735582862E1     6.050211662082373E1    -8.760090064274837E1     1.467926238988362E2    -1.340076017832433       4.536722557749591E1

 5.525450000000000E7    -2.981975044173222E-1   -1.009862469901073E2    -2.948708812099486E1     8.897078304825969E1    -6.920803670634430E1    -1.158311696978753E2    -9.156152596152330E1    -1.621796012617473E2
                        -2.961669802653796E1     8.928745483887570E1    -2.519937341760012E-1    9.861907502053411E1    -8.220281891845220E1     1.208680773054645E2    -8.394337409361691E1     1.530756818547276E2
                        -6.775505929345843E1    -1.184108043751682E2    -8.631860275744016E1     6.199338105306807E1    -1.356634403672008       5.143974076575377E1    -8.620866165080955E1    -1.633368228450948E2
                        -8.354472680484784E1    -1.072631594038186E2    -8.969288498587831E1     4.957884556166496E1    -8.476026098305781E1     1.417235355372486E2    -1.342136475667984       4.541346926383176E1

 5.525475000000000E7    -2.971195280853123E-1   -1.009625609536756E2    -2.952982745026268E1     8.885528458398865E1    -6.776641134482250E1    -1.151461784996204E2    -8.300814667107757E1    -9.774656414490410E1
                        -2.948259137109279E1     8.859864006078523E1    -2.524020227835327E-1    9.862351492620478E1    -9.595441597289249E1    -5.555672700174969E1    -8.305382718856666E1     5.697356942879880E1
                        -6.827247412953784E1    -1.173847574237608E2    -8.517400681520128E1     1.284366611839883E2    -1.358617117743784       5.145756019318276E1    -8.695734099275988E1     1.544750830767918E2
                        -8.567441772582924E1     5.678443877714697      -8.715767240578371E1    -1.017703444159434E2    -8.641271955176208E1     6.770257995461407E1    -1.340113851151444       4.540208971272719E1

 5.525500000000000E7    -2.984965314325471E-1   -1.010194112580254E2    -2.951101503316071E1     8.912537338864114E1    -6.845154565384939E1    -1.188886341298311E2    -8.679499785246532E1    -8.264036589223012E1
                        -2.956452374219610E1     8.882796235832475E1    -2.492038884250993E-1    9.862101466613061E1    -8.109411239444984E1     1.411378766385293E2    -8.341870312303081E1    -1.172417965183474E2
                        -6.809147027618009E1    -1.188231402196300E2    -8.735679984219578E1     1.385305281746804E2    -1.357506566614615       5.147438656619716E1    -8.667168862742994E1    -7.510126567971528E1
                        -1.003438212028520E2    -1.321587911651783E2    -8.676611407821893E1     1.215954503003917E2    -8.400081228088374E1    -8.904935204840469E1    -1.333172674922052       4.538783170217565E1

 5.525525000000000E7    -2.957979298122830E-1   -1.010379804792354E2    -2.958437063719472E1     8.905431827610325E1    -6.800455251729959E1    -1.168815709342255E2    -8.586626669388494E1    -1.160391788785824E2
                        -2.953151696011607E1     8.835751784396668E1    -2.527522609136124E-1    9.861623941374211E1    -8.554717088947861E1     2.934997632803378E1    -8.096542978046104E1     3.205644088423625
                        -6.719871293323780E1    -1.165744066518851E2    -8.455399192391404E1    -9.086217224590095E1    -1.355161273796043       5.146426168994849E1    -9.262156918905278E1     1.021761624197556E2
                        -8.335881943873547E1    -5.804765714562952E1    -1.075726817983934E2     9.464954897559395E1    -8.259932951478525E1    -8.689774037448375E1    -1.343479745629708       4.535126892660814E1

 5.525550000000000E7    -2.953163890264046E-1   -1.010411314487794E2    -2.955444032946588E1     8.864109919687989E1    -7.000694446068057E1    -1.223263911700440E2    -8.866400345693475E1     1.322772649025731E2
