#  HZ   S   DB   R     50.00 
! Rohde & Schwarz Vector Network Analyzer 
! Rohde-Schwarz,ZNB8-4Port,1311601044102961,2.82
! Created: UTC 2/13/2019, 1:57:32 PM
! freq[Hz]                db:S11                  ang:S11                 db:S12                  ang:S12                 db:S13                  ang:S13                 db:S14                  ang:S14
!                         db:S21                  ang:S21                 db:S22                  ang:S22                 db:S23                  ang:S23                 db:S24                  ang:S24
!                         db:S31                  ang:S31                 db:S32                  ang:S32                 db:S33                  ang:S33                 db:S34                  ang:S34
!                         db:S41                  ang:S41                 db:S42                  ang:S42                 db:S43                  ang:S43                 db:S44                  ang:S44
! 
 5.525000000000000E7    -4.136145240137161E-1    9.745976541066234E1    -3.033946520862464E1     7.289554160252533E1    -8.919445914793317E1    -2.033629104496496E1    -9.047036336833961E1     5.284599148608162E1
                        -3.041350051716439E1     7.242106886051899E1    -1.573520232199619      -1.339898171114473E2    -8.136352662775175E1     2.002279349187943E1    -6.572529438580351E1    -1.445860705407551E2
                        -9.087347163891593E1     1.320292150785533E2    -8.106647881055250E1    -1.332251803155468E1    -1.416413697666604       2.469712779211290E1    -7.949992035166078E1    -1.693424008381142E2
                        -9.131981987021061E1    -5.239280790531807E1    -6.663961846835606E1    -1.492782329773833E2    -9.191285189615142E1     1.651520159038476E2    -1.431610600514539       3.118858484902045E1

 5.525025000000000E7    -4.161726870198340E-1    9.750232579235542E1    -3.032196744989371E1     7.313734434574664E1    -8.744660784478560E1     1.532114720643932E2    -8.641940372127634E1     1.067952771969672E2
                        -3.030057406764833E1     7.220946036916804E1    -1.575813542202238      -1.340392137216576E2    -7.898478717467549E1    -8.461702482382760E-1   -6.836319408238276E1    -1.496087861782179E2
                        -8.165089142275556E1    -3.786641232955120E1    -7.607913713785469E1    -6.285125325832798      -1.416810607646041       2.471779184127954E1    -8.656622230514101E1     1.339309300986382E2
                        -8.704683428376541E1    -1.111683654714302E2    -6.685389284514469E1    -1.393511923776698E2    -8.707586160002734E1     5.444961793211391E1    -1.430891646362120       3.118777343549045E1

 5.525050000000000E7    -4.153189515646273E-1    9.750486180740144E1    -3.039005797139939E1     7.317203257583738E1    -8.498596423500131E1    -7.157601225578405E1    -8.726843061355608E1    -1.285826786019275E2
                        -3.036336261657693E1     7.285533079893818E1    -1.574472116179244      -1.340646162095825E2    -8.264201279774196E1    -2.425022776909312E1    -6.764397816887259E1    -1.498553091234317E2
                        -8.431808547540612E1     8.914163725286024E1    -8.077258881223185E1    -7.959021225551609      -1.413019798634230       2.471465006847670E1    -9.500203221744458E1     1.681150279990858E2
                        -8.188337816426092E1     3.172443843395184E1    -6.688498314080783E1    -1.403524230832293E2    -8.488839690212608E1    -1.529575702067940E2    -1.430862616239351       3.117388181264559E1

 5.525075000000000E7    -4.134991932692902E-1    9.749898468808117E1    -3.036188286690191E1     7.327685881444447E1    -9.808133160698277E1    -7.771451939021723E1    -8.109328110065582E1     6.732151849433220
                        -3.037629327995020E1     7.266422109399352E1    -1.577226899528525      -1.340936744120355E2    -7.629718245232846E1     5.910064145491295      -6.575365842065156E1    -1.529808363994796E2
                        -8.357585590323312E1    -1.308269873714115E2    -7.840075353192246E1     2.207200306117230E1    -1.410981609420261       2.470196368455441E1    -8.450321924144802E1    -9.532386771656555E1
                        -8.595165290527800E1    -9.636960048360733      -6.712935042446549E1    -1.506954865003265E2    -1.038909121251976E2     1.744712023865695E1    -1.430407346972482       3.119803224077537E1

 5.525100000000000E7    -4.157493637891738E-1    9.748506796527332E1    -3.032161261164574E1     7.287664433947202E1    -8.169650357970797E1    -1.780291470061063E2    -7.963768119097624E1    -3.596690410523128E1
                        -3.039528962804823E1     7.207321717336748E1    -1.582622718658613      -1.341354981216058E2    -7.787533934209341E1     4.040046739248804      -6.592165711108815E1    -1.473353269125067E2
                        -7.946722311530012E1     4.069007493643800E1    -8.197171281164005E1     1.966441973519720      -1.414330757009497       2.467455894094229E1    -8.318719238170246E1    -3.905901750832007E1
                        -8.181373876723299E1     1.186172146081854E2    -6.748939814790903E1    -1.539925793593419E2    -9.947640338261132E1     1.046307762342230E2    -1.428127613596688       3.121015403194990E1

 5.525125000000000E7    -4.158902731238006E-1    9.745290849847277E1    -3.037582111154959E1     7.260468370482086E1    -8.631786281308207E1    -6.084075121986425      -8.994808895093595E1    -4.251832505034305
                        -3.037812851718489E1     7.296436293200921E1    -1.581441758006535      -1.341638513614677E2    -8.610045872934870E1    -7.387425279934260E-1   -6.797613386395707E1    -1.583226985265001E2
                        -9.162045399984066E1     1.779330997612398E2    -7.768941698376889E1     1.334645557263962E1    -1.412602752282222       2.470400808061854E1    -8.825854035490495E1    -9.711419154767033E1
                        -8.437696946702774E1    -6.255818374582736E1    -6.619650260020532E1    -1.500009760316484E2    -8.271085763650106E1    -1.388049098555132E2    -1.433279608055448       3.118367491978471E1

 5.525150000000000E7    -4.162377954290352E-1    9.745445733718387E1    -3.028435612499475E1     7.289223605160632E1    -8.574348966769273E1    -1.334133202139352E2    -8.877861149988829E1    -7.731092147244925E1
                        -3.046548581732541E1     7.300627333283126E1    -1.584425025368106      -1.341890098987194E2    -8.456078481694037E1     2.252510162736869E1    -6.692483932915791E1    -1.462862542612222E2
                        -8.541423665449175E1    -6.438789593910812E1    -8.286712764457960E1     2.641424535501420E1    -1.410492805995631       2.469343304322166E1    -8.816842036434747E1    -4.497778526593550E1
                        -1.108079073842852E2    -9.381839103251954E1    -6.696303423008271E1    -1.534468890159152E2    -9.495030433778285E1     5.017266928305699E1    -1.430072346085880       3.117163796288051E1

 5.525175000000000E7    -4.127944455438912E-1    9.749799248050721E1    -3.029165301375522E1     7.233448293459291E1    -8.010005874781788E1     1.021293757289628E2    -1.023404310873239E2    -9.237338976462252E1
                        -3.048072930045141E1     7.247478535679709E1    -1.585504254549847      -1.342358900543786E2    -7.687898234949833E1    -2.516197021672809E1    -6.784326279546825E1    -1.519585621857232E2
                        -9.463064042545386E1    -9.346547566587432E1    -8.060105070309493E1     8.008660325211830      -1.412848054297200       2.468153609096521E1    -8.527425636882461E1    -3.498570557903022E1
                        -8.471958405235762E1    -9.836931861173449E1    -6.687088271850003E1    -1.524496516408576E2    -9.354858108002220E1    -3.053054912370363E1    -1.432974763918639       3.117359237904209E1

 5.525200000000000E7    -4.109134061369562E-1    9.746495947342218E1    -3.049028290300088E1     7.312914099762990E1    -8.462331708185765E1    -1.635565072157693E2    -9.059253218922154E1     1.096671482935167E2
                        -3.037014161986350E1     7.284169840896897E1    -1.588849467557985      -1.342551484243357E2    -7.793613470217527E1     1.799719989067140      -6.616004585720296E1    -1.458279770874977E2
                        -8.719243335396611E1     1.646754301215405E2    -7.452723501786454E1    -7.357903249957433      -1.416537761718268       2.472268407424698E1    -8.568236618001158E1    -8.960366670471896E1
                        -8.409881726137500E1    -4.861941966319449E1    -6.664764649454868E1    -1.468827979425653E2    -8.440552309350422E1     1.133051258347386E2    -1.435695269127971       3.117350087235275E1

 5.525225000000000E7    -4.109396999215217E-1    9.745424437797651E1    -3.032826529419194E1     7.262631720129075E1    -8.143864771996445E1     1.775822081722370E2    -9.232468166479762E1    -1.751790505399586E2
                        -3.039739571934536E1     7.305548552195624E1    -1.588343489115842      -1.343083734588189E2    -7.449033841204955E1     1.801683842433034E1    -6.686081471752236E1    -1.487235691065316E2
                        -9.231666053289494E1     2.780339873446147E1    -7.930850143529037E1     1.976372712802854E1    -1.416398651099836       2.465590707045146E1    -8.337122186592417E1     6.771441422965541
                        -8.860287637264145E1     6.910290513699037E1    -6.648265907584583E1    -1.449796068824400E2    -1.037051589773872E2    -1.522936690362376E2    -1.430105506859474       3.118882963406017E1

 5.525250000000000E7    -4.121409044411426E-1    9.746544781908831E1    -3.037001204598190E1     7.309536734781653E1    -8.495600688742421E1    -1.072193642073488E2    -9.027741733349626E1    -4.842286011728289E1
                        -3.048159931444297E1     7.316566805705365E1    -1.592942302888952      -1.343447915613123E2    -7.752358489761760E1     2.449575509071339      -6.665459456348430E1    -1.561655819452061E2
                        -8.273842741265727E1     1.410224032701593E2    -7.630703872039669E1    -6.002732714367098      -1.414061827902105       2.465518770273021E1    -9.150490807880489E1    -6.963560755849890E1
                        -8.666071788896724E1     2.278025304353619E1    -6.707274147875022E1    -1.520911524569538E2    -8.463699634224371E1    -2.738444371692943E1    -1.432748735024930       3.117940151116182E1

 5.525275000000000E7    -4.110237087215892E-1    9.743947048485255E1    -3.035875742532448E1     7.281816053405865E1    -8.126820964371682E1    -8.714462964191436E1    -8.532084080844976E1     6.391002673244130E1
                        -3.035387108057532E1     7.283209928541025E1    -1.592920299073545      -1.343886064824891E2    -7.847396156012221E1    -3.125780603062179E1    -6.704528480571604E1    -1.532480073161752E2
                        -9.118722822305115E1     1.259509530374620E1    -7.568970083710569E1     2.502482185679898E1    -1.411141436111131       2.467943831552958E1    -8.861978793229285E1     1.185539343532984E2
                        -7.987363507198965E1     6.194844226564966E1    -6.806345743946031E1    -1.562587587552089E2    -7.927138133373965E1    -1.324252525252471E2    -1.434533351726688       3.116701543663540E1

 5.525300000000000E7    -4.174159603314132E-1    9.748068373916739E1    -3.032139739726062E1     7.244798717492320E1    -8.887779560438949E1    -6.242747433353128E1    -8.823707036827598E1    -1.100776951739524E2
                        -3.042013519521203E1     7.233062067274656E1    -1.596119495870575      -1.344459386792345E2    -7.602566691656953E1    -1.639150373754387      -6.607637036184397E1    -1.479099576827896E2
                        -8.640369094269873E1     1.614075371316394E2    -7.992421685044347E1     3.973204333876008E1    -1.416432656505268       2.463634858159912E1    -9.100827435894601E1     6.364846985024775E1
                        -9.634131524850552E1    -6.408441341066340E1    -6.659198928507247E1    -1.556530441084435E2    -9.805021773728464E1     6.481836328704105E1    -1.434706015509635       3.116000147872780E1

 5.525325000000000E7    -4.109484680076558E-1    9.743870452733867E1    -3.032401725686135E1     7.226004547043793E1    -8.043401549898599E1    -1.101955859888304E2    -9.138528309720462E1    -6.921005451463445E1
                        -3.030502873779741E1     7.263471676851967E1    -1.593715651168272      -1.344455041088943E2    -7.803572632472336E1    -1.519043873153580E1    -6.637673154941928E1    -1.595036572878354E2
                        -8.368881379196537E1     2.836344027461621E1    -7.719401254227280E1    -4.388503307304410      -1.412661394210203       2.465107620798260E1    -1.020637967783349E2    -4.964502842126223E1
                        -9.287190952943664E1     3.402419343329525E1    -6.674574782474512E1    -1.464710231577501E2    -8.976075731845249E1     1.708410303364545E2    -1.429413848493625       3.114995767171088E1

 5.525350000000000E7    -4.108371335921546E-1    9.745208812358462E1    -3.037431488777671E1     7.295664819889122E1    -8.775069744784638E1    -1.439111190551605E2    -9.056858378700512E1     5.821864528341161E1
                        -3.043933921391442E1     7.331402655391979E1    -1.601796751026112      -1.345061491131474E2    -7.858490463630004E1     7.341541920464890      -6.815313219567622E1    -1.493532742173071E2
                        -8.934637620317453E1     2.689910153636277E1    -7.953943140777854E1     6.207403587965313      -1.409661122947798       2.467646465864360E1    -9.263533607843078E1     1.344004931555840E2
                        -9.009882263337168E1    -1.244898787275706E2    -6.642875523149768E1    -1.500657012556770E2    -9.479515361567792E1     1.489898380922442E2    -1.433766550641202       3.114320853456667E1

 5.525375000000000E7    -4.127278874031692E-1    9.743162926088931E1    -3.042142746506075E1     7.256459618995206E1    -8.992908290137736E1     1.473517000658554E2    -8.206659408987447E1     1.062040737572504E2
                        -3.041945863493865E1     7.205959766155335E1    -1.601851857265364      -1.345278907716755E2    -7.834631104295579E1     1.101534862725578E-1   -6.821397749085526E1    -1.443324272048298E2
                        -9.414564879904391E1     4.431660928227728E1    -7.486711253022926E1     5.839090835274187      -1.412750922241470       2.465052248696858E1    -8.348760291021037E1     1.510411832884695E2
                        -9.228408546375999E1     1.429908386727398E2    -6.748922721217897E1    -1.434237193465353E2    -8.383270455863888E1     1.740123307676424E2    -1.429968599756195       3.116511840702834E1

 5.525400000000000E7    -4.101104251657478E-1    9.741767029313573E1    -3.036431502103033E1     7.183194247026940E1    -8.212169539834021E1     1.320616897050993E2    -1.004064943549953E2     6.211376943668303E1
                        -3.038821642183422E1     7.250376723744104E1    -1.600948565681082      -1.345986749606804E2    -7.735945662719304E1    -2.384599176426360      -6.634152485195982E1    -1.498918118647016E2
                        -9.165335629653798E1    -1.158259546488212E2    -7.527254213902461E1    -1.868664503328700E1    -1.412455863983395       2.461033919551152E1    -1.056068791885801E2    -1.694566347361149E2
                        -9.098766665924883E1     1.023715177657347E2    -6.755808394630225E1    -1.504527994659624E2    -8.734907252432329E1    -1.607980474803883E2    -1.429785749518052       3.114727063160126E1

 5.525425000000000E7    -4.115541885820117E-1    9.741167050071334E1    -3.039854986095535E1     7.205062838918173E1    -7.965418051298632E1     1.160542390236819E2    -9.836600052593163E1     1.773866368658287E2
                        -3.039413197164318E1     7.305931930615412E1    -1.600435735277051      -1.346128654101390E2    -7.332662360990021E1    -3.754672367245460E1    -6.739890637304951E1    -1.492303620337719E2
                        -8.423847779402132E1     1.324774305272162E2    -7.732756228091327E1     1.150753212947207E1    -1.412103011109398       2.467015303823084E1    -8.806130852999181E1    -6.142905853058415E1
                        -8.400720468914727E1    -1.599380480206525E2    -6.662451377612665E1    -1.537974205748082E2    -9.217713554965583E1     1.728168690027975E2    -1.431437608765102       3.115643276209011E1

 5.525450000000000E7    -4.107435585689232E-1    9.738280231006549E1    -3.029872552479469E1     7.219169193879777E1    -8.685336776189021E1    -1.019518687210152E2    -8.294908194385337E1    -1.118314976230757E2
                        -3.044260704977893E1     7.229092076512065E1    -1.603106417897305      -1.346576339114555E2    -7.566840950344728E1    -1.892597702903979E1    -6.710223038360232E1    -1.571681081017414E2
                        -8.167189442377372E1     1.203979898451395E1    -7.738452984321452E1    -4.391213061328888      -1.409812806629582       2.465501190072636E1    -1.022115181423078E2     1.811070137730171E1
                        -8.111747104122904E1     1.778154338742556      -6.608685872168789E1    -1.491393731004816E2    -9.205120063685725E1     5.842893391212675E1    -1.431022964598794       3.115015030026244E1

 5.525475000000000E7    -4.116615216419115E-1    9.742994461847390E1    -3.039243542691744E1     7.213624120337485E1    -8.175372637373640E1     1.677125401129139E2    -8.631182318935979E1    -5.523039769977928E1
                        -3.045931131467893E1     7.312462929062188E1    -1.609344632713099      -1.346990984788918E2    -7.967295420008998E1     1.927150992788298E1    -6.771056055005337E1    -1.513552377475956E2
                        -8.610509671375363E1    -1.606496526346724E2    -7.374496316489035E1    -8.957652121878253      -1.410105907422510       2.462295726616841E1    -9.426572981245676E1     1.225459334495796E2
                        -8.513608107256931E1    -1.291015942000470E2    -6.779432415037307E1    -1.434739187477917E2    -8.862726781069529E1     4.473789684579837E1    -1.431255602478093       3.116791391463125E1

 5.525500000000000E7    -4.155059802357858E-1    9.737790947284273E1    -3.038983456696179E1     7.294272617686220E1    -8.547500021761273E1    -3.001843877810306E1    -8.889338171350562E1    -1.679598551880389E2
                        -3.031548292238243E1     7.182804962885467E1    -1.612385144445063      -1.347555353379104E2    -7.544057603810857E1    -4.187512980683956E-1   -6.710280949395872E1    -1.471218747824512E2
                        -9.085147361352259E1    -1.091990200570547E2    -7.677977545029252E1    -4.559233407820399      -1.408806364939168       2.464006141483396E1    -8.236501092858222E1     1.628999586787964E1
                        -8.967542873110291E1    -6.427327444398532E1    -6.686582514150541E1    -1.501022579854611E2    -8.814974011210092E1     7.054271215123202      -1.433219851110440       3.115697787162623E1

 5.525525000000000E7    -4.125865871015828E-1    9.739470125257350E1    -3.036255848742881E1     7.215648228355335E1    -8.325971252192471E1    -3.341875712259594E1    -8.363827460692612E1    -3.622254607581863E1
                        -3.032279801377422E1     7.232346357792132E1    -1.610493052692677      -1.347708336205259E2    -7.616944011957119E1    -1.674985604557506      -6.628800511650643E1    -1.466817306108114E2
                        -9.287066751898578E1    -1.800612476232542E1    -7.774194911948237E1     7.842404370676202      -1.417024912298363       2.460088835310928E1    -8.463786495162779E1     1.233319991702774E2
                        -8.955399856080761E1     4.887662974475028E1    -6.752508060605980E1    -1.603773741002705E2    -8.269238235873560E1    -1.343178393577114E2    -1.432109007394073       3.112405662924924E1

 5.525550000000000E7    -4.159784447096132E-1    9.741445693448641E1    -3.048609931840806E1     7.259691388418746E1    -8.688671192493509E1     6.947979163923574E1    -8.588907691227510E1    -9.750187051875885E1
