#  HZ   S   DB   R     50.00 
! Rohde & Schwarz Vector Network Analyzer 
! Rohde-Schwarz,ZNB8-4Port,1311601044102961,2.82
! Created: UTC 2/13/2019, 2:20:23 PM
! freq[Hz]                db:S11                  ang:S11                 db:S12                  ang:S12                 db:S13                  ang:S13                 db:S14                  ang:S14
!                         db:S21                  ang:S21                 db:S22                  ang:S22                 db:S23                  ang:S23                 db:S24                  ang:S24
!                         db:S31                  ang:S31                 db:S32                  ang:S32                 db:S33                  ang:S33                 db:S34                  ang:S34
!                         db:S41                  ang:S41                 db:S42                  ang:S42                 db:S43                  ang:S43                 db:S44                  ang:S44
! 
 3.000000000000000E7    -2.693155153273799E-1    9.354462348108380E1    -6.967737096396321E1    -6.198091453498656      -8.309359798633652E1     1.018316841290863E2    -8.837236822886594E1     3.771772452954190E1
                        -6.943495510519821E1     1.088628601734323E1    -2.599523737740549E-1    1.007619465578245E2    -8.505214651641659E1    -1.471386736812092E2    -8.072844898637933E1     3.372067127096791E1
                        -9.173032311357460E1    -1.445922985140329E2    -8.547665733941469E1     1.178423615928349E2    -9.458948397032229E-1   -1.967005573619259E1    -9.194084978723686E1    -1.321725772483388E2
                        -8.524336333464817E1    -4.300746601773898E1    -8.503514405317459E1    -2.278270317780030E1    -8.896709867570310E1     5.604518543262745E1    -9.163233933263864E-1   -1.689997331888390E1

 3.002500000000000E7    -2.698641785803984E-1    9.323436508193753E1    -6.991350378783976E1     3.417828497450894      -8.804293718810037E1    -1.291291914366823E2    -8.725384261848052E1    -4.299421458181885E1
                        -6.900716187798795E1     3.891556698271704      -2.708472302181861E-1    1.004551288609812E2    -8.299611010686995E1     1.315153422208477E2    -8.208998627521127E1    -2.321911358219058E1
                        -8.632353933408409E1    -1.131171405902662E2    -8.056354148785667E1     1.070133608139361E2    -9.483370539469598E-1   -1.997613120275529E1    -8.239233377210348E1     1.738351885322077E2
                        -8.695568281246706E1     4.140378262794022E1    -8.878220395095698E1    -8.409064877858505E1    -8.480704517947473E1    -5.921397675267050E1    -9.159999446530632E-1   -1.724315177202459E1

 3.005000000000000E7    -2.748654241068834E-1    9.291254040179771E1    -6.815478747529632E1     1.006679464930658E1    -8.402654734357917E1    -7.337949550334160E1    -9.180264260304311E1    -4.667553340292506E1
                        -6.979798777734403E1     9.754639494403497      -2.565078751630784E-1    1.002123660461228E2    -9.593013247729793E1     1.933611380779654E1    -7.971037974964565E1     7.761461098626723
                        -8.241022736108803E1    -1.483021645174559E2    -8.767568218936270E1     1.444343264775421E2    -9.459360912019859E-1   -2.031346967102821E1    -8.600343899479127E1     1.762273331537558E2
                        -8.822711792365310E1     8.078211317512182E1    -8.781668635605087E1     1.425504114158195E2    -1.068070423165910E2     1.756547831059166E2    -9.207942426148885E-1   -1.754136343837003E1

 3.007500000000000E7    -2.664393510343650E-1    9.254231083033942E1    -6.940585334712768E1     1.779599687671804E1    -8.213550782719653E1    -1.245777729701481E2    -8.779429672187044E1    -1.185395406589719E2
                        -6.966985773849162E1     1.975907096781045E1    -2.626794599394748E-1    9.982332811319226E1    -8.387246253006103E1     8.551331689232438E1    -7.973006581994304E1    -1.567496506908907E2
                        -8.693610656987205E1     5.827203408232499E1    -8.882650055616170E1    -8.021065210720406E1    -9.462697714935706E-1   -2.062765234799658E1    -8.817935886373674E1    -1.455643519344959E1
                        -9.414639323212840E1    -1.049195448892003E2    -8.750636887329017E1     2.649586683162965E1    -9.895862452576047E1     7.404635967009349E1    -9.174690278130316E-1   -1.783009316980584E1

 3.010000000000000E7    -2.681934107013335E-1    9.226202226761598E1    -6.921486295679293E1     8.408511354978748      -7.688956406925628E1    -9.357975082672256      -8.677539549833807E1    -1.278469940787279E2
                        -7.005224080189800E1     7.922948555770919      -2.580845586354372E-1    9.954269047493916E1    -9.747495858564385E1     1.155105896511751E2    -8.388000412961790E1     9.719781193733805E1
                        -7.907853906429148E1    -1.424349593701677E2    -9.292857845488317E1     3.192611440010409E1    -9.513394473861125E-1   -2.091172073203367E1    -8.280306372589249E1     5.457553459461157
                        -8.650212493064636E1     1.394505046038134E2    -8.982989256419495E1     4.704936718961594E1    -9.017928898101539E1     9.362987956111578      -9.151596243286152E-1   -1.813700948316987E1

 3.012500000000000E7    -2.624681075202573E-1    9.186539209245217E1    -6.926657096212810E1     2.046534940379615E1    -9.597727546004201E1    -1.423161817925327E2    -8.231874622193600E1    -1.629977231592145E2
                        -6.942135432901503E1     2.920960090414746      -2.596952559070734E-1    9.926029476929520E1    -8.831529606367958E1     8.562753397095291E1    -8.594707382643895E1     9.162492131887393E1
                        -8.344232325485257E1    -6.683300743072009E1    -8.769278886651649E1    -4.224898433376489E1    -9.525798044718292E-1   -2.124233980704916E1    -8.100234456323351E1     1.747554767106384E2
                        -8.190703793354592E1    -3.074089394089565E1    -8.602847655927553E1    -1.435023303191425E2    -8.017501900961449E1     7.679738643553783E1    -9.142356824244711E-1   -1.847353557838633E1

 3.015000000000000E7    -2.663479797966493E-1    9.152788084770020E1    -6.862822656783612E1     1.391716136051382E1    -8.691466985776538E1     5.755179639781444E1    -9.637507277011686E1    -2.803477881782538E1
                        -6.970132162709832E1     1.252225160387874E1    -2.618277528187343E-1    9.890737251380277E1    -1.016477864796207E2     1.532304423419858E2    -8.001481691824404E1     6.094561928963363E1
                        -9.277915574323892E1     2.605688202701367E1    -9.204063148451404E1    -8.427050118906153E1    -9.480243796306240E-1   -2.157701871517991E1    -8.875101202555696E1    -1.629391399688152
                        -7.692130812943945E1    -1.351640607957944E2    -8.559941841185852E1    -1.231497355301792E2    -8.129366424167978E1     1.084532727349107E2    -9.121079432744244E-1   -1.873928677053398E1

 3.017500000000000E7    -2.634649760499585E-1    9.118492403785425E1    -6.988356925700109E1     7.988244746440845      -9.623660863958881E1    -9.809668656010190E1    -9.722719392358586E1    -1.780325556010458E2
                        -7.002057361947851E1     3.867016523394767      -2.601960273867050E-1    9.857085344951058E1    -8.579814860772441E1    -1.489142455635619E2    -8.753395519548246E1     1.681597664692374E2
                        -9.035591358239290E1     1.646829193593044E2    -8.275548091067296E1    -4.892973128531696E1    -9.479260127834772E-1   -2.189345772058191E1    -8.095048144640963E1     1.140412725365116E2
                        -8.293285291176333E1     1.012345106895289E2    -9.440787570702682E1     3.579246545110184E1    -9.209290676613199E1     8.994034558502884E1    -9.130878964798427E-1   -1.908118412975873E1

 3.020000000000000E7    -2.600397335144968E-1    9.087390668919225E1    -6.905551063518023E1     1.430147296709686E1    -8.855627393841365E1    -1.032144155176231E2    -8.282655552109505E1    -2.710353838401647E1
                        -6.905909586430751E1     1.103221618660432E1    -2.585560897948808E-1    9.828084020503636E1    -9.170256278588624E1     1.176757154536607E2    -9.046810311604384E1     1.234994044641560E2
                        -9.724541282495969E1     1.789584408213091E2    -8.280931551846480E1     5.790621093052051E1    -9.491974149608966E-1   -2.220039995317766E1    -8.722683564129774E1     1.572784695669726E2
                        -8.775759690093594E1    -1.642524307089584E2    -8.530024742753358E1    -1.434780821748246E2    -8.615531161923441E1    -5.877571551681974E1    -9.198020817562822E-1   -1.937867225786607E1

 3.022500000000000E7    -2.712096221152651E-1    9.051109090343401E1    -7.176091942152638E1     7.000333496046967      -7.868668590192070E1     1.042685205366088E2    -8.553463836749161E1    -5.195331824334359E1
                        -6.938904064880228E1     1.087725394426247E1    -2.601855015290762E-1    9.798522817018419E1    -8.664585475500834E1     9.626632524593383      -9.253773080610232E1     1.489286991118610E2
                        -8.783109477697514E1     1.552367242422846E2    -8.450543443364728E1    -3.280418737567945E1    -9.507216881354277E-1   -2.251951012725614E1    -9.903208434764581E1     1.715591160334860E2
                        -8.884990710715596E1    -8.689144784533391E1    -8.372386302736992E1     5.360683079409628E1    -9.303125130653189E1     2.132025741594939E1    -9.138540396736317E-1   -1.968606384716020E1

 3.025000000000000E7    -2.654413734067282E-1    9.020481034786494E1    -7.166043004401304E1     1.062111868995505E1    -8.342416869972551E1     3.986891557113651E1    -8.914949584189486E1    -1.548442690682375E2
                        -7.110105380576334E1     1.282197454812389E1    -2.690553855679837E-1    9.768140269542894E1    -8.341074984227852E1    -6.744162453761166E1    -1.084568643941551E2    -7.415252156881486E1
                        -8.581470717254575E1    -5.844169482859052E1    -7.958055638002990E1     4.091579033412864E1    -9.500898698253755E-1   -2.281416814887746E1    -8.559587463463987E1     1.270632607958350E2
                        -8.977640145840917E1     6.822660233878465E1    -9.126043491570160E1     1.632697195889632E2    -9.255252112425239E1     6.017054790111178E1    -9.146033721957382E-1   -2.000890560641965E1

 3.027500000000000E7    -2.644700044065739E-1    8.981953158282141E1    -7.019215813263136E1    -1.090109975378773E1    -8.036748306652160E1     1.121695384519348E2    -8.695486541241203E1    -5.258324024951253E1
                        -6.953882357284751E1     9.575545347653632      -2.502284554271601E-1    9.735918029645781E1    -7.598895450569455E1     5.695212756801221E1    -8.441178849242057E1     3.877156216346074E1
                        -8.260564471273821E1     9.244449585178113E1    -8.490384067541315E1     1.242162122029340E2    -9.444462105973960E-1   -2.318362933215758E1    -8.762642461953556E1     1.349166053959629E2
                        -8.694473388505629E1    -5.683693906534488E-1   -9.353790840601477E1     1.216056447796124E2    -8.830689043364779E1    -2.978153475737419E1    -9.161665107022763E-1   -2.026801858208192E1

 3.030000000000000E7    -2.678719949283996E-1    8.950139295648006E1    -6.937994084691073E1    -1.252260803193132      -7.949037971955262E1     5.932247614340161E1    -9.233561323223165E1    -5.177913786361464E1
                        -6.960540163074609E1     2.127043159638208      -2.605810490589678E-1    9.705942814694269E1    -8.142968402187863E1     1.426366176506858E2    -7.984747116794614E1     1.359133770480041E2
                        -8.211709870512681E1    -7.186666698818681E1    -8.920134034163607E1     6.808223160787088E1    -9.531520670135107E-1   -2.350685792374239E1    -8.544156406746501E1    -4.221549260524100E1
                        -8.293774973460964E1     7.579210826162733E1    -8.853344655820798E1    -2.719128756344146E1    -8.843936791637795E1     1.495667956117215E2    -9.188548219251105E-1   -2.058720713828125E1

 3.032500000000000E7    -2.647531860488061E-1    8.917792892445277E1    -7.133030847957370E1     7.849637666670757E-1   -9.411660385402770E1     1.068517698253970E2    -9.732522162699121E1    -1.526251391489934E2
                        -6.992720564614135E1     1.279462141108343E1    -2.494841225712051E-1    9.675422856347615E1    -9.191358050831866E1     1.725414250303023E2    -8.747077710014673E1     2.884081194400374E1
                        -8.576167275937237E1     1.613174884427280E2    -9.310935346359857E1    -5.513727485642703E1    -9.465100987109425E-1   -2.383733561934968E1    -8.805914090630652E1    -8.058505744745678E1
                        -8.138197568356713E1    -1.871363155574207E1    -8.662189568585033E1    -1.519137239346465E2    -8.771341919454068E1    -7.034487223824637      -9.149875357112937E-1   -2.090985658893054E1

 3.035000000000000E7    -2.593501372076522E-1    8.883833443590530E1    -6.694315292931988E1    -3.541832156485333      -9.830467610864928E1    -1.764412278544269E2    -1.043541383704736E2     3.943650128028504E1
                        -6.980304065489312E1     2.275433603680688      -2.560599770473356E-1    9.641128052821286E1    -8.573968280090944E1    -1.713590802021100E2    -8.285768044798405E1     1.472553913670762E2
                        -8.631133522906308E1     5.164711994741349E1    -9.028226859592488E1     1.579540010674359E2    -9.457373468657375E-1   -2.409442486644541E1    -8.483530651448122E1    -1.572518320636057E2
                        -9.465610555651722E1    -9.670571906840134E1    -8.640473416768111E1     1.389857702675926E2    -8.461856744951213E1     1.270605897804988E2    -9.160445492305751E-1   -2.118685019425159E1

 3.037500000000000E7    -2.554271009268233E-1    8.851972755222251E1    -6.941277521204938E1    -6.207329580084271E-1   -8.605683406476365E1    -1.022111879482673E2    -8.736703209440378E1    -9.738424296544937E1
                        -7.035236981389458E1     1.917061947619081      -2.595286289610433E-1    9.611001802939683E1    -8.764328562469537E1    -1.767732538098627E2    -9.193618700292464E1     8.086998412715863E1
                        -9.750703071230214E1    -2.782775329398003E1    -9.778180040776161E1     1.626538710143936E2    -9.510621398962571E-1   -2.443763775669721E1    -8.578958489789312E1     9.695363678866089E1
                        -8.149273444638695E1    -7.288426443602304      -8.701953411755540E1    -3.155623617099854      -9.360092498888889E1    -1.272171664346274E2    -9.118116402199222E-1   -2.152148804617743E1

 3.040000000000000E7    -2.582529163306717E-1    8.818668817607936E1    -6.929011244780560E1     5.076593026207791      -9.165300765588556E1     6.380855225816186E1    -9.281218829220546E1     1.561855482174204E2
                        -6.890021946477569E1     1.307670271189782E1    -2.598085534523734E-1    9.579848941253700E1    -8.780750814218931E1    -2.117715909882383E1    -8.129257752695425E1    -4.253663004789384E1
                        -8.621461468188318E1     9.776101304941709E1    -8.334330736255663E1    -1.025969819976201E2    -9.511713983626111E-1   -2.475653044788185E1    -8.375938173425340E1     3.895699093144103E1
                        -9.186677257883694E1    -1.425241047975243E2    -8.383417520612959E1    -7.580492676646267E1    -8.876648946322918E1     1.538628291547230E1    -9.173772897185527E-1   -2.183929411696996E1

 3.042500000000000E7    -2.620445951051338E-1    8.785770619216093E1    -6.924690040583738E1     1.505776400452307E1    -9.240772840498505E1    -5.816906025723380E-1   -9.023192886953692E1     1.694066399828051E2
                        -6.799641711425875E1    -4.137257722117525      -2.650397276785563E-1    9.554435392373867E1    -8.923555293412213E1    -1.352938699328712E2    -9.077065633928970E1    -1.608252657793175E2
                        -9.777514937063799E1    -6.603676870123910E1    -8.636418679559627E1    -1.885979453412745E1    -9.516182540751050E-1   -2.509800231976308E1    -8.123739345298694E1     1.512332621320459E2
                        -9.589684672026243E1     1.264659263749797E2    -1.022176966162375E2    -7.961814879458333E1    -8.924533181865559E1     1.751169894793974E2    -9.122858148801462E-1   -2.214663029304288E1

 3.045000000000000E7    -2.570470876566515E-1    8.744936260209353E1    -6.960377842620260E1    -4.376901961879549      -8.698140907940342E1     1.223069829972483E2    -8.653298987571893E1     1.165865593436161E2
                        -6.880344846204028E1     5.770628946300376      -2.493972513383319E-1    9.518406710354408E1    -8.679075128811233E1    -1.581889448206933E2    -8.756515777240023E1     9.449148167958273E1
                        -8.886292542644851E1    -8.126961456963433E1    -8.575320942619341E1    -8.434899587056438E1    -9.453373718515022E-1   -2.541807162731418E1    -9.280731099955632E1     1.200239633654520E2
                        -8.784577486102394E1    -8.258485775417070E1    -9.005114931122120E1     2.465383542207575E1    -8.681319847147083E1     1.033196428340828E2    -9.127163438546611E-1   -2.240515547462742E1

 3.047500000000000E7    -2.591752231403303E-1    8.710548251765660E1    -6.887480566247555E1     4.010431408991405E-1   -8.003058503231004E1     3.933015043043053E1    -8.418831667984838E1     7.642389306289776E1
                        -6.775302957416830E1    -8.759481094344444      -2.570439498240340E-1    9.489010132318444E1    -8.360884952544711E1     6.368894917669216E1    -8.254265243164883E1     4.345013525910733E1
                        -8.113344773407465E1     5.532729845736511E1    -8.636632225432823E1     1.392851023851911E2    -9.513178384911982E-1   -2.568982061155525E1    -8.762296370787651E1     2.740241603081638E1
                        -9.796085618204307E1    -8.978587887953944E1    -9.116371771702470E1    -6.475384038575639E1    -9.509155545657484E1    -7.639112797443366E1    -9.162164327994428E-1   -2.269676239926784E1

 3.050000000000000E7    -2.646467187347575E-1    8.681610240498199E1    -6.887723067878947E1     1.280413502889638E1    -8.706975356231133E1     2.838531236780041      -8.974659678850144E1     4.171844454455027E1
                        -6.957449728089426E1     1.263154977120840E1    -2.563677314671882E-1    9.455694907093871E1    -8.919504473457066E1    -1.578187410312028E2    -8.843602463483043E1     1.398182861273747E2
                        -8.019563413878360E1    -4.293038796808289E1    -9.529696009858714E1     1.430129062637956E2    -9.534109942925784E-1   -2.600137110651036E1    -8.305896868673450E1    -3.491593235714208E1
                        -8.092126400652538E1    -1.517820704522249E1    -1.010679658021892E2     3.605600594574115E1    -8.862571466560672E1    -1.023400712810141E2    -9.152662856706150E-1   -2.301768585435448E1

 3.052500000000000E7    -2.571616028508075E-1    8.649297721178131E1    -6.887944859356568E1     2.397562949182499      -8.377998633446055E1     1.189008655355535E2    -8.871473367992520E1     1.396445168583024E2
                        -6.850683459740733E1     1.959769989206810      -2.516049124126072E-1    9.428913997977290E1    -8.696006897119420E1     1.278622932026293E2    -9.530502777702984E1     6.815864872911757E1
                        -8.369510083135398E1    -1.396979741187926E2    -9.360108085776943E1     1.676677123651969E2    -9.451624945540814E-1   -2.629914472770560E1    -8.548601752009347E1    -1.570812153634631E2
                        -9.422317878272139E1     1.002367705155331E2    -9.852163366892899E1     1.589776234729088E1    -8.027374942422989E1    -1.010079469471056E2    -9.177373618336776E-1   -2.335454819892309E1

 3.055000000000000E7    -2.519140769788641E-1    8.612972318756118E1    -6.849763049032416E1    -1.331380511811907E1    -8.122899065862514E1    -1.408340111630289E2    -9.568415784808785E1     8.653115007913095E1
