#  HZ   S   DB   R     50.00 
! Rohde & Schwarz Vector Network Analyzer 
! Rohde-Schwarz,ZNB8-4Port,1311601044102961,2.82
! Created: UTC 2/13/2019, 2:32:59 PM
! freq[Hz]                db:S11                  ang:S11                 db:S12                  ang:S12                 db:S13                  ang:S13                 db:S14                  ang:S14
!                         db:S21                  ang:S21                 db:S22                  ang:S22                 db:S23                  ang:S23                 db:S24                  ang:S24
!                         db:S31                  ang:S31                 db:S32                  ang:S32                 db:S33                  ang:S33                 db:S34                  ang:S34
!                         db:S41                  ang:S41                 db:S42                  ang:S42                 db:S43                  ang:S43                 db:S44                  ang:S44
! 
 3.000000000000000E7    -2.692982593355849E-1    9.357333031006625E1    -7.189052381630606E1    -2.729245535067085      -8.128196008354487E1    -1.580844126956739E2    -1.010678774409314E2    -4.608662771969464E1
                        -7.038518007948443E1     3.420220294397297      -2.543054168291448E-1    1.008395236635638E2    -8.509622399691735E1    -9.857135914358156E1    -8.465544205905567E1     2.823411535747438E1
                        -8.766444663391519E1    -8.736556343758095E1    -9.247926147873834E1     1.449044483038222E2    -9.454944067045741E-1   -1.963894318354966E1    -8.403793825330175E1    -1.769057849074339E2
                        -8.927739263355267E1    -2.751200579764420E1    -8.271768990268164E1    -1.445144282537811E1    -8.449931294761015E1     1.108259518692460E2    -9.146197877510169E-1   -1.694024566983280E1

 3.002500000000000E7    -2.661871956153565E-1    9.325484340630986E1    -6.935543565807959E1     1.357636086236378E1    -9.138690399472409E1     1.509150245190689E2    -8.145355636096808E1     1.215755882628195E2
                        -6.798007729958896E1     1.402673503879834E1    -2.562021155058222E-1    1.005395002976374E2    -8.654982714469119E1     4.109442618920470E1    -8.717175144160484E1    -2.262026748355634E1
                        -9.030997907480654E1     4.675855033847864      -8.748704477009400E1     1.374250182713361E2    -9.534850042816584E-1   -2.001264924277745E1    -8.597101867515896E1     1.027319617062972E2
                        -8.865391153911902E1     1.247235102817740E2    -8.775417455181150E1     7.918021112401696      -8.624493206307632E1    -9.842713648078865      -9.157986421997365E-1   -1.724770201343407E1

 3.005000000000000E7    -2.698821983572500E-1    9.291166348930035E1    -6.904534549206518E1     8.395423022668158      -9.651790909588895E1     9.642462270397019      -9.549252839292433E1    -3.475441583910835E1
                        -7.243873952196668E1    -3.991390823723364      -2.533847949007922E-1    1.002426981486728E2    -9.120141375878141E1    -1.368635661672027E1    -8.043880304746990E1    -1.574547989260855E2
                        -8.513712904354635E1     1.192418751787657E2    -8.383314511888180E1    -1.018992708219025E2    -9.488811130457342E-1   -2.028984097554027E1    -8.762862867908517E1    -4.100982689187499E1
                        -8.044684333284131E1     1.445868412050716E2    -9.402340024631374E1     7.135224201049566E1    -8.072137296581376E1     1.145861802129943E2    -9.142002468650381E-1   -1.752982396262774E1

 3.007500000000000E7    -2.682125854450896E-1    9.256604511650657E1    -7.055859912142580E1    -5.982304116202645E-1   -8.890861900022105E1     7.549237440799091E1    -8.547011016060309E1    -7.973756756354105E1
                        -7.117885502119314E1     6.771979410551418      -2.575923810972411E-1    9.986749106280688E1    -8.463523704450836E1     1.775125399448783E2    -8.013526281724028E1     1.122995884720834E2
                        -8.400457465160730E1     1.299523874382727E2    -9.258889845280905E1     3.492601649953634E1    -9.449668904019102E-1   -2.064816212379970E1    -8.539796554525830E1    -5.350701582067484E1
                        -9.701720764298023E1     1.344719587179788E2    -8.314489838840844E1     1.162103026422000E1    -9.458446780743518E1    -5.440999294456540E1    -9.191643151080858E-1   -1.782113460336451E1

 3.010000000000000E7    -2.646725496966182E-1    9.227407453523868E1    -7.069950354721942E1    -8.275549408905881E-1   -9.340536486050324E1    -1.693171886699687E2    -1.059447016317397E2     1.535321568217116E2
                        -7.174607551924082E1     3.453624754034088      -2.583392174248392E-1    9.960277939930964E1    -8.505071481012396E1    -5.198417647984910E1    -8.516612434382010E1     1.792697060855853E2
                        -9.218205636454155E1     6.285700927225006      -8.369320226495816E1    -6.359130209521765E1    -9.464808734292706E-1   -2.092942792365510E1    -8.848014250380702E1     6.783152128970787E1
                        -9.651363702437342E1    -7.621129268400505E1    -8.251883866418957E1     6.176400606938390E1    -9.061357378789347E1    -1.098916879541998E2    -9.178092460906078E-1   -1.812205962279568E1

 3.012500000000000E7    -2.658976060541755E-1    9.188294498331254E1    -6.973070969209869E1    -5.265911542201004      -8.798967968048090E1     1.540621970860366E2    -8.124889128129480E1    -1.619827831445246E2
                        -6.998820735306252E1     3.217678807989351      -2.594122708559801E-1    9.932686972361991E1    -9.330992991266317E1    -5.056244097102363E1    -9.126476198727499E1    -6.793104804164894E1
                        -9.109730403373268E1    -5.472163853612316E1    -7.745852394660935E1    -7.879553383166648E1    -9.465568482401416E-1   -2.123549932030267E1    -8.563827468838989E1    -9.817893402158789E1
                        -8.987874046015564E1     1.260609068991986E2    -9.328771234447389E1    -1.043179338553848E2    -8.267969750898959E1    -2.657715488127738E1    -9.124339874297540E-1   -1.845477882873652E1

 3.015000000000000E7    -2.614195919382586E-1    9.159564766554084E1    -7.025665579147373E1     1.557085624200568E1    -8.065464453974857E1    -4.327951865298746E1    -8.873517737633256E1     5.084896140375746E1
                        -6.765202087377828E1     1.729406086289218E1    -2.575715867358157E-1    9.900594428831357E1    -8.956980799237208E1    -2.274427087986932E1    -7.953977876980589E1     3.575816913009314E1
                        -7.883701183196517E1    -1.408598117204294E2    -8.731010032347994E1     5.906216176598849E1    -9.487617758287568E-1   -2.155115846107977E1    -8.326974665913676E1    -1.373141919169767E2
                        -9.198383733406504E1    -1.221576192442956E2    -8.893359985086008E1    -1.390453358010253E2    -1.002645247582325E2     1.331235149049802E2    -9.148590892590119E-1   -1.875034887374318E1

 3.017500000000000E7    -2.561306620683375E-1    9.123826799553731E1    -6.940084857551705E1     7.396298508857271      -9.424620307602541E1    -1.727323211704010E2    -8.810477703327534E1    -8.413473238978314E1
                        -7.075492317405076E1     6.041033298981255      -2.540446061369731E-1    9.867728798409341E1    -9.257491933629945E1     1.388192667418582E2    -7.939746473396474E1    -1.168747236072485E1
                        -8.924804593069851E1     1.204471367883671E2    -8.827376821365782E1    -2.936861561397282      -9.438578476285284E-1   -2.187898781352950E1    -8.105298892001790E1     9.608782071105597E1
                        -8.558917838052940E1     6.636723830414265E1    -1.060845490970240E2    -3.854201217618959E1    -8.801206364466711E1     8.814867348026490E1    -9.129804760684035E-1   -1.907929905326692E1

 3.020000000000000E7    -2.570031037832660E-1    9.088110658670374E1    -6.934860728126867E1     1.140123097583690E1    -8.455055700070963E1    -1.320038568908673E2    -1.180591462627272E2     2.436744130234302E1
                        -7.026230228723334E1     7.926591785699922      -2.499164486347558E-1    9.838124046508732E1    -8.414263432737667E1     9.274345616030276E1    -8.443531558008050E1    -1.782425143433256E2
                        -9.685824895276409E1     1.602925209335374E2    -8.715679465665471E1     1.654831983585643E2    -9.492013376192823E-1   -2.220725029650891E1    -9.166961438112040E1    -1.662920387136668E1
                        -7.997537856968218E1     1.297361416829593E2    -9.034367734838480E1     3.357244954609621E1    -8.814687795079399E1    -1.637574091743013E2    -9.135581310036620E-1   -1.938836508647610E1

 3.022500000000000E7    -2.689878771310464E-1    9.057644725766629E1    -6.965506043498269E1     4.530470801399182      -1.023141853250134E2     4.497367448087106E1    -8.205189789476663E1    -1.009219275734728E2
                        -6.836734110057310E1     2.565004439402219E1    -2.533303554431105E-1    9.805154724543181E1    -8.765819730658308E1    -9.762428131060297E1    -8.411471937876839E1     8.479200673072229E1
                        -9.691192463561158E1     3.964321747088091E1    -8.470236312363996E1     2.163672037044150E1    -9.506719216675357E-1   -2.253102331854416E1    -8.397938159263705E1     5.376719109569810E1
                        -8.364914667232243E1    -8.153744050629400E1    -8.417927892756933E1    -1.235338861586335E1    -8.889155115310480E1     1.466291279838004E2    -9.142146089450385E-1   -1.968620708705776E1

 3.025000000000000E7    -2.609621656474416E-1    9.022948046567915E1    -7.108413492743475E1     3.646208697937952      -8.415028728137085E1    -5.111252042655811E1    -9.117414085701847E1    -1.236750161401531E2
                        -6.838658412990760E1    -7.081533370873168      -2.623674691208260E-1    9.780503250978401E1    -8.624519665768771E1     3.558011464730422E1    -1.008447620851518E2     7.081546084745486E1
                        -9.309969437390690E1    -8.392364499116269      -9.424382046589807E1    -4.148212807052639E1    -9.427282139697767E-1   -2.283640077537593E1    -8.709226506086762E1     1.344149268989972E2
                        -8.313616415934510E1     3.815492712833832E1    -9.298993124769177E1    -2.671970376253336E1    -9.051140187695563E1     1.588389528018435E2    -9.189784890761571E-1   -1.998381178725818E1

 3.027500000000000E7    -2.514321702380429E-1    8.992000765662418E1    -6.925446858817301E1     4.292447402158284      -8.562796314495218E1    -1.307762685183481E2    -8.430234227089412E1     4.546218952041814E1
                        -6.716314086148276E1     1.139830499642804E1    -2.421257981114947E-1    9.738449168539921E1    -9.121572204847942E1    -3.890301499046198E1    -8.888146675757645E1    -1.074104297024419E2
                        -8.295921239270071E1     7.526300387505402      -9.095125810977700E1     9.012223056499731E1    -9.481111590274826E-1   -2.313354619171594E1    -8.551711472019369E1     1.886055960933884E1
                        -8.399446973826885E1     1.533723962026133E2    -8.694777889315643E1     6.253404000274413E1    -8.351573900122197E1     1.418094734276845E2    -9.183678447285270E-1   -2.030894674901841E1

 3.030000000000000E7    -2.650264450665516E-1    8.960680894284830E1    -6.998130067382213E1     1.212881822752222      -8.255930902532315E1     7.296214160740421E1    -9.597945130131978E1     1.907576303978952
                        -7.010052424094047E1     1.599059689473057E1    -2.520184609708100E-1    9.713597587017679E1    -8.646077991568112E1     9.058030407921407      -9.323939426757218E1     1.170742215627757E2
                        -9.640141442221777E1     9.463557047984909E1    -8.826729854646943E1    -1.646468346189988E2    -9.509163445667879E-1   -2.347385944370408E1    -8.304969534266250E1     2.795797363408902E1
                        -7.910577150591317E1    -9.008543979825906E1    -8.208703803095800E1    -8.251765857497304E1    -8.884708150991258E1    -1.706943803701614E2    -9.137611974714733E-1   -2.058917883916407E1

 3.032500000000000E7    -2.592287815988457E-1    8.918639788806360E1    -6.865032128861267E1     6.203850875969403      -9.623196501268907E1     2.778968480769407E1    -8.758260869853717E1     1.509858769355853E2
                        -7.043178300377446E1     4.878489892337654      -2.441953135686410E-1    9.676908708746001E1    -9.328373148942239E1    -1.396437271709907E2    -9.067570684592283E1     1.132597482085763E2
                        -8.203030480675392E1    -2.539872841370524E1    -8.793247900820310E1     9.811203496034898E1    -9.483691515802789E-1   -2.382033273557960E1    -8.373451871065107E1     6.353887511903061E1
                        -8.534604560168515E1    -3.340457785045675E1    -9.065502364788047E1     7.118309057477060      -8.612779545749575E1    -1.242546355912139E2    -9.125377436668046E-1   -2.089758759926901E1

 3.035000000000000E7    -2.503029774179221E-1    8.889687094167429E1    -6.925336327898663E1     1.798096110480900      -8.623495010695700E1     1.613407701035208E2    -8.497955249987639E1     8.076854599195112
                        -6.987782266733237E1    -7.482116797964667      -2.497620532074533E-1    9.652211895333922E1    -8.861167279794708E1     1.682469797789289E2    -8.802408714461939E1    -1.451387163874018E1
                        -8.183353131356796E1    -3.650586041978652E1    -8.560393530030649E1    -1.587430149470191E2    -9.541193945533444E-1   -2.414269829018107E1    -8.162847325435544E1    -6.548417228890743E1
                        -8.472580282423878E1    -1.659462655016181E2    -8.628911867823527E1    -5.165076618609842E1    -9.223975885169520E1     5.029211685027150E1    -9.130949694909257E-1   -2.119776239949508E1

 3.037500000000000E7    -2.516143769765222E-1    8.852341773450766E1    -6.990665550889705E1     3.522482867706889      -9.537233890790233E1    -1.556536059084799E1    -7.891626736541267E1    -1.389890049710246E2
                        -7.059306819061384E1    -1.155532935504065E1    -2.474819871252065E-1    9.616060522847745E1    -8.802273095320109E1    -3.527016006679668E1    -8.775411623461540E1    -1.273394641151960E2
                        -9.036728647148877E1    -1.191286206464686E2    -9.429484904608222E1     6.978570483838352E1    -9.503287102233340E-1   -2.441532853388604E1    -8.889576303061514E1     1.101377255068326E2
                        -1.061671549476051E2     1.363211721718039E2    -8.639769574671908E1     1.099389443878847E2    -8.100925610517385E1    -3.327736865307908E1    -9.138386572906344E-1   -2.151957011953532E1

 3.040000000000000E7    -2.539179053480921E-1    8.821838647808359E1    -6.813245132581470E1     1.396487340043646      -8.141579189007044E1    -1.346050297704337E2    -9.423438114890060E1     6.912175301033021E1
                        -6.995938953700217E1     2.820955202327506      -2.520857330793276E-1    9.589071699413415E1    -8.562763178150833E1    -3.613583885622389E1    -8.537137506449868E1    -1.815508234361830E1
                        -9.004458610111425E1    -8.265698358572390      -8.199263209769478E1     4.256081626231217E1    -9.456367075023611E-1   -2.477260933659042E1    -8.383673945871747E1    -1.413671502233622E1
                        -9.383643563455358E1    -6.988645635265225E1    -8.843878656544842E1     1.107092700330477E2    -8.602665159255872E1    -3.876098098014726E1    -9.174127323135428E-1   -2.177790903077257E1

 3.042500000000000E7    -2.573972390501345E-1    8.786555287261700E1    -6.913795318582655E1    -8.320194460494543      -8.282065859342364E1    -1.023180448337556E2    -8.465194664453632E1     1.475942354643919E2
                        -6.945356892068358E1    -6.550079855340781E-1   -2.509248239947364E-1    9.564220842943672E1    -8.567243150349614E1    -1.335099419066347E2    -8.039902956284303E1    -1.446191847879929E2
                        -9.032245505759460E1    -3.289651274912512E1    -9.215983092074370E1    -1.497625852304637E2    -9.500449774846778E-1   -2.509829328429636E1    -8.499619178425905E1    -1.605906395567477E2
                        -8.059251265370251E1     1.105770380344817E2    -8.533912377535054E1    -1.509341869351701E2    -8.576894071833983E1     1.636404699681869E2    -9.093570578280532E-1   -2.210294079505758E1

 3.045000000000000E7    -2.541161475686251E-1    8.750792631377966E1    -6.919740707094384E1     7.635717538494281      -9.160441193799770E1     1.470634529796674E1    -8.394172928166907E1     7.853404413734029E1
                        -7.008464457820259E1     1.868782439298063E1    -2.523256564228047E-1    9.523839940488132E1    -8.326513492576197E1     1.586247888822778E2    -8.589421416197149E1    -1.252086809004178E2
                        -8.712960892606611E1    -1.203926520281540E2    -9.054767060191018E1    -8.635446777382384E1    -9.466599648672565E-1   -2.538842166573213E1    -9.256701647002750E1    -1.376699260166529E2
                        -8.765648128182555E1    -1.166327424952959E2    -9.910308979755482E1     4.671456294921811E1    -9.083133852349569E1     1.368842537115033E2    -9.164027202681534E-1   -2.243445099906251E1

 3.047500000000000E7    -2.595542241080474E-1    8.717783028737576E1    -6.938225068818757E1    -2.463791751390377      -7.747190866860726E1    -6.371124794390758E1    -8.261851222927690E1     1.560549178140240E2
                        -6.907526116008884E1     2.889480436256122E-1   -2.496610650775282E-1    9.498789429567097E1    -8.717003430194112E1     6.836279435361016E1    -8.237231896525087E1    -1.766445746738268E1
                        -9.038280063551554E1    -1.164766960538709E2    -9.194684241297748E1    -8.889314409914377E1    -9.469595527356780E-1   -2.567651239187703E1    -8.489397770111688E1    -1.640682416961728E2
                        -8.023677192062817E1     3.316950764548105E1    -8.395965967082765E1    -1.768269407050489E2    -8.407138024620166E1     9.946092339226286E1    -9.134142853591941E-1   -2.274176820491668E1

 3.050000000000000E7    -2.572647155927695E-1    8.681968429474485E1    -7.116061977508353E1    -9.067967438980762      -8.941582350497373E1     1.156867894429761E2    -9.087440185454015E1    -4.645642474757413E1
                        -7.033233947463774E1     8.131629887270053      -2.467684258846132E-1    9.464471278233478E1    -8.004137197586323E1    -8.955389423126279      -7.981779962435516E1    -4.785992445946574E1
                        -8.022209685330033E1     1.759034064739286E2    -8.511053393377723E1    -8.967833039416077E1    -9.438998064845261E-1   -2.603310240417343E1    -8.119930673225404E1     1.303269483752343E2
                        -8.579139916272759E1     1.319044872277781E2    -8.407266786559909E1     3.611368352386387E1    -8.429272349551154E1    -1.108782362700888E2    -9.164177100089120E-1   -2.304105832245771E1

 3.052500000000000E7    -2.508270569391290E-1    8.649588489400610E1    -6.869435942788104E1    -1.086066340017489E1    -8.193091220449630E1     8.530885802465031E1    -8.247311718707218E1     6.824258433705138E1
                        -6.964235082739836E1     1.662474219705431E1    -2.432714711347256E-1    9.432458525257509E1    -8.352891493412693E1    -9.124226665421065E1    -8.994858977120524E1     5.091912138145093E1
                        -8.280928254541101E1     1.390221733604834E2    -9.043943910055947E1     1.013325305350918E2    -9.448708011846742E-1   -2.630923857165874E1    -8.460641198927863E1    -9.218961446119720E1
                        -1.001154054295242E2     1.150395542722485E1    -8.607311595514817E1    -1.418929431567752E2    -8.401499893200244E1    -1.204635001187860E2    -9.179882318004884E-1   -2.337205143373713E1

 3.055000000000000E7    -2.482622356212426E-1    8.611609174755377E1    -6.843725338055874E1     5.980102301637047      -8.341650946316219E1    -2.294292112327145E1    -8.671915803045246E1    -7.358999590125063E1
