#  HZ   S   DB   R     50.00 
! Rohde & Schwarz Vector Network Analyzer 
! Rohde-Schwarz,ZNB8-4Port,1311601044102961,2.82
! Created: UTC 2/12/2019, 2:30:12 PM
! freq[Hz]                db:S11                  ang:S11                 db:S12                  ang:S12                 db:S13                  ang:S13                 db:S14                  ang:S14
!                         db:S21                  ang:S21                 db:S22                  ang:S22                 db:S23                  ang:S23                 db:S24                  ang:S24
!                         db:S31                  ang:S31                 db:S32                  ang:S32                 db:S33                  ang:S33                 db:S34                  ang:S34
!                         db:S41                  ang:S41                 db:S42                  ang:S42                 db:S43                  ang:S43                 db:S44                  ang:S44
! 
 3.000000000000000E7    -2.757761636704293E-1    9.708373328311633E1    -7.125734130396833E1     7.118967831107622      -8.945027649592960E1    -7.685811785973816E1    -9.227721525566895E1    -1.497292929655152E2
                        -7.110813025249308E1     3.058530977247691E1    -2.260949392927172E-1    1.050115288559565E2    -8.423073497851512E1     6.971964220923265E1    -8.874135207606039E1     5.267809888609305E1
                        -8.815814268369870E1     3.815428700499339E1    -9.049772825489328E1     1.592240058662190E2    -9.296461973776067E-1   -1.574236992441113E1    -8.140117549897690E1    -5.798027604902890E1
                        -9.587099240918930E1     4.101777722595890E1    -9.460566970393757E1    -1.623177562100538E2    -8.748790524660775E1     1.620972937057103E2    -8.982069046685168E-1   -1.304250874230125E1

 3.002500000000000E7    -2.757235555109194E-1    9.675575521762882E1    -6.946220672884570E1     5.197319747181919      -8.200787372258105E1    -1.385109913454866E2    -9.090298906329056E1    -1.131433768552958E1
                        -7.155923902861619E1     7.603481555382631      -2.310383367773114E-1    1.047260416880866E2    -9.915444946274299E1    -1.437511423159264E1    -8.761051117065593E1     1.247621321603840E2
                        -9.126062335585573E1     3.152081211283526E1    -8.724964322233652E1    -1.171043780446870E2    -9.401379773576679E-1   -1.608188860826430E1    -8.679351330921229E1    -9.290524960091445E1
                        -8.579650045051578E1     1.787812741565309E2    -8.860124295104826E1     2.160988919874177E1    -8.346354702765308E1     1.761393016767267E2    -8.989579844859101E-1   -1.334768044133610E1

 3.005000000000000E7    -2.824589336166053E-1    9.642722595240575E1    -6.904352462311266E1     6.448032169826400      -8.512181983304146E1     2.851401048986587E1    -8.661550471833627E1     1.113780315719586E2
                        -7.060183943836290E1     8.723803111209882      -2.207080595079316E-1    1.044155380161010E2    -8.842573181302740E1     1.028537757703941E2    -9.826941137566251E1    -8.823254261857041E1
                        -8.758747330618783E1     3.495850546383002E1    -8.540661538277553E1     4.876014045615712E1    -9.433210299476946E-1   -1.637794583319968E1    -9.697598754614734E1     1.535277802799310E2
                        -9.414265584444212E1     4.403728335888042E1    -8.697619566450280E1    -3.240227806831615E1    -8.649903521985098E1    -7.181754787684299E1    -9.024224719640756E-1   -1.362791731240040E1

 3.007500000000000E7    -2.752408990358464E-1    9.605151087405395E1    -7.043745807576896E1     1.502205024903590E1    -8.650143133624002E1    -1.036050704396985E2    -8.994574022514095E1     4.450555216270916
                        -6.962428413393249E1     4.138984794762098      -2.258842584414886E-1    1.039951348029440E2    -8.314234287472389E1     7.922937614759826E1    -8.747043780490203E1     9.134755275920247E1
                        -9.628977508180073E1     6.189734870978148E1    -1.004034425729357E2     9.312532252609729E1    -9.381260606625814E-1   -1.673191140701070E1    -9.779429213386415E1    -9.637226197716596E1
                        -8.610058806959597E1    -1.575915852929111E2    -9.547776816762888E1     2.486260672389484E1    -8.573063787217747E1     2.675901741610529E1    -9.028820985790426E-1   -1.394342137921884E1

 3.010000000000000E7    -2.702033932679644E-1    9.576243354464397E1    -7.161243271008055E1    -2.020382171145456      -8.927022030640177E1    -9.535576114262112E1    -8.306881359818607E1     1.754392688806653E2
                        -6.954180347059722E1     2.170228668435521      -2.290661288346140E-1    1.037495471661655E2    -8.979263751299772E1     4.787437356527531E1    -8.649999564969747E1     9.313688838767685E1
                        -8.500718520273770E1     4.854229444057310E1    -9.351119017820592E1    -8.042867699150040      -9.297979329179716E-1   -1.702401233297417E1    -1.116718815736389E2     4.524038084959640E1
                        -8.406916087896067E1    -1.450911784370685E2    -8.645233835664241E1    -1.213601241148073E2    -9.125209722385449E1    -5.712056118536145E1    -8.999516773215219E-1   -1.421560323589380E1

 3.012500000000000E7    -2.736003105317063E-1    9.540736850667024E1    -7.135977291910604E1     4.533469795179445      -8.179508144470368E1     1.392865263438381E2    -8.607630340832451E1     7.947099286876031
                        -7.040684054292819E1     1.656155603245610E1    -2.274733604232623E-1    1.034440263996192E2    -8.364010472304324E1     1.998032920296722E1    -8.464936728102019E1    -8.717265118720674E1
                        -8.665509484423014E1    -1.778474090186079E2    -8.140284697035202E1     1.364621839877431E2    -9.361545817317711E-1   -1.731628172023872E1    -8.888006010497736E1    -8.185307789024090E1
                        -8.732876037452419E1    -5.146614010671911E1    -8.289960463406003E1    -1.730469773004280E2    -7.892517296293813E1    -2.283184675261066E1    -9.009293698261118E-1   -1.453535060595491E1

 3.015000000000000E7    -2.686023259247377E-1    9.509411312524038E1    -7.165215345755081E1     1.256481916253718E1    -8.262705267939565E1     3.156272924708691E1    -9.020459735952377E1    -1.282265108088128E2
                        -6.947497982169868E1     9.306359585857843      -2.304495761813910E-1    1.031107964240320E2    -8.589199773229115E1    -1.105730881635549E2    -8.557452483388761E1     2.577363073283121E1
                        -8.358265573373964E1     5.021861737179053      -8.362889664159171E1     1.532552356350430E2    -9.362838992402363E-1   -1.761007585050113E1    -8.366075634849260E1    -9.794462741262001E1
                        -8.696879435567794E1     9.083702780691112      -8.723642599779517E1     4.428090881293620E1    -9.121073819439515E1    -9.981332729365599E1    -8.985589855509978E-1   -1.481500310066535E1

 3.017500000000000E7    -2.695579995818251E-1    9.476350096930203E1    -7.204930540487504E1     1.795214219960140E1    -8.267467089650360E1     8.261207219868376E1    -9.210142980595461E1    -6.170827626716694E1
                        -7.149862292780767E1     5.407213197053348      -2.296821800464670E-1    1.028138204249503E2    -8.298883485399963E1     1.853663623524596E1    -8.845249480189148E1     1.140521352300571E2
                        -7.916521567918902E1     4.345607901186769E1    -8.935053870000118E1     1.665666538741370E2    -9.369422815192403E-1   -1.792478582392175E1    -8.600343796440021E1     8.184681684571430E1
                        -9.204728310160908E1    -8.778003650450394E1    -1.117930557644441E2     1.133222207923925E2    -8.802864521429660E1     4.311631570138506E1    -8.973281862148542E-1   -1.509882340029186E1

 3.020000000000000E7    -2.658872474457911E-1    9.441405818686719E1    -6.846422194220770E1     1.044332924164514E1    -9.757822745451253E1    -2.204819332500160E1    -8.366904415564824E1     5.069647886795280E1
                        -7.052284532204905E1     1.227293422096174E1    -2.197292784339961E-1    1.025134092171950E2    -8.473067562820208E1     4.961964812583457E1    -8.447669714256732E1     9.215365077342138E1
                        -8.761025095890615E1    -1.258266398318673E2    -8.404320400957951E1     8.401110451457079E1    -9.336375479468799E-1   -1.824449331597098E1    -8.807737152000820E1     1.272329832103252E2
                        -8.307190425612023E1    -8.662197751107864E1    -8.429196666369219E1     8.091759789439706E1    -8.660345888761611E1     8.808657059211436E1    -8.995443600520893E-1   -1.540516888642315E1

 3.022500000000000E7    -2.758018270401711E-1    9.408977726860631E1    -7.060537576109925E1     9.394873522788759      -8.268760474758943E1     1.467996419085517E2    -8.860158940100229E1    -4.470924094864860E1
                        -6.978738051276571E1     1.125969924312543E1    -2.267639506697306E-1    1.022543182173615E2    -7.989576492445234E1    -1.431858690488179E1    -8.471266931884601E1    -7.418269312724566E1
                        -8.312253908575988E1     9.638354289007393E1    -8.427353346828021E1    -1.250747277485398E2    -9.362432691196714E-1   -1.857557992750029E1    -9.122053665970049E1     7.904145859724557E1
                        -9.464700436368622E1    -2.973471855677804E1    -9.252533803506194E1     7.128169310453964E1    -9.494284555874262E1     6.717220527114479E1    -8.953841653778938E-1   -1.572561130905216E1

 3.025000000000000E7    -2.770034019143930E-1    9.374940296331205E1    -7.145287536649960E1     6.794045735674467      -8.640607337892568E1     1.765713948269391E2    -8.534297080711269E1     1.211445269617079E2
                        -7.090860918515305E1     1.651013558524538E1    -2.283612774512999E-1    1.019167910698188E2    -8.102542218299735E1     5.991402919688885E1    -8.210729993862161E1    -1.438361886029633
                        -9.432261134641742E1    -1.334241347713597E2    -8.137556079791756E1     1.566174618579528E2    -9.334059757422557E-1   -1.885881259345014E1    -9.471198462649159E1    -1.767894828556480E2
                        -9.204655976736436E1    -4.746533256377213      -8.443065214657278E1     9.884050020322317E1    -8.022579525357548E1     1.527051925634191E2    -9.054959422911573E-1   -1.601714057173262E1

 3.027500000000000E7    -2.682125433467681E-1    9.343823960947366E1    -6.830453276241259E1     7.834543585412384      -7.933438716013737E1    -5.700972249185444E1    -8.915230504859281E1    -1.479663537175536E2
                        -7.045618131074366E1    -2.744055582703476      -2.182108018907410E-1    1.015549366207682E2    -8.230537929326655E1     1.194185188642245E2    -8.352822030457440E1     9.098609562402207E1
                        -8.576286461684487E1    -1.807157149749830E1    -9.820468721646739E1    -7.457529653137182E1    -9.320570864630480E-1   -1.916720514493645E1    -8.219865875921920E1     6.686719174485778E1
                        -8.115013084240987E1    -1.230327563256028E2    -8.577606008835930E1     8.504016448635242E1    -9.152334136605205E1    -1.780769778905075E2    -8.990318374580828E-1   -1.632720767976865E1

 3.030000000000000E7    -2.709948615126326E-1    9.311296751824492E1    -6.874306937061131E1     9.173155134639469      -8.625964540750192E1    -1.464471787767466E2    -8.826308764369207E1     5.002423740019948
                        -6.960981412752999E1     2.264519020529511E1    -2.238529150687225E-1    1.013079751254426E2    -8.198049106461764E1    -8.442632436055366E1    -8.470190851658943E1     7.909734310729539E1
                        -9.500680197075138E1    -1.348888391330105E2    -8.883883641387450E1    -8.838856074715936E1    -9.374143221952792E-1   -1.949252615000550E1    -8.745849266540870E1    -1.682578002140837E2
                        -7.986843494880904E1     1.607038767525151E2    -8.285483714524268E1     3.698028844101867E1    -8.112290366044030E1    -6.398146991609288E1    -9.021874174412496E-1   -1.662464178432926E1

 3.032500000000000E7    -2.657564327726556E-1    9.276493162728042E1    -6.927281650455862E1     4.824825878439488      -8.135117368197473E1     1.665899131859213E2    -8.181731586718465E1     3.314698730123912E1
                        -7.089035515873695E1     1.047587386632118E1    -2.157146212463015E-1    1.009645265595841E2    -9.133499518269504E1     1.048609694938871E2    -8.362363472813000E1    -2.386191027309100E1
                        -8.512731642248400E1    -1.101711646572654E2    -9.207781333747882E1    -5.650188933829632E1    -9.346743024130899E-1   -1.979078448908874E1    -7.931765412721016E1    -9.120789657237829E1
                        -9.486407777819011E1     1.185078204283346E2    -9.114971475588503E1    -6.359681634948911E1    -9.105796117955228E1    -1.808242430365835E1    -8.973366054608061E-1   -1.690848939063515E1

 3.035000000000000E7    -2.651865128991472E-1    9.241348483681213E1    -6.931345703224648E1     3.010435453436563      -9.129292990731753E1     2.753629438315553E1    -9.538505169228202E1    -1.467384620525766E2
                        -6.920671538121587E1     7.322275820269095      -2.204403261672145E-1    1.006802189794544E2    -7.986890268107902E1    -9.787083286030534      -8.675434772348849E1    -1.148395714920928E2
                        -9.790119811956258E1    -1.197137117602488E2    -1.157806929331606E2    -1.680170714725701E2    -9.313012983171074E-1   -2.008343734142968E1    -9.273861765634985E1     8.121770548725826E1
                        -9.079924146514330E1     1.799997784258580E2    -8.741667318719102E1    -1.352954982161088E2    -8.596681100660666E1    -2.764901189694847      -9.016176652256183E-1   -1.720857826865012E1

 3.037500000000000E7    -2.657372558608858E-1    9.205303086988438E1    -7.073369384561285E1     7.140349578676932      -9.217198395517076E1    -7.414958655149599E1    -9.423620263038004E1     1.069638536080312E2
                        -6.906491115425615E1     9.049700853049103      -2.258691709364811E-1    1.003642254198122E2    -8.140679074711983E1     1.476094632480616E2    -8.292441359381074E1    -8.324714614143616
                        -8.823981488551196E1    -4.313527159229756E1    -9.034080023751734E1     1.797072060332305E2    -9.307533039054432E-1   -2.041494728933174E1    -8.534977219289024E1     5.431950786326117E1
                        -8.363418537432659E1     6.971290190026909E1    -8.779719299113435E1    -1.158643694328915E2    -8.660037785541337E1     9.939840824101137E1    -8.936162469234598E-1   -1.751038999135897E1

 3.040000000000000E7    -2.660872868117543E-1    9.170479219901263E1    -7.004318765027522E1     4.803362918978734      -9.217665218420888E1     1.483965868267306E1    -8.995258115188523E1    -8.437609833951963E1
                        -7.073769325825072E1    -2.946506619000368E-1   -2.257101201322397E-1    1.000489832010597E2    -8.594614219320270E1     7.934239506648312E1    -8.325626732581794E1     8.329237536583739E1
                        -9.078398795895417E1    -1.713911893861443E2    -8.249693050935943E1     1.341675306988012E2    -9.404294784242017E-1   -2.075692419956698E1    -8.712995602462888E1    -1.420247685691702E2
                        -8.845977786525370E1    -3.832732422227251      -8.172020356731140E1    -4.862106860248525      -8.987072235830993E1    -7.227919709588572E1    -9.002383587019475E-1   -1.782742748671370E1

 3.042500000000000E7    -2.638895111247608E-1    9.143004995097103E1    -7.004242943720674E1    -1.018705041847709      -8.035108480939650E1     1.148251560010895E2    -8.384498694261836E1    -3.507953942019073E1
                        -7.098374769736837E1    -5.626698475028316      -2.243753075598153E-1    9.980767335918867E1    -8.079827613828633E1     1.486015038466791E2    -8.602002620596599E1     5.147969983495601E-1
                        -8.583039691966151E1     1.498480226929662E2    -8.585516208699968E1     9.381830583972788E1    -9.328688163603126E-1   -2.103746464513769E1    -8.647174746382771E1     1.469876841669173E2
                        -8.708907621749935E1    -2.492045893783125E1    -9.272597074329480E1    -7.073486595632167E1    -9.339394711992230E1    -1.316932765764260E2    -8.986078257915988E-1   -1.815249124766900E1

 3.045000000000000E7    -2.650029767266453E-1    9.107122163288365E1    -7.038866457588506E1     7.148326179378310      -8.064013279010862E1     1.455664760198438E2    -8.519875468996273E1     2.507963173499746E1
                        -7.071826214852982E1     9.745917340322608      -2.136289300672186E-1    9.945136714890687E1    -9.212976513323406E1    -8.912645587564613E1    -8.447097591544066E1     4.017822690972405E1
                        -8.282776800905836E1     6.664754331499869E1    -9.700639703470549E1     1.773579078645906E2    -9.301096416553255E-1   -2.135290011436561E1    -8.737764601524269E1     1.535236315281561E1
                        -1.001899507416199E2    -1.575206250014223E2    -8.664114979206417E1    -1.500261201923294E2    -9.202773786420445E1     7.174269875646806E1    -8.952008690442259E-1   -1.839679763695256E1

 3.047500000000000E7    -2.619446303850642E-1    9.066877819819690E1    -6.997793148905483E1    -2.763190425037299      -9.140439730040525E1    -1.123610728748511E2    -9.167259720392450E1     1.127729821824001E2
                        -6.907885885893371E1     7.146747065444760      -2.154190972048427E-1    9.919607592821492E1    -9.004684116109527E1    -1.196961966687092E2    -8.678085540812697E1    -7.109616135231951E1
                        -8.577676516233422E1    -1.948263035012216      -8.689146529627321E1     1.068688644833308E2    -9.342288246352913E-1   -2.162408290337591E1    -8.499186108035889E1     1.550735824453615E2
                        -1.119100799841511E2     7.375563092449093E1    -1.042558772626834E2     1.490173375924415E2    -9.866388572856718E1    -7.715957413298702E1    -8.998730565695013E-1   -1.866648086033622E1

 3.050000000000000E7    -2.642530383754728E-1    9.036750877933275E1    -6.939740702942112E1     1.791681276940014      -9.437779494547777E1     1.102965086476169E2    -9.195899402629416E1    -1.108620549986768E2
                        -6.913348399661665E1     3.783843777227419      -2.183058069605497E-1    9.883927349830383E1    -8.174779048032315E1    -1.768792933968483E2    -8.297090204418326E1     1.678297085865374E2
                        -8.207058736531339E1     3.288744161188118E1    -8.339767561331695E1     4.656117667304498E1    -9.343209762329892E-1   -2.200278872520958E1    -9.664822512949486E1     1.663312699944958E2
                        -1.098003968866519E2     1.140562298160016E1    -8.790136165510610E1    -2.625418878198565E1    -8.561560485919502E1    -1.722426293620840E2    -8.940791501180844E-1   -1.903205881617381E1

 3.052500000000000E7    -2.638434888319537E-1    9.004968819629956E1    -6.924206854054388E1     1.405586641673818E1    -8.778232951520479E1    -5.870406489869393E1    -9.015796514785396E1     1.340754317234191E1
                        -7.276208375743072E1    -4.911019017439355E-1   -2.222454811746208E-1    9.855090578260966E1    -9.074780497109829E1     1.408149167012083E2    -8.477747903187816E1     6.525520858416253E1
                        -9.165337634426291E1     2.314869696079389E1    -8.496164744522787E1    -1.037477086607270      -9.320317524292474E-1   -2.228754826431761E1    -8.566737101931946E1     1.523865408531855E2
                        -9.202642855763558E1    -1.005591702540675E2    -9.572526333495495E1     5.354170915673017      -8.579655243634618E1     1.584983102680852E2    -8.998729508359399E-1   -1.935961105067895E1

 3.055000000000000E7    -2.559868279613647E-1    8.968799308770339E1    -7.059550872864246E1     7.788911547562021      -9.373445343828151E1     1.726433732653077E2    -9.227750610539097E1     1.601288223421432E2
