#  HZ   S   DB   R     50.00 
! Rohde & Schwarz Vector Network Analyzer 
! Rohde-Schwarz,ZNB8-4Port,1311601044102961,2.82
! Created: UTC 2/13/2019, 1:39:47 PM
! freq[Hz]                db:S11                  ang:S11                 db:S12                  ang:S12                 db:S13                  ang:S13                 db:S14                  ang:S14
!                         db:S21                  ang:S21                 db:S22                  ang:S22                 db:S23                  ang:S23                 db:S24                  ang:S24
!                         db:S31                  ang:S31                 db:S32                  ang:S32                 db:S33                  ang:S33                 db:S34                  ang:S34
!                         db:S41                  ang:S41                 db:S42                  ang:S42                 db:S43                  ang:S43                 db:S44                  ang:S44
! 
 3.000000000000000E7    -2.597372982725207E-1    9.356904071476669E1    -7.101863958890873E1     7.531284066683414      -9.044843668433870E1    -1.535447928900582E2    -9.321121330723514E1    -5.970118008980407E1
                        -7.131362778065365E1    -9.953855339363200E-1   -2.658025065071839E-1    1.007771166935802E2    -8.524729037999936E1    -1.585646413358773E1    -8.258571669004425E1    -1.060879819294939E2
                        -7.812815359474999E1     1.894737750311760      -9.305621919986794E1     2.752386113028208E1    -9.455761307034883E-1   -1.967165739128534E1    -8.297816158363710E1     1.267691117369152E1
                        -8.578711412278759E1     9.022678223976573E1    -8.317419049912623E1     4.131413483329125E1    -8.402042301918144E1     1.301569939341592E2    -9.095193224260454E-1   -1.692379239222896E1

 3.002500000000000E7    -2.655995428855357E-1    9.322379790961979E1    -6.883366814388788E1     7.776583874979655      -8.042015831367428E1     1.490716355715541E2    -8.221138539056452E1    -1.261897877290514E1
                        -6.992017121862692E1     1.639502694183159E1    -2.657345769431594E-1    1.004091617559352E2    -8.154693326804073E1     2.906261804752340E1    -8.167540317155090E1     1.887186137474237E1
                        -9.750788937264125E1    -6.519703752857556E1    -8.166872255947602E1    -1.150610029268801E2    -9.430082109859689E-1   -2.002946504710734E1    -8.870191873219385E1    -1.187221954361330E2
                        -9.937695564471471E1    -9.776440773727626E1    -8.623199582598508E1     4.428227864112412      -1.054786587405873E2     1.713836355296846E2    -9.168279069718743E-1   -1.722581849171479E1

 3.005000000000000E7    -2.697267372063655E-1    9.292134325166913E1    -6.888597395647463E1     6.380407275086808      -8.273587847490109E1    -7.326288634456765E1    -8.837434771006051E1    -3.691956347906810E1
                        -6.985262097766677E1     1.178923530397107E1    -2.652711277543392E-1    1.001758263635513E2    -8.111011675365899E1     1.770641259723819E2    -8.277064101344818E1     1.632123815835440E2
                        -9.338967600369857E1     8.748536002020369E1    -9.112701646398834E1    -1.710871980872644E2    -9.435243631734059E-1   -2.030198438450220E1    -7.827660480233809E1     1.131686714453159E2
                        -9.430185177667474E1     1.727811323442969E2    -9.529327070704362E1    -7.196234349792150E1    -8.075139171081609E1    -5.172884055600133E1    -9.102262212129414E-1   -1.754523574958811E1

 3.007500000000000E7    -2.636169348034201E-1    9.256723356529132E1    -6.894948344660578E1    -3.993602224926681E-1   -8.868802284865426E1    -4.668718829637728      -8.097324902602880E1     1.107580838385354E2
                        -7.013358194473733E1     6.643785905146389      -2.612869316603757E-1    9.976433044521680E1    -8.882243090590514E1    -8.051398953887121      -9.047946545436005E1    -7.410554688705848E1
                        -1.046379642541889E2    -4.644027387851803E1    -8.535508084867570E1     8.630252399032339E1    -9.503585736817256E-1   -2.064125440599457E1    -8.428582395947981E1     3.331202196052620E1
                        -8.832715295266821E1    -9.507512602444440E1    -9.027854713869988E1     7.598797014743363E1    -8.072694953560074E1     1.379111477196302E1    -9.146194480912973E-1   -1.783737950880657E1

 3.010000000000000E7    -2.596908427989467E-1    9.227324844029296E1    -7.128515418788844E1     6.875571048548872      -8.557118443483208E1    -7.560286890713417E1    -8.814934795155656E1     7.593832312541542E1
                        -6.870750495192549E1     8.861131597259568      -2.664541463813099E-1    9.946380758731471E1    -9.083890924842201E1    -7.233986958451592E1    -8.608837466508133E1    -5.329400083055654
                        -9.852241373702356E1     9.264269257338088E1    -8.259935613789065E1     5.358356337839578E1    -9.464303067685299E-1   -2.092981959521021E1    -9.204326606807187E1    -6.385471464849493E1
                        -8.061269963154432E1    -9.341222693254794E1    -8.778119063411415E1     1.481129328034355E2    -8.555788356513688E1     1.523129686058279E1    -9.125668203031332E-1   -1.812879260474749E1

 3.012500000000000E7    -2.546040407989466E-1    9.191203472525747E1    -7.101048155208989E1    -6.211710764666802      -9.714523029009652E1    -9.329048574888596E1    -9.184662675903176E1     1.364685481128066E2
                        -7.093434542669074E1     2.161561432581674      -2.681215150225651E-1    9.921456118863222E1    -8.602929758395156E1    -8.502011868348647E1    -8.219323123770383E1    -8.926276285997220E1
                        -8.674681643530469E1    -7.305239396719723E1    -8.702011433445622E1     1.297338963281715E2    -9.445375487274786E-1   -2.125385483573533E1    -8.567005029046831E1     1.031764708351302E2
                        -9.708614921829734E1    -1.240995726830141E1    -9.578823923987061E1     1.261803200927915E2    -9.056839215790757E1     1.372736314092556E2    -9.128589470621827E-1   -1.843818594329279E1

 3.015000000000000E7    -2.605520695645613E-1    9.156810364783567E1    -7.036075915938901E1    -4.560588342471507      -8.260879485410810E1    -3.661135469202066E1    -8.172265734979334E1    -1.227530665232008E2
                        -6.770411445917345E1     1.034079988447535E1    -2.684379897848324E-1    9.886779884631022E1    -8.380328998763906E1    -6.994957912108267      -8.173804840319583E1     1.262517071303101E2
                        -8.493438976643525E1    -1.510425197442714E1    -8.199269130708102E1     1.184516756719847E2    -9.465077946707232E-1   -2.156888872203435E1    -7.858973481213029E1     1.465947935573287E2
                        -7.898541404723366E1     1.067503793772359E2    -9.569163599314037E1     1.690471766155846E1    -8.953119959096973E1     1.787183972299570E2    -9.109907187840118E-1   -1.875732816568723E1

 3.017500000000000E7    -2.571513866629991E-1    9.123548030591317E1    -6.909043084192568E1     1.115510902512029E1    -9.155773176532848E1     1.444603582218029E2    -8.027106504073488E1    -3.981857803850343E1
                        -7.127941746154767E1     2.155941420994905E1    -2.649703891046381E-1    9.855845147281264E1    -9.162072252674513E1    -1.566077515191615E2    -9.290284174748894E1    -4.886100354411109
                        -9.138802457782431E1    -9.381529090877027E1    -8.440401423787067E1     1.451064705378581E2    -9.461874746168801E-1   -2.185969987075471E1    -8.205111431057159E1     1.506102101497304E2
                        -9.248782305267721E1    -4.721268279345819E1    -9.495572708928168E1    -6.913608748161694E1    -9.031567516326811E1     1.672026479525891E2    -9.114183482643022E-1   -1.906347188870963E1

 3.020000000000000E7    -2.500011708968626E-1    9.088499917344799E1    -7.056961481233883E1     1.725259070551731      -8.445610441356641E1    -1.591204945163114E2    -9.313640138369821E1    -8.034911467839336E1
                        -6.924551113223315E1     2.446687857076513      -2.569897177133806E-1    9.822871024475843E1    -7.825437817459488E1     1.757013644603762E2    -8.503152337056298E1    -1.540517234645457E2
                        -7.974409022941026E1     1.205986319054393E2    -8.521068379637627E1     1.589458509646680E2    -9.560765781015977E-1   -2.222771894802004E1    -8.730534664036854E1    -8.067513832657056E1
                        -8.364413134039155E1     4.444297183493511E1    -9.772344615010468E1    -7.828498863087356E1    -8.380804403739546E1     2.744878292310313E1    -9.123846521314585E-1   -1.936019749125165E1

 3.022500000000000E7    -2.637482528695985E-1    9.053398960553125E1    -6.902442080468488E1     1.322668124488771E1    -8.705476361416640E1     1.400992014507370E2    -9.717748083617911E1    -3.439592504000070E1
                        -7.034154441288996E1     2.825660054398757E1    -2.625999712721106E-1    9.792726768426930E1    -8.783505246221695E1    -8.609226621517658E1    -9.099677055564266E1     7.287171041161687E1
                        -9.835746957696003E1     1.440255243560329E2    -8.510658537541018E1     8.842761474951335E1    -9.528321277343663E-1   -2.249684329545924E1    -8.716069351054522E1     1.669806967525989E2
                        -8.673559601327058E1    -5.799050263830284E1    -9.330648809603240E1     8.928670498848791E1    -8.859881631415034E1     1.114083127420959E1    -9.177161060752369E-1   -1.971535662598274E1

 3.025000000000000E7    -2.557240381717293E-1    9.021853123012667E1    -6.956679834885816E1    -1.394754176721834      -8.876959126671142E1    -8.723289513557990E1    -9.199476855465031E1    -2.794365318228873E1
                        -6.884437305300995E1     1.533354207627295E1    -2.714855496062640E-1    9.761451088916402E1    -9.789915103345351E1    -9.916622087141479E1    -8.112654459143036E1     1.195721961765425E2
                        -9.049765034652866E1     7.433600582119327E1    -8.197233222176934E1    -5.001639092827043      -9.498908091693504E-1   -2.287098104717276E1    -8.328207441514643E1     1.569426386923159E2
                        -8.731871768049001E1    -4.454711209400191E1    -8.069405754296561E1    -1.029958010375410E2    -9.210356717749320E1     7.668181917852506E1    -9.138150644805538E-1   -2.000689033728594E1

 3.027500000000000E7    -2.572213396987270E-1    8.987328062690860E1    -6.993707724473045E1     9.373163635975743      -8.793948939307688E1     1.763304721887330E2    -8.217852101320311E1     2.705650048575569E1
                        -6.904156898455072E1     2.594585533969450      -2.534311252943660E-1    9.727435541550065E1    -8.463475421984698E1     5.016201060697269      -9.447771510731934E1    -1.666304762072259E2
                        -8.662077553211786E1     1.075958087849228E2    -8.982269596636057E1    -5.413766877432951E1    -9.437253817698031E-1   -2.316152508379487E1    -8.122022273596620E1    -4.184325116355265E1
                        -8.979831206075828E1     1.427483466836885E2    -7.980495405843313E1     1.142016009514348E2    -1.071581630169903E2    -1.529232189841555E2    -9.115952748546905E-1   -2.027890655892817E1

 3.030000000000000E7    -2.641758336448965E-1    8.957948321967321E1    -6.993279451909640E1     4.882003799402422      -8.707610047686337E1    -1.410296459279708E2    -8.588543010818002E1    -8.485692039837545E1
                        -6.716229449329165E1     3.749630842005483E-1   -2.645951579692516E-1    9.701852671359337E1    -8.660849636180581E1     1.826907989671155      -9.314838764777312E1    -9.973315979439792E1
                        -8.496883698648483E1     1.470451013668138E2    -8.557365758461357E1    -2.479008384378990E1    -9.510284826322212E-1   -2.345112982335782E1    -8.254505077384880E1     6.488437012705296E1
                        -8.556734340264706E1     1.724244889790203E2    -8.244782512557413E1    -1.510380710781440E2    -8.525714131418455E1    -1.115497773255427E2    -9.126384352921811E-1   -2.059323118842057E1

 3.032500000000000E7    -2.587990796477125E-1    8.920695106356209E1    -6.988481829239183E1     1.215613758420682E1    -8.854034731280963E1     9.140774746812545E1    -8.726823010591502E1    -1.014727729227431E2
                        -6.896370862170362E1     2.329258166630894      -2.533769745988527E-1    9.666218671908023E1    -8.363120389529723E1    -1.280585140239669E2    -8.606945968286550E1     6.433758131534523E1
                        -8.441433317156216E1    -5.857247808285893E1    -8.849000530245795E1    -1.440722814352444E2    -9.480578862747037E-1   -2.381645292184846E1    -8.436407043921831E1     1.661912534336887E2
                        -8.936553674322948E1     1.461086588594722E2    -8.794551095667801E1    -4.809586844300755E1    -9.253057256453195E1    -2.596085790045817E1    -9.135044657864953E-1   -2.087590020739771E1

 3.035000000000000E7    -2.489418165121598E-1    8.888050169127894E1    -6.841179343990562E1    -2.023725323467202      -8.490887050265917E1     1.179337220942256E2    -7.968164305955737E1     7.440554339933793E1
                        -7.201421386744666E1     1.323954495828894E1    -2.668760393740007E-1    9.640756172208796E1    -8.394255561400175E1     1.668632662502119E1    -8.656955515340714E1     1.788825401348615E2
                        -8.468679280873619E1     1.292888936546692E2    -9.187778138345780E1     1.220599139080122E1    -9.500331868798788E-1   -2.412218757064882E1    -8.009839441214641E1    -4.987452920206474E1
                        -8.507731929008943E1     3.732759398725563E1    -9.476902775337115E1     8.882096649518432E1    -9.343865243871568E1     1.705466070973145E2    -9.165003911016972E-1   -2.118938972612712E1

 3.037500000000000E7    -2.510850705584089E-1    8.849966502345531E1    -6.919907957317719E1    -5.030069929490969      -9.318276166439526E1    -2.795427820659893E1    -9.264234865095878E1     6.109610549232389E1
                        -6.884752550348962E1    -2.296963382807258      -2.658916354653600E-1    9.605909266734055E1    -1.004173967298862E2     5.864483486938823E1    -8.881131949071801E1     1.648232392913622E2
                        -8.636246077428156E1    -1.517143279936986E1    -8.338521030912359E1    -1.848962011008705E1    -9.451347366943470E-1   -2.441815055635283E1    -8.308092995534928E1    -9.400565591823977E1
                        -1.024297532383874E2    -1.269395100925909E2    -8.337462488462106E1     1.333164530258567E2    -8.560824640974666E1    -4.622448219829153E1    -9.146855098176925E-1   -2.150928265379161E1

 3.040000000000000E7    -2.561042213505683E-1    8.817731406827946E1    -6.944441353171838E1    -6.587420746633755      -1.042453022084105E2     1.663753623342567E2    -8.684725081905472E1     3.286848377240808E1
                        -7.128871992063228E1     5.345725773449386      -2.588743006005860E-1    9.578021837744319E1    -8.525760902774690E1     1.468218878336751E1    -9.029777960819538E1    -9.411118275936025E1
                        -8.698661512680792E1    -1.103256820047272E2    -9.397312259238996E1    -3.580924748008722E1    -9.506729431379030E-1   -2.473910711732826E1    -9.000545716195533E1    -1.411968786956950E2
                        -8.916989305037502E1     5.800980734129450E1    -8.885891024246944E1    -5.302678754574352E1    -8.915283465703860E1     1.149259932819254E2    -9.175906889678018E-1   -2.180969844993708E1

 3.042500000000000E7    -2.510384628368453E-1    8.780575846666871E1    -6.929799614761595E1     1.246312728303142E1    -8.244011245243810E1     1.536973448749268E2    -8.006613339770796E1    -1.732623051409731E2
                        -6.800543118199089E1     9.716040023056733      -2.600241428241443E-1    9.548658005283382E1    -8.324874160413310E1     6.715805288259094E1    -8.363049896932114E1     8.104253843977739E1
                        -7.883971213361116E1     6.701038179782715E1    -8.630798040268485E1     7.303138270455196E1    -9.477290097398916E-1   -2.503179434433503E1    -8.971179765202079E1     4.448932426904137E1
                        -7.928558524655946E1     1.414101930734570E2    -8.486945847751846E1    -8.882343528835476E1    -8.212113330259179E1     9.100743367936479E1    -9.134878971189544E-1   -2.211930480879420E1

 3.045000000000000E7    -2.521034093315079E-1    8.746197462635624E1    -6.953504462311372E1     2.025569878740784E-2   -8.392487396285327E1     1.858666066587615E1    -8.565901336730278E1     8.723571657527194E1
                        -6.704202370014151E1     4.508031327698468      -2.580872337213667E-1    9.516933720483618E1    -9.500842278123173E1     1.767286795096870E2    -8.247154454325010E1    -1.474941222384568E2
                        -8.160193988806823E1     4.134073509658195E1    -9.175799148767248E1     1.333329115752686E2    -9.428346175651263E-1   -2.534334647139414E1    -8.233376126968778E1     5.826162033677525
                        -9.262015056754211E1     1.643288959121753E1    -8.877267954963767E1    -8.235882531131546E1    -8.402599583545401E1     7.557324203785078E1    -9.196318134847149E-1   -2.243895048390808E1

 3.047500000000000E7    -2.513223673812746E-1    8.715609255132975E1    -6.868748308222205E1    -4.890380233457293E-1   -9.805018278805500E1    -1.342934334038660E2    -9.002128962587590E1    -4.468007806732210E1
                        -6.896605556067564E1    -1.832861693869337      -2.572072022389251E-1    9.478634958599434E1    -8.618190148196240E1     6.020131096498027E1    -8.761422114287163E1     1.557445768606098E2
                        -9.191944201860615E1    -8.916201514775574E1    -8.645412370814798E1    -9.386517831556699E1    -9.514361452912441E-1   -2.571251023213872E1    -8.835141434398744E1    -5.801080377239689E1
                        -8.685294847238076E1     1.781541963200731E2    -8.670358986585222E1     9.286279074646797E1    -1.026628814639985E2    -1.139763188749237E2    -9.167134522771908E-1   -2.272565232271312E1

 3.050000000000000E7    -2.529879509714436E-1    8.685212595862912E1    -6.789130511579498E1     1.201076584045770E-1   -8.801260893227172E1    -3.331357564730227E1    -8.475081057290383E1    -8.658817124225037E1
                        -6.822194620982114E1     9.814123614847229E-1   -2.579430518657827E-1    9.453834446577261E1    -8.493686139764466E1     1.419817662377929E2    -8.159966808789548E1     1.063713147813998E2
                        -9.383582153877768E1    -8.605311206226622      -9.194486341666976E1     1.060759672723588E2    -9.424399038440017E-1   -2.603140768190547E1    -8.701855730834923E1    -5.554035843019708E1
                        -8.915030350076329E1    -2.191811288877437E1    -9.049501131027699E1     2.591159239721346E1    -8.611174478477983E1     1.310289808719844E2    -9.147586675906344E-1   -2.303875284183768E1

 3.052500000000000E7    -2.533919714826611E-1    8.645887507262981E1    -7.059724082408245E1     1.004170472419055E1    -8.867554941251976E1    -9.398602931618652E1    -8.806967325158783E1     1.672120796013928E2
                        -6.835346365986601E1     2.972827022940155      -2.618706053586676E-1    9.422943813801027E1    -9.515905853199510E1     4.193862066620151E1    -8.708840724134538E1    -1.488249340880950E2
                        -8.269820256958114E1     1.015324033503429E2    -9.042322084913720E1    -7.487594267621853E1    -9.507557969077473E-1   -2.628506193818729E1    -8.598245569728016E1    -7.874724541325618E1
                        -8.349009392409525E1     3.246796117902163E1    -9.329598180252054E1     7.412645169759389      -8.768064392875120E1     4.506817679946922E1    -9.168439242275751E-1   -2.333935878154930E1

 3.055000000000000E7    -2.467601828365984E-1    8.609887395737192E1    -6.899850202246519E1     1.303226754896389      -8.697198872735434E1     2.180433061308643E1    -9.031331714515311E1     8.165339329474225
