#  HZ   S   DB   R     50.00 
! Rohde & Schwarz Vector Network Analyzer 
! Rohde-Schwarz,ZNB8-4Port,1311601044102961,2.82
! Created: UTC 2/13/2019, 11:57:49 AM
! freq[Hz]                db:S11                  ang:S11                 db:S12                  ang:S12                 db:S13                  ang:S13                 db:S14                  ang:S14
!                         db:S21                  ang:S21                 db:S22                  ang:S22                 db:S23                  ang:S23                 db:S24                  ang:S24
!                         db:S31                  ang:S31                 db:S32                  ang:S32                 db:S33                  ang:S33                 db:S34                  ang:S34
!                         db:S41                  ang:S41                 db:S42                  ang:S42                 db:S43                  ang:S43                 db:S44                  ang:S44
! 
 3.000000000000000E7    -2.716101456387379E-1    9.353546519163520E1    -6.934705979485659E1     1.015297137943744E1    -8.048652193814782E1     6.011502002368948E1    -8.713577316538090E1     1.614749398449069E1
                        -6.822600920494267E1     1.164842250900447E1    -2.852566369083380E-1    1.005689225304919E2    -8.583522767958888E1     9.735129073758522E1    -7.909645637306353E1    -1.075212871050169E2
                        -8.277954308204586E1    -1.487820233771046E2    -9.634816803583475E1     7.334819936737966E1    -9.389995752679510E-1   -1.964987827842128E1    -8.321854477885394E1     9.984441151922856E1
                        -8.404372189979860E1     1.153387482242777E1    -8.448782802797028E1     5.786628070680988E1    -9.218409681930281E1     3.068355810615328E1    -9.097231754424513E-1   -1.688098806718150E1

 3.002500000000000E7    -2.679344745977347E-1    9.319097004302164E1    -6.967836202550893E1     1.133540339851251E1    -9.515117277960853E1     1.641251920722744E2    -1.022249177287179E2     1.286750823193738E2
                        -6.999002135408942E1    -5.202792275255860E-2   -2.971930639904141E-1    1.002625125592298E2    -9.139759206941947E1     1.198737168062871E2    -8.694424506443087E1     1.354374145473283E2
                        -9.342260763131002E1     1.126081954973133E1    -8.380111105227128E1     1.014888611818337E2    -9.389021048703329E-1   -1.997364215726532E1    -8.514438816479269E1     4.493176699362503E1
                        -8.823587234205354E1     3.319332027583788E1    -8.214098654927371E1    -5.586409643668576E1    -9.070031024577031E1    -8.398220550144788E1    -9.091583417904978E-1   -1.717654208902616E1

 3.005000000000000E7    -2.767230971195900E-1    9.286144091342561E1    -7.027505334363295E1     1.220834287533214E1    -8.481821727152078E1    -2.228334880244110E1    -8.197171226300874E1     1.103019400081029E2
                        -7.120913402988484E1     5.490563404218018      -2.928339220291631E-1    9.995064439032080E1    -1.143135707491773E2    -8.235313042365644E1    -8.439859376196051E1    -2.520717661459322E1
                        -8.306319563590593E1    -1.415664790558718E2    -7.973989789815404E1    -1.086845429065396E2    -9.452608271275214E-1   -2.029974123835758E1    -8.187505524120400E1    -1.652356290235026E2
                        -9.880814870767479E1     1.491652797946578E2    -8.978190997644177E1    -5.984403998943891E1    -9.116175139955500E1     1.386267951518433E1    -9.107134117710057E-1   -1.753979401081438E1

 3.007500000000000E7    -2.667314655381863E-1    9.249683253172535E1    -7.111381106559142E1     1.252436292989069E1    -8.358167031911769E1     8.827654173056698E1    -8.555145182724262E1    -2.350530014957363E1
                        -7.188590835250339E1     1.102562166068223E1    -2.875400860409836E-1    9.965771548388028E1    -8.277378657104471E1    -1.485374990633148E2    -7.959972376940620E1     1.664485736030455E2
                        -8.998886904960079E1     1.658251249321076E1    -8.168729596124643E1     1.681325764972418E2    -9.429768754986132E-1   -2.060272228264845E1    -8.800795010921483E1    -1.156359878449444E1
                        -8.182387441308892E1     1.692041759756477E2    -9.247827382671885E1    -1.712602586936066E2    -8.918432613997771E1    -6.426037080267881E1    -9.119369185858106E-1   -1.783029782939425E1

 3.010000000000000E7    -2.654059400479388E-1    9.220154609229206E1    -6.943771295073786E1     8.111710818752898E-1   -8.918816802174791E1     1.189527546069415E2    -8.686945198912922E1     9.731774081025515E1
                        -6.974974434019934E1    -2.276786390690215      -2.917285231644974E-1    9.933762503456609E1    -8.136923537935019E1     9.703908629190283E1    -8.307725438837534E1     2.832496067638716
                        -8.423977585229085E1     8.986174414688378E1    -8.097342677309587E1     8.632735240669294E1    -9.480254918466612E-1   -2.090897101663874E1    -8.734379911941014E1    -3.025060448883311E1
                        -8.404006443853392E1     6.581937948086062E1    -9.437026042050962E1    -1.736466652722962E2    -8.808604561577744E1    -1.257802870295013E2    -9.140213769729595E-1   -1.812264841627436E1

 3.012500000000000E7    -2.594231149583216E-1    9.180842062882395E1    -6.994377187730191E1     1.980796914529765E1    -8.249512458378680E1    -8.391108327752306E1    -9.071223730390875E1     2.174085501852501E1
                        -6.916059123933238E1     5.189696731484504      -2.890282511366535E-1    9.902663918441320E1    -9.854723775562945E1     3.416162698837353E1    -8.988649451399623E1    -3.153916444609646E1
                        -8.601678497690728E1     5.079628496741375E1    -8.799839889696627E1     9.980850916046859E1    -9.507791582302068E-1   -2.117921645674118E1    -8.928163302442954E1     3.873672606737260E1
                        -8.861670410732464E1     7.391153990441691E1    -8.194421091151197E1    -1.828919225370732      -8.229684911683265E1     1.442486812792159E2    -9.122914680059713E-1   -1.842997310350063E1

 3.015000000000000E7    -2.617773864971710E-1    9.150330168836459E1    -7.105028597600627E1     4.721542282626039      -9.380639320502341E1    -1.360058747392304E2    -8.345005295394236E1    -1.234184554201788E2
                        -6.809615819252237E1     8.926114173749584      -2.947141571893706E-1    9.864770875405026E1    -9.164170546878091E1     5.756748278858290      -8.245240463842407E1    -1.474830991428925E2
                        -8.172348963801400E1     1.785154239081420E2    -8.582941416776991E1    -6.459056518223736E1    -9.489868789086448E-1   -2.151188105653683E1    -9.422244121144941E1     6.144316569560759E1
                        -9.824585289390684E1    -1.671923845665456E2    -8.435759596917461E1     3.279670499144533      -8.585424896889830E1     1.406580556698660E2    -9.121811176552899E-1   -1.870433507839170E1

 3.017500000000000E7    -2.610033450654029E-1    9.119238209346696E1    -7.084518785235390E1     1.156443697525861E1    -8.506237046076004E1     1.557357783935833E2    -8.623576625122138E1     3.887025671439818E1
                        -6.922268564082533E1     3.773144032181014      -2.868213741349797E-1    9.837481224396323E1    -9.249230021555366E1     7.668420492134140E1    -8.333033105875190E1    -2.146277845123024E1
                        -8.262981165730287E1     4.633332047391590E1    -1.015622054614818E2    -3.921191917534369E1    -9.462792947841430E-1   -2.186415378644060E1    -8.291612579806839E1    -5.072114888165956E1
                        -9.531061530107493E1    -4.396271923829708E1    -9.003555139741381E1    -1.717049489379217E2    -9.251947961315008E1     5.710006819195635E1    -9.067014380174766E-1   -1.902743454388351E1

 3.020000000000000E7    -2.663414782521999E-1    9.084342643769851E1    -6.959581537068659E1     4.209568873183267      -9.322328280236968E1    -1.468503550635140E1    -8.478701454614566E1    -1.217075879388878E2
                        -6.938989376513021E1    -2.295559157845810E-1   -2.873685709271159E-1    9.806832403947695E1    -8.336691373296098E1    -1.216823091787982E2    -7.776358363400507E1     1.853972836691715E1
                        -9.309163917741478E1     1.245763699894290E2    -9.411080798644882E1    -8.475267398694763E1    -9.449209946987298E-1   -2.216329868957113E1    -8.960342786572660E1    -1.008576516971569E2
                        -8.711816815216770E1    -8.492789350321381E1    -8.817667875636619E1     3.740481069616069E1    -9.082005869962687E1    -1.140735653571977E2    -9.136710794853510E-1   -1.936410314936641E1

 3.022500000000000E7    -2.667357816555627E-1    9.048535613938567E1    -6.891392479747228E1     6.617134901506129E-1   -8.876320948575112E1     4.790286337697264E1    -8.949702703106995E1     8.570914761921419E1
                        -6.854695992179173E1     3.971100205059044      -2.895794304004181E-1    9.778638210043080E1    -8.390469670752104E1    -9.600432479613170E1    -8.568299885062358E1     1.284245925068593E2
                        -9.666865040874117E1     1.329512601796049E1    -8.149692419841708E1     6.709603129038254      -9.416143826243817E-1   -2.248534520764602E1    -8.743121043739841E1    -3.829578115736639E1
                        -8.904100082865972E1    -1.122580803161623E2    -8.985388530274125E1    -1.103894040254015E2    -9.320141016305770E1    -2.378785415889045E1    -9.100702580139913E-1   -1.967673320764336E1

 3.025000000000000E7    -2.661527517391809E-1    9.018118393225952E1    -6.919072037618858E1     1.548851496298325E1    -8.435303916680356E1    -1.326051166751582E1    -8.708510764894058E1    -7.350740583650401E1
                        -7.019465725398864E1     9.614012910065060      -2.978821409787014E-1    9.742847562777703E1    -9.382254682360041E1    -4.798841109395586E1    -8.636783668630052E1     1.688438459477718E2
                        -9.211405457860505E1    -1.005873261549366E2    -8.899581661252491E1     1.102577049852918E1    -9.396662935082107E-1   -2.281901558010750E1    -9.512784182665767E1    -4.927388632298634E1
                        -8.699605949246833E1     1.518965122944782E2    -1.034091614115304E2    -1.066308490158652E2    -8.996321739531905E1    -4.531254622213545E1    -9.158846566581627E-1   -1.997513470785601E1

 3.027500000000000E7    -2.604712706282119E-1    8.982819025270217E1    -6.929449981021251E1     6.207264245305705      -8.493868953160438E1     3.515972462623223E1    -1.006791769091505E2    -7.934540827099542E1
                        -7.069803363929027E1     1.052340367902164E1    -2.784834834276208E-1    9.712607544717749E1    -7.821498384524436E1     1.302584863303794E2    -8.026021635206573E1     1.083408851748208E2
                        -9.015657000175489E1     1.514602978105176E2    -8.730244261029043E1    -1.392245655861696E2    -9.423450430604194E-1   -2.310700945870057E1    -8.734034700590186E1     1.629248840119513E2
                        -8.236664245993687E1     9.072569378230813E1    -8.726538624870555E1    -2.208769728053746E1    -8.616817995830722E1    -2.100950991075459E1    -9.160258358270723E-1   -2.025450768938456E1

 3.030000000000000E7    -2.639887622717193E-1    8.950397212798026E1    -6.857801099180395E1     2.868244899530820      -8.255217418945881E1     1.202082105921514E2    -8.255206671235071E1    -6.917042138694410E1
                        -6.799993273273618E1     1.541555935710069E1    -2.932489918717446E-1    9.678261025345587E1    -8.819841798044718E1    -1.482029517159366E2    -8.836295678445522E1     6.119189467071769E1
                        -8.900676585333264E1    -3.004684192173636E1    -8.675229802577709E1     2.554978985498935E1    -9.481006000139397E-1   -2.348268549680005E1    -8.337498280440593E1     5.463995698563385E1
                        -9.129465773992807E1     4.445052529979898E1    -1.026678505982242E2     1.754272880898034E2    -8.099391707907854E1     1.205175167589149E2    -9.112436769206473E-1   -2.056078268035411E1

 3.032500000000000E7    -2.611175988301632E-1    8.918348903072030E1    -6.860927523642012E1     8.524876713342360      -8.546262997908181E1     1.284286261563733E2    -8.979349491615005E1    -1.206848275572275E2
                        -6.859585584841636E1     6.374702552730676      -2.818977520907693E-1    9.651686678988705E1    -1.004178842065255E2    -8.551450201089111E1    -8.427418709539984E1    -6.340404965160941E1
                        -9.203142553293468E1    -6.412378604237104E1    -8.512398973035013E1    -4.461213826854953E1    -9.415231243651633E-1   -2.380649262270459E1    -8.396674359809252E1    -1.069301727683526E2
                        -8.254131928805428E1     4.099739794479866      -8.080777245356494E1     1.022134693963586E2    -9.954388453051529E1    -3.674597740197797E1    -9.146723034658656E-1   -2.086514740463991E1

 3.035000000000000E7    -2.615773740398671E-1    8.884531280429039E1    -6.941369935884866E1    -1.386991369274731      -8.835704507465800E1     1.544138561809565E2    -8.821049346775764E1    -3.168911563496546E1
                        -6.814095360394441E1     5.412451223382957      -2.841244838323686E-1    9.619903967743329E1    -9.469379160094334E1    -1.222046434404949E2    -8.779891795518876E1    -1.638929452440781E2
                        -8.738526096377078E1    -2.620270737502967E1    -8.405747049438645E1     9.910343010780255E1    -9.444424177694581E-1   -2.408699329362939E1    -8.404029030900040E1    -1.616851027082701E2
                        -8.282647173914845E1    -2.230653278030608E1    -8.695318189959795E1    -1.009126964181099E2    -9.081988800063419E1    -1.198522868864040E2    -9.174478425693912E-1   -2.115323057910445E1

 3.037500000000000E7    -2.561494773731098E-1    8.847055473652686E1    -6.864123336944131E1     8.753094976031187      -8.702752158417155E1     1.894375617239928E1    -7.906030425135081E1    -1.106045259350393E2
                        -6.964885738819886E1     1.084693108511400E1    -2.908043589544122E-1    9.582409525353369E1    -8.451157602939043E1    -9.982965523100654E1    -8.987158869649149E1    -2.732836807133531E1
                        -8.340557222327242E1    -1.261888951664427E2    -8.109131982027151E1    -1.684789183767106E2    -9.453587152856364E-1   -2.438461575352658E1    -8.855231419329084E1    -1.440287455872540E2
                        -8.271176983310971E1     1.465939385713897E2    -8.074797167123109E1    -4.400418725357702E1    -8.481705318729114E1     3.317294839918816E1    -9.080979391576318E-1   -2.150478064792451E1

 3.040000000000000E7    -2.602232899482431E-1    8.812876844937337E1    -6.910302422568081E1     1.042902999888533E1    -8.522145466452915E1     8.568215315301585E1    -8.988824152571718E1    -9.254417297717350E1
                        -6.979580663343771E1     6.142203704984349      -2.911894275123872E-1    9.558932079173660E1    -8.069469522045596E1    -1.100131005369058E2    -8.618168163378549E1    -1.183650504090489E2
                        -1.023579923171031E2     1.479004403319449E-1   -7.899994542732185E1    -1.042675527560184E2    -9.400113028307339E-1   -2.473760960248330E1    -9.209446277358813E1    -6.351480229366897E1
                        -9.595430607484558E1     1.449866955737100E2    -9.650707492053515E1    -4.841550474125210E1    -8.985947163384195E1     1.593838081333578E2    -9.082115341961368E-1   -2.179133314891456E1

 3.042500000000000E7    -2.566710534813140E-1    8.779817568737168E1    -6.987202210100138E1    -3.504463807064354      -1.100969524451943E2    -1.641978022394358E2    -9.654836761500681E1    -1.133900210808870E2
                        -6.892748129991850E1     8.517849364706377      -2.928327329514598E-1    9.529403838856865E1    -8.601172244410577E1    -1.532882556389576E2    -8.443728020362435E1    -8.014809312539702
                        -7.967144409484965E1    -6.669705768126723E1    -8.745015591670109E1    -7.916837322165929E1    -9.495447190102466E-1   -2.504265945145990E1    -8.066343009860319E1    -8.647735389641532E1
                        -9.040069820282059E1     1.620979518588900E2    -8.826497404618618E1     7.719918532763410E1    -8.926047724209452E1    -1.010490520459681E2    -9.118890271462476E-1   -2.210517582557148E1

 3.045000000000000E7    -2.605314353704667E-1    8.744838810804428E1    -6.714766542180088E1     6.618685917476130      -8.479830209374823E1     2.859945053746328E1    -8.387792522659419E1     1.503869856084538E1
                        -7.024349817661137E1     1.166955770516915E1    -2.871008027140067E-1    9.494754232143967E1    -8.387592052122577E1     1.571705172326102E2    -8.092974254815505E1    -9.804309108176561E1
                        -8.860576514233179E1    -4.367628595063559      -9.257306592655262E1     1.771513728213230E2    -9.425428353747678E-1   -2.533489664594408E1    -9.524472904273557E1    -1.473313330095820E2
                        -8.212374668731316E1    -7.157916428235082E1    -8.419732289036421E1     2.486666140789419E1    -9.378246982282914E1    -8.581551241589779E1    -9.112470197693867E-1   -2.240891510283624E1

 3.047500000000000E7    -2.611278151844749E-1    8.713843126926989E1    -6.743338036097154E1    -1.211168270174211E1    -8.886484011849257E1    -1.551538575280216E2    -7.924419285815066E1    -1.386759550926817E2
                        -6.778923689884140E1    -6.376981369907431      -2.848174396392019E-1    9.465216650500122E1    -9.040192788500148E1    -1.749035927572937E2    -8.230757038930949E1    -1.776577320553108E2
                        -8.197596194344612E1     5.701216974204658E1    -8.797026130820159E1     5.690995907488862      -9.493123016365430E-1   -2.570531354517130E1    -8.632539851176595E1     5.123938291375021E1
                        -7.977646742863882E1     1.537817040446038E2    -9.062819678744791E1    -4.638309024450470E1    -8.934441612556333E1    -5.301501066795652E1    -9.088989250447138E-1   -2.269847773476495E1

 3.050000000000000E7    -2.591393046299423E-1    8.677089044777664E1    -6.956922822792650E1    -1.707708973710422E1    -8.438638733574274E1     6.136370361618949E1    -9.087837911622896E1     1.279224601457803E2
                        -6.708306002580039E1     1.203804118292928E1    -2.835846007731540E-1    9.433426483314541E1    -8.626207202393286E1    -1.349769168428185E2    -8.266399262964976E1     1.422610707188775E2
                        -8.486175936960731E1     3.093670472066702E1    -8.407081706623124E1     2.941388737587091E1    -9.438645504860728E-1   -2.602292921645753E1    -9.695569033314200E1     3.170505706696436E1
                        -8.951022223717337E1    -1.761115550084498E2    -8.597505574894842E1    -5.380058693815505E1    -8.527016997031156E1    -1.335566588040426E2    -9.099699231002046E-1   -2.301458953982766E1

 3.052500000000000E7    -2.521854215575822E-1    8.645026314693217E1    -6.780625939427318E1    -1.346221517986052      -8.542262318845936E1    -6.219323601607866E1    -8.722905904578479E1    -3.216329551497919E1
                        -6.763197553642411E1     3.607008124743181      -2.882795478701433E-1    9.402151318549758E1    -8.459380939130554E1    -2.981282343719410E1    -9.209925831910091E1    -1.685636266892182E2
                        -8.458534761155937E1     1.293103690159913E2    -8.891356474903274E1    -4.479033927266380E1    -9.423357047646040E-1   -2.630428996203704E1    -9.368487912875040E1    -1.352405684534227E2
                        -8.466738675373618E1     1.357306855769926E2    -9.159613256880868E1     1.334787856883671E1    -8.817406388626077E1    -3.077980471595876E1    -9.083137170013409E-1   -2.331275221536844E1

 3.055000000000000E7    -2.536964024135504E-1    8.605425178033248E1    -6.795956687670571E1    -3.190208733385052      -8.112940935876374E1    -1.364196894851043E2    -8.767549203204450E1    -1.068405739281249E1
