#  HZ   S   DB   R     50.00 
! Rohde & Schwarz Vector Network Analyzer 
! Rohde-Schwarz,ZNB8-4Port,1311601044102961,2.82
! Created: UTC 2/13/2019, 12:10:36 PM
! freq[Hz]                db:S11                  ang:S11                 db:S12                  ang:S12                 db:S13                  ang:S13                 db:S14                  ang:S14
!                         db:S21                  ang:S21                 db:S22                  ang:S22                 db:S23                  ang:S23                 db:S24                  ang:S24
!                         db:S31                  ang:S31                 db:S32                  ang:S32                 db:S33                  ang:S33                 db:S34                  ang:S34
!                         db:S41                  ang:S41                 db:S42                  ang:S42                 db:S43                  ang:S43                 db:S44                  ang:S44
! 
 3.000000000000000E7    -2.944358928187001E-1    9.342602124490311E1    -6.949984870037673E1     1.336147995414827E1    -8.668287273283796E1     1.741672480330552E2    -8.573743965345327E1    -1.217049003043067E2
                        -7.086522329818176E1    -5.103172255320728      -3.099922387220250E-1    1.004537920918780E2    -8.301003297578976E1    -4.361461952181566E1    -8.212282908491434E1    -7.671011889379290E1
                        -8.280700797670446E1    -1.239223213478090E1    -8.614001107741945E1     1.487561598717965E1    -9.357150738778282E-1   -1.964671188004455E1    -8.321187823456546E1     5.098785143703326E1
                        -8.923732433150568E1    -1.403250073688920E2    -8.738046199083601E1    -9.124304581905244E1    -8.335550610374122E1     9.602483385258330E1    -9.108630210368054E-1   -1.689480293902304E1

 3.002500000000000E7    -2.922258786778335E-1    9.308782072182495E1    -7.006815939358557E1     6.246902344261556      -8.712644803673682E1    -1.745994462061269E2    -9.335158689717270E1    -4.373706263003142E1
                        -6.843369798408277E1    -1.618246872340275      -3.146194924124294E-1    1.001325894808067E2    -8.465245586611016E1     3.588692229488191E1    -9.355904158037441E1     2.094272999446680E1
                        -9.609293847830469E1    -9.508542723792775E1    -1.043654129880634E2    -5.771261982249406E1    -9.481191016904316E-1   -1.993281374606138E1    -8.691712594019839E1     4.283301337708069
                        -8.845548441986132E1     9.822742938271291E1    -9.028367652048111E1    -1.710979205186613E1    -8.571885413918105E1    -1.323252952922435E2    -9.105447364574894E-1   -1.722844190112804E1

 3.005000000000000E7    -2.976207319778145E-1    9.275467122234723E1    -7.028515277182423E1     8.280347271029095      -8.805608010919852E1    -5.345375335482459E1    -9.342378159755144E1     3.088358683295348E1
                        -6.976252681465672E1     1.667201507334245E1    -3.054843601088558E-1    9.986492957317152E1    -1.026403455578831E2    -9.945968720178443E1    -8.259145489860600E1     2.762197555179369E1
                        -8.312897491863166E1     2.099383915803017E1    -7.958595461353977E1    -5.152408308027966E1    -9.425399304563680E-1   -2.030720996731681E1    -8.671134405747624E1     7.783921991759829E1
                        -8.951401188628212E1     1.563378866683636E2    -8.272906116625788E1     1.205791232976602E2    -9.146797601447888E1     5.250804220677372E1    -9.144675004614280E-1   -1.751480783529037E1

 3.007500000000000E7    -2.889616448638117E-1    9.238424154270359E1    -6.834045471094254E1     3.952789547312991      -9.001742125995926E1    -1.321716154042974E2    -1.078695053655230E2     1.134534018347499E2
                        -7.060282683112247E1     1.081050942117776E1    -3.100549092521189E-1    9.948645392315940E1    -8.560674179115301E1    -1.039327477132565E2    -8.684089030923268E1     8.911894945967791E1
                        -8.491613218225646E1    -3.578251202127537E1    -9.208030969703350E1    -9.579880361798443E1    -9.468862643036373E-1   -2.060098315634684E1    -8.124202110986359E1     4.666789528261820E1
                        -8.298050401324417E1    -9.395058831522583E1    -8.175236162085353E1    -1.082041346163218E2    -8.983737568617605E1    -1.695782209618832E2    -9.150601590987877E-1   -1.782317439556381E1

 3.010000000000000E7    -2.886191651800355E-1    9.206095068982729E1    -6.999769886803001E1     8.397277377797378      -8.710702138168225E1     1.152649699006817E2    -8.670442009613919E1     1.181771141410055E1
                        -6.889246367156163E1     3.328767031004294      -3.154099675427318E-1    9.922512651550517E1    -8.690467392388405E1    -1.787749415726073E2    -8.035588810416496E1    -2.368039558412989E1
                        -9.110015794055002E1    -9.179343386568307E1    -8.692778600697316E1     1.658197175604824E2    -9.411636153901979E-1   -2.093484991837032E1    -8.810554836959338E1     1.539851603693709E2
                        -9.356806375390001E1    -3.411578790671850E1    -8.838170665167210E1    -1.715930774664149E2    -9.104782246057590E1     1.551851780113491E2    -9.108988214952938E-1   -1.814874921362901E1

 3.012500000000000E7    -2.826614847257248E-1    9.174791088621038E1    -7.010454572085533E1     9.423564577805086      -8.440338241076560E1    -6.332664531230445E1    -8.628085241103648E1     9.228559498433702E1
                        -6.976719063430855E1    -2.603517906032043      -3.125933799530518E-1    9.888587265468574E1    -8.170260663439207E1    -1.637856441753459E2    -9.435743306064967E1    -8.659491128783442E1
                        -9.481030931671327E1     6.475812727418958E-1   -9.168545941442940E1    -7.627010576460071E1    -9.428013746844453E-1   -2.128310625061074E1    -9.186625358231453E1    -4.626220533416557E1
                        -8.678884225333304E1     7.338718423686028E1    -9.131735353544178E1     9.018051471458105E1    -9.003427133731594E1     3.456014504364056E1    -9.102471552949438E-1   -1.840396327735878E1

 3.015000000000000E7    -2.874069466589466E-1    9.135769010374629E1    -7.062877217669869E1     1.490476438614180E1    -8.886134316465893E1    -7.546465374208184E1    -8.531483058686982E1     7.870883049910670E1
                        -7.041906137507816E1     7.118043394237495      -3.178346467546392E-1    9.850180244757129E1    -7.843185964131961E1     1.692370961038073E2    -8.622637645330308E1    -1.084748633740822E2
                        -8.969863685531620E1    -1.211843791254329E2    -9.118553962821198E1     4.004511436841763E1    -9.469322343668939E-1   -2.154177335763170E1    -8.794733702373598E1    -8.743674220633233E1
                        -8.180624374716109E1    -1.779302119181560E2    -8.486719091067226E1    -1.121814949629358E2    -9.026150548000382E1    -5.015273661523583E1    -9.132166394089760E-1   -1.872093318358981E1

 3.017500000000000E7    -2.824833817300361E-1    9.103314869554905E1    -6.969197443311252E1     6.841947387589468      -8.617368829728564E1    -3.899895117812186E1    -8.065094569702724E1    -6.489641932149969E1
                        -6.876012280429650E1     6.483070235760006      -3.099295175438328E-1    9.823439218239021E1    -8.387106000111238E1    -8.714000161269837      -8.141476282391152E1     1.030532048160728E2
                        -8.872167341210904E1    -1.202838619764035E2    -8.874095448794029E1    -9.953587916299360E1    -9.450435229324559E-1   -2.184641472569182E1    -7.725694239015346E1    -2.948524227953878E1
                        -8.873814064383551E1     9.152192717543829E1    -9.459427908907284E1    -1.386147817099939E2    -8.471690917959339E1    -1.669083228795197E2    -9.129832509576474E-1   -1.905551777623837E1

 3.020000000000000E7    -2.859974485089375E-1    9.068186902437176E1    -6.926641893093679E1     1.646260535190653E1    -9.843951786034185E1     1.560624439344676E2    -8.624682602500886E1    -6.634309695261961
                        -7.250105117654154E1     1.349511750780999E1    -3.088908035894087E-1    9.794520090903707E1    -8.061714557243391E1     1.080223144156496E2    -7.608852014401830E1    -1.090576988839100E2
                        -8.830850856340274E1    -4.782005460721734E1    -8.176175354599353E1     5.220163488536160E1    -9.428344555154455E-1   -2.217684749762454E1    -9.114424849872707E1     1.079557181708487E2
                        -9.864431105659736E1     9.258255778695612E1    -7.900612482355889E1     1.215658042425476E2    -8.045789467618246E1     1.279929593243484E1    -9.093628001278430E-1   -1.935582585012568E1

 3.022500000000000E7    -2.859582953002051E-1    9.039946794124124E1    -7.038861629148143E1     1.252790787030623E1    -7.826207807654282E1     1.326783042614717E2    -8.849428769136131E1    -1.415510098450691E2
                        -6.789806648950939E1     4.788890961891145      -3.056524121555783E-1    9.765259713813634E1    -8.206774104691030E1     9.912087617517886E1    -8.378608188403999E1    -1.474940641630507E2
                        -8.599777319982572E1    -8.741912238916719E1    -9.173091131797648E1    -1.452088731857833E2    -9.452793839499875E-1   -2.250388591674252E1    -8.362367897993993E1     1.024075208580432E2
                        -8.226072542355000E1     8.000578617142215E1    -8.316559176032398E1    -1.447604487066755E2    -8.574740587888047E1     5.668780701499325E1    -9.109724103691557E-1   -1.967320478080120E1

 3.025000000000000E7    -2.851010917562104E-1    9.004692851226926E1    -7.020349459898777E1     5.509237699829108      -8.333374401133239E1     6.739573480192794E1    -8.713653692020408E1    -1.780633451270089E2
                        -6.879159828999316E1     2.580258988920476      -3.188571644353210E-1    9.730056271321219E1    -8.497708788564232E1    -1.090213186724164E2    -9.029207928547272E1    -9.537360563907468E1
                        -8.067587190811302E1    -1.583082983620101E2    -8.473242855510178E1    -1.333140892075488E2    -9.438177154988405E-1   -2.280014283903549E1    -8.475014869691476E1    -8.906670412069499E1
                        -8.414450183143219E1     7.445956253720618E1    -9.339005582972166E1    -1.088148081004369E2    -9.238805241792214E1     1.611777173011107E2    -9.160982705045104E-1   -1.994861970910832E1

 3.027500000000000E7    -2.813055459651997E-1    8.971281774063719E1    -6.873149429721556E1     2.641758826632307      -9.142743880393782E1    -3.556623757093522      -8.348320740799494E1     1.064209043687076E2
                        -7.012720431155412E1     4.099256697480626      -3.000908515183811E-1    9.699243452651110E1    -8.447641929649082E1     5.108821334152735      -8.018785665693763E1    -5.884903022748100E-1
                        -9.199271996379812E1     1.713899594255643E2    -9.523024591323976E1    -5.238894960501744E1    -9.400832707705527E-1   -2.314021695039629E1    -9.964811659728760E1    -1.736963438953516E2
                        -9.613550788724992E1    -7.634660856333616E1    -8.687950272852994E1     1.170945522882352E1    -8.404335553924682E1     5.908322217356218E1    -9.089029447428255E-1   -2.023394169677350E1

 3.030000000000000E7    -2.866307910297605E-1    8.938133910119304E1    -6.960428898194364E1     1.032381683075670E1    -9.736063442595881E1    -1.663631637969681E2    -8.506701002027681E1    -9.381630571761077E1
                        -6.936264449280732E1     3.036947427569805      -3.181078269202422E-1    9.672385108330390E1    -8.530726903191136E1     1.225467051741464E2    -8.371053604781851E1    -1.795761761945315E2
                        -8.566102958119450E1     9.071647549134086E1    -9.134882212666665E1    -1.884171313450531E1    -9.485195430031159E-1   -2.346640014573990E1    -9.115810654990958E1     5.387803303722788E1
                        -9.138939109446829E1    -1.445834152486895E2    -1.029813275801347E2    -8.143797424035527E1    -8.796926919407255E1     1.160359841988992E2    -9.119422122360859E-1   -2.058025775324653E1

 3.032500000000000E7    -2.819981062073909E-1    8.903905852011576E1    -6.852613600059952E1     3.880382063905473      -8.006380697089030E1     9.114647503444387E1    -8.364010845656928E1    -1.311887344777914
                        -6.898739746965424E1     9.091007402209252      -2.985059739668590E-1    9.638428342388492E1    -8.932309805508781E1    -8.631303588237226E1    -8.835574101861440E1     1.187123344904735E2
                        -9.911857525964558E1     5.116203691731437E1    -9.282253005648884E1     1.444850159250233E2    -9.475543469013265E-1   -2.380155822500789E1    -9.923488465879699E1    -8.901931273825021E1
                        -8.968093822793625E1     2.831561127645173E1    -8.667970113362674E1    -1.047747003130602E1    -8.991956604734253E1    -5.580479193490409      -9.128886133325854E-1   -2.087508560932009E1

 3.035000000000000E7    -2.799090662852588E-1    8.869115596339793E1    -6.959292748840798E1     5.382908244776343      -9.165594085437029E1     1.382510612858332E2    -8.631333369202658E1     5.141046751509560E1
                        -7.022491948798576E1     7.003276662353786      -3.062035509785759E-1    9.606308947846418E1    -8.113609062101034E1     1.408778156202307E2    -8.391197937202522E1    -1.909525809392292
                        -8.549671171181531E1     4.875856099740413E1    -8.720440594370778E1    -9.125942402811158E1    -9.449645025844394E-1   -2.410214308725869E1    -9.068187415097468E1    -1.794750201205469E2
                        -8.870837983112747E1    -2.008324920244370E1    -8.409630097874911E1     1.650731980759552E1    -8.752254149000729E1     1.157975683007769E2    -9.105233442387373E-1   -2.114577320987717E1

 3.037500000000000E7    -2.832012743552200E-1    8.834353200038893E1    -7.015378609653359E1     6.192785288118444      -9.695618348899862E1    -3.286864856856050E1    -9.087885999211132E1     1.788625493885644E2
                        -6.700896658220704E1    -1.290985417906486      -3.140779979879856E-1    9.570654244375251E1    -9.050720466388219E1    -2.967731634078142E1    -8.406735723650371E1    -6.858304098569529E1
                        -8.537230042616326E1    -2.820347699994907E1    -8.743013246890314E1    -7.649569218076043E1    -9.526356750640461E-1   -2.437998107019650E1    -9.867154586058476E1    -9.219837692810482E1
                        -9.027677124375731E1     1.751148631325559E2    -9.345413521936173E1    -1.672672051772627E1    -8.297228104341995E1    -5.098220979648040      -9.081911020704691E-1   -2.150276962809221E1

 3.040000000000000E7    -2.780022040198826E-1    8.800371047073217E1    -6.914630759795412E1    -4.864495624185043      -8.773677991225490E1     5.789581921218621E1    -8.142417492178794E1    -6.485308731693660E1
                        -6.953504613884986E1     1.107424025512886E1    -3.065719977355499E-1    9.540855705444065E1    -8.817731397373885E1    -1.059162051386316E1    -8.740124125539664E1    -4.910052085599042E1
                        -7.995064564289579E1    -1.254293314052241E2    -8.161956428739762E1    -9.345188229616434E1    -9.422231003393705E-1   -2.469158807408053E1    -9.444084602118160E1     5.699609388124934E1
                        -8.874789202509332E1    -2.501223206473332E1    -8.267516638936465E1    -1.338228589259839E2    -1.019231815079212E2    -1.064114478559010E2    -9.160016333929102E-1   -2.181758748626949E1

 3.042500000000000E7    -2.791476433967247E-1    8.763678979998497E1    -6.775055597897057E1     8.431761597183487      -8.881333485631939E1     8.496541873193658E1    -8.818796763914801E1     8.767164174775722E1
                        -7.054522284233330E1     2.169670578636390E1    -3.108605479662339E-1    9.516216020575992E1    -8.522712901319829E1     2.145822185203999E1    -9.680194683114438E1    -4.004233395065658E1
                        -8.193557771520089E1    -5.029409946284018      -1.070862663689503E2    -1.167596912685207E2    -9.516608312956962E-1   -2.505730671871356E1    -8.786208069618223E1    -1.242677964827945E2
                        -8.087888137764325E1     8.480528010555223E1    -8.463782209395434E1    -4.952225716547741E1    -8.939923030016479E1     1.780588101608513E2    -9.132256138815664E-1   -2.210454313578089E1

 3.045000000000000E7    -2.800906380771653E-1    8.730612068157616E1    -6.806617565804780E1     4.413183490471712      -8.858851701899538E1     1.107681083127089E2    -8.780028085612203E1     7.589213501780274E1
                        -6.789579504360931E1     5.920575228529464      -3.040980675991505E-1    9.478728076806030E1    -9.117116521948222E1    -1.767103260423863E2    -8.076548137544876E1     8.349978583161452E1
                        -8.309481461900164E1     9.532540917941815E1    -8.751178394383929E1     6.314506499427642E1    -9.408062608067890E-1   -2.530223982060144E1    -8.285429652893095E1     6.280244889652654E1
                        -1.006541814492553E2    -1.367187350794100E2    -8.860341146342492E1     1.152242081650305E2    -1.064024229763795E2    -1.276403094457701E2    -9.127303825823911E-1   -2.236302550911377E1

 3.047500000000000E7    -2.806476426864685E-1    8.700291655962582E1    -6.880640754866346E1     5.825127659426765      -8.370935403398688E1    -1.475521695317298E2    -8.124713746801336E1    -7.883201650030924E1
                        -6.869959028298032E1     1.215489583185687      -3.084333353619677E-1    9.456380278448339E1    -8.014108307765447E1     1.399921004973862E2    -9.516904712834175E1     7.466895830366352E1
                        -8.468435864809476E1    -1.373963712263659E2    -8.686692902475862E1    -1.795435618232055E2    -9.445886800526440E-1   -2.563247557754846E1    -8.099538166712327E1     4.617520825909818E1
                        -8.625642515974421E1    -1.943726388414215E1    -8.636966257033073E1    -1.614818889869078E2    -9.404017599171253E1    -1.001986983577297E2    -9.140567200564581E-1   -2.271926217638194E1

 3.050000000000000E7    -2.850147073809969E-1    8.669169296634939E1    -6.995447616832661E1    -6.220710752275407      -8.621037271323885E1    -2.792499150250369E-1   -8.354564753474401E1    -1.493285368865139E2
                        -6.912308917649253E1     6.369774212555969      -3.046617429706083E-1    9.418930028000310E1    -8.411839861359513E1    -1.627838282600743E2    -8.664559438983204E1    -1.492034838907439E2
                        -8.542533543839821E1    -1.451172514864553E2    -8.340281894465890E1    -1.210453083674633      -9.438949508680060E-1   -2.599644287229581E1    -1.075675433956022E2    -2.540786479146124E1
                        -8.725988989112912E1    -2.968316246885185E1    -8.370379502746438E1    -1.830992996695382E1    -8.645402672646456E1    -6.750454310773105      -9.069733906197257E-1   -2.299554365646198E1

 3.052500000000000E7    -2.765928798981395E-1    8.630800937956342E1    -6.872620122307970E1    -3.043500540424665E-1   -9.269598263714738E1     8.169990054194818E1    -9.448967247541393E1     1.571141092069533E1
                        -6.841441226443489E1    -5.735221363347815      -3.054444011556732E-1    9.389082401175224E1    -7.953582271909826E1    -7.998102293034111E1    -8.471317925698493E1    -1.329129052895213E2
                        -8.325300429049675E1    -9.140746716559703E1    -9.297435345778568E1     3.324469075102252E1    -9.456786749515490E-1   -2.627938314175130E1    -8.620701507685494E1     9.235854169597057E1
                        -9.260278478815587E1     1.049006669900511E2    -7.974471114677557E1    -6.765209103969869E1    -8.484810901165146E1     3.942418879429317E1    -9.164554321167791E-1   -2.333632709484644E1

 3.055000000000000E7    -2.768936111227091E-1    8.590579917926782E1    -6.815937273324713E1    -9.979423030458807E-1   -8.404712346260499E1     1.331732637704178E2    -8.769696108627605E1    -1.077990396512294E2
