#  HZ   S   DB   R     50.00 
! Rohde & Schwarz Vector Network Analyzer 
! Rohde-Schwarz,ZNB8-4Port,1311601044102961,2.82
! Created: UTC 2/13/2019, 11:57:27 AM
! freq[Hz]                db:S11                  ang:S11                 db:S12                  ang:S12                 db:S13                  ang:S13                 db:S14                  ang:S14
!                         db:S21                  ang:S21                 db:S22                  ang:S22                 db:S23                  ang:S23                 db:S24                  ang:S24
!                         db:S31                  ang:S31                 db:S32                  ang:S32                 db:S33                  ang:S33                 db:S34                  ang:S34
!                         db:S41                  ang:S41                 db:S42                  ang:S42                 db:S43                  ang:S43                 db:S44                  ang:S44
! 
 5.525000000000000E7    -4.490154619562906E-1    9.748747189778987E1    -3.110614156398160E1     6.955953431518559E1    -8.653687297391612E1     1.147826566138427E2    -8.598487827763583E1     4.851340560817361E1
                        -3.112309446233335E1     7.026571115467384E1    -5.739809565358228      -1.643862206843967E2    -6.745341511788485E1     1.788691112256176E2    -7.581323000201553E1     4.911201800670417
                        -8.692623277331390E1    -6.588958938019896E1    -6.685883143129087E1    -1.748821578413034E2    -1.408647888468662       2.475020163011554E1    -9.040656761113311E1     1.206104240427634E2
                        -8.277188962932274E1    -1.740274971075607E2    -7.319909713853076E1    -1.513051148993338E1    -1.018686270088327E2    -5.303878069013059E1    -1.430193394953031       3.123898117083096E1

 5.525025000000000E7    -4.530300928398234E-1    9.750603872617710E1    -3.100987263932106E1     6.911750780425940E1    -8.430731652324468E1    -1.372586156074114E2    -8.358639541353894E1     1.437574971511274E2
                        -3.103703459945699E1     6.921559214868108E1    -5.751189168945995      -1.644461947414154E2    -6.728057345588169E1    -1.781537518942273E2    -7.193437301541967E1    -2.505293724675734E1
                        -8.851887672582089E1     1.842628546558412E1    -6.792374891176154E1    -1.791044692184593E2    -1.407723243576005       2.475029813816033E1    -9.060872456910983E1     1.424477529489125E2
                        -1.006309691192052E2    -1.188391427648123E2    -7.759143793010638E1    -1.348483306913232E1    -9.051795879817701E1     6.762662790869429E1    -1.435293759202182       3.125872496099984E1

 5.525050000000000E7    -4.549448235964690E-1    9.747148131071145E1    -3.099838407747083E1     6.896722792218274E1    -8.806262443277970E1    -4.213542327130315      -8.578041699539216E1     1.579644439184416E1
                        -3.109485895665878E1     6.902815752007683E1    -5.756479558884056      -1.645016506428368E2    -6.613814208605545E1    -1.664506791076626E2    -7.338661449714378E1    -1.447789092379418E1
                        -8.967920966634453E1    -6.345197599701086E1    -6.833692117792816E1     1.773158945675685E2    -1.412079320663947       2.472470805741854E1    -9.197022137953171E1    -1.118668388402367E2
                        -8.816942401658700E1    -8.705433475935725E1    -7.417322613667633E1    -1.026026350460182E1    -9.382957321018296E1     1.376031270095961E2    -1.428383968552341       3.122976976839765E1

 5.525075000000000E7    -4.478277373030222E-1    9.747890935750861E1    -3.115068891316970E1     6.907947689555728E1    -1.053162822779627E2    -5.245082769737925E1    -9.346708623319270E1     1.328087082843632E2
                        -3.106536344063081E1     6.969226555978362E1    -5.762480818863115      -1.645588735314377E2    -6.931257629011880E1    -1.658828959206511E2    -7.181313224811504E1    -2.129264166416100E1
                        -8.907734822245669E1     2.048930517366816E1    -6.753550973571643E1    -1.748492465285616E2    -1.407876984685439       2.472221537570729E1    -9.791229999746957E1    -6.139991984650263E1
                        -8.435628465147323E1    -8.579228371136841E1    -7.383432064814326E1    -2.927367871014296E1    -9.168066454824400E1     3.460966123043787E1    -1.431918371217875       3.123910816219220E1

 5.525100000000000E7    -4.513457243025706E-1    9.748407372407498E1    -3.106797952400253E1     6.973251556383892E1    -8.454261295202512E1    -4.938837422958295E1    -8.431384358761854E1    -1.757409142225033E2
                        -3.117081591746233E1     6.891514525904154E1    -5.771624658398252      -1.645583718962067E2    -6.745997945981887E1    -1.782673713872498E2    -7.084756983022351E1    -2.159146074407514E1
                        -9.038751302566092E1     5.743459231983977E1    -6.842612747964226E1    -1.752444892768619E2    -1.412325068683461       2.470265905336665E1    -8.600378254466108E1     1.493686209828911E2
                        -8.649481760316725E1     1.756294246314601E2    -7.138716897511893E1    -1.381618282308091E1    -8.742687922465046E1     1.221521372657455E2    -1.433649321945300       3.123265866303608E1

 5.525125000000000E7    -4.532524508047295E-1    9.748397325688924E1    -3.109054184210993E1     6.903280834498581E1    -8.045311436319928E1     1.641061385682830      -9.039304452123540E1     4.849064835677069E1
                        -3.104120612421445E1     6.906557581129118E1    -5.775191213085185      -1.646532761386391E2    -6.655147944970261E1    -1.702979123498288E2    -7.277198887183960E1    -3.352716765776390E1
                        -8.443700008384911E1    -4.252668854179981E1    -6.657521371367942E1     1.771444346174671E2    -1.407534014245890       2.474278670562979E1    -8.259132695152607E1    -1.478680653165962E2
                        -9.212687929607387E1     3.348978025233905      -7.314822696682619E1    -3.221739117308303E1    -8.732533528754775E1    -1.022107538423534E2    -1.431093476667834       3.120779341762755E1

 5.525150000000000E7    -4.537304897570109E-1    9.745196192111636E1    -3.103536790361341E1     6.905222476073455E1    -8.205466219546638E1    -5.505893314085076E1    -8.632636432203731E1     9.185818112569370E1
                        -3.117883507545447E1     6.885477135818283E1    -5.782138192301130      -1.646482718957662E2    -6.712848936145504E1    -1.712711262311818E2    -7.190668995408336E1    -2.562413006317537E1
                        -8.191270133831088E1    -1.217821818847257E2    -6.677433572841207E1    -1.757304032687428E2    -1.415230833319292       2.474356813263152E1    -9.050695611168220E1     1.765950271208560E2
                        -8.589744243100518E1     4.179698403272580E1    -7.399149863244462E1    -3.452999100765726E1    -8.751720467041672E1     8.170231099604886      -1.429077991458042       3.124318687588558E1

 5.525175000000000E7    -4.483897126153499E-1    9.746062780033532E1    -3.101523445724443E1     6.881177194745843E1    -8.760368345529312E1     4.140036292815069E1    -1.128846697833208E2    -1.521825826055337E1
                        -3.119830523115818E1     6.877981164300654E1    -5.788152566299737      -1.647056357038952E2    -6.660351437587008E1    -1.685098377060296E2    -7.359558812265260E1    -1.805807533878049E1
                        -8.261372791907556E1    -3.779681133394313E1    -6.816316694607808E1    -1.771985347267171E2    -1.405583653215924       2.472634966894822E1    -8.521211303953331E1     1.756099122104507E2
                        -8.706421851379027E1     1.581769654489265E2    -7.229016904340610E1    -4.184669305412061E1    -8.707892264524190E1     8.744868147994690E1    -1.429612884247345       3.121354194597204E1

 5.525200000000000E7    -4.523518927433870E-1    9.746571394387169E1    -3.112368577013543E1     6.928011969937370E1    -8.820124906940364E1     1.026774274252501E2    -8.204346805343006E1    -1.376553256713724E1
                        -3.117603414689259E1     6.908976642759718E1    -5.795457469905717      -1.647972602789271E2    -6.659911446371537E1    -1.790726683458228E2    -7.186120070607507E1    -2.713441293191533E1
                        -9.343286496695470E1    -1.153758150271845E2    -6.654411167277820E1     1.780962263558911E2    -1.409457743652478       2.474056842871240E1    -9.267115641398385E1     1.295971557222142E2
                        -8.341140850078165E1     1.543597309008542E2    -7.218115998293452E1    -2.574481272302820E1    -9.029753128829580E1     1.288147540276399E1    -1.427349212562816       3.123592567216648E1

 5.525225000000000E7    -4.514563117027360E-1    9.743335019237641E1    -3.105010821858047E1     6.934978393903242E1    -8.862981922590228E1     1.255389597389578E2    -8.976373466474786E1     1.366443480270817E2
                        -3.103055366866532E1     6.931905913305334E1    -5.803812770975418      -1.647814070764707E2    -6.799167139536577E1    -1.720470721509607E2    -7.406128238036936E1    -3.545040801187215E1
                        -9.126441195702142E1    -6.010558288627586      -6.673250347231200E1     1.799150560301499E2    -1.407005640069932       2.474136787821657E1    -9.350344349254689E1     7.789287609533668E1
                        -8.275371931615544E1    -1.466300874062692E1    -7.313024909456323E1    -3.293208392782115E1    -8.657883028631846E1    -1.332533229861616E2    -1.431502839978453       3.122022689884508E1

 5.525250000000000E7    -4.492773068367272E-1    9.745304219143657E1    -3.105230700160540E1     6.968020610977590E1    -1.057319731669796E2     3.590154554201104E1    -8.572728882956851E1    -1.285541408070030E2
                        -3.110437315082421E1     6.872054887843173E1    -5.802243272742508      -1.648388511406407E2    -6.749634144645998E1    -1.778631489331873E2    -7.279432600798684E1    -2.121543625884944E1
                        -8.652255665491032E1    -1.041345959565051E2    -6.788730594650616E1     1.774570896779186E2    -1.409005893012257       2.472685921079910E1    -8.612178247834584E1    -5.826052906518644E1
                        -1.028561464179001E2     4.860568384715847E1    -7.326808285825788E1    -2.846616528319294E1    -9.213414975943030E1    -1.024414026642264E2    -1.425175137583101       3.118071902059021E1

 5.525275000000000E7    -4.545464353854440E-1    9.741582989702948E1    -3.100827123509912E1     6.854486637704876E1    -9.101246283385032E1    -1.693946108415446E2    -8.886990438961234E1     1.443609535356890E2
                        -3.109598270549533E1     6.836288932544937E1    -5.808481656958143      -1.649070416398205E2    -6.834716278768954E1     1.740452065934680E2    -7.199322554913610E1    -1.951853767509196E1
                        -8.813592317981164E1     1.662758601429218E2    -6.676828633629435E1     1.791829985376629E2    -1.409674452904141       2.471183898797692E1    -8.453282210863273E1    -3.723535389473310E1
                        -8.021508239815600E1     5.208546103496132      -7.189002725584162E1    -3.718811805522130E1    -9.141367693229276E1     1.382892067634304E2    -1.430754760194137       3.122984799414098E1

 5.525300000000000E7    -4.524848823850874E-1    9.743497081144574E1    -3.112074115753924E1     6.882492792557220E1    -8.261400513723686E1     5.578174863413677E1    -8.374640779733794E1    -7.813447483512692E1
                        -3.114428109456840E1     6.880145945722700E1    -5.819748519694850      -1.648728574868754E2    -6.905165301075810E1     1.720525901477672E2    -7.508192962248722E1    -7.816663688299880
                        -7.955337627734500E1     1.488238690098622E2    -6.808197078976298E1    -1.772563596456996E2    -1.406933417925523       2.470348893795186E1    -9.859789712482527E1     1.596650686857400E2
                        -9.635684680325200E1    -9.765586682749269E1    -7.265479362487859E1    -1.895493221265836E1    -9.434683124929708E1    -1.074152329218329E2    -1.427252835377298       3.122742105522097E1

 5.525325000000000E7    -4.504820738971233E-1    9.744019598362563E1    -3.108925975081759E1     6.969397866201329E1    -9.997279246608336E1    -1.506875084064112E2    -8.108488402263659E1    -5.941369844059622E1
                        -3.098302906902490E1     6.844376331661836E1    -5.819946142014772      -1.649970139853263E2    -6.718922497295108E1     1.794731487706481E2    -7.433012451976836E1    -4.793502109020977E1
                        -8.112780590134732E1     2.372305835337017E1    -6.794318406252768E1    -1.749812817276500E2    -1.413360927430491       2.473787849149308E1    -9.059274328136455E1     5.950296450745782E1
                        -8.489397478727499E1    -1.052316732052836E2    -7.174182796907252E1    -2.687813584897272E1    -8.806699055858172E1     2.646631761956804E1    -1.434752937458330       3.122976000152788E1

 5.525350000000000E7    -4.488652791908460E-1    9.743041026353103E1    -3.099933539458581E1     6.923582234245296E1    -8.392408856765884E1    -6.077799901452659E1    -8.099698359056589E1    -6.795004666983635E1
                        -3.121778133802606E1     6.842870504920377E1    -5.819923365102752      -1.650116033434163E2    -6.613524485486296E1     1.761756984310623E2    -7.302960358664814E1    -3.031009754854710E1
                        -8.879016473979475E1    -4.068910191930272E1    -6.714583881130118E1     1.790329131734334E2    -1.407522055969858       2.469512399829840E1    -8.757105337210797E1    -1.481340300190880E2
                        -8.682953053929600E1     1.308059935585372E2    -7.435485279671056E1    -2.730153312666578E1    -8.782876625693193E1    -8.644738490094596E1    -1.429097420763435       3.124840930990045E1

 5.525375000000000E7    -4.502812013150787E-1    9.740889978236325E1    -3.106182663366774E1     6.945024259846251E1    -8.719644980861047E1     5.047502258335647E1    -8.316219165000697E1    -1.714860589991401E2
                        -3.120914514360802E1     6.902691790538229E1    -5.842399846030265      -1.650128794339769E2    -6.721873013624455E1    -1.774043397898851E2    -7.360403583159233E1    -2.931768779391322E1
                        -9.271025852736871E1    -4.167332524350793E1    -6.711997037916018E1    -1.776263183778698E2    -1.411341265723034       2.474532892829377E1    -1.042205890730219E2    -6.749059380452684E1
                        -8.039198565899206E1     1.508958235791994E2    -7.293352323159132E1    -2.013275160031386E1    -8.554093304995072E1    -8.836130492214429E1    -1.431873051715513       3.120417824380048E1

 5.525400000000000E7    -4.523259763231307E-1    9.741256208262280E1    -3.115709987889561E1     6.929738463153360E1    -8.255121776326865E1     7.942998734053597E1    -8.422273779861428E1    -1.540192947556793E2
                        -3.109676795046591E1     6.940789760212394E1    -5.838068327206393      -1.651167702232867E2    -6.765334817334362E1    -1.677066326436389E2    -7.111748747014920E1    -1.571253084088100E1
                        -8.683756768776532E1    -1.101728943205752E2    -6.676110137881695E1    -1.781655416256598E2    -1.410927624920259       2.471789114631544E1    -8.234734356480759E1     7.618600075390452E1
                        -9.183802210346894E1     1.322792947310745E2    -7.465682187950344E1    -1.975634001330680E1    -8.728126608816233E1    -1.788485559807008E2    -1.429115954697415       3.120770012383125E1

 5.525425000000000E7    -4.517726947908103E-1    9.741892930772514E1    -3.104834473153321E1     6.875878306631034E1    -8.487375678735245E1     1.459710593605593E2    -9.120831052610059E1    -6.080588386184105E1
                        -3.106398472922002E1     6.852860384425935E1    -5.846647988392537      -1.651731647409951E2    -6.747980597188855E1    -1.743227690662882E2    -7.416965823442931E1    -2.253289533701979E1
                        -8.828421021702475E1     1.196357459948018E2    -6.762741774738669E1     1.799872822863080E2    -1.408186732302260       2.472888691598461E1    -8.555455554462245E1     1.519749420945325E2
                        -8.410314752892866E1    -1.750360390208658E2    -7.255473333316024E1    -3.436246224875838E1    -9.151464507349925E1     5.412971815165149E1    -1.430171995619475       3.119262502412864E1

 5.525450000000000E7    -4.514521029684634E-1    9.741308084828479E1    -3.111501616057811E1     6.932563418803068E1    -9.371217178072331E1    -1.490580268778165E2    -8.740874688942127E1     6.287051690402686E1
                        -3.118132169649055E1     6.834875816020242E1    -5.855660719421399      -1.651551825356902E2    -6.661552205852954E1    -1.744126468290833E2    -7.412141947746196E1    -3.136892031135233E1
                        -8.742096595799831E1     1.062306565542489E2    -6.751752568911772E1     1.789215204253132E2    -1.407418831949939       2.469441092983207E1    -9.135404562397666E1    -2.939816592549823E1
                        -8.142745572543801E1    -1.047351833090084E1    -7.169641176465279E1    -3.860190841784958      -8.037119222268763E1     1.867549085509820E1    -1.429791545069980       3.121913054458950E1

 5.525475000000000E7    -4.534460279698405E-1    9.739867871028875E1    -3.110044876517128E1     6.887818604032705E1    -1.002691773414066E2     1.655297707033617E2    -8.115945976199335E1     1.436282425173685E2
                        -3.127565292986110E1     6.957900133068446E1    -5.864785247994616      -1.652120797582650E2    -6.646964471688087E1    -1.766882556295094E2    -7.334774307096734E1    -2.127927537750363
                        -9.259300958215943E1    -4.630170453769450E1    -6.668656991267240E1     1.796155952388803E2    -1.409697079852133       2.472762689069514E1    -9.121112142901326E1     9.073050211209494E1
                        -9.037031779205579E1     1.753805017942388E2    -7.383414144887156E1    -3.727927726147646E1    -8.647845176246342E1    -5.622012728268783E1    -1.429461740412418       3.119903830370900E1

 5.525500000000000E7    -4.521039477227594E-1    9.739452820947734E1    -3.105084025316277E1     6.903305629437436E1    -8.712034887462590E1     5.799584657908110E1    -8.972329876237660E1    -6.849079925344758E1
                        -3.108908161352398E1     6.898864488728280E1    -5.865164334970915      -1.652593599710080E2    -6.753322577679795E1    -1.730612142353833E2    -7.291021781722579E1    -4.207688071430356E1
                        -9.359707893606600E1     1.447147063724027E2    -6.737720191374777E1    -1.784310429672251E2    -1.412596689798639       2.470769085647313E1    -8.086255547650431E1     2.865826690055311E1
                        -9.048292685604670E1    -1.457066930144282E2    -7.307109985266803E1    -1.613062915631104E1    -8.405604423651397E1    -9.354342759226692E1    -1.429498697814510       3.119606934481592E1

 5.525525000000000E7    -4.497888958841733E-1    9.740592013812507E1    -3.108226019531522E1     6.928769040553465E1    -9.509585886381805E1     1.342734938552423E2    -8.354223094963305E1    -1.592208290225227E2
                        -3.114857302174886E1     6.896179551892310E1    -5.877101689529830      -1.653016784789121E2    -6.848333181758859E1    -1.795020149662303E2    -7.176541883625107E1    -1.024524056217216E1
                        -9.057868627593415E1     3.884153814393977E1    -6.628559721290452E1    -1.749238240615728E2    -1.410052053376055       2.469101632915013E1    -8.603056617994039E1     7.017757232810288E1
                        -8.948054365932713E1    -1.311471602690712E2    -7.184257655370328E1    -2.873231987341910E1    -8.366225872048486E1     1.701812800788702E1    -1.425644642961041       3.117929759468967E1

 5.525550000000000E7    -4.512017645889237E-1    9.738855653775470E1    -3.111795176036935E1     6.924124225519337E1    -9.293078278063024E1     1.402712309198562E2    -8.857642614609715E1     1.273039827981283E1
