#  HZ   S   DB   R     50.00 
! Rohde & Schwarz Vector Network Analyzer 
! Rohde-Schwarz,ZNB8-4Port,1311601044102961,2.82
! Created: UTC 2/12/2019, 1:58:40 PM
! freq[Hz]                db:S11                  ang:S11                 db:S12                  ang:S12                 db:S13                  ang:S13                 db:S14                  ang:S14
!                         db:S21                  ang:S21                 db:S22                  ang:S22                 db:S23                  ang:S23                 db:S24                  ang:S24
!                         db:S31                  ang:S31                 db:S32                  ang:S32                 db:S33                  ang:S33                 db:S34                  ang:S34
!                         db:S41                  ang:S41                 db:S42                  ang:S42                 db:S43                  ang:S43                 db:S44                  ang:S44
! 
 3.000000000000000E7    -2.816952080392380E-1    9.703651274831498E1    -6.496555874094661E1     1.782805070378142E1    -8.304499905214632E1     7.243943577892304E1    -8.640364790179491E1    -7.600329116784877E1
                        -6.626833272327752E1     9.315043486692611      -2.524470644728821E-1    1.027592310649243E2    -9.349297475349580E1    -1.355773958227302E2    -8.195081959750432E1    -1.346068563289773E2
                        -8.925873653786503E1     1.498739157420732E2    -9.498214579067424E1     1.712157996067507E2    -9.345564902494609E-1   -1.574585356046512E1    -8.392318485948080E1    -1.321062291706707E1
                        -8.654967086227418E1     1.484624083852292E2    -9.022604102446132E1     1.263287747493261E2    -8.778429780913884E1    -1.308371619887267E2    -9.015353785119308E-1   -1.298993747251518E1

 3.002500000000000E7    -2.841634663049931E-1    9.666824083922407E1    -6.589873838347502E1     1.562960226183225E1    -8.571045311158304E1    -1.537416008938918E2    -8.850794756012290E1    -7.727128950245283E1
                        -6.482239479225501E1     1.545083104492924E1    -2.482062719996456E-1    1.024277939558912E2    -7.888994145122227E1     1.667737775594446E2    -9.887666453228034E1     1.214008955870548E2
                        -1.076853495471480E2     1.199125514858643E2    -8.705036476521002E1     1.311125605682373E2    -9.328840924976521E-1   -1.604321194094808E1    -8.941646948146924E1     1.504799874607746E2
                        -8.544474726410010E1    -1.200163724026509E2    -8.238063338054609E1    -5.933116700601955E1    -7.918401944486239E1    -7.806051196414620E1    -9.023435591768709E-1   -1.334329335051850E1

 3.005000000000000E7    -2.845858587196252E-1    9.636623027126082E1    -6.558389175764387E1     7.742823567499122      -8.576059815356246E1    -8.360631398797102E1    -8.795933083548620E1    -1.473646603049428E2
                        -6.476494630697869E1     8.754959240736152      -2.413435400274810E-1    1.020831159021892E2    -8.514949836062800E1    -1.069133182153974E2    -9.133626207979860E1     1.242043853313218E2
                        -8.648487768138412E1     1.524583965423284E2    -9.179657910754742E1    -3.532789603468594E1    -9.343891164756963E-1   -1.636845069443480E1    -8.718345780497396E1    -1.026697949460091E2
                        -8.765389152745274E1    -7.061273853902476E1    -8.867920099157585E1     1.777944799593903E2    -8.016509643805676E1    -9.391677078777335E1    -8.994357915035354E-1   -1.360407122874762E1

 3.007500000000000E7    -2.881806235431014E-1    9.599246201404475E1    -6.609952993827521E1     1.203900944674713E1    -8.866868474564004E1    -3.247411270308725E1    -8.213886769804680E1     1.796105747261700E1
                        -6.504854908796871E1     8.511843597429005      -2.494604005050183E-1    1.017938600228434E2    -8.182982135629976E1     3.372323120911886E1    -9.259601029136179E1     5.125816113044925E1
                        -8.393227899161548E1     1.338836887147963E2    -8.904459553179538E1     5.335269129344343E1    -9.322586126068417E-1   -1.665443244397729E1    -9.366099982770621E1    -2.082656527357197E1
                        -8.660913755152555E1    -2.308808623834754E1    -8.950336332255981E1     4.806169360326816      -9.679186841773019E1    -1.160533595797667      -9.028145057870580E-1   -1.391681322552709E1

 3.010000000000000E7    -2.837065422222813E-1    9.570611274239838E1    -6.480436892772863E1     1.263130624346289E1    -8.596907944571272E1    -1.008242903128374E2    -9.541752593370474E1     1.152750576509269E2
                        -6.489690118607543E1     7.379370761986150      -2.417346946312650E-1    1.014955066280111E2    -9.516674761191538E1    -1.409829743777033E2    -8.645756783564633E1    -1.463920222846681E2
                        -8.409263660054457E1    -9.289409618423447      -8.640428181418820E1    -7.312769084177627E1    -9.313860950543429E-1   -1.699291102688833E1    -8.557775565249365E1    -1.503955725402198E2
                        -8.299301024230934E1    -1.119850684415944E2    -8.862832402836642E1     9.886074091386074E1    -8.583441493498411E1    -1.006307535293020E2    -9.002357216906864E-1   -1.420303940384734E1

 3.012500000000000E7    -2.823496399086661E-1    9.538156758764167E1    -6.462520514500835E1     1.052233981768851E1    -8.496164081559778E1     4.947351324187806E1    -8.893559950488108E1     6.929659490026165E1
                        -6.504283244953444E1     9.981907465924078      -2.458345516630934E-1    1.011402991379804E2    -9.150501304377549E1     1.092863412443464E1    -8.613101747970507E1    -2.700926037237964
                        -1.066800826781385E2    -1.377630400455920E1    -7.948613637886308E1    -1.691749793017400E2    -9.347643188089780E-1   -1.730720826436252E1    -8.846247357339885E1     1.518759955040290E2
                        -8.819065370229791E1    -1.714493171409038E2    -9.458765770770313E1     6.274663720191516E1    -9.361891689416559E1     1.163509781860185E2    -8.997652803681968E-1   -1.451726940298436E1

 3.015000000000000E7    -2.776501503917653E-1    9.504641576647379E1    -6.466351038732222E1     1.537426671237536E1    -8.589688337542953E1     9.615664892318310E-1   -8.743025716982652E1     9.138208105538257E1
                        -6.371216236862562E1     3.607014498387411      -2.467412052050935E-1    1.008145324466730E2    -8.614810764764890E1     5.445917679499320E1    -8.776314912146583E1     1.275363778900379E2
                        -8.591043546516387E1     8.521801985497446E1    -8.958035538406513E1    -9.888559000007881E1    -9.389075482246281E-1   -1.756475200512055E1    -9.678117354718717E1     8.665806439584154
                        -8.358100910700847E1     4.081626068728248      -1.024066010821978E2    -1.378610474320802E2    -8.176286369702858E1     1.034552601252097E1    -9.000533395397415E-1   -1.480394098716648E1

 3.017500000000000E7    -2.778115255941418E-1    9.468901477956125E1    -6.512596082765386E1     9.580961514742238      -8.501192022314727E1     1.267906491753057E2    -8.992675175055838E1    -1.479253931915893E2
                        -6.431390825347860E1     9.526675282829757      -2.439843899760097E-1    1.005296708741908E2    -8.516264271041449E1     1.075092728772623E2    -8.465643269074045E1     1.655647198740126E2
                        -9.464872431994051E1    -5.281487136599032E1    -8.359999070790950E1     1.384330946823189E2    -9.302755842824679E-1   -1.791128505387314E1    -8.270544256560692E1    -1.380996964600605E2
                        -8.567594726774836E1     1.778536205388782      -8.350211554929885E1    -2.670815188590884E1    -8.032575257385500E1    -5.462119624165264E1    -8.973212815097846E-1   -1.506911200108117E1

 3.020000000000000E7    -2.765781477447219E-1    9.438603875024977E1    -6.513178973628415E1     7.149313392497635      -9.943990749725144E1    -1.647121261749678E2    -8.144744111319363E1     1.689889692402671E2
                        -6.490719020659219E1     8.087266425559704      -2.408811557002015E-1    1.002277832738900E2    -8.577025457249013E1     1.104169600923691E2    -8.617070982201904E1     1.537822627016464E2
                        -8.670688408578856E1     1.596410909363692E2    -7.924967448923981E1     1.523776244523479E1    -9.300211162010887E-1   -1.824630355606319E1    -8.729148861450155E1     1.005271352310571E2
                        -8.493387342592939E1     2.675568152093551E1    -8.300779710923752E1    -2.605221508356500E1    -7.985006680838748E1    -7.720671362216589E1    -9.026146211902457E-1   -1.542128765588971E1

 3.022500000000000E7    -2.845364217593887E-1    9.401007878016155E1    -6.466594956895079E1     5.014860187190894E-1   -8.472760761462897E1    -1.030514334714540E2    -8.095879701811668E1     7.133258022031886E1
                        -6.555860458898506E1     4.980763168453858      -2.406245257326862E-1    9.991053652789674E1    -9.528482697678260E1    -5.352432732685419E1    -8.282396127967576E1    -1.551338643437011E2
                        -8.624405654758078E1    -1.553120381273247      -8.313849657485447E1    -1.602809181925749E2    -9.353791171350663E-1   -1.854734484883189E1    -8.434865477974793E1    -1.118158282108809E2
                        -9.116872704266964E1     4.493540613290583E1    -8.310386422564164E1     7.481452684857933E1    -9.264455378942577E1    -6.313004342042182E1    -8.974187838672598E-1   -1.571408862465877E1

 3.025000000000000E7    -2.758846601921116E-1    9.371532920431370E1    -6.459865464055824E1     4.229054729076085      -8.299310277430490E1     5.805806370457305E1    -8.798942458847668E1    -9.342040103157387
                        -6.415341474010252E1     2.833785829198577      -2.552309083350423E-1    9.961761110383637E1    -8.464342598084198E1    -8.419572223882254E1    -8.190627814141143E1     9.717100702095374E1
                        -8.793765457365844E1     6.350503940370089E1    -8.509986832414013E1    -1.252062815560481E2    -9.289752029853704E-1   -1.884393977754998E1    -8.485712234166945E1    -9.326288727227433E1
                        -8.841028126165011E1    -1.064270601225966E2    -7.952827390039363E1    -8.832318073988641E1    -9.265679046848619E1    -1.449703411028874E2    -9.000063904007420E-1   -1.600618476545155E1

 3.027500000000000E7    -2.808709919836468E-1    9.334576397323991E1    -6.416402075187165E1     5.514825930070195      -9.314599302175105E1    -1.200512383361176E2    -8.640689840651743E1     5.357573803620741E1
                        -6.457228376002939E1     2.779630277045942      -2.374262098499801E-1    9.930448973756275E1    -8.385479899778117E1     3.790879593677867E1    -8.305839709034375E1    -6.711948587595653E1
                        -9.047267805768183E1     1.424574978604842E2    -9.539805264163692E1    -8.129753722501816E1    -9.326650935725462E-1   -1.918155282045777E1    -8.548530840873282E1     9.706642881529611E1
                        -9.056782706991341E1    -1.079010046264838E2    -8.199851518925075E1    -4.989885864836241E1    -8.464960221222945E1     5.390700879441657E1    -8.996546686149796E-1   -1.630067128046069E1

 3.030000000000000E7    -2.833415174787670E-1    9.302109430599107E1    -6.391093687739592E1     3.090984470126134      -8.401999897059099E1    -9.438000967521205E1    -8.801788251496049E1     9.363901900115012E1
                        -6.424692546304522E1     8.602332996116449      -2.480853807860007E-1    9.897404991557033E1    -8.607807702875108E1     6.718595883410137E1    -8.921277611957081E1    -2.492056038507406E1
                        -8.570390269093696E1    -1.248030158580432E2    -8.534194810839367E1    -1.653300170105961E2    -9.363825178892670E-1   -1.950625287304591E1    -9.395166459175107E1    -1.186659714432039E2
                        -9.048203878145627E1     7.747457656485848E1    -8.313146352331486E1    -5.685286801969866E1    -1.006882214726850E2     1.629584527468474E2    -8.987219632160949E-1   -1.661578840847554E1

 3.032500000000000E7    -2.792962293837726E-1    9.270301957974778E1    -6.463745725360244E1     3.067615848227098      -8.136390858412335E1    -1.569420522347289E2    -9.012145817638839E1     1.493607723104635E2
                        -6.430050749223157E1     2.167405898783076      -2.420787527798654E-1    9.862001995709684E1    -9.188095384042562E1     5.219205182126191E1    -8.566744472345286E1     9.601251716970786E1
                        -9.165828448292140E1    -1.042114569612952E2    -9.363699520638726E1     1.743333534393578E2    -9.411469245475695E-1   -1.981631460144898E1    -8.633047789156441E1     3.010487027811913E1
                        -8.125988988199404E1    -1.005612608980313E2    -8.657508826984893E1    -9.596709211501542E1    -8.543891480783493E1     7.625076804089989E1    -9.025735764392838E-1   -1.692709496175033E1

 3.035000000000000E7    -2.709579442501618E-1    9.237216168133013E1    -6.510880871042866E1     7.811122524187652      -9.036799883046118E1    -1.247194226971657E2    -8.434619066634922E1    -3.895329307494215E1
                        -6.327373901624355E1     7.073212006839951      -2.375818782780378E-1    9.832629609548948E1    -8.859130574613383E1    -1.532346592086005E2    -7.748006890539287E1    -1.575647203242340E2
                        -8.234686445837882E1     7.759797646246012E1    -8.933877078383709E1    -1.308249312524851E2    -9.333603064054231E-1   -2.011918787219932E1    -8.008115360079755E1     7.588616642937777E1
                        -9.251448071559331E1    -1.765168575892907E2    -9.373440318699440E1     5.941766875508598E1    -8.412190250419540E1     4.030923868840952E1    -9.004324129764920E-1   -1.721895395245750E1

 3.037500000000000E7    -2.733163456597469E-1    9.198267014820291E1    -6.416091200934329E1     1.488896724624048      -8.691431997911765E1    -3.224818713178712E1    -1.010090176889064E2     6.217007403714607
                        -6.511224114690232E1     3.148482989345494      -2.472767570479704E-1    9.802715819529122E1    -9.494971615325953E1     4.984523032454322E1    -8.813506973045578E1    -1.185819004289377E2
                        -8.234539381182459E1    -1.313239727773949E2    -8.652713652216649E1    -1.154726405653845E2    -9.323288745572572E-1   -2.039854941724824E1    -8.377571291804456E1    -1.631028900410952E2
                        -9.052379631079373E1     1.300739875109911E2    -9.054339093965015E1    -1.623276687831040E1    -8.814227604022264E1    -1.614158248454619E2    -8.987270647859346E-1   -1.749719565832173E1

 3.040000000000000E7    -2.732332942541274E-1    9.165881304728039E1    -6.440941951294886E1     4.548727799772729      -8.645213118108147E1     3.392910483408179E1    -8.719736283877958E1    -3.987484032408174E1
                        -6.490231153629124E1     4.092518881704042      -2.448526350363153E-1    9.767674431011133E1    -9.260997938966636E1     1.687226467612405E2    -8.525951643500406E1    -1.471663197134968E2
                        -8.282390166499673E1    -1.093348587482463E2    -8.164084023086632E1     1.319108294483359E2    -9.318227525676986E-1   -2.067220016790545E1    -8.229247763889214E1    -1.460275826317283E2
                        -9.622245292494910E1    -6.133381938004905E1    -8.849412209998506E1    -6.304999096769110E1    -9.252554506008369E1    -5.942230876218645E1    -9.005995238015312E-1   -1.782828567897653E1

 3.042500000000000E7    -2.734625327977158E-1    9.131901480526021E1    -6.475361307039569E1     4.031492734147699E-1   -8.174858356198413E1     4.156865203409939E1    -8.421580923830000E1    -1.691673343417280E2
                        -6.445637585978301E1     4.319765509254784      -2.433906690676509E-1    9.743546774574233E1    -8.321911915384085E1     1.125828530192700E2    -8.277020681636805E1    -4.888961689630733E1
                        -8.292062038274435E1    -1.200581568481023E2    -8.447649565961855E1    -1.011234663430887E2    -9.348626394474289E-1   -2.103116538919349E1    -8.587657393726703E1     9.570012559646125E1
                        -8.138397875723837E1     1.303842857728724E2    -8.378417184620162E1    -9.293557157768221E1    -8.272479668052334E1     7.808697270491767E1    -8.943991935717726E-1   -1.810566895891576E1

 3.045000000000000E7    -2.770865694425962E-1    9.098531465889101E1    -6.507563414138387E1     3.243753157660140      -8.044245729243804E1     1.227143425601314E2    -8.799342950089138E1     6.706261783741730
                        -6.358590400746711E1     6.810762025218390      -2.279282770658133E-1    9.707850185208872E1    -8.631802670488888E1    -2.588112734590239      -9.739704012998956E1    -1.362152837489345E2
                        -8.131093700923962E1    -1.683317926366022E2    -9.012319269846219E1    -1.238863227941492E2    -9.353939659055300E-1   -2.133347958509313E1    -1.022854750373659E2     8.601555500554127E1
                        -8.485079307310386E1    -5.054112193337928E1    -9.405018177188919E1     3.279449647727654E1    -8.433217093350207E1    -1.054400026369947E2    -9.027719614454017E-1   -1.837884378869526E1

 3.047500000000000E7    -2.737459956263194E-1    9.063613945392443E1    -6.543484139241714E1     5.459603327225982      -8.383495301774076E1    -2.223124391468428E1    -8.154769699408331E1    -7.606524186578893E1
                        -6.457130261411776E1     3.090683034520776      -2.362674048202454E-1    9.677973708931913E1    -8.078445275119621E1    -3.954798557225350      -8.464612744947829E1    -1.721902871440848E2
                        -8.151895669067906E1     5.088463820480744E1    -8.966583729751180E1     1.275460458063324E2    -9.303975563932820E-1   -2.163480372197110E1    -8.376091469276540E1     1.178402194228752E2
                        -8.625881042109799E1    -1.100326283326215E2    -8.343694399332102E1     1.256845242982418E2    -9.072714678349273E1     2.500367500950570E1    -9.028289824992211E-1   -1.870324762313616E1

 3.050000000000000E7    -2.747969668881563E-1    9.035216250725657E1    -6.335143008679459E1     5.252895548759493      -8.869089086300332E1     1.793053170155307E2    -8.616923239873503E1     4.209523396165344E1
                        -6.464536406554065E1    -4.847343258013939E-1   -2.385911436261452E-1    9.644676084242799E1    -8.893247101019571E1    -9.291588059171846E1    -9.196173270057612E1     2.560253815741317E1
                        -8.065111261472417E1    -1.229645246141418E2    -1.027805004603644E2     1.382482259266679E2    -9.322468869428419E-1   -2.196554865161851E1    -9.556972889809836E1     8.119445810808111E1
                        -8.914003356555143E1    -3.514559248650343E1    -8.524275386945192E1     9.444049324432659E1    -9.591397872338189E1    -1.822661430067456E1    -9.007474495961356E-1   -1.899204739431189E1

 3.052500000000000E7    -2.762963765258062E-1    8.999702574073211E1    -6.441023981399979E1     2.759795030579642      -9.543100067199455E1     1.786092087010626E2    -9.419874802458224E1     1.156419065118357E2
                        -6.437670148614886E1    -1.029071155665772      -2.386483384975737E-1    9.617254284383748E1    -8.524596359262915E1     1.135321058917395E2    -9.436454006304727E1     1.539110279582191E2
                        -8.594936320126108E1     4.605722470087552E1    -8.575168719892703E1    -1.083713237977043E2    -9.306642660538688E-1   -2.227078939127603E1    -8.750880620583135E1    -1.538801851228349E1
                        -8.196332916963108E1    -9.952009320239112      -9.269934655077151E1    -1.394828724808049E1    -8.140975318840872E1     1.123259946008935E2    -8.984157087389328E-1   -1.929672562854080E1

 3.055000000000000E7    -2.672957956764861E-1    8.964507241049890E1    -6.550516113442016E1     1.186691603058886      -8.984085643952157E1    -1.621136972067055E2    -8.258223262549583E1    -1.785973632333372E2
