#  HZ   S   DB   R     50.00 
! Rohde & Schwarz Vector Network Analyzer 
! Rohde-Schwarz,ZNB8-4Port,1311601044102961,2.82
! Created: UTC 2/13/2019, 11:53:12 AM
! freq[Hz]                db:S11                  ang:S11                 db:S12                  ang:S12                 db:S13                  ang:S13                 db:S14                  ang:S14
!                         db:S21                  ang:S21                 db:S22                  ang:S22                 db:S23                  ang:S23                 db:S24                  ang:S24
!                         db:S31                  ang:S31                 db:S32                  ang:S32                 db:S33                  ang:S33                 db:S34                  ang:S34
!                         db:S41                  ang:S41                 db:S42                  ang:S42                 db:S43                  ang:S43                 db:S44                  ang:S44
! 
 5.525000000000000E7    -4.539674484177186E-1    9.748404700567004E1    -3.227513001410763E1     7.308098028965532E1    -8.064379112983389E1    -8.577963958584185E1    -8.990184102494220E1    -6.984494965224991E1
                        -3.243887620896154E1     7.319309642065421E1    -5.899361271676725      -1.619408756173106E2    -7.431083644565172E1    -2.202068865948343E1    -6.769165054149370E1    -1.710535963162953E2
                        -8.941220812813927E1     1.373046417550783E2    -7.364288974005081E1    -3.968242017837506E1    -1.408964363153558       2.473797297822668E1    -8.737501262962964E1    -1.606423522819121E2
                        -8.240794054253678E1     6.031215978714476E1    -6.663927380527723E1    -1.676464880951525E2    -8.553346257839985E1    -4.710183665506950E1    -1.432855512934232       3.123824585401081E1

 5.525025000000000E7    -4.595705625125690E-1    9.743704630349838E1    -3.242498287419202E1     7.309619938376657E1    -8.601921653549654E1     1.288331500287054E2    -9.191179396818328E1    -1.177697188645714E2
                        -3.249212398939841E1     7.302119293751481E1    -5.904298001955958      -1.620232861949356E2    -7.718932149786564E1    -2.959397202544717E1    -6.792930972605230E1    -1.714367647491071E2
                        -7.954146334951902E1     1.689454830893074E2    -7.423535854460836E1    -3.216368211514222E1    -1.408053898337810       2.473668970630006E1    -8.872363712701358E1    -1.116479413101755E2
                        -8.642947439919300E1     2.284873659860979E1    -6.768403679186460E1    -1.772064076030893E2    -8.328979568462090E1    -8.192645954683103E1    -1.432047558422750       3.128569244771301E1

 5.525050000000000E7    -4.525955129533501E-1    9.746083706207226E1    -3.235645489628099E1     7.340534819549396E1    -8.840629043213838E1    -1.703995635769654E2    -9.593674449783526E1     3.396313930923883E1
                        -3.233308264445988E1     7.288588366226226E1    -5.897713223177061      -1.620451017710456E2    -7.461716245668457E1    -1.938148226026283E1    -6.766871487602109E1    -1.727120173821050E2
                        -8.777031647538907E1     4.712767102134171      -7.223851656452462E1    -1.385356444243563E1    -1.412767352202543       2.474317470303237E1    -8.829123952109939E1     9.851027853181354E1
                        -8.218209611267264E1    -6.719454158861090      -6.813928616658923E1    -1.766074830466527E2    -1.067227413168326E2     1.328450515260950E2    -1.434147412156229       3.126957066383745E1

 5.525075000000000E7    -4.566691404534375E-1    9.746572689500185E1    -3.239426882819144E1     7.325271741346684E1    -8.197443272153804E1    -1.399130560164581E2    -8.256660434082022E1    -1.242248691393598E2
                        -3.253715030801074E1     7.363929133343908E1    -5.911172970187857      -1.620690732811331E2    -7.252708867069954E1    -4.552245761603967E1    -6.747289787987170E1    -1.770953910578588E2
                        -9.432035284020593E1    -1.732477409929013E2    -7.337507394742411E1    -3.091855634375858E1    -1.406513208690452       2.474317525516889E1    -8.459958780324597E1    -1.349880965550931E2
                        -8.726009714647250E1     1.549803625334540E2    -6.738441984944925E1    -1.676343960211351E2    -9.185953490468016E1    -1.039571143539418E2    -1.434118808698756       3.124121608667742E1

 5.525100000000000E7    -4.524849265608919E-1    9.744497816434439E1    -3.249592793592448E1     7.347726438652988E1    -9.142513147733361E1    -9.360968496507567E1    -8.961768455289362E1     1.281805203757905E2
                        -3.241412770365051E1     7.346208152981609E1    -5.914058524824474      -1.621275574042022E2    -7.262295913021143E1    -3.541398058116547E1    -6.719068319559409E1     1.765575642237184E2
                        -8.667255999563979E1     3.744329111422404E1    -7.194578653365761E1    -1.930398121570672E1    -1.407324329033374       2.474133478619711E1    -8.450656983489537E1     3.276799326930404E1
                        -9.286849957387487E1    -1.528350148831771E1    -6.755695030057035E1    -1.757757700422040E2    -8.883995426720003E1    -1.766217828280939E2    -1.428194226759225       3.124539858917639E1

 5.525125000000000E7    -4.531512844760962E-1    9.744113602746769E1    -3.248916100076158E1     7.387393803665901E1    -9.054362018753388E1    -1.350502714300350E2    -8.172273759620592E1    -1.241467860933868E2
                        -3.246092935129540E1     7.356459923707295E1    -5.921127913989109      -1.621491912236327E2    -7.235907404490716E1    -1.882967652976362E1    -6.634727794292888E1    -1.740834540893526E2
                        -8.508737417370253E1    -4.604806675941223E1    -7.222855618121686E1    -2.662878929408522E1    -1.408964164118524       2.474620453458756E1    -8.741959177508841E1    -1.342920776549153E2
                        -7.925961264814995E1     1.205152146217661E2    -6.717567132477069E1    -1.783094805719750E2    -8.829979412502962E1    -3.595095883801635      -1.431417196243433       3.122940810349050E1

 5.525150000000000E7    -4.575428929062880E-1    9.743217659652615E1    -3.243378953593926E1     7.345636587649310E1    -7.921644859511085E1    -7.584405649052256E1    -8.362937303735806E1     2.917932843641493E1
                        -3.259781525164842E1     7.336762127425206E1    -5.923608329630764      -1.622297991822589E2    -7.480217194759212E1    -1.659718885532932E1    -6.793592828459362E1    -1.725914013119895E2
                        -9.358837086576345E1     1.089464571622568E2    -7.426946641325370E1    -3.475957232469100E1    -1.410980967490749       2.473923228315208E1    -8.132499809776193E1    -1.580882296041439E2
                        -8.596471631434505E1    -2.160071404724861      -6.705182633595379E1    -1.779976376245765E2    -8.408642324679528E1     1.498022532497595E2    -1.430971486284971       3.126035321713401E1

 5.525175000000000E7    -4.531392401440212E-1    9.745255058777099E1    -3.235700207093737E1     7.419733017664551E1    -7.859220587950117E1     1.290931495111781E2    -9.008268484738716E1    -8.093479612593453E1
                        -3.247286961897728E1     7.344006274010597E1    -5.935558016382407      -1.622725559138754E2    -7.314538116507566E1    -3.027495151352019E1    -6.786808866438176E1    -1.732674648009179E2
                        -9.121136011896871E1     2.310035173303491E1    -7.360090905098338E1    -3.782821732099225E1    -1.408550953041243       2.473941946296824E1    -8.103082380154510E1     6.810243171457152E1
                        -8.591314719764310E1    -5.831107657705826E1    -6.727015829128470E1    -1.778497596659178E2    -8.634202902102993E1     3.873425463582687      -1.429888859414763       3.122386080308223E1

 5.525200000000000E7    -4.532769339582807E-1    9.741636545195014E1    -3.243914510641374E1     7.374895233411304E1    -8.144782661110243E1    -1.059135258201010E1    -8.191669317915893E1    -7.663120117205411E1
                        -3.238675024205144E1     7.329098403039122E1    -5.942409083170659      -1.622681781117456E2    -7.423340510677919E1    -3.164591810648870E1    -6.741393655810632E1     1.797797401986228E2
                        -8.587777130085671E1     1.498934362629899E2    -7.515429331587301E1    -1.741464539554938E1    -1.407056193215689       2.472007195198490E1    -9.917706632093353E1    -8.888501964742117E-1
                        -9.018864246565434E1     5.251596120744937E1    -6.594895276580209E1    -1.730739752250469E2    -9.055196081596749E1    -1.358578929680862E2    -1.428392399805302       3.123640182904414E1

 5.525225000000000E7    -4.523296860349932E-1    9.740254322876943E1    -3.239535184118428E1     7.392391127336273E1    -8.245028892104585E1     1.757692409778772E2    -8.601506265608612E1    -2.215603038924190E1
                        -3.231817135665384E1     7.268643690361391E1    -5.942356765776190      -1.623415642333549E2    -7.421209676687150E1    -4.236320478481215E1    -6.685787685326298E1    -1.789786410463699E2
                        -9.072251922488512E1     5.292335125261702E1    -7.569406900278524E1    -3.240161245470285E1    -1.411678115152265       2.474212847908709E1    -9.246754229045672E1     1.188062438179574E2
                        -9.554541056266791E1     5.763607800319530E1    -6.740543649853632E1    -1.659520892212678E2    -9.650445438767945E1     1.440143926117746E2    -1.429071769761893       3.122799527850827E1

 5.525250000000000E7    -4.532637361626027E-1    9.739424866958075E1    -3.238896931477290E1     7.295056043158239E1    -8.563206002839264E1    -1.620310178524666E2    -8.679111081501381E1    -9.257914947212684E1
                        -3.253587741338711E1     7.340714771912879E1    -5.949137980275168      -1.623394325135674E2    -7.433456354537357E1    -2.243242782332036E1    -6.812240152784487E1    -1.714617052164007E2
                        -8.979680668020819E1    -1.765386843831611E2    -7.617023563890035E1    -2.593976160916305E1    -1.407036875076298       2.471968534653324E1    -8.883170431328912E1    -1.301011837482781E1
                        -1.027325299055397E2    -1.035187469170699E1    -6.801520078520557E1    -1.651364735085231E2    -8.447819876805758E1     2.377949581362174E1    -1.428698791396715       3.121886749894560E1

 5.525275000000000E7    -4.537004846980285E-1    9.741695203395793E1    -3.244241449725215E1     7.345115633337245E1    -8.612887962591535E1     1.002407317538678E2    -8.323665730358488E1     8.626949400985282
                        -3.243712932673190E1     7.352105068575878E1    -5.957569397171689      -1.624046764824373E2    -7.426997095910350E1    -3.343577330846089E1    -6.771051350826879E1    -1.748526919475077E2
                        -9.673854071317300E1     9.863433253605759E1    -7.416978556226077E1    -3.294974582791219E1    -1.411318385147285       2.470778560916536E1    -8.910573420578933E1     1.602696185828912E2
                        -8.196846524113033E1    -6.873430452505468E1    -6.777063607003028E1    -1.702796016720664E2    -8.483552169346748E1     7.166977530067358E1    -1.431091976298400       3.120049308093061E1

 5.525300000000000E7    -4.561870302234383E-1    9.739670881453726E1    -3.251475521321192E1     7.326205503943926E1    -8.864366711399487E1    -1.409452948312466E2    -8.601533538112322E1     1.738794644076609E2
                        -3.244439020148317E1     7.346773231797688E1    -5.963974647827387      -1.624169518455590E2    -7.352627039680866E1    -2.339912008688745E1    -6.722176940042687E1     1.791750165353854E2
                        -8.611892883157515E1     1.406069330209779E2    -7.296440411473381E1    -1.378590636594871E1    -1.407316782030038       2.472382514102783E1    -8.287098550422441E1     1.037066795927704E2
                        -7.981294997626952E1    -2.345085389606599E1    -6.777890632560981E1    -1.735903008765578E2    -8.432337004582507E1    -1.606192362753952E2    -1.426268596738802       3.122425127063042E1

 5.525325000000000E7    -4.572373462633167E-1    9.739543655183476E1    -3.246623379754549E1     7.355250314785349E1    -8.488916318646518E1    -4.576806733760315E1    -9.268004071477338E1    -7.415876834750705E1
                        -3.247515880967617E1     7.340316983481888E1    -5.969709970726768      -1.625246463805699E2    -7.481389363000390E1    -3.117038978794134E1    -6.742201216423688E1    -1.662654517793102E2
                        -9.181208979212535E1    -9.548910283020165E1    -7.285717553201025E1    -1.874458627249301E1    -1.413320899391493       2.472670041305927E1    -1.035457006235472E2    -9.070878487357993E1
                        -9.240882344677570E1     9.501903292031810E1    -6.745134319070637E1    -1.791427912294352E2    -8.555260387542401E1     6.970309937593710E1    -1.427493916672670       3.121042384519228E1

 5.525350000000000E7    -4.503977158216365E-1    9.741020140113052E1    -3.252369946004284E1     7.362330419786373E1    -8.057203409000856E1    -5.162989273679590E1    -8.631895099906602E1     1.392267770242186E2
                        -3.250106532059721E1     7.328458187030775E1    -5.978093294207878      -1.625139522819370E2    -7.427104167330226E1    -4.615511533678023E1    -6.725375868402078E1    -1.743648008764800E2
                        -8.192945940598429E1    -1.733611829743891E2    -7.156070871132789E1    -2.961348710340713E1    -1.410873817976543       2.470965598349121E1    -8.848551829243965E1    -1.198242369009478E2
                        -8.568401562997836E1    -6.064736987143056E1    -6.756583218198739E1    -1.760573981836384E2    -8.766441054630862E1     1.673229628263734E2    -1.429730982723085       3.123307397396314E1

 5.525375000000000E7    -4.545253948933959E-1    9.735319616674123E1    -3.239124233451594E1     7.308695446044135E1    -8.925632996851709E1    -9.704315312207764E1    -9.296375927078758E1     7.965345147638268E-1
                        -3.252474844217706E1     7.324506999320624E1    -5.979115070047577      -1.625685053095298E2    -7.232706998745421E1    -1.744627496029479E1    -6.640104126202533E1    -1.708845564537453E2
                        -8.334869599881449E1    -8.317872130763685E1    -7.200508813097849E1    -2.458768064478957E1    -1.407364696720183       2.471967053844890E1    -8.412233927726251E1    -1.523868204534297E2
                        -8.187964440295458E1    -9.289438529169627E1    -6.750350407785356E1    -1.784806768720372E2    -8.292864701118974E1     1.479132923459555E2    -1.428886251324360       3.121328965947961E1

 5.525400000000000E7    -4.557005883241174E-1    9.739588686682130E1    -3.244068369991038E1     7.336939283362166E1    -8.498601192097505E1    -4.674763732562532E1    -8.055617736456955E1    -1.661464270208974E2
                        -3.248251837524408E1     7.309295259889986E1    -5.983333122625520      -1.626841115421113E2    -7.350759512633445E1    -3.587527945979649E1    -6.686028689452803E1    -1.764282238266141E2
                        -8.158887161875316E1     4.287515597940659E1    -7.305793971781765E1    -2.104104192335264E1    -1.412550380216752       2.469874245851659E1    -9.038313583603419E1    -1.160327642048108E2
                        -9.697248639264356E1    -1.032447381874797E2    -6.638013017070502E1    -1.768389905346071E2    -8.577081719779235E1     1.414534781990251E2    -1.431687539161017       3.122634603332422E1

 5.525425000000000E7    -4.528751698043607E-1    9.737907714764945E1    -3.246405268808900E1     7.348399540803342E1    -8.371320948700161E1    -8.863338728404720      -8.913164411426632E1    -3.510880609925715E1
                        -3.245949163674609E1     7.255444880213129E1    -5.993929051790357      -1.626712635518794E2    -7.258134621844759E1    -3.119880661475804E1    -6.852961035157792E1    -1.739561258142040E2
                        -8.328628266085121E1    -1.255259826681404E2    -7.418902144070351E1    -5.362066183434206E1    -1.406892737107766       2.467990178358564E1    -8.521934159738287E1     5.175130534644051E1
                        -8.367488139032594E1    -9.516987856734593E1    -6.662791279871779E1    -1.703706612401061E2    -8.233496305349661E1     9.007041679246979E1    -1.428750748958455       3.121450388488865E1

 5.525450000000000E7    -4.540451322706388E-1    9.738313855699688E1    -3.245198728798064E1     7.325040348238343E1    -8.387480006802434E1     6.598288362185734E1    -8.739004377660960E1     7.191689772359393E1
                        -3.239952175640732E1     7.322276827840629E1    -6.003748243144626      -1.627566450957936E2    -7.334219227770456E1    -1.548263108918445E1    -6.752217318653922E1    -1.780750737619912E2
                        -8.724842546803821E1    -1.408204501183821E2    -7.394640357188311E1    -2.539653848773154E1    -1.408066603566602       2.470653238953992E1    -8.750090253592191E1     1.274536941980629E2
                        -8.652645550352432E1     1.043058484549082E2    -6.766667443603959E1     1.793465714745744E2    -9.006957074851314E1     1.117716696997672E2    -1.428989450111800       3.120409845893155E1

 5.525475000000000E7    -4.492393586782237E-1    9.734422422563118E1    -3.246920346703293E1     7.354524072212635E1    -9.154811868751516E1    -4.807552100920548E1    -8.234626429880727E1    -8.692275687766305E1
                        -3.245144304589760E1     7.364723908854258E1    -5.996410538562481      -1.627682137923725E2    -7.198000053994734E1    -3.465845070981569E1    -6.728726354708736E1    -1.799314233758638E2
                        -9.248299094152293E1    -9.932724422042685E1    -7.165843388814506E1    -3.202998095284825E1    -1.407962780086320       2.472220387625678E1    -8.593305331559691E1    -1.428263020438972E2
                        -8.552233953120813E1     9.924145969660465E1    -6.962455487960295E1    -1.693617725332884E2    -9.270363356819351E1    -1.544465349679739E2    -1.428446774566931       3.119859334644181E1

 5.525500000000000E7    -4.497964823868881E-1    9.740132958763984E1    -3.246393243029502E1     7.345289641204374E1    -8.461325790369229E1     1.240959780050844E2    -8.155451369607192E1     4.895906788804712E1
                        -3.250232327143860E1     7.384291952030597E1    -6.007578593153146      -1.627902435026564E2    -7.304023082245310E1    -4.081610416447049E1    -6.835649707362121E1    -1.757063876090060E2
                        -8.670741888451836E1     8.543707107374652E1    -7.396240191474627E1    -3.243358060114782E1    -1.407580298628192       2.467683381388386E1    -8.628211729284442E1     1.542289136818329E2
                        -8.840771650326664E1    -9.104072099275423E1    -6.777963664289891E1    -1.759617048641422E2    -9.188824590578355E1     6.590540298461281E1    -1.430469990744426       3.118944054773881E1

 5.525525000000000E7    -4.560685920319327E-1    9.737364865273395E1    -3.245662790845430E1     7.337417502339571E1    -8.018129031446435E1     9.528823490601137E1    -8.664327869552095E1    -1.459652811874478E1
                        -3.238082096417754E1     7.381742660923136E1    -6.013744231280982      -1.627841563678729E2    -7.244727860621606E1    -3.174986762819106E1    -6.709737762322372E1    -1.754663221092249E2
                        -8.895937708093406E1     1.082137180900019E2    -7.292284930224624E1    -2.410937191034908E1    -1.407820151243397       2.469722997352792E1    -7.961438465782807E1    -1.296598248274413E2
                        -8.270401932267666E1     6.027458399716937E1    -6.813465252080418E1    -1.761505614649628E2    -9.303988603449695E1    -1.738200886994759E1    -1.428431679296181       3.118694441733524E1

 5.525550000000000E7    -4.513489873213610E-1    9.735891462331428E1    -3.247935410492752E1     7.332521604913686E1    -8.374207612732867E1     7.450794115466043E1    -9.053074002564023E1     6.201140981726403E1
