#  HZ   S   DB   R     50.00 
! Rohde & Schwarz Vector Network Analyzer 
! Rohde-Schwarz,ZNB8-4Port,1311601044102961,2.82
! Created: UTC 2/13/2019, 1:39:26 PM
! freq[Hz]                db:S11                  ang:S11                 db:S12                  ang:S12                 db:S13                  ang:S13                 db:S14                  ang:S14
!                         db:S21                  ang:S21                 db:S22                  ang:S22                 db:S23                  ang:S23                 db:S24                  ang:S24
!                         db:S31                  ang:S31                 db:S32                  ang:S32                 db:S33                  ang:S33                 db:S34                  ang:S34
!                         db:S41                  ang:S41                 db:S42                  ang:S42                 db:S43                  ang:S43                 db:S44                  ang:S44
! 
 5.525000000000000E7    -4.287034454221966E-1    9.747627570814777E1    -3.116194110787327E1     7.066273927719288E1    -9.004284879274502E1     3.256350049266605E1    -9.043818749724801E1    -1.626869980623237E2
                        -3.119715629370454E1     7.093546293211379E1    -2.778924262868309      -1.458978450771807E2    -7.535857209007877E1    -1.486260115445492      -6.651363609380921E1    -1.608088344558685E2
                        -9.167930683955063E1    -1.234636303630960E2    -7.618345352000441E1     1.901971023517320E1    -1.414554039034046       2.471155594894308E1    -8.209954933653049E1    -3.735627838234131E1
                        -8.857410005952559E1     1.446510550898720E2    -6.687706394198020E1    -1.614085823146156E2    -8.484900386892855E1     1.422139599637701E2    -1.433453484220532       3.120682366259744E1

 5.525025000000000E7    -4.317420317529096E-1    9.750006926700807E1    -3.109293419930772E1     7.048071406658936E1    -9.930542055437108E1     1.201822625991087E2    -8.385973196219224E1     1.183123179958874E2
                        -3.119015005273059E1     7.084149572209211E1    -2.779910988359102      -1.459834170459656E2    -7.509359860642346E1     1.179633706407008      -6.730696623924568E1    -1.585261420439185E2
                        -8.192493522035753E1    -1.590777151511429E2    -7.613654815369117E1    -3.066436137170692E1    -1.415052738609381       2.471140878708295E1    -9.426390126288735E1    -9.859350595802617E1
                        -8.975927451316667E1    -1.241954440127613E2    -6.671935354795167E1    -1.489958036714824E2    -8.536029041683523E1     3.165520069456667E1    -1.431953150984376       3.119758802939365E1

 5.525050000000000E7    -4.319023171781805E-1    9.746216561387432E1    -3.118012429461881E1     7.067950664120484E1    -8.745197952103300E1    -1.583929561568121E1    -9.100900579182125E1     4.364586119750982E1
                        -3.121231856762903E1     7.069752720832817E1    -2.782365961795834      -1.459887709340606E2    -7.479759918649060E1    -2.010949033106771E1    -6.684991197996128E1    -1.538907140768987E2
                        -9.078516331118911E1     1.120295651074637E2    -7.391503167808091E1    -1.867294940969070E1    -1.412918411649292       2.469173393714275E1    -8.491308879678947E1     4.817306037556209
                        -9.846168759840819E1     3.843032369374824E1    -6.689216481547052E1    -1.585387806609207E2    -8.481224164520742E1    -1.014443181258739E2    -1.431486262707669       3.119829745827604E1

 5.525075000000000E7    -4.269256405363705E-1    9.746108330928206E1    -3.113761975097841E1     7.029674896122214E1    -9.701845652500387E1     1.394844470910852E2    -8.369341304859900E1    -6.854581222281011E1
                        -3.117363957561888E1     7.011141829589313E1    -2.786307431216204      -1.460510272101478E2    -7.720223187341438E1    -5.994314107579074      -6.683235122862266E1    -1.642310605031103E2
                        -8.416609760756769E1     4.395288351517661E1    -7.608141767716273E1    -1.395063793341464E1    -1.411923028292614       2.468421251630140E1    -8.972987437581841E1    -1.265555210557553E2
                        -7.885998614974214E1     1.261152572395252E2    -6.740208032407632E1    -1.607141096258144E2    -8.796743699562708E1     9.697368626401520E1    -1.436757845993575       3.119317370921138E1

 5.525100000000000E7    -4.236545268778469E-1    9.748195573220859E1    -3.118079280647834E1     7.021951363075549E1    -8.889717225172240E1    -1.062909948002429E2    -8.561915659460249E1    -1.678276415709721E2
                        -3.118764026747081E1     6.996932351676782E1    -2.790968296241070      -1.461221124596248E2    -7.543285823617006E1    -2.342087807758183E1    -6.704984850279926E1    -1.672463799116246E2
                        -9.420095771595221E1     1.162209735447171E2    -7.234453554474784E1    -8.180442575859789      -1.412930922349971       2.468354362104426E1    -9.657543924070694E1     2.081060128011701E1
                        -9.887391961866337E1     8.786673383087738E1    -6.692794297578902E1    -1.636277230481951E2    -8.318564614693307E1    -5.735927079345954E1    -1.429064738048597       3.120420202001707E1

 5.525125000000000E7    -4.312948508780803E-1    9.747549949455461E1    -3.114127889547753E1     7.031536216407056E1    -1.032402850937782E2    -4.854674101863914      -9.080452330845861E1     5.786411958102479E1
                        -3.114217309641496E1     7.018075654777222E1    -2.793095775498831      -1.461281987892159E2    -7.640534927853759E1     7.703075055016167      -6.702782239810185E1    -1.651436288147947E2
                        -8.064840842179680E1    -1.438153336927823E2    -7.848318420408482E1     9.981400307775974      -1.412580335421853       2.468890016582103E1    -8.464767417729219E1     1.438629762242991E2
                        -8.443330783097099E1     2.121475860351550E1    -6.686858717355352E1    -1.595455718181878E2    -8.318400045249896E1    -9.958608676056306E1    -1.432866529823853       3.121782315620980E1

 5.525150000000000E7    -4.326695822181604E-1    9.746639853018796E1    -3.112659289449344E1     7.053200082444181E1    -9.156459453807798E1     3.301166320451641E1    -8.315011081160563E1    -1.720330255689732E2
                        -3.119981382392482E1     7.129547501768941E1    -2.796135290569692      -1.461929727961408E2    -7.833970814297761E1    -2.229404055882680      -6.549208098135949E1    -1.566474076362853E2
                        -8.448358230142561E1     1.115463643984959E2    -7.351431461763406E1    -2.372982660039901E1    -1.411763818467721       2.466950858829684E1    -9.713570322122396E1     6.269307530510184
                        -8.592485975882116E1    -5.366639200093237E1    -6.603117563639647E1    -1.529703745873268E2    -9.232396142633607E1     1.461253615705300E2    -1.429837642879801       3.121682463825004E1

 5.525175000000000E7    -4.241661566242096E-1    9.745148483443003E1    -3.112696189009516E1     7.046727433142463E1    -8.637480882056225E1    -1.361244285297631E2    -8.578468967983764E1    -1.497953040170143E2
                        -3.118526590931316E1     7.054154262224976E1    -2.798977423066616      -1.462511774061716E2    -7.275781671226653E1    -3.085181723358506      -6.621870431023864E1    -1.563484025322688E2
                        -8.454202983388910E1     1.702512916581443E2    -7.492878693023008E1    -1.076266392907972E1    -1.414530356996856       2.464367988916744E1    -9.044388500231163E1     3.918397354436998
                        -8.421354061032723E1    -1.455818312398692E2    -6.620182297611561E1    -1.609538943207799E2    -8.390528010707344E1    -1.595977745485359E2    -1.430399735689771       3.117210109308183E1

 5.525200000000000E7    -4.308423903179703E-1    9.741831576320621E1    -3.117248609673604E1     7.038378205640086E1    -8.452995875128673E1     6.546521732623876      -8.226004147154296E1    -1.123486995048949E2
                        -3.129330740680519E1     7.038529082217342E1    -2.806303672944200      -1.462753111376475E2    -7.527876956409259E1    -1.358440446466326E1    -6.593730906183727E1    -1.609884295787171E2
                        -9.007802326569868E1    -5.555661105871577E1    -7.292918670315247E1    -1.414699109948346E1    -1.411987908421043       2.468502762067276E1    -8.737274559206131E1    -4.226990242486354E1
                        -8.384624111356570E1     5.399691794055976E1    -6.718466854261351E1    -1.630867108825759E2    -8.347304283656189E1    -1.076891574249292E2    -1.428686450060515       3.120002477354638E1

 5.525225000000000E7    -4.231056598991813E-1    9.742057608325494E1    -3.121379122945098E1     7.068519984001995E1    -8.935859180418279E1     1.606498003797605E2    -8.538890434652421E1     8.392048719720435E1
                        -3.115170493718097E1     7.028550543195604E1    -2.807218478782945      -1.462817424713968E2    -7.766410837799629E1    -4.381400033396898E1    -6.627017694679327E1    -1.665104345970802E2
                        -8.684820699924214E1     1.489697407288211E2    -7.439989628526625E1    -9.668539232381576      -1.413355076594687       2.468365777153256E1    -8.568190865973484E1    -3.383992987485933E1
                        -8.418195286970935E1     8.659754797273550E1    -6.599891066460090E1    -1.694631119617131E2    -9.477452975230706E1    -4.117570322350304E1    -1.429150336493466       3.116319794468078E1

 5.525250000000000E7    -4.288973504836514E-1    9.741054371459727E1    -3.115179313662480E1     7.073262218446391E1    -8.266397489680003E1     5.868841225870041E1    -9.056541685712944E1     2.076329541933824E1
                        -3.109624048803653E1     7.105432481522706E1    -2.808569149247871      -1.463702601346587E2    -7.626387727479964E1    -1.864460069533684      -6.639971644104936E1    -1.605362491862605E2
                        -8.031419619941605E1     8.759526104487179E1    -7.502818417180846E1    -4.637379689980153E-1   -1.406948046594104       2.465673287560108E1    -9.018911356030840E1     1.352267913555629E2
                        -8.764994719280654E1    -1.924662276148801E1    -6.829740568977204E1    -1.641171178316280E2    -8.369209764960158E1    -1.338039432703301E2    -1.431450479855344       3.116007258514138E1

 5.525275000000000E7    -4.290581343980593E-1    9.744351118078322E1    -3.120771363750552E1     7.006056665017951E1    -8.697887668601541E1    -1.683170057056702E2    -9.007025910540057E1     9.542262604297997E1
                        -3.119017240883698E1     7.044640482503075E1    -2.812615052443374      -1.463747718103642E2    -7.666639643440620E1     1.551316305443168      -6.663454933662337E1    -1.609171797838597E2
                        -8.569730925783198E1    -4.065573372188131      -7.537205609050838E1     1.311617963253151      -1.414538588666330       2.466648114203972E1    -9.261955224267965E1    -5.436453117710222E1
                        -8.486623457830478E1    -1.359421708836902E2    -6.683766021951686E1    -1.666814900440095E2    -9.950706468590298E1     3.267324020618325E1    -1.433737537936353       3.119009426485152E1

 5.525300000000000E7    -4.300124543099725E-1    9.742745452075131E1    -3.114083445200418E1     7.059541106672104E1    -9.101151619669780E1     1.764895676076512E2    -8.987660493950682E1     1.547747000365459E2
                        -3.126890250327157E1     7.055972169232240E1    -2.821176518150268      -1.464562484058327E2    -7.539936673279657E1     8.697124381141027      -6.800108219213945E1    -1.577584938467507E2
                        -9.500486371304910E1     2.265062350474733E1    -7.919795138666645E1     7.751481488446721E-2   -1.412278703893889       2.463566583303426E1    -8.146680985699732E1     1.498277922912178E2
                        -9.014114940000398E1    -9.553058540294580E1    -6.716761074340215E1    -1.612372131301284E2    -9.437467027187523E1    -1.784271319435234E2    -1.433281926722417       3.115546524454737E1

 5.525325000000000E7    -4.260298787476192E-1    9.742299919537773E1    -3.129541199193294E1     7.056060055304151E1    -1.006949146801516E2     9.223548486600907E1    -9.140483340857668E1     1.413459286975738E2
                        -3.129022312667339E1     7.056904576397770E1    -2.821541513806238      -1.464897710270328E2    -7.416417535770796E1    -8.913760297110596      -6.598212561709022E1    -1.622136552120914E2
                        -8.943755023193251E1    -1.363310721908507E2    -7.571347449433581E1    -1.102593501750832      -1.407088289408804       2.463491205904871E1    -9.146487186960673E1     1.276205749427937E2
                        -9.307729777321146E1     1.746658866967778E2    -6.685979028497999E1    -1.632616966056250E2    -1.010059962183402E2     6.247832935199347E1    -1.436153401141830       3.116915818939424E1

 5.525350000000000E7    -4.253542687964578E-1    9.742979326257624E1    -3.114480858262219E1     7.063198203724238E1    -8.949078736245906E1     7.401085624696907E1    -8.307621662854797E1     1.006848849188617E2
                        -3.124111226304223E1     7.002805953461746E1    -2.825524184011978      -1.465284751923137E2    -7.703844593997621E1    -1.705163567558384E1    -6.637830917577819E1    -1.583302530149466E2
                        -8.628685808666420E1    -1.552422703290821E1    -7.417888310637670E1    -2.658705531807233E1    -1.410988819399255       2.464437663590425E1    -8.688589669724829E1     1.194673717808956E1
                        -9.604056745198523E1     3.278640333004307E1    -6.728593514521219E1    -1.550593413570546E2    -8.656785589988070E1    -5.209739785014172E1    -1.433203101996314       3.115179135528415E1

 5.525375000000000E7    -4.262934596445764E-1    9.741213935756011E1    -3.123325164668585E1     7.044557137687576E1    -9.385216488926588E1    -1.851441202659172E1    -9.725840515276344E1    -3.687914426137182E1
                        -3.115254387276920E1     7.088876592431933E1    -2.830340091776302      -1.465523458246514E2    -7.398500450887839E1     5.913589564962607      -6.685425924016380E1    -1.588976034234933E2
                        -8.227390442383340E1    -1.057803583317301E2    -7.415970448361678E1    -2.075381814584110E1    -1.407875128140857       2.468499789039139E1    -8.816679112869613E1     1.132602357851447E2
                        -8.664876597008333E1    -1.174433294954137E2    -6.750191630569267E1    -1.596875608256233E2    -8.710656540415599E1     9.580184654403479E1    -1.434041542253576       3.116124903394758E1

 5.525400000000000E7    -4.231272101216724E-1    9.740124850310734E1    -3.116801080967443E1     7.024976211976733E1    -8.283201533135568E1     1.038430599548148E2    -8.254461228676834E1    -6.978056035485778E1
                        -3.128776135512909E1     6.951934440592997E1    -2.833482085447995      -1.465754451924273E2    -7.486610011479209E1    -5.035927031201845      -6.725568989824677E1    -1.661269741110148E2
                        -8.237242684475518E1     1.454314998765107E2    -7.237280441253698E1    -7.165378962147281      -1.409340782210449       2.465859704923266E1    -8.510064545838904E1     1.635278869679177E2
                        -9.417359960705244E1    -1.521107043317057E2    -6.640501468851102E1    -1.558198667070751E2    -8.999114233524942E1     2.967337542949514E1    -1.433291170894628       3.115375397079243E1

 5.525425000000000E7    -4.295702856926422E-1    9.741875532765805E1    -3.120741839499929E1     7.021671085561896E1    -1.074477878143159E2     1.261528270279226E2    -9.954008053611618E1    -2.143738468329256E1
                        -3.116970750632252E1     7.053289109424473E1    -2.832627650119415      -1.466386860082254E2    -7.385392519786979E1    -1.073630210581803      -6.627276985660406E1    -1.533222923661215E2
                        -9.300976682454865E1    -1.631602198084412E2    -7.383820684932837E1     3.021385688129076      -1.415482154546764       2.466919773256687E1    -9.379064283756854E1    -1.412993260876435E2
                        -8.813282347546398E1     5.222930203855910E1    -6.644058889683612E1    -1.657775396778027E2    -8.415972461057220E1     1.299576626764234E2    -1.435644296467409       3.114682599977120E1

 5.525450000000000E7    -4.245305858691901E-1    9.738601094805900E1    -3.122682405877154E1     7.023268702619241E1    -7.819882027156500E1     1.418340233739238E2    -9.506913815125152E1     1.402170697242462E2
                        -3.114997461665359E1     7.059412217217631E1    -2.830426327366233      -1.466649749092022E2    -7.331563272663378E1     3.988293222980583      -6.662138937924108E1    -1.641640922712010E2
                        -8.570020629836272E1     1.288456032881474E2    -7.441782539503149E1    -8.496481254161910      -1.407837129424831       2.463212035052706E1    -8.527952349626827E1     9.876870180306657
                        -8.520817846593951E1    -4.354940589297505E1    -6.602621167952522E1    -1.601100062636719E2    -9.063133151774201E1     2.064806831681887E1    -1.432442911773523       3.112754944148919E1

 5.525475000000000E7    -4.289433018920960E-1    9.738760159392761E1    -3.117605028573164E1     7.063626958776506E1    -9.322011394507194E1     3.449232621158039E1    -9.139286285294119E1    -4.075650180248378E1
                        -3.118446977546743E1     7.018738715985396E1    -2.840702557910784      -1.467395919739532E2    -7.517331410525733E1    -2.650105211220395E1    -6.701817826584006E1    -1.654745803225491E2
                        -8.556082143538305E1     7.586517185344412E1    -7.705255727964354E1    -1.005072154061636E1    -1.408710265756523       2.464066199703057E1    -9.363090598776907E1    -6.453885677094964E1
                        -8.366522328930847E1     5.091786822343046E1    -6.689973204165261E1    -1.606175063385572E2    -8.403243600086832E1    -1.105697732862137E2    -1.429548112933632       3.111980013784901E1

 5.525500000000000E7    -4.279305990137796E-1    9.740666814917952E1    -3.119081568395154E1     6.981139272866702E1    -7.981657347517499E1    -1.407778639600537E2    -8.411233992555225E1     1.002606564762127E2
                        -3.121799575383254E1     7.104222583771517E1    -2.845041647541001      -1.467661385703737E2    -7.738985692633020E1    -9.012733520860763      -6.710137040880628E1    -1.554220535373596E2
                        -9.012523602766514E1    -6.078079105335673E1    -7.556118981593082E1    -1.184253523184863E1    -1.413619078936658       2.464277152070180E1    -9.024318964818480E1     9.791221650706441E1
                        -8.927722539403384E1    -1.307318008019751E2    -6.666245182019128E1    -1.639633116926744E2    -8.227870889042953E1    -4.933419511162084E1    -1.429522931794370       3.115718031909818E1

 5.525525000000000E7    -4.238441807457765E-1    9.739431717209361E1    -3.120105837973439E1     7.065066770722878E1    -9.871235078294022E1     3.806362292611789E1    -8.838056720748622E1    -7.698800303909365
                        -3.126414751488697E1     6.954077738210437E1    -2.853683047653913      -1.468404180155022E2    -7.409909424911942E1    -5.723269457125660      -6.784464562655467E1    -1.584472503511711E2
                        -8.576184710701216E1     2.080388113609395E1    -7.691152593332177E1    -1.586029512064262      -1.409384723810808       2.464763929181183E1    -8.096176989884003E1     1.709946122240737E2
                        -8.601862887916035E1    -1.480809852312370E1    -6.759938560680656E1    -1.666117807808400E2    -8.719268648034260E1     8.195513041286738E1    -1.427120146847941       3.112747545073658E1

 5.525550000000000E7    -4.262018465999007E-1    9.736659342803998E1    -3.115549810522684E1     7.011377261085139E1    -8.451017886509402E1     1.169395521666985E2    -7.984274920892712E1    -1.795214360984178
