#  HZ   S   DB   R     50.00 
! Rohde & Schwarz Vector Network Analyzer 
! Rohde-Schwarz,ZNB8-4Port,1311601044102961,2.82
! Created: UTC 2/13/2019, 12:02:16 PM
! freq[Hz]                db:S11                  ang:S11                 db:S12                  ang:S12                 db:S13                  ang:S13                 db:S14                  ang:S14
!                         db:S21                  ang:S21                 db:S22                  ang:S22                 db:S23                  ang:S23                 db:S24                  ang:S24
!                         db:S31                  ang:S31                 db:S32                  ang:S32                 db:S33                  ang:S33                 db:S34                  ang:S34
!                         db:S41                  ang:S41                 db:S42                  ang:S42                 db:S43                  ang:S43                 db:S44                  ang:S44
! 
 3.000000000000000E7    -3.043612368219862E-1    9.328496505306136E1    -7.026607920907777E1     1.574107720598193E1    -8.241270753589154E1    -1.644266937892839E2    -8.569388957725602E1     1.065186874412447E2
                        -6.966138739624753E1     5.261943238120353      -3.118323560209305E-1    1.004169720516824E2    -8.457050827247123E1    -8.444114219529249E1    -8.314227987731800E1    -7.222211091111588E1
                        -9.225907906860888E1     4.793187416518197E1    -8.957197981484562E1    -1.573798966200182E2    -9.417332072437918E-1   -1.963926074321512E1    -9.565805051344995E1    -1.051072924204679E2
                        -8.489272657316201E1     1.689373166691755E2    -8.879487295206539E1    -6.010379481376330E1    -8.073217737657649E1     8.280906106581912E1    -9.109542453576534E-1   -1.689098770144169E1

 3.002500000000000E7    -3.080894841473467E-1    9.300802241008890E1    -7.413576989961609E1     7.089567669185035      -8.771056542988353E1     3.616614677471914E1    -8.573070130841612E1     1.050001333990142E1
                        -6.999928845223157E1     1.978579291962004E1    -3.166071838945928E-1    1.000825384801814E2    -8.759239936819401E1     5.005514915865678E1    -8.308020699058183E1     3.559239591216418
                        -9.076558954078314E1     1.190800896915734E2    -8.469986473374527E1     7.292747083977324E1    -9.407688559379922E-1   -1.998605559539798E1    -8.740460446276371E1     4.618903115240784E1
                        -1.165369891284233E2     6.968590731462095E1    -8.399111114885700E1     1.841524835839127      -8.158418259171913E1     1.517788931177871E1    -9.095746674868175E-1   -1.720619478746470E1

 3.005000000000000E7    -3.059321058728253E-1    9.265497132517852E1    -6.964149258735090E1    -3.146414901488832      -8.539579076644677E1    -1.362038873683626E2    -8.071527652683044E1     8.110457167218131E1
                        -7.029990138303678E1     8.614227579522868      -3.047948987359549E-1    9.981464795495729E1    -8.839040479431043E1    -2.795857732625213E1    -8.419726633760257E1     2.052694270651216
                        -8.123361051744347E1     9.320051211539492E1    -9.842803357680364E1     8.260383784116969E1    -9.493112718322715E-1   -2.027011023222348E1    -8.763117922563689E1    -5.031711043145608E1
                        -9.723690352769637E1     2.735639080738871E1    -8.166844618470087E1    -6.948980244241324E1    -8.774976764680591E1    -1.427179780659770E2    -9.066864723688863E-1   -1.750484169803473E1

 3.007500000000000E7    -3.078704520520941E-1    9.231717418511713E1    -6.846441302592135E1     9.651554521060092      -8.633060489101152E1     1.732841316051254E2    -8.413137971286031E1     5.012945765157642E1
                        -7.148918447545265E1     7.138021450904310      -3.079311270793314E-1    9.942986231089373E1    -1.022483532579856E2     6.381311439635424E1    -8.991235082596023E1    -5.504333279414798
                        -9.678730573099728E1    -1.438587446301741E2    -8.507179084637856E1    -7.745133368355151      -9.442318560362450E-1   -2.059131775593318E1    -9.343600861447894E1     1.436031820275858E2
                        -8.205868982426354E1    -1.639426644753669E2    -8.755089504752378E1    -1.409252711290884E2    -8.823190071425137E1    -4.522190433400157E1    -9.129617713484195E-1   -1.780786683313889E1

 3.010000000000000E7    -3.022345626253620E-1    9.196508379664346E1    -6.946862135397880E1     7.410037148877072      -8.908531191206893E1     1.468150484831905E2    -8.831541743233849E1     1.219220228707513E2
                        -7.008427143462404E1     2.558440560493882      -3.148077185866916E-1    9.915575479454215E1    -9.473108172057084E1    -1.607104958997835E2    -9.572008826210320E1     1.486074996826684E2
                        -9.669085186712182E1    -8.463511177904843E1    -8.856448685324187E1    -2.117444543639190E1    -9.460860729254161E-1   -2.089885625785908E1    -8.783932658977237E1    -5.466308976563245E1
                        -8.731441647327570E1     1.021430772947395E2    -8.958349260700091E1     1.490456442817587E2    -8.687175264889886E1    -1.210392058902441E2    -9.098777675335740E-1   -1.815090459781134E1

 3.012500000000000E7    -2.923521530643435E-1    9.159952443205810E1    -6.873519486206141E1     1.183536725372118E1    -8.348788515509504E1     9.860864673338190E1    -8.231450874527796E1     5.301522223737862E1
                        -6.894530488671394E1    -6.610340492421041E-1   -3.169555390616202E-1    9.885354595582417E1    -9.376660736401783E1     7.093051976560116E1    -8.389877531806773E1    -9.427284627641181E1
                        -8.911862116879560E1     1.456416738264984E2    -8.590123329480910E1    -4.072644287130670E1    -9.444606592897078E-1   -2.122523739717918E1    -8.172163060054901E1     8.554424294028677E1
                        -8.912024205275189E1     3.452696047434706E1    -8.551625160595819E1    -1.186209642729724E2    -1.022307561750257E2     1.213709072634433E2    -9.095013623037894E-1   -1.846021935117821E1

 3.015000000000000E7    -3.038554003982334E-1    9.132587118387420E1    -6.795793004116314E1     9.990112719580317      -8.842143786093543E1    -1.488367177054143E2    -8.652644665434920E1    -5.286976429019678E1
                        -7.003765813334576E1     5.549352206277908      -3.163484389075787E-1    9.848451037572724E1    -8.124001760872130E1     1.685858477235765E2    -8.200163360826885E1    -1.625572206797765E2
                        -8.627259365069563E1     1.397810094141766E2    -8.707165036709007E1    -1.667681722749223E2    -9.467173396976083E-1   -2.152301579284914E1    -8.072825533432777E1     8.966824463664320E1
                        -9.812687329355556E1     1.035336559702935E2    -8.563505171422341E1    -1.403715212592924E2    -8.019634899257561E1    -1.641057137548838E1    -9.109746286946072E-1   -1.870458981892576E1

 3.017500000000000E7    -2.963807077049395E-1    9.097619747570012E1    -7.052503557023027E1     4.778675823917965      -8.522429932148791E1     7.829243314540770E1    -8.809118440201314E1     6.951083659533374E1
                        -7.038125105340581E1     1.156827394874982      -3.061213870753615E-1    9.821578465846476E1    -8.580798127015126E1     6.376603119649248E1    -9.478325442385840E1     1.287708092268997E2
                        -9.087129995325013E1    -1.414926650550266E2    -8.608659002218590E1     7.629878672651473E1    -9.406294127138759E-1   -2.188415708157421E1    -8.348024968643459E1     5.110067884412496
                        -9.007510117323557E1     5.767043651870394E1    -9.106421992353363E1    -1.225387817937701E2    -8.979591985417734E1     6.466628018969935E1    -9.138337562890424E-1   -1.902450411453777E1

 3.020000000000000E7    -2.886304480586038E-1    9.061527841831325E1    -6.853531256699648E1     1.139123907621418E1    -1.011991000568780E2     3.138002178203992E1    -8.264476362767186E1     1.521821590930815E2
                        -7.003990897467634E1     1.466968840457406E1    -3.105059903172323E-1    9.792451825821084E1    -8.410267050714208E1    -1.197119713095950E2    -8.071162514698793E1    -2.540218855500737E1
                        -8.320197099183012E1     1.415614156581580E2    -8.090865604880520E1    -4.804901860007379E1    -9.395519773601747E-1   -2.220845578335302E1    -9.419396158923684E1    -4.969975129018014E1
                        -8.244940578688714E1    -1.446298255114764E2    -8.153175447691635E1     5.800208467998311E1    -8.806812217305887E1     1.270613273971120E2    -9.148989921907981E-1   -1.935677669780065E1

 3.022500000000000E7    -2.933600464588198E-1    9.029876388008184E1    -6.911537179649224E1     8.721048255110661      -9.504858228473364E1     7.473168436245241E1    -8.023487975644605E1     4.790675354934072E1
                        -7.009906345032469E1     6.715842334695987      -3.108781089496057E-1    9.762570312011469E1    -8.952595682853976E1     3.197198623865112E1    -8.266280549395231E1    -3.376931819130946E1
                        -9.086565371633733E1    -1.027334984585781E2    -8.679117030346535E1     6.099903539392483E1    -9.458637821811675E-1   -2.252238456746560E1    -8.457190475898619E1    -1.020604857821231E2
                        -9.070472815994839E1    -4.345551340311157E1    -8.605610454637844E1     1.835887159493370E1    -8.864778112313056E1     3.556654911829598E1    -9.088343417443258E-1   -1.962313907442131E1

 3.025000000000000E7    -2.989768950342163E-1    8.997096772843371E1    -6.819440336337461E1     3.069489137526042      -8.164303603918249E1    -7.816013914530214E1    -8.932935860201857E1     1.720290497181834E2
                        -7.169148157756554E1     6.986300017862306      -3.170232806879682E-1    9.724712356991039E1    -8.522254160376684E1    -2.969239364503159E1    -8.807957555164623E1     1.730186305191161E2
                        -1.011854813148645E2     5.079837754460265E1    -9.416223263938551E1     2.054346012541145E1    -9.437011283044392E-1   -2.280426396627526E1    -8.867196097700258E1    -1.581212596395918E2
                        -8.986157591388748E1     1.720426900620744E2    -8.917491825664806E1     1.344890338580890E2    -8.184071657761183E1     4.390096249276567E1    -9.177377721402878E-1   -1.996011461737754E1

 3.027500000000000E7    -2.953657031933472E-1    8.959487080427890E1    -6.953429992004762E1     1.016511767784260E1    -9.320344101625688E1     3.542191112186967E1    -8.433001955751263E1    -1.179466311796066E2
                        -6.945083516689459E1     6.303221656927209      -3.061305881019769E-1    9.694151477448040E1    -8.294521556511093E1     3.048773501664492E1    -8.249746798294902E1     1.525206072926106E2
                        -8.325350555822588E1     1.506031618622159E2    -9.459134659257329E1     9.740895737041559E1    -9.456334202006921E-1   -2.309780542886776E1    -8.866356824746399E1    -8.855075741921057E1
                        -8.263579599898996E1     1.204508525678836E2    -8.806926627684605E1     3.855676662237210E1    -9.460590571699045E1    -4.524926531990403E1    -9.145178213632305E-1   -2.025081474388905E1

 3.030000000000000E7    -2.983281265194870E-1    8.928122595401649E1    -6.999087938939127E1    -3.369044381782403      -8.938137784593572E1    -1.253667562851082E2    -9.157652169011725E1     1.561782500240487E2
                        -6.686141234761189E1     8.532702770252738E-2   -3.170045161290816E-1    9.666273541466008E1    -8.259814350727112E1     1.633335832156403E2    -1.048614945280812E2    -2.815816206051042E1
                        -8.444648910798878E1    -1.102429073119247E2    -8.570299435488872E1     1.093270255018799E2    -9.485054813022635E-1   -2.346924182585398E1    -8.631627627829022E1     5.366159951075920E1
                        -9.990825040703214E1    -3.081326058720067E1    -9.234122201241752E1    -4.523971395909861E1    -8.578965335029747E1     2.806713333139918E1    -9.103063735079149E-1   -2.056405138825730E1

 3.032500000000000E7    -2.951144605772254E-1    8.895151994234364E1    -6.947877360267890E1     1.563355994408595E1    -8.422458470325607E1     7.075047683647995      -8.628365138532305E1     1.729988079709955E2
                        -6.987191222143146E1     9.662077731566217      -3.037150886859404E-1    9.635400321559840E1    -8.555516140588682E1    -1.441391835450979E2    -7.861271723524682E1    -2.906486786653190E1
                        -8.511153124675873E1    -1.718642761654191E1    -8.557973034288031E1     4.102577596072583      -9.508074615385975E-1   -2.379863086340439E1    -8.755481685702068E1    -1.285700152164076E2
                        -8.978315580030994E1    -1.018275156876996E2    -8.660879699570384E1     3.000833061803869E1    -8.278371550935074E1     1.034779246221643E1    -9.126028236731743E-1   -2.087451802653187E1

 3.035000000000000E7    -2.945437897532811E-1    8.860900882715349E1    -6.787748566283391E1     7.671015113335471      -9.296172162303174E1    -1.294503223962619E2    -9.072572214788474E1    -1.078078947667038E2
                        -7.035095971064800E1     9.199699204528089      -3.129607787816762E-1    9.606513133236295E1    -9.299560059539930E1    -1.382719466583536E2    -9.321260581533571E1    -1.558833730662636E2
                        -8.581836709908286E1     1.680564521018747E2    -9.229575463209972E1    -4.775509822289695E1    -9.467850411022076E-1   -2.408701193561823E1    -8.385407411044920E1     6.338885929469668E1
                        -8.514163134782287E1     4.977135708708217      -8.248451414591150E1    -1.514759140733256E2    -8.632450751805708E1    -3.713569491337450E1    -9.081574718668960E-1   -2.114938082867602E1

 3.037500000000000E7    -2.982054360179519E-1    8.824527566649489E1    -7.203784704316999E1    -5.151754838413012      -9.316610707357880E1     1.745546561513192E2    -9.363387346931782E1     1.292042776101835E2
                        -6.848400596173228E1     4.226363880789393      -3.164364445943608E-1    9.574890702135185E1    -9.009367577518839E1    -1.794727603427457E2    -8.515491762450479E1     7.391118714020546E1
                        -8.951065293079637E1    -8.528671228777782E1    -8.792609901556136E1     5.509892693131305E1    -9.477699764915417E-1   -2.436859325854742E1    -8.766766475553092E1     9.332417961177161E1
                        -9.213592824618195E1    -8.498643839312534E1    -8.558563340546783E1    -7.212508244922755E1    -8.513724963027529E1     8.736153604172078E1    -9.109946915652522E-1   -2.147514293472286E1

 3.040000000000000E7    -2.969881870444190E-1    8.792875685262553E1    -6.943202340256573E1     7.448142390957794      -9.345309008144974E1    -7.485057616231076      -8.834139006887254E1     7.770676840159916E1
                        -7.005320472195719E1     1.030977660808912E1    -3.142979478359647E-1    9.542421662295496E1    -8.483008427163044E1     5.266562569890942E1    -7.882562517557157E1    -1.649035415396252E2
                        -8.541797759833349E1    -1.643700093178915E2    -8.396712211439447E1    -1.599299615257390E2    -9.424538939025060E-1   -2.465593000869799E1    -8.821749830738247E1    -1.249295009293764E2
                        -9.084298230306942E1    -7.643232722992848E1    -8.679082998797115E1    -1.328505880974427E2    -8.519497475778529E1    -7.515942234988636E1    -9.098905423058885E-1   -2.178429869117541E1

 3.042500000000000E7    -2.929283808465144E-1    8.755603012291334E1    -6.741936321364152E1     2.101069192757100      -8.188068309136774E1    -4.662178989444821E1    -9.895250812655107E1     1.724711757969303E2
                        -7.008535907378288E1     3.930962606412072      -3.092256176293907E-1    9.512140426884263E1    -8.733802573574451E1    -6.312826126829899E1    -8.669228309102623E1     3.906389053650705
                        -8.504517226372047E1     1.674667175930128E2    -8.363129278660922E1    -1.264853802383840E2    -9.487833163376164E-1   -2.504009457985957E1    -8.513897114265191E1    -1.211167700672111E1
                        -9.993203790577346E1     1.380086576471445E2    -8.973621747049897E1     5.946385295179125E1    -8.405619334629536E1     4.121100990483505E1    -9.116028039844937E-1   -2.210230559889092E1

 3.045000000000000E7    -2.956244484764641E-1    8.724914969800904E1    -6.890367192939097E1     2.085854089612305      -8.464762476391729E1     1.936675520934042E1    -8.339281061125871E1    -1.672050024965645
                        -6.917571890785629E1    -1.308312472786314      -3.107728366206229E-1    9.473055110321982E1    -8.385655717148129E1    -1.534293509510173E2    -8.691077766622529E1    -1.563457031433480E1
                        -9.608834076245053E1    -2.142842440058685E1    -8.812752313040419E1    -7.960391161299496E1    -9.415129429516124E-1   -2.533907757689522E1    -8.488487917052555E1     1.653782899625581E1
                        -8.686128825907710E1    -7.105920317839153E1    -8.275977245631364E1     4.008186396093102E1    -9.357489732290297E1    -4.484253781979078E1    -9.005767669906295E-1   -2.244241926810628E1

 3.047500000000000E7    -2.986243468055584E-1    8.686999301770054E1    -6.919864121705638E1     1.682897487136701      -8.174393803795853E1    -3.502705354949756E1    -8.687638200007336E1     6.453730602128826E1
                        -6.786924358646574E1    -3.513620106321651      -3.078439011156808E-1    9.452098565425563E1    -8.004713116995882E1    -4.349624209886779E1    -9.338536968043867E1     1.157409144773906E2
                        -7.978867948982034E1     5.474966528555898E1    -8.462238593220903E1     5.147455387498453E1    -9.449128302747514E-1   -2.564234996356051E1    -8.867405989351011E1    -1.127601070809059E2
                        -8.579091640260174E1     3.118459396625206E1    -8.893745539068124E1     1.210767150422506E2    -8.453582229017444E1     1.491776019067200E2    -9.171713554051737E-1   -2.274158965274057E1

 3.050000000000000E7    -2.949765785871549E-1    8.655449845303990E1    -6.821231612126516E1     6.448650164145541      -8.179620284068412E1     8.230845814321049E1    -7.902235146840424E1    -1.418766495794941E2
                        -6.899423474167752E1    -6.061315129629187      -3.038703017889707E-1    9.413385020652625E1    -8.458589978722523E1     6.336401071424309E1    -9.326397042445608E1     1.686730292261931E2
                        -1.008688208402243E2    -5.813233588575034E1    -8.383910127292138E1    -1.371338916364472E2    -9.423530262192075E-1   -2.598437847867449E1    -8.434496267437815E1    -1.324923865618620E1
                        -8.454804803818151E1     4.380975527938894E1    -9.178177172943380E1     4.438413691259230E1    -1.004003077854820E2    -7.131370805230023E1    -9.147102624812064E-1   -2.299941008220141E1

 3.052500000000000E7    -2.897540653538254E-1    8.623884596890814E1    -6.894496205751806E1     4.034271320325120      -8.666533488246999E1     1.386409821015492E2    -8.199327765329848E1    -7.831153416713674E1
                        -6.846629102799410E1    -5.610357539222846      -3.063307559899291E-1    9.388687945718462E1    -8.805648287569328E1     6.829578974457719E1    -8.247199458786639E1     1.547195194559052E2
                        -9.246053564255512E1     1.721155508076908E2    -8.623095036403103E1     1.165393574878518E2    -9.449393599472306E-1   -2.625296094044925E1    -8.229019541829601E1    -1.796116370064333E2
                        -1.026414792706233E2     9.006275872969169E1    -8.526393108269340E1     1.097507684639300E2    -8.641730458315459E1    -4.359765747034043E1    -9.105183912219411E-1   -2.332008697369216E1

 3.055000000000000E7    -2.946405450229924E-1    8.583887576348224E1    -6.823720798030676E1     9.207333247362501      -8.577115031403382E1     1.558915226400818E2    -8.443072400698738E1    -1.042389980584465E1
