#  HZ   S   DB   R     50.00 
! Rohde & Schwarz Vector Network Analyzer 
! Rohde-Schwarz,ZNB8-4Port,1311601044102961,2.82
! Created: UTC 2/12/2019, 2:23:46 PM
! freq[Hz]                db:S11                  ang:S11                 db:S12                  ang:S12                 db:S13                  ang:S13                 db:S14                  ang:S14
!                         db:S21                  ang:S21                 db:S22                  ang:S22                 db:S23                  ang:S23                 db:S24                  ang:S24
!                         db:S31                  ang:S31                 db:S32                  ang:S32                 db:S33                  ang:S33                 db:S34                  ang:S34
!                         db:S41                  ang:S41                 db:S42                  ang:S42                 db:S43                  ang:S43                 db:S44                  ang:S44
! 
 5.525000000000000E7    -4.282633394384611E-1    1.036540014381327E2    -2.945987067349243E1     8.783462057959295E1    -8.180153018961626E1    -1.370659360562198E2    -8.053396613347745E1     3.378476867293794E1
                        -2.948848854386165E1     8.775175236868614E1    -4.079587161409533E-1   -1.082521182403119E2    -8.853931667529245E1    -5.326515635884181E1    -6.915151622546148E1    -1.299554441583903E2
                        -9.463946238094040E1     1.324348246463109E2    -8.595514751419856E1    -8.528983756002944E1    -1.402394624779776       3.174280702968581E1    -8.624188051737133E1     1.664914972660752E2
                        -8.226463625590981E1     9.598923872272934E1    -6.778684360760310E1    -1.280232052959526E2    -9.447797224513184E1    -8.744527916604621E1    -1.412936616524280       3.819463301893322E1

 5.525025000000000E7    -4.241615514414556E-1    1.036463538421516E2    -2.945682530774267E1     8.821029338470603E1    -8.659257466656294E1     1.169777964809786E1    -8.821953882888585E1     1.473604588001440E2
                        -2.949961374690101E1     8.783372521550486E1    -4.109068959864027E-1   -1.082779833557924E2    -9.271531634728021E1     4.100370659133876      -6.924560035535954E1    -1.278012126630073E2
                        -8.432608432812287E1    -3.186771343398503E1    -8.365396433766566E1    -8.938353567897502E1    -1.395800810123226       3.172097947457408E1    -9.278983792673623E1    -1.702807434350278E2
                        -8.619185275769469E1     1.081071764382906E1    -6.984710983786084E1    -1.312754310431029E2    -8.275147726656877E1    -1.276803620729706E2    -1.418762812044504       3.819587237032089E1

 5.525050000000000E7    -4.251189631180912E-1    1.036278670240280E2    -2.949095268343051E1     8.722693707134594E1    -8.308036086656779E1     1.312385073318340E2    -9.552826587389859E1    -2.732060449938878E1
                        -2.950864206866530E1     8.724948784743611E1    -4.174134149579698E-1   -1.082904302643289E2    -8.126732698290796E1    -8.260454965014957E1    -6.853728509660479E1    -1.325122701617804E2
                        -9.657749434678595E1     1.469872384535761E2    -8.031181476431112E1    -1.439978861796757E2    -1.399000742879616       3.175846520344598E1    -9.303506719377748E1     1.164640116904341E2
                        -8.985301070181541E1     1.449652863983747E2    -6.794754766852964E1    -1.160342769203972E2    -9.288153120728148E1     6.505388376558410E1    -1.421862364917345       3.818122465406342E1

 5.525075000000000E7    -4.255066086456145E-1    1.036600340319630E2    -2.941347622077934E1     8.753640177576327E1    -8.211361359929747E1     2.412549402548016E1    -8.619829839117446E1     1.370309564214560E2
                        -2.942148979703037E1     8.761901808125249E1    -4.140520626393809E-1   -1.082972778372363E2    -7.957852307493879E1    -5.744532619289269E1    -6.867449130604599E1    -1.184522094050733E2
                        -1.059269119605880E2     7.081846252279864E1    -9.914800842429303E1     7.279295555426879E1    -1.400490275099992       3.173659791639153E1    -9.803282031004146E1    -9.777600406055686E1
                        -9.297827347614756E1     8.442562565238342E1    -6.907372949825080E1    -1.353806342763696E2    -8.584903755033814E1    -1.210181231117287E2    -1.415343876838406       3.819298522133002E1

 5.525100000000000E7    -4.246777193407567E-1    1.036627673954509E2    -2.946370411043466E1     8.712099968029037E1    -9.785089032897851E1     1.021018743470631E1    -8.635322744055229E1     7.063222637742094E1
                        -2.941643579282494E1     8.768956952373863E1    -4.143320869813495E-1   -1.083320029447549E2    -8.575691657491674E1     1.430666801867964E2    -6.877716042884333E1    -1.258957245417241E2
                        -8.559173295534244E1    -1.554703036177199E2    -8.441028216463539E1    -1.477688437070510E2    -1.402761892178559       3.173494531235588E1    -9.189556885515727E1    -2.605616519610735E1
                        -8.493403855977205E1     5.239536216664529E1    -6.862664160412064E1    -1.299565023036352E2    -8.799281425835373E1     1.134211284533886E2    -1.420136850254969       3.819731744303405E1

 5.525125000000000E7    -4.271686131215035E-1    1.036131673578439E2    -2.947861983754816E1     8.739959550828650E1    -9.382704986698265E1    -5.061118657358232E1    -8.930319027967437E1     1.008308064723532E1
                        -2.939461313529697E1     8.728163471262091E1    -4.134879408459569E-1   -1.083640810714297E2    -8.810500646876862E1    -1.193064706540578E2    -6.897409457299274E1    -1.323893679456143E2
                        -8.514619753182120E1    -4.716830452036915E1    -8.084472039555153E1    -7.302268784759561E1    -1.400319621739616       3.175172145124570E1    -8.156380707084927E1    -4.047572086397067E1
                        -8.592304587189317E1     1.552749198723190E2    -6.914590871530747E1    -1.265944207478853E2    -9.262932570340891E1    -8.793729401708504E1    -1.415189428375982       3.818570457740271E1

 5.525150000000000E7    -4.257064293229406E-1    1.036375752674168E2    -2.939386275904734E1     8.735008558220895E1    -8.562005061683524E1     1.507096545561385E2    -8.368626466607208E1    -6.906135693876082E1
                        -2.949172386405659E1     8.771815698093883E1    -4.119825016832291E-1   -1.083796793223822E2    -8.145803012733066E1    -1.228289893685688E2    -6.781045425174325E1    -1.329285604404403E2
                        -1.005017641001110E2    -3.925032631643706E1    -8.380534312933742E1    -1.329239164584774E2    -1.395772825349084       3.172908918223999E1    -9.218110911263898E1    -4.602197757758888E1
                        -9.168488601228671E1    -2.057740679685840E1    -6.932242789659239E1    -1.197958132893023E2    -8.206548101256813E1     9.031937770409434E1    -1.417365231033001       3.817314156419165E1

 5.525175000000000E7    -4.263412448849172E-1    1.036541577724124E2    -2.951868475583463E1     8.766130367891584E1    -8.740747840168521E1    -3.531974776759369E1    -8.047585842221506E1    -1.644202579412126E2
                        -2.956351535789505E1     8.779719015617580E1    -4.128876317783348E-1   -1.084194591874986E2    -8.203023331805264E1    -2.690148732676039E1    -6.956632660527592E1    -1.258029480755247E2
                        -8.424280067733866E1    -5.699211165352565E1    -9.425990434131609E1     1.407437112487258E2    -1.400392262493123       3.174677332384479E1    -1.005220542195815E2     1.530544727690019E2
                        -8.337507468849134E1    -2.246447709114877E1    -6.943448934024221E1    -1.218626453233748E2    -9.002083904835800E1    -1.299671744145354E2    -1.416365486919271       3.817096398771187E1

 5.525200000000000E7    -4.207196775674547E-1    1.036169570975371E2    -2.949041654035112E1     8.752752971828465E1    -9.992990995336805E1    -5.385176651290054E1    -8.391212059409943E1    -1.144847460990659E2
                        -2.953853121867331E1     8.765744917158645E1    -4.126813876160176E-1   -1.084222907108560E2    -8.625095514064202E1     1.661192382909401E2    -6.884447675663223E1    -1.236335515307955E2
                        -9.345928764904720E1     4.055005285018754E1    -9.048154221580687E1    -1.079606625330888E2    -1.399056582355484       3.170552809060936E1    -9.427039021802952E1     1.121560637861567E1
                        -8.643108607194557E1    -1.057634867829398E2    -6.841893392593505E1    -1.242879994394919E2    -8.537535992160578E1    -1.003075651001845E2    -1.419469604668121       3.817135261903336E1

 5.525225000000000E7    -4.259993411792568E-1    1.036140333083711E2    -2.952637362633109E1     8.775314037389884E1    -8.418857058989325E1     5.420059678132240E1    -9.419945482272576E1    -2.013553836800979E1
                        -2.948502830167985E1     8.702904136347051E1    -4.147864316274146E-1   -1.084597044571169E2    -8.814269928539105E1    -8.634602149794144E1    -6.954201871536490E1    -1.257019355330909E2
                        -9.542320597140198E1    -8.909417076970908E1    -8.361616089264518E1    -1.140413951831642E2    -1.394374958648486       3.172233344184190E1    -8.528640491921831E1     9.617792688950428E1
                        -8.294839986858943E1    -4.345845856366699E1    -6.938091328631266E1    -1.254658867053169E2    -9.012923771012574E1    -1.693056500893652E2    -1.417070565140777       3.816778498856120E1

 5.525250000000000E7    -4.243279533018443E-1    1.035629817418371E2    -2.942589199546787E1     8.798952180848812E1    -9.049068250395757E1    -1.240214952472055E2    -9.912923737647220E1     2.500866290977228E1
                        -2.947843013860336E1     8.732012266836269E1    -4.099636078266167E-1   -1.084599694331935E2    -8.616658104819993E1    -7.515638807561903E1    -6.940027829637509E1    -1.274341133339032E2
                        -8.051517200041623E1     9.517205315705989E1    -8.080594537828998E1    -8.936921885922337E1    -1.398687313575614       3.172841472710543E1    -8.558187096399792E1     8.571626225132867
                        -8.565595899691178E1     1.196786669984429E2    -6.912409419332309E1    -1.292185520240019E2    -1.107780416652706E2     9.314165257766547E1    -1.422303929889496       3.817242038175996E1

 5.525275000000000E7    -4.251142862062814E-1    1.036219851166296E2    -2.949415878667784E1     8.733145630066041E1    -7.785314661349841E1     1.012572478216965E2    -8.522576375514512E1     5.488420905506614E1
                        -2.959430034536771E1     8.770764663834450E1    -4.111066643974277E-1   -1.084706477785082E2    -8.824555823426117E1    -6.378779836768825E1    -6.853151833332464E1    -1.268373495121026E2
                        -8.569255373232180E1     1.323843060134068E1    -9.204062759744130E1     1.264720079004534E1    -1.392086007044944       3.170563640599152E1    -9.632686942132469E1     5.482549238471184E1
                        -8.977085068131159E1    -3.084922085257277E1    -6.789187910534453E1    -1.188955056084114E2    -8.364655370704021E1     2.424362307752052E1    -1.418192369397343       3.813394229380587E1

 5.525300000000000E7    -4.258691165986792E-1    1.036014525383618E2    -2.946062938296632E1     8.729645968760283E1    -8.184954700553973E1    -3.113070184000140E1    -9.348513809694930E1    -1.301566451880862E2
                        -2.946812768452173E1     8.767050708192359E1    -4.150981309658242E-1   -1.085322586284035E2    -8.497793767176498E1    -4.596677401052935E1    -7.095127549680511E1    -1.158345380441657E2
                        -9.502552344977704E1    -4.330063180942762E1    -9.029203142784631E1    -7.671323875288374E1    -1.398830930614464       3.172419826988831E1    -8.504732987796058E1     8.946196324833167E1
                        -9.276901640664163E1    -6.990397221988165E1    -7.105204513292765E1    -1.280671048080921E2    -8.883707478449335E1    -1.405387486832427E2    -1.416381386188104       3.816095573878739E1

 5.525325000000000E7    -4.262683832685874E-1    1.036076040289776E2    -2.949748146962059E1     8.730709748469488E1    -8.360047557869207E1    -6.858016974472962E1    -9.269237190889569E1     1.303596668232537E2
                        -2.948076354158275E1     8.758337078386504E1    -4.150140014070184E-1   -1.085246422899156E2    -8.716914755746301E1     1.734440567717518E2    -7.034967375941278E1    -1.227173476441782E2
                        -9.384731762052125E1    -1.695513299676410E2    -8.333389118234632E1    -9.564695831757049E1    -1.399276671735889       3.170462254648448E1    -8.587962721446226E1     1.685551792343212
                        -9.583218041142342E1     1.422884508402282      -6.646885801341560E1    -1.336096451299306E2    -8.220939048617481E1     1.341399350053601E2    -1.416301305130243       3.814187165917740E1

 5.525350000000000E7    -4.268825282389485E-1    1.035615134515637E2    -2.943724589293475E1     8.757539081978530E1    -8.321050758991015E1    -3.168333895675537E1    -8.478000366558675E1     1.284180037118618E2
                        -2.951616283230480E1     8.717642251277533E1    -4.138150415031899E-1   -1.085475905859269E2    -8.858472007784998E1     7.657933897680849E1    -6.718454412085337E1    -1.213248759398639E2
                        -8.300123838754661E1    -1.563192546384982E2    -9.459917301510620E1     1.505397085078186E2    -1.399417346862286       3.170733473279117E1    -8.105716717279188E1    -1.574774832548949E2
                        -8.737033379378781E1    -1.531701131788894E2    -6.930637216072060E1    -1.307286395531633E2    -8.917367065788667E1    -1.452964002212042E2    -1.418532035916857       3.816312287280267E1

 5.525375000000000E7    -4.266357429306605E-1    1.036167763090310E2    -2.947716041628405E1     8.711097178114574E1    -8.339887711495850E1    -7.404435407193199E1    -8.336104863115416E1    -3.337666783629999
                        -2.952629390221076E1     8.768082358025096E1    -4.116623247447666E-1   -1.086015191135931E2    -7.673074734215189E1    -1.535827695063178E2    -6.894156826916520E1    -1.385973644575437E2
                        -8.447769592577924E1     1.301157020741789E1    -8.676969495477323E1    -1.192236429490525E2    -1.399310371702049       3.170811657608860E1    -8.520614332377841E1    -1.527395189455112E2
                        -8.558796022507870E1    -1.121194112403637E2    -7.039566764871611E1    -1.314249091908492E2    -8.765841068660350E1     6.023584838742638E1    -1.419404367235818       3.813433548409419E1

 5.525400000000000E7    -4.247748520244656E-1    1.036066021044379E2    -2.950067646902301E1     8.762353985609401E1    -8.748189369175996E1    -1.434059708682222E2    -8.260527196655499E1     2.759751350989159E1
                        -2.943465057290388E1     8.732201707660333E1    -4.131482038949944E-1   -1.086257241729385E2    -9.480761897090490E1     1.738931683275429E2    -7.105246023450238E1    -1.317955399556178E2
                        -8.425874717721344E1     2.635576960929133E-1   -8.266114337627671E1     7.326720388224555E1    -1.398086543633688       3.169489880682492E1    -9.146430156715915E1    -1.504113837169879E2
                        -8.834394675857753E1     2.257847862879542E1    -6.899808495388119E1    -1.266337937829516E2    -9.258341648581946E1    -2.394965759443304E1    -1.416344875355492       3.815301312070877E1

 5.525425000000000E7    -4.235179180062468E-1    1.035626302604783E2    -2.951649331250156E1     8.664763499231700E1    -8.868572702509630E1    -1.080107620942929E2    -8.245169399219458E1     9.687369123504801E1
                        -2.957351937939922E1     8.697834430828496E1    -4.161080166606286E-1   -1.086182709021037E2    -8.013726399592677E1    -2.639641998266980E1    -6.806299884072074E1    -1.446890206942162E2
                        -8.507421308519898E1    -7.532739008844632E1    -8.734328860188293E1     7.925743496656745E1    -1.399332846918147       3.170471790626823E1    -8.551265451907098E1    -3.814414531004985E1
                        -8.085812685844323E1     9.505251026234944E1    -6.983275658014895E1    -1.304028069624753E2    -8.922486594634111E1     8.678007534897145E1    -1.413283079360823       3.810617510911555E1

 5.525450000000000E7    -4.244346150685505E-1    1.035797124224310E2    -2.944997848661669E1     8.733511775938632E1    -8.972130758407201E1     9.845382711131542E1    -8.504328697542327E1    -5.214823617973626E1
                        -2.948870061952863E1     8.670318929760133E1    -4.145191859447697E-1   -1.086564634398322E2    -8.298315543237740E1    -5.005569430306692E1    -6.783275886214669E1    -1.329590558085782E2
                        -8.826219717865561E1     7.032856635787877      -8.926484274348739E1    -1.386634329179395E1    -1.402465167083713       3.169192759887011E1    -8.458546751697284E1     1.602408288543304E1
                        -9.566078328836676E1    -4.085481026952222E1    -7.082271206077901E1    -1.214323508595568E2    -9.772560055573493E1     1.437914609490769E2    -1.418889140980382       3.814347069063892E1

 5.525475000000000E7    -4.273498924385588E-1    1.035821871844697E2    -2.940670278376140E1     8.748626694504787E1    -8.422772145775821E1     7.597911530556594E1    -8.094940537760289E1    -1.450879984339373E2
                        -2.943808176299574E1     8.825631394532303E1    -4.154761551935796E-1   -1.086906483081507E2    -8.825528203063624E1    -6.877894518455858E1    -6.764846066295536E1    -1.308253498819632E2
                        -8.462310335954521E1    -4.022380454366663E1    -8.224657843056460E1    -1.539220369110805E2    -1.394696322915853       3.168223533054445E1    -9.387626238667777E1     1.473471743128828E2
                        -8.431614121296107E1    -2.287895829168053E1    -7.055754592105579E1    -1.343635625839336E2    -9.026651216324473E1     1.986862755243185E1    -1.422422746877190       3.816443135525638E1

 5.525500000000000E7    -4.233723724610544E-1    1.035882388399051E2    -2.945843842515239E1     8.695033553442573E1    -8.374402481042750E1    -1.661730930057510E2    -8.936415414254182E1    -3.229349079374095E1
                        -2.948531220686363E1     8.712933830652007E1    -4.165576028207335E-1   -1.086969731718649E2    -1.092470294055624E2     7.317811270305370E1    -7.215817596448083E1    -1.251154113761479E2
                        -8.922872462233016E1    -1.613991449942074E2    -8.155306825484905E1    -1.123513796692370E2    -1.395086998294091       3.168227885492442E1    -1.056475098093724E2     8.821822745973904E1
                        -8.395454171207953E1    -1.779509332826135E2    -6.865125203787153E1    -1.229883435638141E2    -1.172797373830347E2     1.354677662681660E2    -1.413948728101247       3.812448270927953E1

 5.525525000000000E7    -4.297198184723773E-1    1.035844306260561E2    -2.947711670956034E1     8.723383088031976E1    -8.444721923151849E1     1.688613927892299E2    -8.469957218032066E1    -7.416786081033868E1
                        -2.953640886584678E1     8.753784573892936E1    -4.172786883105011E-1   -1.087375422793596E2    -8.371766406286133E1    -1.191180649568331E2    -6.836496501743167E1    -1.243386909040348E2
                        -8.766523667325730E1    -1.531541713568152E2    -8.873383530064632E1     1.182922040944767E2    -1.394885053631037       3.169444991564830E1    -8.538877961224006E1     5.505959985381903E1
                        -8.612287146449918E1     1.402939007454803E2    -6.943825706878104E1    -1.318480082415035E2    -8.845073247235365E1     5.812146408808007E1    -1.415961492758114       3.812612184375922E1

 5.525550000000000E7    -4.213537016128597E-1    1.035351464123492E2    -2.945261091428761E1     8.726677653091058E1    -1.007608068688047E2     6.301522194623805E1    -8.484576313699597E1     1.308690775841650E2
