#  HZ   S   DB   R     50.00 
! Rohde & Schwarz Vector Network Analyzer 
! Rohde-Schwarz,ZNB8-4Port,1311601044102961,2.82
! Created: UTC 2/13/2019, 1:35:22 PM
! freq[Hz]                db:S11                  ang:S11                 db:S12                  ang:S12                 db:S13                  ang:S13                 db:S14                  ang:S14
!                         db:S21                  ang:S21                 db:S22                  ang:S22                 db:S23                  ang:S23                 db:S24                  ang:S24
!                         db:S31                  ang:S31                 db:S32                  ang:S32                 db:S33                  ang:S33                 db:S34                  ang:S34
!                         db:S41                  ang:S41                 db:S42                  ang:S42                 db:S43                  ang:S43                 db:S44                  ang:S44
! 
 3.000000000000000E7    -2.664070475387815E-1    9.355611650870330E1    -6.973483268436881E1     7.945051550139047      -8.498779750198159E1     9.229695825284668E1    -9.485351540561814E1     7.213855897474374
                        -7.019508396809493E1     4.208958705037420      -2.682298988042833E-1    1.006921307325098E2    -8.965820337109571E1    -1.681241468644296E2    -8.372911006384562E1    -9.877119382894185E1
                        -9.295720247901485E1     6.270230688909839E1    -9.361583628355696E1    -3.180324087949136E1    -9.419031635484059E-1   -1.968564201708754E1    -8.108613971606694E1     1.271383706278245E2
                        -9.649112117738845E1     8.538893659149423E1    -8.608718448564196E1    -8.971392426998062E1    -9.067851344785787E1    -1.158632634891188E2    -9.160102398561452E-1   -1.690413244808038E1

 3.002500000000000E7    -2.629605015233289E-1    9.323894560675606E1    -7.129331827047015E1    -2.469944067339803      -8.184186067002676E1     5.661557690005743E1    -8.273508394446509E1     4.074347264803998E1
                        -6.889199959459288E1     1.668150552605728E1    -2.732479216701528E-1    1.003829303985271E2    -8.192645425826441E1     8.021871496966024E1    -7.831536476752591E1    -1.413926718685567E2
                        -8.577480836793524E1    -1.342547480244360E2    -8.998852064432255E1    -8.135857097726502E1    -9.455800817713014E-1   -2.000449698090105E1    -9.119363380180253E1    -1.410936055422226E2
                        -8.443931626936488E1    -1.522412859502547E2    -8.597951175328986E1    -5.506229143514794E1    -9.216133393289844E1     1.793395529613754E2    -9.167050104860480E-1   -1.723802679385352E1

 3.005000000000000E7    -2.732768006444291E-1    9.292238687741249E1    -7.179010757654623E1     1.436872952581792E1    -9.202238420750322E1     1.388660184155643E2    -8.972054986799235E1     1.421230072900474E2
                        -6.962555027934963E1     1.184128186441900E1    -2.641195692433008E-1    1.001251083403516E2    -8.607919266341989E1     1.056699176650126E2    -8.001670738683445E1     1.346481101593834E2
                        -9.166766978853504E1     1.288976665866024E2    -8.582502902577807E1     5.992101259136302E1    -9.488048589711179E-1   -2.028573551738441E1    -8.202645731589834E1     1.280295531972418E2
                        -8.713725202812741E1     6.266832137388503E1    -8.352405609361796E1    -2.225266210062334      -8.494356105825146E1    -5.445035985154307E1    -9.137153519024885E-1   -1.752906593755415E1

 3.007500000000000E7    -2.624824652232734E-1    9.255636614804648E1    -6.924797294692590E1     5.051896518814217      -8.464473364502555E1     1.286481706236715E2    -8.694315123702792E1     7.507186766591796E1
                        -7.001097637290910E1     1.113793180285834      -2.651497108382599E-1    9.977520453245609E1    -7.835546009992980E1     1.191377796252485E2    -8.304659372908689E1     1.178210667642450E2
                        -8.762337133994672E1    -9.171560644891822E1    -8.431125593591887E1    -1.738295088935132E1    -9.467766943173219E-1   -2.064971702213957E1    -7.898016963931480E1     1.305703048914544E2
                        -8.928517072348481E1    -1.513104580130664E2    -8.316845800756141E1     1.678744350844644E2    -9.278496252341198E1    -1.102649255156158E2    -9.175066553465126E-1   -1.787649419082530E1

 3.010000000000000E7    -2.628325186827754E-1    9.225733319764495E1    -6.994491694687791E1     1.164254247616332E1    -8.355345564721445E1     7.395488330890350E1    -8.421216021640498E1     3.567718405371612E1
                        -7.029209878104059E1     9.466722554051536      -2.653086591513942E-1    9.942613167376345E1    -7.929429208361343E1    -2.441300987266308E1    -8.383710468127596E1    -1.029194551015394E2
                        -8.143175802130374E1     1.286700798902111E2    -8.876226408852388E1    -4.448134792620379E1    -9.462534723067990E-1   -2.095114922519436E1    -8.882833304592495E1    -1.167001940459332E1
                        -8.815841704676224E1     6.167056497056982E1    -9.325036285281243E1    -1.199267480904467E2    -7.881724901743584E1    -9.551661752487451E1    -9.137657743932586E-1   -1.810323141286927E1

 3.012500000000000E7    -2.567676411021241E-1    9.187895308859871E1    -6.974218550098547E1     8.107860737704909E-1   -8.767452707533147E1     1.063294342880828E1    -8.162165766780078E1     8.720691523485509E1
                        -6.837271329464163E1     8.107506142790658      -2.743776137896961E-1    9.918332218012887E1    -8.374122762805689E1    -5.173266894191799E1    -1.037976734638415E2     1.501351760159257E2
                        -8.889900613716350E1    -3.996470497008992E1    -1.021663607828051E2     5.952399147073931E1    -9.480837000813629E-1   -2.125816754470283E1    -9.023887197414638E1     2.384822783105664E1
                        -8.424115904012183E1     1.279881437776822E2    -9.222107131811457E1    -3.030612305724906E1    -9.829215921742970E1     1.163706781725733E2    -9.160386382837686E-1   -1.848107585253866E1

 3.015000000000000E7    -2.641345234790395E-1    9.156866219364395E1    -6.922160363913700E1     1.346500245664042E1    -8.548459494039888E1     1.713136193465367E1    -9.009182927001169E1    -2.886231566526360
                        -6.838953664205019E1     1.554049242717428E1    -2.723641419792991E-1    9.880052677661563E1    -7.724752012974581E1    -8.462917201226634E1    -8.927400065985081E1     1.614937956772782E2
                        -8.850888910769604E1     1.074359545281701E1    -8.483037844919620E1     5.790264128993059E1    -9.505855105971557E-1   -2.157498742403376E1    -8.624255126832196E1     1.064916137267435E2
                        -9.637473571553089E1    -1.099595205524369E2    -8.475388426288544E1     4.927120956965155E1    -8.671986553377886E1     7.957350146749575E1    -9.106747002468336E-1   -1.871563740559135E1

 3.017500000000000E7    -2.532288270055303E-1    9.119347636386307E1    -6.710831709952689E1     5.659172458497848      -8.774391919207906E1     5.061984788436384E1    -9.380518309096220E1     1.369118555441751E1
                        -6.992468482342051E1     1.892940314634342E1    -2.647511596441881E-1    9.852547145177464E1    -8.606033682813121E1    -7.712930718814677E1    -8.147364156193029E1    -1.663868943143746
                        -8.953362082376073E1     3.612666645048341E1    -9.488650264631934E1    -1.342249294519289E2    -9.436690208314158E-1   -2.188485462672439E1    -8.807889765638394E1     1.659836613962210E2
                        -8.691857120548058E1    -1.140317301616983E2    -9.387513901097422E1    -7.921004843074176E1    -8.381283244552976E1     1.014782129097536E2    -9.102535565938897E-1   -1.904066652545326E1

 3.020000000000000E7    -2.528886063094096E-1    9.087339291801330E1    -7.001207284711060E1     1.450948465529689      -8.526425133409445E1     1.630832535394872E2    -8.308512466581946E1    -5.381518324162541E1
                        -7.043136408202581E1     1.627264245215388E1    -2.655253717513599E-1    9.820459931349201E1    -9.548078382642886E1     1.024292858064922E2    -8.456011676967302E1    -9.916051012178133E1
                        -8.296532085901914E1     8.069222441305057E1    -8.541656188263045E1     1.921874175784175E1    -9.505173740044810E-1   -2.223746605140842E1    -8.893140366274102E1    -2.250212624951804E1
                        -1.049309056538802E2    -9.419299879166172E1    -8.977987556231756E1    -1.220398848767444E2    -8.438944403051758E1    -1.234853059712899E2    -9.158952448277984E-1   -1.937723084070879E1

 3.022500000000000E7    -2.588166676751275E-1    9.052992429117956E1    -6.758548052316030E1     6.792504930740644      -8.503524979215786E1    -6.691922083693838E1    -7.731176679292173E1    -1.760412995801653E2
                        -7.011995453601969E1     9.774969513827623      -2.745866075824398E-1    9.790804271665039E1    -9.127159515318832E1    -6.551787575996654E1    -8.937112698632852E1    -8.648732891374229E1
                        -8.706429210585836E1    -6.049307092003551E1    -8.276592003079242E1     9.420305762740966E1    -9.503663640355481E-1   -2.252074781939696E1    -8.431062423849454E1     1.009069235330838E2
                        -9.105592153952733E1     1.620816087061499E1    -8.373742057844636E1    -3.087672993597701      -8.450746719475953E1    -7.638867607396739E1    -9.087931873789683E-1   -1.969088769260392E1

 3.025000000000000E7    -2.580883986597272E-1    9.021565359004485E1    -7.183264053729695E1     9.318621832886700E-1   -8.809925263138806E1     9.672349298098544E1    -8.677115428248189E1     7.714838791672379E1
                        -6.833893217817773E1     1.191317856038527E1    -2.776214040762887E-1    9.759636743799536E1    -9.143249496090280E1     1.341262220254445E2    -8.515286389945202E1     5.878540357412989E1
                        -8.909434611424047E1     4.466701964901584E1    -9.368011563834682E1    -1.683977305649204E1    -9.487323611674293E-1   -2.284636473528095E1    -8.287383770065100E1    -1.171009880071981E2
                        -1.013937588546026E2     1.493231138379739E2    -8.047148896362144E1    -9.001890813485736E1    -8.509205231969226E1    -1.285428837307177E2    -9.132641545920228E-1   -1.997945760358807E1

 3.027500000000000E7    -2.562766802215629E-1    8.986288340866156E1    -6.995890446808457E1     1.369792610730779      -8.910213205650143E1    -9.911915726139276E1    -8.492952829490886E1    -7.698609168393159E1
                        -7.219407565708482E1    -1.466892984311797      -2.578206836080392E-1    9.726362862226381E1    -7.863125545093189E1    -9.636787425305014      -8.402092627758103E1     1.746207209426024E2
                        -1.020794701928624E2    -9.375007977364554E1    -8.519413623849977E1    -1.364298980206568E2    -9.472570384263123E-1   -2.313143176051342E1    -8.257018175172368E1     5.975244659608566E1
                        -8.988710463475968E1     5.528264538042530E1    -8.783569496044463E1    -8.589537426722345E1    -8.661056608955775E1     8.207966629898783E1    -9.142188370422337E-1   -2.029260773892849E1

 3.030000000000000E7    -2.620110416483052E-1    8.953918062538899E1    -7.047996170434882E1     1.638479093695704      -9.279063079202740E1     1.327020141718851E2    -8.473630265850893E1    -3.276855582028322E1
                        -7.044744662419541E1     4.320006529871225      -2.762895822013905E-1    9.697263199570418E1    -8.012073654069732E1    -1.420691335677666E2    -8.522989236563478E1     8.792262677017598E1
                        -9.521601101327883E1    -5.346578941562319E1    -8.198331561348439E1    -3.921201617005600E1    -9.483774112944131E-1   -2.348206382184906E1    -8.381501957291417E1     1.632424904171516E2
                        -8.163083744103766E1     1.431811844739642E2    -9.104940472382353E1    -5.298020387504854E1    -8.432135820787462E1    -3.561183857727243E1    -9.146835194925835E-1   -2.061882565872760E1

 3.032500000000000E7    -2.566965152474969E-1    8.916958928317284E1    -6.979126541056596E1     7.715886731214511      -8.796674460589426E1     1.135825287335218E2    -8.994332908866713E1     9.216922252058618E1
                        -7.055194421800775E1     1.649911252695096E1    -2.576832716721114E-1    9.661007752148116E1    -9.093366459793073E1    -1.408447993668461E2    -8.705904000179005E1     1.395808240391478E2
                        -9.947032593932329E1    -3.876430209694221E1    -8.248683420666886E1    -2.018030716127731E1    -9.461508977860953E-1   -2.378148681211213E1    -9.797246423432611E1     9.276638963227897E1
                        -8.993520069729316E1    -1.061057715090343E1    -8.189767509650457E1     1.058008578417180E1    -8.239970224102437E1    -1.662895718654968E2    -9.143553320823145E-1   -2.089914224356521E1

 3.035000000000000E7    -2.574291652698796E-1    8.888520195770695E1    -6.789986139313585E1     6.043685102236114      -8.645971691730017E1     7.518572906551628E1    -9.113757494081446E1     1.196351231747741E2
                        -6.869751603172163E1    -3.740836764228376      -2.655903494870906E-1    9.635282184717372E1    -9.729813769466483E1     9.142426392070487E1    -1.035187002237598E2    -8.561523969464567E1
                        -7.819996687463107E1     7.428151313791655E1    -8.509605550976986E1    -1.038373013874839E2    -9.416693752515248E-1   -2.413219507952496E1    -9.401903721869346E1     1.728028271590616E2
                        -8.618923756445598E1     4.352963960670573E1    -8.496942156056817E1    -8.451917428979087E1    -9.426088978218868E1     9.432145247426161E1    -9.159504212980728E-1   -2.117769130376267E1

 3.037500000000000E7    -2.519115494127376E-1    8.847283500736180E1    -6.909966957512719E1     1.200373176792380      -8.778255614075427E1     1.788744116107335E2    -9.309045050340009E1    -1.624400521054937E2
                        -7.066429788106463E1    -2.736729457755316      -2.725505572462062E-1    9.595836972135884E1    -8.969700491314093E1    -2.567647086708218      -8.402351000716443E1     3.607022764589053E1
                        -8.855739109528523E1     1.073549220956314E2    -7.894990973201990E1    -9.097204017240280      -9.481698765051718E-1   -2.442617298154332E1    -8.456735415843738E1     1.039398961446034E2
                        -8.500859002770477E1     1.286946479307751E2    -8.681106669711605E1    -1.752005418381582E2    -8.577223531298643E1     1.572227334043733E2    -9.117376319193066E-1   -2.150481825824909E1

 3.040000000000000E7    -2.471247125855323E-1    8.818864926865246E1    -6.853292866372043E1    -3.875292806314071E-1   -8.542191934165508E1    -8.566847331046343E1    -8.072708897069047E1     2.090999351753504E1
                        -7.057156088180614E1     4.932839410015770      -2.686109703740138E-1    9.571174824955460E1    -8.930683001096305E1     9.503528223207130E1    -8.885733425655505E1    -1.766636479786339E2
                        -8.654239387263212E1     9.176888071214857E1    -8.343321375412612E1     1.707431347495014E2    -9.451988539296184E-1   -2.473634491742293E1    -8.215753118556377E1     1.789736153816154E2
                        -9.242033386748193E1     6.554259998521181E1    -8.031314434465750E1    -1.640621078807892E2    -8.814786337935587E1     4.226976341703166E1    -9.117458869291606E-1   -2.178173973044411E1

 3.042500000000000E7    -2.515291897650618E-1    8.786427225847443E1    -6.895889790872722E1     8.340904625718931      -8.470708672676251E1    -8.307967325318386E1    -9.387776508640852E1    -3.464066217379479
                        -6.853440221157753E1     5.668791401387869      -2.649969142558051E-1    9.545410848393708E1    -9.336913706616328E1    -1.678120445525236E2    -8.633993966331218E1    -6.880469644930770E1
                        -8.317785448462858E1     1.150521151416556E2    -8.364668046003347E1     1.108307121087619E2    -9.490377843576821E-1   -2.506954614108392E1    -8.538837736334520E1    -1.213602596441358E2
                        -9.202666259887381E1    -1.616565373206297E2    -8.593353770598036E1     1.283481279489903E2    -9.662070106209596E1     1.568353974594992E2    -9.168872067527096E-1   -2.212377946535114E1

 3.045000000000000E7    -2.502985391761209E-1    8.746341363706931E1    -6.734283982189227E1     2.019751129831302      -9.196407009987729E1     9.689060680992046E1    -8.749032791704249E1     7.363011612558898E1
                        -6.994630599382913E1     5.210918598826910      -2.597020865919960E-1    9.506899709502952E1    -8.139009201369120E1    -3.598864752558927E1    -8.323010475141547E1    -1.755674416698546E2
                        -9.064719524707053E1    -1.454487179175199E2    -8.734469306709059E1    -1.685941227941025E2    -9.483236309919784E-1   -2.538011299883523E1    -9.354573786037484E1     1.448394864275151E2
                        -8.754270665328754E1     1.135212433778262E2    -9.687298837139615E1     3.379139754388584E1    -9.593129360368890E1    -3.506240125066266E1    -9.156550042858320E-1   -2.243776959257963E1

 3.047500000000000E7    -2.523172428650838E-1    8.712217246081713E1    -6.911528718891924E1     1.987725148775314      -9.444652514622051E1    -1.257013430812804E2    -8.772673898172023E1     1.292676418753912E2
                        -6.855496410404879E1     7.826659387698013      -2.675858809625454E-1    9.482320852663996E1    -8.489801615514440E1    -1.696717466815991E2    -8.401707620854133E1     5.679822163426793E1
                        -9.635489054795843E1     5.053623753568266E1    -8.780286177593166E1     8.308840417942042E1    -9.444920427879179E-1   -2.569597741937911E1    -9.846663745864458E1    -1.090903523680439E2
                        -9.237471270868417E1    -3.926112125865102E1    -8.803813830583705E1     8.305674478713550E1    -1.017068635559684E2    -9.600862081550071      -9.157733194139307E-1   -2.270465084164319E1

 3.050000000000000E7    -2.514864378584226E-1    8.681110908386455E1    -6.896573345758694E1    -6.443707630363653      -9.235481626090525E1     8.196660438676433E1    -9.951220031581151E1     3.497824182967072E1
                        -6.754328623841823E1     1.604712448617882E-2   -2.593002372683215E-1    9.447781266513441E1    -8.771731122925988E1     1.524262584989253E2    -8.747681595191564E1    -1.257211326297035E2
                        -7.978506394294426E1    -9.952903730131548E1    -9.797193053744023E1    -1.400735195540166E2    -9.499797731604270E-1   -2.600844708644731E1    -8.445770292009067E1     1.366064134548315E2
                        -9.587909657530742E1     1.166740565145815E2    -9.459922187521539E1    -8.167364279572549E1    -9.003709995342524E1    -2.235933184715034E1    -9.127885944090592E-1   -2.303624123703257E1

 3.052500000000000E7    -2.508077563259365E-1    8.648898738149266E1    -6.897380513004012E1    -5.049643853004969E-1   -9.058834899863970E1     8.393349913333280E1    -8.724071926224306E1    -1.375932103313836E2
                        -6.846779873951641E1     1.182363396727977E1    -2.688688125304971E-1    9.423823077257597E1    -8.149294091567390E1     4.226367122675251E1    -8.423412966477976E1     9.290526749640717
                        -9.069225625109495E1    -6.143225907741911E1    -9.002637883660643E1     6.737224509400966      -9.417302703962037E-1   -2.631373460666717E1    -9.345368906507069E1    -1.114718108423278E2
                        -9.166191927843644E1    -1.360209451090441E2    -9.295027703196296E1     6.692851633574919E1    -8.373138193946070E1     9.259534627164305      -9.152958980567656E-1   -2.336475263621691E1

 3.055000000000000E7    -2.510161674390750E-1    8.611058840536001E1    -6.803157157546134E1    -5.077436199041371      -9.298710984683540E1     3.981447867149719E1    -8.978224532676396E1     1.676705009306687E1
