#  HZ   S   DB   R     50.00 
! Rohde & Schwarz Vector Network Analyzer 
! Rohde-Schwarz,ZNB8-4Port,1311601044102961,2.82
! Created: UTC 2/13/2019, 2:09:33 PM
! freq[Hz]                db:S11                  ang:S11                 db:S12                  ang:S12                 db:S13                  ang:S13                 db:S14                  ang:S14
!                         db:S21                  ang:S21                 db:S22                  ang:S22                 db:S23                  ang:S23                 db:S24                  ang:S24
!                         db:S31                  ang:S31                 db:S32                  ang:S32                 db:S33                  ang:S33                 db:S34                  ang:S34
!                         db:S41                  ang:S41                 db:S42                  ang:S42                 db:S43                  ang:S43                 db:S44                  ang:S44
! 
 5.525000000000000E7    -4.086025418598596E-1    9.753422918150041E1    -3.018725614990474E1     7.248734907909888E1    -8.392023367377037E1     9.270403513599469E1    -7.929970714767084E1     8.296137062850696E1
                        -3.014910962051637E1     7.393851332814701E1    -1.356925540105965      -1.318624311915802E2    -7.626048852795553E1    -6.192517220274178      -6.622617452074995E1    -1.495032591811651E2
                        -8.712265942280796E1     7.959329312463324      -8.153512763450478E1    -1.124145163681034E1    -1.417847877875704       2.469624852639967E1    -8.827173853922827E1    -9.177852027656697E1
                        -9.264108421895294E1    -4.540685687748285E1    -6.780137308749539E1    -1.504730587124166E2    -9.588758054760403E1     9.653321760895003E1    -1.432045449713418       3.120146267506080E1

 5.525025000000000E7    -4.106985965819795E-1    9.750848089150070E1    -3.016672373968786E1     7.355253627793809E1    -9.005954407746907E1    -8.536435193868445E1    -8.388841928126000E1     1.090624393949629E2
                        -3.009209492264659E1     7.307944823899990E1    -1.354915305359871      -1.318846073870580E2    -8.804811059433777E1     1.181625557364558E1    -6.780374083192260E1    -1.510607719496621E2
                        -9.424944886503016E1    -1.402789785588331E2    -8.337440047284443E1    -2.906759582536441E1    -1.414864951767342       2.469791132495951E1    -8.450738109465002E1    -4.792808309265788E1
                        -8.077720085834358E1    -7.326002898737096E1    -6.606130527754638E1    -1.408112685569392E2    -8.827863367015206E1     1.795415549031146E2    -1.429227175827759       3.117974362525566E1

 5.525050000000000E7    -4.110288947357505E-1    9.749515482228348E1    -3.019068217446723E1     7.317235230467522E1    -8.639385540014501E1     4.334090669733238E1    -8.813873135865788E1    -1.096514778227112E2
                        -3.028438331123371E1     7.339011766202873E1    -1.355464253476439      -1.319148053503016E2    -8.173726954686845E1     2.321196573876488E1    -6.595350340839418E1    -1.426949208555480E2
                        -8.771524253177704E1    -1.367342529653084E2    -9.336853666764543E1     5.550374213195301E1    -1.412418512003575       2.469188679515969E1    -8.661823139710234E1    -1.189057065745196E2
                        -8.302146692217872E1     3.669167501973111E1    -6.638115194026496E1    -1.488321827839183E2    -1.055027551166041E2     1.603184705263103E2    -1.432205730698818       3.119977302957098E1

 5.525075000000000E7    -4.066024662814478E-1    9.748154378813608E1    -3.023415806568828E1     7.351099130568868E1    -8.795521429147473E1     1.528472890512060E2    -9.121065024597969E1    -8.906765994325913E1
                        -3.017064942504326E1     7.288031112430686E1    -1.354526458050380      -1.319752933147784E2    -7.785510235790963E1     5.703649422051416      -6.589848987987134E1    -1.538310755553186E2
                        -9.415831848915522E1    -1.678498544164218E2    -7.945528142489773E1     1.417333387137403      -1.412598245274235       2.466135408874054E1    -8.718377468991244E1    -1.542264819031807E2
                        -8.778280903179523E1     1.026993725609760E2    -6.749326824611221E1    -1.503563359121387E2    -8.401658410979630E1     8.068456775695373E1    -1.434983930166553       3.124234177602596E1

 5.525100000000000E7    -4.088395595084538E-1    9.747710770638129E1    -3.025417683736635E1     7.331801604937023E1    -8.768164904142013E1     1.117572148300873E2    -8.602036045352696E1     1.378688892352503E1
                        -3.025116445726506E1     7.403863103252871E1    -1.361777515517590      -1.319961152999286E2    -9.235900562885142E1     1.328513405344309E2    -6.800325429404543E1    -1.402804819150568E2
                        -9.420766878621109E1    -1.001551292284171E2    -7.905822254152506E1     5.514319655618224      -1.404897525260149       2.469732581956135E1    -9.490614041309696E1     9.747628899779463E1
                        -9.654186222136075E1    -1.237898260796434E2    -6.683874472001415E1    -1.549322081574220E2    -1.007490244026795E2     1.007215890400846E1    -1.436785576499537       3.120624045100651E1

 5.525125000000000E7    -4.087221488238110E-1    9.748661928544340E1    -3.015965859111802E1     7.290569718997209E1    -8.214355010873503E1    -2.697614513305717E1    -9.739948497320140E1    -4.683686044653393E1
                        -3.023506786128588E1     7.299687071717979E1    -1.362414904361038      -1.320199096031309E2    -8.253018241815043E1     1.227387360501111E1    -6.699901995400276E1    -1.473976769689106E2
                        -9.657908248695726E1    -9.275881894753758E1    -8.050402502616977E1     3.147518776888342E1    -1.412191638712905       2.467279927362761E1    -8.241126836499119E1    -9.366628028557187E1
                        -8.848979893571655E1     5.856032104808595E1    -6.701559072686648E1    -1.511893813570465E2    -9.584117918435223E1     1.689721852202659E2    -1.436503231935704       3.116475629624877E1

 5.525150000000000E7    -4.092709394554646E-1    9.749942093825321E1    -3.016485220971649E1     7.297394971466630E1    -8.207835736551439E1     1.160147773425745E2    -8.867942604435444E1    -1.046958026647829E2
                        -3.019091054960878E1     7.316837546720390E1    -1.363873631656655      -1.320728406743391E2    -7.883460615554928E1     4.856073138808760      -6.676008114336769E1    -1.501901675437904E2
                        -8.821740736107479E1    -5.399164765198731E1    -7.686535084962253E1    -3.839465734057053E1    -1.415064123484109       2.467916914141677E1    -8.304957115668702E1    -6.511315636874900E1
                        -9.474897849179705E1    -7.393751739327891E1    -6.658315075477738E1    -1.472052343145674E2    -9.196281809937950E1     1.621445084946275E2    -1.431544804166726       3.118810250959766E1

 5.525175000000000E7    -4.113901452805592E-1    9.747297236856579E1    -3.017311578298625E1     7.365723835340641E1    -8.781904867804890E1    -7.828547980075432E1    -8.332133320348839E1     1.492770472001444E1
                        -3.017606774098719E1     7.350311072794480E1    -1.365491878913486      -1.321412281541269E2    -7.339184490260608E1    -6.175627576792595      -6.663314957505124E1    -1.510075113053030E2
                        -9.273641453604144E1     1.692710925458419E2    -8.220121428678650E1     2.462193948298909E1    -1.409829329109175       2.467477003871877E1    -8.219965250927552E1     5.327363326529554E1
                        -8.745379597304299E1    -5.361040203885955E1    -6.573831271755586E1    -1.426494053560510E2    -8.659895700544780E1     1.161424853811735E2    -1.430432825171984       3.119243089719687E1

 5.525200000000000E7    -4.081931716457669E-1    9.747857399886638E1    -3.024143553753566E1     7.275794081678868E1    -8.335463599376391E1     1.162351242513019E2    -8.338770808460373E1    -7.353685310511848E1
                        -3.024944470777587E1     7.294884652608614E1    -1.369666903394482      -1.321538504648262E2    -7.887814968022744E1     1.640812912064667E1    -6.637241392014168E1    -1.436592937796451E2
                        -8.333766307348282E1     1.052560376508438E2    -7.780776615520065E1     6.172105184692161      -1.411345587389320       2.464020609195040E1    -8.875980064735043E1     1.498844359188646E1
                        -8.645154429983394E1     4.171051851598697E-1   -6.695120073378089E1    -1.542222386004159E2    -8.958767879140355E1    -1.520988515653624E1    -1.428701670283230       3.118641435501113E1

 5.525225000000000E7    -4.089833081879847E-1    9.749818048026947E1    -3.017907265639325E1     7.377678201432148E1    -8.629934036340168E1     3.357702856562406E1    -8.210375882082809E1     1.622429886121336E2
                        -3.022715314521867E1     7.319972656038202E1    -1.366508386986777      -1.321695409216448E2    -8.154690805252253E1     4.609100015557798      -6.653800361182158E1    -1.496830697547982E2
                        -9.287709003005786E1    -6.016708166088846E1    -7.643386307388261E1    -5.705099038033316      -1.414215142265724       2.465491224373764E1    -8.994658183139387E1     1.449393852208502E2
                        -8.235162776935542E1    -1.533680097432190E2    -6.717864530152006E1    -1.519708040489242E2    -8.754114030262642E1     1.403777923180045E2    -1.431391157093671       3.117435232851961E1

 5.525250000000000E7    -4.102347072466549E-1    9.748205766164975E1    -3.019062087247162E1     7.370609631759386E1    -8.843517164729531E1     1.523532412856833E2    -8.927363397569468E1    -1.728988064247922E2
                        -3.017834602972832E1     7.316870655782745E1    -1.368719515928271      -1.322268911407653E2    -7.830458348783623E1     3.359124757661854E1    -6.633935532982731E1    -1.493856879191237E2
                        -8.884695490395069E1     1.250421613005210E2    -8.454013829090941E1    -2.606431276690733E1    -1.408041988497348       2.464701241510468E1    -8.697296116125641E1    -3.561716463937860
                        -8.592339482185625E1     1.315639311831702E2    -6.746772318183768E1    -1.502846158869990E2    -8.870845578240385E1    -9.531216998384356E1    -1.431786278578120       3.114618276959677E1

 5.525275000000000E7    -4.108813633073863E-1    9.744364761322790E1    -3.022623363646581E1     7.294871545909240E1    -8.169888271096158E1     1.209532555996903E2    -8.183124052626062E1    -4.637549733976285E1
                        -3.028307284949715E1     7.325877834062665E1    -1.372323782050775      -1.322424387697455E2    -7.955149018826121E1    -2.336465945215631E1    -6.803901428253793E1    -1.570384354081557E2
                        -8.202595728013223E1     1.765035217021086E2    -7.853327815461313E1    -2.779796639882750      -1.414037148864169       2.463801631449130E1    -8.974411818920072E1    -8.322667394489592E1
                        -8.470028095727889E1     6.764063377598403E1    -6.639500006791435E1    -1.505623774434640E2    -8.570701262000299E1     6.047745436776852      -1.429160541403215       3.118115272901196E1

 5.525300000000000E7    -4.083247814399162E-1    9.745267029278415E1    -3.014863321973663E1     7.367119354185552E1    -8.425067924047291E1     1.038908757756175E2    -8.891302015176109E1    -5.474626709241082E1
                        -3.016796872216332E1     7.328472227958996E1    -1.372386319672895      -1.322969105910103E2    -8.219981206217665E1     1.990852778963522E1    -6.671815045609607E1    -1.579930365253610E2
                        -9.675773919900350E1     9.022585498458064E1    -7.997934746481279E1    -2.677821528263314      -1.413364553960122       2.465419503145037E1    -9.021064560109231E1    -6.951914825653465E1
                        -8.750947168898966E1     7.060347128210671E1    -6.645314346684076E1    -1.440687652785353E2    -8.533789200063384E1    -1.470487035778735E2    -1.428916928593985       3.115432070723401E1

 5.525325000000000E7    -4.059979530184642E-1    9.744422781792187E1    -3.013646897494933E1     7.352905470515759E1    -8.935401001377953E1    -5.741498056233650E1    -8.128457057205452E1    -1.751320703652844E2
                        -3.023187412958211E1     7.391493770692136E1    -1.377300683655403      -1.322950005234060E2    -7.878248502025882E1     8.981666106998258      -6.542925107053819E1    -1.418759372540042E2
                        -8.978427069366467E1     1.141974015502455E2    -7.705420977391549E1     2.946091111452877E1    -1.410736642264592       2.464800192227196E1    -8.804747682027590E1     1.344397231101332E2
                        -8.139244684030723E1     1.783983299786984E2    -6.781942952154877E1    -1.517195322976365E2    -8.320993705251820E1    -1.620155006872031E2    -1.431454350567942       3.114863366048587E1

 5.525350000000000E7    -4.094289589437439E-1    9.742489178894265E1    -3.023527471625648E1     7.292090379714969E1    -8.480660731869058E1    -1.609332068135229E2    -8.327437150818760E1    -4.405702909054413E1
                        -3.019902685685246E1     7.300494596717046E1    -1.376709432668479      -1.323841005269021E2    -7.658017789076580E1    -1.744465556260022E1    -6.828292494992053E1    -1.506283193987849E2
                        -8.369324956456057E1    -1.638557960881975E2    -7.818879737925015E1     1.186844419462229E1    -1.409978975547757       2.464912883575519E1    -8.699024294088250E1     1.732361232543436E2
                        -8.964635385565991E1    -6.353362062979757E1    -6.732756267819038E1    -1.425148158018674E2    -8.757481180474753E1     1.731584744724543E2    -1.431161116041788       3.115621667197579E1

 5.525375000000000E7    -4.053177228120261E-1    9.745392749194301E1    -3.024369502340582E1     7.317131847739121E1    -7.534699701371005E1    -1.610540026490007E2    -9.075688106507812E1     1.134660741125635E2
                        -3.027090531651353E1     7.279822143130352E1    -1.376554141894458      -1.324096886413050E2    -7.768179768744241E1     1.399685400219884E1    -6.701642059574114E1    -1.455699541784143E2
                        -9.428757217725126E1    -1.475682397289456E1    -7.643233415505361E1     9.332158078062163      -1.409135457453402       2.464561570238694E1    -9.120929090126077E1    -4.302595426165902E1
                        -8.521839624555798E1    -9.852245820291473E1    -6.737905879280690E1    -1.485891207998586E2    -9.168550734952271E1    -1.723402606747097E2    -1.433885309735756       3.113917210077295E1

 5.525400000000000E7    -4.086947251632794E-1    9.743493105624906E1    -3.030223753382566E1     7.308242063867944E1    -7.957144487074575E1    -1.432388789282547E2    -8.259531215314736E1    -1.070795610779073E2
                        -3.016789064753875E1     7.299415343810661E1    -1.377101434783203      -1.324138154655461E2    -7.871922651127353E1    -2.989989227759433E1    -6.711584089490160E1    -1.518726232572194E2
                        -8.361243728514162E1     2.036141384878945E1    -7.738660606841324E1    -1.535013651747456      -1.414270936891713       2.463841482407328E1    -8.638547083553544E1     9.457132057751383E1
                        -9.185185526845743E1    -4.641954289153390E1    -6.745117257480898E1    -1.477249917101096E2    -8.785326264469320E1    -1.683065806154186E2    -1.428902079279761       3.115832187882035E1

 5.525425000000000E7    -4.127189117117170E-1    9.743864603295863E1    -3.015110745177568E1     7.241857431282482E1    -8.485241629709229E1    -1.706240479880910E2    -8.718274018202175E1     6.850070971783205E-1
                        -3.027808798852102E1     7.256497937145687E1    -1.377636137023148      -1.325048994929569E2    -8.039476354675878E1     4.877215579865118      -6.692476510779378E1    -1.520122167468637E2
                        -8.537480282298063E1    -4.789655566706149E1    -7.386899474549153E1     4.888566642730662      -1.409907394488541       2.465254227070647E1    -8.581599653053968E1    -1.166529766422748E2
                        -8.793001071530892E1    -1.146096498682908E1    -6.764119435450286E1    -1.498206361491095E2    -9.327471792998446E1    -3.540662734980474E1    -1.433485062223693       3.115209234343964E1

 5.525450000000000E7    -4.083901721037347E-1    9.741629298775695E1    -3.022241164099595E1     7.255289077545494E1    -9.030887378926161E1    -1.237095501031579E2    -8.940940511389096E1     1.749416353927248E2
                        -3.025747625574992E1     7.302766091817291E1    -1.378924052255410      -1.324797543689260E2    -7.794128600075565E1    -1.144985492541173      -6.726794305259452E1    -1.457972220003549E2
                        -8.675500460785796E1     1.468667693598533E2    -7.735214759601379E1     1.069898826016912E1    -1.413346211499868       2.464747485995651E1    -7.966078269215207E1     1.412691859890252E2
                        -9.389281762035067E1    -1.320717768123548E1    -6.676841911559785E1    -1.450778709224113E2    -1.035762794994049E2     2.763919903014182E1    -1.428655212432674       3.113395130662292E1

 5.525475000000000E7    -4.059012579514018E-1    9.740267474302856E1    -3.020386990298120E1     7.286326028967967E1    -9.182240209031116E1     1.382117506105760E2    -9.025211903292856E1    -1.408186883889213E2
                        -3.030128507385734E1     7.248396371000199E1    -1.386786925223525      -1.325270889739685E2    -7.839199935646168E1     2.021805569645176E1    -6.727601588956955E1    -1.470829097908203E2
                        -9.177181730939100E1    -1.071703869858834E2    -8.161015586335910E1    -9.316532190016874      -1.415516164231525       2.465534904693036E1    -8.817993278327415E1    -1.556781167528446E2
                        -8.872866686707224E1    -1.757173532468205E2    -6.657025056814008E1    -1.498460941171036E2    -9.553115456689352E1     7.008757226161687E1    -1.435359473915249       3.113153406523032E1

 5.525500000000000E7    -4.063023366586130E-1    9.739336048631932E1    -3.016906977034763E1     7.324543165371486E1    -9.146487350500728E1     1.574296064438750E2    -8.557379683379099E1     1.520356042783423E2
                        -3.018256582791524E1     7.266990301364915E1    -1.388242516160634      -1.325873233039965E2    -8.071334302158437E1     7.248917817811656      -6.690541024494503E1    -1.439613892831552E2
                        -8.181124720698156E1    -6.046391880466462E1    -8.328500275084365E1     2.162673014693512E1    -1.417607324030387       2.463204744090505E1    -7.783005995863667E1     1.563889308088506E2
                        -8.930749198705159E1     9.170982472621786E1    -6.637668820692096E1    -1.560324086387704E2    -8.602454461933805E1    -1.776168602749448E2    -1.427723811300571       3.113964348626707E1

 5.525525000000000E7    -4.022270120470354E-1    9.741750130032531E1    -3.022470939771614E1     7.309227712106264E1    -8.136361124728892E1     1.383946797890358E2    -8.902083778103554E1     4.984872938881433E1
                        -3.015459645627093E1     7.276097803953998E1    -1.384286104905352      -1.326322232194853E2    -7.539339795404383E1    -1.592396007214179E1    -6.840942159802926E1    -1.564333949446272E2
                        -1.210651359034885E2     2.989653362613500E1    -7.669368182104807E1     1.695463612800501E1    -1.408888934443145       2.465120673610830E1    -9.055262096720590E1     1.454349541058191E2
                        -1.034250130824407E2     1.678839731939157E2    -6.644690590333308E1    -1.544503424983864E2    -8.125740554156913E1     7.084477617151607E1    -1.432920623465536       3.112794277786198E1

 5.525550000000000E7    -4.090238796575434E-1    9.745583023426525E1    -3.015010231631464E1     7.309746494219031E1    -8.520684892024042E1     1.308285963957146E2    -9.142966771960934E1     1.958232433953318E1
