#  HZ   S   DB   R     50.00 
! Rohde & Schwarz Vector Network Analyzer 
! Rohde-Schwarz,ZNB8-4Port,1311601044102961,2.82
! Created: UTC 2/13/2019, 1:48:38 PM
! freq[Hz]                db:S11                  ang:S11                 db:S12                  ang:S12                 db:S13                  ang:S13                 db:S14                  ang:S14
!                         db:S21                  ang:S21                 db:S22                  ang:S22                 db:S23                  ang:S23                 db:S24                  ang:S24
!                         db:S31                  ang:S31                 db:S32                  ang:S32                 db:S33                  ang:S33                 db:S34                  ang:S34
!                         db:S41                  ang:S41                 db:S42                  ang:S42                 db:S43                  ang:S43                 db:S44                  ang:S44
! 
 5.525000000000000E7    -4.259082377743347E-1    9.751443319622645E1    -2.951820631623227E1     7.125408932788409E1    -8.346484507831988E1    -4.469453412667600E1    -8.456001572442108E1    -7.185231982249559E1
                        -2.957374539627212E1     7.099141023211264E1    -2.130572245860298      -1.404915432828187E2    -6.593222964248017E1    -1.569867597254568E2    -7.547495795222174E1    -1.835826338460898E1
                        -8.315453537724787E1     9.790450764474558E1    -6.570919340152994E1    -1.624281567727445E2    -1.412161165505863       2.469470233684526E1    -7.779170239844217E1    -1.312456690155411E2
                        -7.969319317196575E1    -1.387517207900180E2    -7.497783944022930E1    -5.107785138283941      -9.380187301484506E1     1.237408982092766E2    -1.432899359348212       3.119318857113220E1

 5.525025000000000E7    -4.219968524125420E-1    9.749667521715472E1    -2.957181313654619E1     7.142396620485732E1    -8.598680527580208E1     5.616551523689243E1    -8.259978438882106E1     1.781623967485745E2
                        -2.955027197526665E1     7.142228351809249E1    -2.134815237459811      -1.405866133075791E2    -6.731095713270685E1    -1.521474050379992E2    -7.595406807285977E1    -1.239067222689493E1
                        -8.776604954270134E1     4.252602906722584E1    -6.584471332698055E1    -1.591410849979932E2    -1.414754834115161       2.471765716417222E1    -8.074869158222370E1    -1.279034767325395E2
                        -8.530044487177725E1    -1.538452789839603E2    -7.456311611264839E1    -6.862737757910056      -8.283330208648005E1     8.070174951051378E1    -1.431698530534837       3.120367751671496E1

 5.525050000000000E7    -4.250161130474595E-1    9.745740939458864E1    -2.967408665558730E1     7.152464224699217E1    -9.512073630385896E1    -1.613194790617609E2    -8.634253267941642E1     1.698841689270676E2
                        -2.957786947778367E1     7.064010786051912E1    -2.135776204650842      -1.406148680059915E2    -6.623099292914490E1    -1.601362745775427E2    -7.676181880823518E1    -1.133863811911026E1
                        -8.211778522442579E1     2.342435213416099E1    -6.687644123848342E1    -1.566295674316611E2    -1.408388425125793       2.471650339971285E1    -8.235517144252790E1     1.257353424430373E1
                        -8.887964012848585E1    -8.385567462287057E1    -7.687719358827364E1    -2.576193754894038E1    -9.876797218809438E1    -1.453251859072299E2    -1.429504500389845       3.120126477511874E1

 5.525075000000000E7    -4.208404807200692E-1    9.745976979646105E1    -2.961343909640877E1     7.096358783696776E1    -8.910514965037514E1     9.699746432057705E1    -8.494426542128019E1     6.293250120473808
                        -2.959770836307344E1     7.116693175757538E1    -2.139885320336824      -1.406286148792861E2    -6.776308119932133E1    -1.570710486081005E2    -7.693094881967646E1     9.520825050871450
                        -8.544794080905766E1    -5.577896724388706E1    -6.770672358108730E1    -1.553167769623192E2    -1.414227652529450       2.468531651462797E1    -8.370400168551639E1    -1.193723548022063E2
                        -8.397952107051735E1     2.732462643318421E1    -7.384498690743121E1     1.250914718147434E1    -8.922936859586157E1    -1.182027396395054E1    -1.429304316729241       3.117197151573321E1

 5.525100000000000E7    -4.201825761460200E-1    9.748176287012510E1    -2.959237289414499E1     7.100518594232860E1    -8.740402579741804E1     7.619391078800024E1    -8.938261361443459E1     1.508854191277241E2
                        -2.964689249950664E1     7.092481741892719E1    -2.140153442274040      -1.406855682211491E2    -6.535513863075381E1    -1.554692373280404E2    -7.787277290014015E1     3.622919969204843
                        -8.590773682362432E1     1.075857548767514E2    -6.650800676872015E1    -1.552190865059113E2    -1.411024365823645       2.471262092756794E1    -9.516975572101831E1     1.619247551655236E2
                        -8.476585450294785E1    -1.299420023043546E2    -7.402406264444548E1    -2.504143082142643E1    -9.276410573723709E1     8.188797219568443E1    -1.429031141060920       3.121728360407563E1

 5.525125000000000E7    -4.205462776333924E-1    9.747035406610502E1    -2.959747769270862E1     7.101935787900018E1    -9.701932260976315E1     1.211073427447975E2    -8.704916118895609E1     1.523690873688356E2
                        -2.963014127173067E1     7.138060631194767E1    -2.145769833576445      -1.407027213878797E2    -6.626333833811754E1    -1.582622051551754E2    -7.602482156036319E1     2.000964060081167
                        -9.116132746609009E1    -1.399134563334760E2    -6.705713644082253E1    -1.643427746103018E2    -1.413834367206773       2.471019736730629E1    -8.693805320286199E1    -5.937944607044386E1
                        -8.249765196773521E1     1.435427887726143E2    -7.613166029289255E1    -1.409047181450481E1    -8.687066050825106E1    -8.897252600366294E1    -1.433755192044415       3.119496940311025E1

 5.525150000000000E7    -4.222882113725301E-1    9.747299921789312E1    -2.959365493762114E1     7.164173095108889E1    -8.335103034056590E1     9.239942124471347E1    -8.417755355638406E1    -9.094210790716871E1
                        -2.954558573257081E1     7.189020129324346E1    -2.145971942122021      -1.407736527935091E2    -6.661038517218928E1    -1.536987243511810E2    -7.450863737072943E1    -1.499194279972544E1
                        -8.585898167539655E1     5.416631736397776E1    -6.667177243532011E1    -1.590460856322242E2    -1.411665000546110       2.467879765994700E1    -8.774890333796259E1     6.487644838237661E1
                        -8.554580716558982E1    -2.804043280414440E1    -7.919174654232805E1    -8.260570582020579      -9.692684198203685E1    -1.343502974904856E2    -1.430784511591106       3.117890535008180E1

 5.525175000000000E7    -4.233600832709202E-1    9.747792857841728E1    -2.959346168305320E1     7.162575893050604E1    -8.847663764548024E1    -1.259393835849979E2    -9.333986625067232E1    -2.006002316281795E1
                        -2.961017001139737E1     7.148564789939890E1    -2.147966840229543      -1.408106431638869E2    -6.656329152010731E1    -1.456757037192311E2    -7.552483026732345E1     2.945105136990527E1
                        -7.898051594356909E1     8.388366616330585E1    -6.702768904123066E1    -1.636712701124145E2    -1.411278657877702       2.472868550966627E1    -8.724677720668456E1    -1.792191640149091E2
                        -9.091612347815952E1    -3.899700789426171E1    -7.443362067214169E1    -4.181492989072138      -8.815651144960657E1     3.646465348639034E1    -1.428693449831009       3.119377229051946E1

 5.525200000000000E7    -4.192707109005047E-1    9.745192817932691E1    -2.963934386156594E1     7.086120046346956E1    -8.632580976951604E1    -8.899131463328939E1    -8.580470237972196E1     5.787466139265511E1
                        -2.963640151643740E1     7.076752612696090E1    -2.151068550551808      -1.408107685686772E2    -6.625639488318052E1    -1.508440530641028E2    -7.549367104577124E1    -2.293059482836019E1
                        -1.088602724512014E2     9.251384752661977      -6.664806009393122E1    -1.571424754641795E2    -1.412941700066096       2.468910194049290E1    -8.618298564424003E1    -1.029463966186766E2
                        -8.912062630498522E1     1.014798687774195E2    -7.825706225397957E1    -1.454131535028835E1    -8.925003315632090E1    -6.902980462153259E1    -1.430328339910494       3.117464605644619E1

 5.525225000000000E7    -4.232517727223210E-1    9.746562507801828E1    -2.960556744143211E1     7.121759534940782E1    -8.541954924854288E1     1.136944957589752E2    -8.899566175457676E1    -1.343394904314464E2
                        -2.955622444958077E1     7.141321343903525E1    -2.150600771768770      -1.408931125226027E2    -6.643370561548549E1    -1.634379123752023E2    -7.388031886821997E1     1.394681855687673E1
                        -8.779226401324550E1     3.358948706098201E1    -6.800142081023773E1    -1.611119833690676E2    -1.412867299877554       2.468213096597663E1    -8.760658225527331E1    -7.644265335987085E1
                        -9.929435697847607E1     1.176662427224246E2    -8.082053393513051E1    -1.834013152861411E1    -8.453123485632838E1    -1.715152472139342E1    -1.432616260817210       3.119784344437480E1

 5.525250000000000E7    -4.192544245989122E-1    9.744468944940049E1    -2.955081796002856E1     7.090883589783176E1    -8.520514706680542E1    -5.104693836213096E1    -8.110721758980139E1     9.654740224758461
                        -2.961303021121677E1     7.083949558577658E1    -2.159162584495010      -1.409183188368927E2    -6.586718614568294E1    -1.553276307669132E2    -7.506214669134273E1    -1.943089267436031E1
                        -9.191039149265706E1     1.540162878344030E2    -6.668096540131585E1    -1.617244599764221E2    -1.408658746886003       2.468435425912071E1    -8.962584125827306E1    -9.005903584224525E1
                        -8.740513338614669E1     8.888893534980851E1    -7.294620294147097E1    -9.115067206749107      -8.334736082387701E1    -8.389991514962829E1    -1.431404525165213       3.115645969863482E1

 5.525275000000000E7    -4.204465215569851E-1    9.742932671130210E1    -2.950611874514241E1     7.126946964368698E1    -8.227023838959909E1     1.126718552963737E2    -8.930548192660071E1    -1.413440235117683E2
                        -2.953802459727039E1     7.129064632188478E1    -2.159050299023731      -1.409618274029722E2    -6.700604133083566E1    -1.653091827702570E2    -7.282737809894483E1    -2.104796427176598E1
                        -8.482658197456394E1    -1.424987880199484E2    -6.770427012650531E1    -1.528774623510674E2    -1.411900346135102       2.465979550332470E1    -8.751318428523355E1    -5.781207748689730E1
                        -8.677082572149610E1    -1.567425396807173E2    -7.596528043000316E1    -1.424447710531594E1    -9.151319320692016E1     4.262440712890616E1    -1.431854975925536       3.116994095455985E1

 5.525300000000000E7    -4.222436274523092E-1    9.744511565028438E1    -2.960272743880602E1     7.097874188764696E1    -8.535244356964373E1     1.396844123041797E2    -8.160910355002224E1    -5.421179577875416
                        -2.961095162796061E1     7.048740228643307E1    -2.165929001325933      -1.409876318340499E2    -6.584795450740702E1    -1.560310293448692E2    -7.993206230740016E1     1.998347211475564
                        -8.380655827631821E1    -1.289464613656009E2    -6.544010904242461E1    -1.587773951446926E2    -1.412369584928671       2.466204856824843E1    -8.414345729310043E1     9.474898404082026E1
                        -9.183939300476000E1     1.351023299287357E1    -7.714402197589823E1     1.207276098728789      -8.490730464493873E1    -5.908070266242074E-1   -1.424946695840272       3.116534537356661E1

 5.525325000000000E7    -4.234050831775855E-1    9.740041465605519E1    -2.961471068247798E1     7.161031840198071E1    -8.676285345222078E1     7.757976249077264E1    -8.831082550948482E1    -6.937034631381060E1
                        -2.962786783143512E1     7.127551761477611E1    -2.161194872154948      -1.410220539446171E2    -6.621755026948044E1    -1.589761577162200E2    -7.525515614362007E1    -2.446855435767350
                        -8.756454762694474E1     1.192849709976341E2    -6.727939526637717E1    -1.518065513278753E2    -1.409024006723290       2.466602026958362E1    -8.927987645870098E1     1.341126163140023E1
                        -8.464344737171926E1     1.217847394305722E2    -7.433919695182755E1     6.043638835205361      -8.168025659403165E1    -1.441462374217253E1    -1.430531638184933       3.115150993123199E1

 5.525350000000000E7    -4.230407606872633E-1    9.742554125778104E1    -2.967862502034355E1     7.100976109715595E1    -8.988993865844664E1     1.199301937606253E1    -8.561354689609230E1    -5.270055294683389E1
                        -2.959990989312507E1     7.145094370878371E1    -2.173890641185439      -1.410982015249177E2    -6.697794451832867E1    -1.721715126656835E2    -7.444441972133075E1    -7.746922715697099
                        -8.503971612969635E1     1.266797080603829E2    -6.534638587170582E1    -1.542405315231968E2    -1.411210131138779       2.468047638026976E1    -8.615085165429429E1    -1.122267666483569E2
                        -8.461850485125092E1    -1.234405256874621E2    -7.394699323991623E1     3.238352217859700      -8.383944052369891E1     1.018367873096224E2    -1.431593401730400       3.115940673489771E1

 5.525375000000000E7    -4.231194677923270E-1    9.739870195929805E1    -2.961123199235626E1     7.079715804605306E1    -8.131296535075305E1     1.074655975949633E2    -9.170809066498721E1     7.205823422628490E-1
                        -2.964701272847831E1     7.140356729965392E1    -2.173090065517100      -1.411438440411607E2    -6.690811824462652E1    -1.643029321989217E2    -7.382093818904747E1    -1.914298863446295E1
                        -8.226837730497465E1     4.868427266512139E1    -6.686110526570646E1    -1.583855738499565E2    -1.412941699862980       2.467038185915072E1    -8.909895162354340E1    -1.707584373578393E1
                        -8.681331634615461E1     1.240394545987410E2    -7.610310760919053E1    -3.117736056989890      -8.476943851205661E1    -7.563385466941215E1    -1.432159712674546       3.113677509403429E1

 5.525400000000000E7    -4.209196182206779E-1    9.740744996187561E1    -2.959847768984789E1     7.126241190835306E1    -8.323098209659698E1     8.428675287777536E1    -8.344551525365512E1     1.590777287810356E2
                        -2.956409446805015E1     7.043734647204263E1    -2.167989413339185      -1.411905209872098E2    -6.727087853188800E1    -1.611207532258452E2    -7.987022515397371E1    -1.139611525046554E1
                        -8.570765638938934E1    -3.312498856851836E1    -6.647275179690567E1    -1.609645656435982E2    -1.412773851139906       2.469716008502127E1    -8.891163924251991E1     9.446504191541405E1
                        -8.317497142454789E1     1.769763970439963E2    -7.610372191552114E1    -3.492637474579813E1    -9.035009299171639E1    -4.167870274586552E1    -1.433015268398452       3.115401212080676E1

 5.525425000000000E7    -4.193825276287765E-1    9.743435364366474E1    -2.953929375852407E1     7.113264975320377E1    -9.692645391279862E1     1.371298276288429E2    -1.011906444576938E2     9.586937676129367E1
                        -2.965097239260356E1     7.084470566024005E1    -2.174258669422533      -1.412016028422900E2    -6.522836778987725E1    -1.563244474222783E2    -7.719638997621506E1     1.338540434254055
                        -8.689953793581705E1    -4.410182372468513E1    -6.684813652806517E1    -1.610187582330476E2    -1.410243260177238       2.464475238428402E1    -8.264760479721601E1    -1.430315354536152E2
                        -8.627015929581604E1     2.339810876178101E1    -7.508333683916318E1    -1.568848321407252E1    -1.035111625537502E2     1.491709725901417E2    -1.430313194372779       3.116304483375166E1

 5.525450000000000E7    -4.200350813708403E-1    9.738747569449551E1    -2.961931348103568E1     7.093718475426337E1    -8.461449733539419E1     1.797508515925908E2    -9.031193032103641E1     7.325606496562963E1
                        -2.969067276625438E1     7.165411685179936E1    -2.181501939309127      -1.412535489747944E2    -6.650539374796838E1    -1.617791113825930E2    -7.285941034873356E1    -1.616208595288966E1
                        -9.112751081073951E1     1.556870756889113E2    -6.637941655880202E1    -1.549558160556237E2    -1.415743931814361       2.464049793623710E1    -9.536680447082922E1     5.124510241587645E1
                        -8.871699152734641E1    -3.236051147624895E1    -7.393516760906465E1     1.893608078284224E1    -8.844487393165052E1    -9.232079161486318E1    -1.430025706170459       3.113443245081950E1

 5.525475000000000E7    -4.256904764319265E-1    9.740778689078070E1    -2.967505882366435E1     7.111388424968588E1    -8.734553843228102E1    -4.960935721503812E1    -7.893616195575373E1     1.259228140584053E2
                        -2.968503644906027E1     7.149514495230730E1    -2.182545765225967      -1.413062505196112E2    -6.634012160129771E1    -1.544576507715367E2    -7.768714566395639E1    -1.527690642790597E1
                        -8.705854000005630E1     1.188872300450747E2    -6.808524257589926E1    -1.524665058856174E2    -1.409337547895022       2.466379194470262E1    -8.534996776865263E1     1.314351036802925E2
                        -8.511217188525683E1    -8.293015663408852E1    -7.504361147622453E1    -2.848231631044938E1    -9.392757717692830E1    -1.458716982673811E2    -1.432187719656634       3.113535080895612E1

 5.525500000000000E7    -4.223971866354636E-1    9.738638952003524E1    -2.961477816520013E1     7.063188077620517E1    -8.792093402797009E1    -3.304792678269813E1    -1.073493562594177E2    -1.177801607763787E2
                        -2.975368505104169E1     7.064165937586466E1    -2.186721090769745      -1.413607988635465E2    -6.686530755861581E1    -1.600880451536962E2    -7.306812083634318E1    -2.374456616897126E1
                        -8.141018779319887E1     9.260929347850552E1    -6.706590311588658E1    -1.690886624557672E2    -1.413445198044787       2.463178226982139E1    -8.706721860072346E1    -6.879822210659717E1
                        -8.872627593494316E1     5.410952273430589E1    -7.506886252479659E1     1.516938241667905E1    -8.475326738955182E1    -1.302488563533323E2    -1.427614931542538       3.112776776801142E1

 5.525525000000000E7    -4.216408078066511E-1    9.739413864431539E1    -2.959635856080101E1     7.050573594924072E1    -9.734869050232625E1    -1.795457921985404E2    -9.175510500174282E1     1.254413722774984E2
                        -2.959361042700794E1     7.124920522879836E1    -2.186752787764711      -1.413857190218715E2    -6.604802228570789E1    -1.603365027195868E2    -7.205006342508665E1     5.813575448142616E-2
                        -9.892894266810224E1     9.410533838688590E1    -6.611213904268897E1    -1.579722817796622E2    -1.410438392476825       2.463592329148348E1    -8.243010931119559E1    -2.956080894011612E1
                        -8.369159266286383E1     2.197302478483948E1    -7.222157475246578E1     5.978876872571047      -9.743591710077270E1    -1.727719500548466E1    -1.431543930547714       3.112105251666585E1

 5.525550000000000E7    -4.187854503783320E-1    9.740018540380012E1    -2.958027380125543E1     7.076088158282933E1    -8.505253639904677E1    -1.377687450077728E2    -8.809799606518054E1     8.954040317960164
