#  HZ   S   DB   R     50.00 
! Rohde & Schwarz Vector Network Analyzer 
! Rohde-Schwarz,ZNB8-4Port,1311601044102961,2.82
! Created: UTC 2/12/2019, 2:07:34 PM
! freq[Hz]                db:S11                  ang:S11                 db:S12                  ang:S12                 db:S13                  ang:S13                 db:S14                  ang:S14
!                         db:S21                  ang:S21                 db:S22                  ang:S22                 db:S23                  ang:S23                 db:S24                  ang:S24
!                         db:S31                  ang:S31                 db:S32                  ang:S32                 db:S33                  ang:S33                 db:S34                  ang:S34
!                         db:S41                  ang:S41                 db:S42                  ang:S42                 db:S43                  ang:S43                 db:S44                  ang:S44
! 
 3.000000000000000E7    -2.840664780875686E-1    9.706059833369675E1    -6.910680046472636E1     2.946103721102444      -8.364772093299507E1    -2.004215030352265E1    -8.233110456503211E1     2.120708735340818E1
                        -6.986164471605348E1     1.517938814602941E1    -2.401141652288926E-1    1.041580282541661E2    -9.179151433037275E1    -1.068471240858892E2    -7.957945926388332E1     7.828395617190761
                        -8.357345607426210E1     5.728173945233353E1    -8.886852602165536E1     7.840103285173510E1    -9.354965618132098E-1   -1.572247528559628E1    -8.581845048084462E1    -1.520100673039757E2
                        -8.431239070096873E1     1.722337116652581E2    -8.882553893401239E1     1.171088202055760E2    -8.185237608005011E1     1.309511670465357E2    -8.983587746512199E-1   -1.296991937221605E1

 3.002500000000000E7    -2.820118037442581E-1    9.671565369365312E1    -6.877693038999398E1     1.297439434614521E1    -9.862959677485097E1     1.634070280562999E2    -9.086090655098245E1     1.230342301118062E2
                        -6.750335902281255E1     1.582615518135885E1    -2.418198699439336E-1    1.038093429746307E2    -9.255899970015769E1     5.015225934995105E1    -9.476073109741708E1    -1.534069207785419E2
                        -8.439815362570707E1    -4.500213525141173E1    -8.937055696497001E1    -7.456604109975902E1    -9.322782367714505E-1   -1.611172771278675E1    -9.336382560801118E1    -5.356277232606718E1
                        -8.114112240351226E1    -4.415260022947859E1    -9.082234942290765E1    -5.696418712060866E1    -9.271287807294287E1     1.042406191383166E2    -9.017351663397050E-1   -1.330491037855588E1

 3.005000000000000E7    -2.879619154426112E-1    9.639688636585188E1    -6.823859575564582E1     1.006618909175531E1    -9.710924177959420E1    -1.799742083820040E2    -8.470179798637454E1     1.104939024719433E1
                        -6.929894632652740E1     4.931633915639260      -2.363971627129088E-1    1.035854308198178E2    -8.438607527103854E1    -1.541874669850001E2    -8.420077455335081E1    -1.319990816698746E2
                        -9.920728936809667E1     3.177356975057440E1    -9.452691675856067E1    -1.342366708277193E2    -9.334355039712016E-1   -1.637568227942563E1    -8.040572291760776E1    -1.589871906679445E2
                        -9.117412677756246E1     8.451589627659747E1    -9.114362982443224E1    -1.561740821648137E2    -8.373518489260431E1     6.525062583975021E1    -9.025645854645341E-1   -1.363065594295533E1

 3.007500000000000E7    -2.854752625700150E-1    9.600819629683549E1    -6.824651030328303E1    -1.100264723489884      -7.930566726295227E1    -1.639129133352676E2    -9.168071254992036E1     5.808789199217495E1
                        -6.856562214420225E1     1.518253505442463E1    -2.394219335911068E-1    1.032147662973884E2    -8.381703109573667E1     6.810526501769365E1    -8.118752039700070E1    -1.584667442338441E2
                        -9.392422090943677E1     1.765716449571898E2    -8.615172049560664E1    -1.078725800033350E2    -9.340858882033318E-1   -1.667234034363700E1    -9.113789469367150E1     1.298121741761225E2
                        -8.983117348591149E1    -8.380703949341110E1    -9.766578771614928E1    -1.312135646667110E2    -8.653031579286557E1    -1.188357243125692E2    -9.052493261904033E-1   -1.393732704524235E1

 3.010000000000000E7    -2.760050155642308E-1    9.573469001181653E1    -6.902003097436590E1     8.810851841725942      -9.100346695649918E1     2.034598351617433E1    -9.012449482928000E1     6.400709776310873E1
                        -6.873465219052368E1     1.387111535596912      -2.455427409723990E-1    1.029271889560344E2    -8.109056161638651E1    -6.726535030375588E1    -8.609376686172180E1     4.960200499580130E1
                        -8.540707937437151E1     1.238495003460286E2    -8.546415493997998E1     8.899576051291282E1    -9.280695729531580E-1   -1.697912440869502E1    -8.698189692492124E1    -7.654617414438199E1
                        -8.564898481735150E1     1.743131093265633E2    -8.581830552096227E1     1.650459212916970E2    -8.224692073534486E1    -1.494599029404278E2    -9.046676678508661E-1   -1.422445079338720E1

 3.012500000000000E7    -2.749113045844223E-1    9.538594329029725E1    -6.806699406598207E1     1.353319797797570E1    -8.406903552454673E1     1.072600784494322E2    -8.134097313747333E1     1.723728496968388E2
                        -6.756891046073891E1     9.003218720788272      -2.386844605520993E-1    1.026011869761375E2    -9.463057072184837E1    -2.301001720850822E1    -8.310030400695615E1     1.757878767000782E2
                        -9.919948324646308E1     5.971388477193965E1    -8.783078721270090E1     1.734526434762946E2    -9.356726459187159E-1   -1.731559396425470E1    -8.564690597326060E1    -4.167079454542101E1
                        -8.108356266682074E1    -1.541404764003532E2    -8.756107777683390E1    -1.308692252797702E2    -8.705297553158400E1     1.128338430151593E1    -9.070391158927047E-1   -1.451931714435062E1

 3.015000000000000E7    -2.745071308401412E-1    9.508339258684843E1    -6.885042235523871E1     1.384564424043823E1    -8.263561127015919E1     5.135132227618632E1    -8.346861081438824E1    -8.149134693392041E1
                        -6.903839294131369E1     2.044366973598762E1    -2.363023485897558E-1    1.022412987156324E2    -8.863326900472417E1    -1.458850577268783E1    -8.939481976781980E1    -6.213300508070094E1
                        -8.710921803022025E1    -1.186302061044887E2    -8.560090490130489E1    -1.006974372805685E2    -9.356520658664490E-1   -1.760655921262302E1    -9.462835714690860E1    -1.634442618095713E2
                        -9.477651423722499E1    -1.034663553826312E2    -8.746204168526373E1     9.302898107430336      -1.022453288262365E2    -1.433005860620769E2    -8.972991162766735E-1   -1.481736734947967E1

 3.017500000000000E7    -2.782803817130442E-1    9.472449546213093E1    -6.805069637606319E1     1.457693235553476E1    -8.369531086310636E1     2.099748614286102E1    -8.405807765693083E1     6.370493882244644
                        -6.734303161239060E1    -2.357597212855148      -2.402266500873009E-1    1.019333417847839E2    -8.034522545271166E1     3.353059416994729      -9.004228482267132E1     1.717815328270524E1
                        -8.468972102686919E1     1.250959834504516E2    -9.290940881730688E1     1.175186873489821E2    -9.357509256871955E-1   -1.790438785183974E1    -8.768065496842166E1     9.561312638570724
                        -8.429486044255424E1    -9.614769558986001E1    -8.940020053828361E1    -1.784713240496652E2    -9.719902480634630E1    -1.579372419361749E2    -8.980636585856093E-1   -1.511782263189621E1

 3.020000000000000E7    -2.710122305476062E-1    9.434795911690368E1    -6.649360993722684E1     2.882341398028180      -1.010079161840898E2     1.321581647949940E2    -9.494950293314741E1     1.184442217910652E2
                        -6.818989904771586E1     2.906765089441193      -2.338389034443697E-1    1.016883475950752E2    -8.613775360013038E1    -6.932487028499196E1    -8.685494205557058E1     5.808655219577761E1
                        -8.862267245493420E1     6.982814656991863E1    -9.189145999881370E1     1.013252564659008E2    -9.341245365103936E-1   -1.823878009448572E1    -9.203840217898305E1    -1.024685495339907E2
                        -9.088604364055050E1    -7.211931455130986E1    -9.174941900232707E1     3.899424622579829E1    -8.109914527791042E1     1.113370118113335E2    -9.019852842651032E-1   -1.543929149250802E1

 3.022500000000000E7    -2.812432613272032E-1    9.408030918422919E1    -6.880211292265835E1     3.499431066020430      -8.230009339254198E1    -1.032755985474199E2    -9.260174508447820E1     8.087701322743037E1
                        -6.802083622293809E1     9.412693035357846      -2.405476569077079E-1    1.013688996907579E2    -8.702573015924779E1     1.405195517571155E2    -8.798526118120093E1     9.626235682622774E1
                        -9.672821316629191E1     1.403792929046140E2    -8.912113323374862E1    -7.276478203973004E1    -9.328683743986556E-1   -1.854010800474848E1    -7.999152451863124E1     8.680227030230509E1
                        -9.618398296284425E1     1.275680535638193E2    -9.786468342881292E1     1.891917816601118      -8.146330144067198E1     3.288648482123457E1    -9.008772688718763E-1   -1.569419066711397E1

 3.025000000000000E7    -2.768023706760882E-1    9.372431025340246E1    -6.801247272638767E1    -3.815903602282168      -8.525003985300403E1    -1.503498252828632E2    -8.324719000136072E1    -2.049302130674677E1
                        -6.624686402596595E1     1.832457111392690E-1   -2.486025850984771E-1    1.010361374741188E2    -8.120690201920797E1    -4.234927193994994E1    -8.918038686265456E1     9.502143686609877E1
                        -9.041979221220291E1     1.252024425639246E1    -8.833357702399128E1    -1.317834192655793E2    -9.370709674022091E-1   -1.884252290665215E1    -8.808313992280213E1    -6.522702091784309E1
                        -8.632310486553448E1     4.789337606590559E1    -7.829113889410387E1    -1.140648469695520E2    -9.039679252224424E1     7.914954265159975E1    -9.038806356060929E-1   -1.600816256614501E1

 3.027500000000000E7    -2.721484900511929E-1    9.340072345465293E1    -6.742844186796135E1     1.312265601676957E1    -8.484884518396684E1     4.742853149775255E1    -9.374998357754569E1     1.092989250737952E2
                        -6.879455504073786E1     1.798480821576294E1    -2.291504288353751E-1    1.007458134362584E2    -8.938344129341594E1    -1.544098602271012E2    -8.187765360283652E1    -1.510929353059240E2
                        -8.975911369087079E1    -6.512163627019346E1    -8.609274189150482E1    -9.165542134504636E1    -9.333041952720858E-1   -1.918033665532172E1    -8.704943375736924E1     1.467222096061698E2
                        -8.596873801767023E1     1.069848320186751E2    -9.347293459314486E1     3.717509690962195E1    -9.835538468029617E1    -2.051160253895311E1    -8.981546242318459E-1   -1.628845124766539E1

 3.030000000000000E7    -2.764313116206630E-1    9.306018604769655E1    -6.707770563682185E1     1.243840029936223E1    -9.261277457362232E1    -1.737378104852416E2    -1.008783894138580E2     5.123011593850942E1
                        -6.594623235255654E1     1.340583118473016E1    -2.389775798542786E-1    1.004339930976624E2    -9.129600202139665E1     5.828988652020033E1    -8.454526005791564E1    -1.309964180914226E1
                        -8.506217975958597E1     1.356408956706453E2    -8.236821732684744E1     6.034067249528086E1    -9.402597244049259E-1   -1.948168198814253E1    -8.712215005731295E1    -6.926767407418809E1
                        -8.316787724051619E1    -1.628637051547515E2    -9.528704546805128E1    -1.866384443311823E1    -8.453512149639798E1    -4.531487801595811E1    -8.948720223897921E-1   -1.662788505338566E1

 3.032500000000000E7    -2.709277346111734E-1    9.269582214499238E1    -6.743469015751428E1    -3.821838527946444      -8.588926493661134E1     6.549688071645619E1    -9.377728647061673E1     5.561227225910842E1
                        -6.710475585104899E1     1.376173739403906E1    -2.273961923920636E-1    1.000786864703245E2    -8.686464616493166E1    -1.131183119039406E1    -8.471000186214343E1     1.553841011743719E1
                        -8.745355701287053E1     3.339610293748472E1    -8.498507515955190E1     2.089138511058508E-2   -9.372015747097591E-1   -1.981395464777065E1    -8.482373849213984E1     1.159304382700352E2
                        -8.240491600596238E1    -1.583014184753656E2    -8.997009055127052E1     1.289905245107087E1    -8.751372105745699E1     9.584264581623951E1    -8.974242384224435E-1   -1.688119152584059E1

 3.035000000000000E7    -2.687899607559769E-1    9.239824725996391E1    -6.652564747873200E1     5.038790332073931      -8.045540588392043E1     1.720310282947700E2    -9.182072822672313E1    -1.388231049401814E2
                        -6.803710788551096E1     4.834757177878918E-1   -2.347217742177623E-1    9.978893079987704E1    -8.483375949094344E1     1.442736680155120E2    -8.705419704850245E1    -4.825628056897723E1
                        -8.654413357827202E1     2.125826415405848E1    -9.911080892876655E1     9.920958351631310E1    -9.355454054048700E-1   -2.010566253009980E1    -8.332929503502000E1     1.787577557883893E2
                        -8.657952733339852E1     5.827063921663451E1    -8.265530942302318E1    -1.174125827155030E2    -8.698526841606747E1     1.517889745834414E2    -8.984230145060763E-1   -1.722404338348973E1

 3.037500000000000E7    -2.681070253562674E-1    9.200938552623191E1    -6.765780394923698E1     4.045363095283963      -9.072706124576138E1    -1.054447010183721E2    -9.472407530970955E1    -4.125983674683915E1
                        -6.660856701135786E1     2.375353793612878      -2.417898009055019E-1    9.948922558652342E1    -8.458571726029857E1    -7.488669914939590E1    -9.115674117258777E1    -1.332036747955261E2
                        -8.740784683582349E1    -7.567423834982583E1    -7.913424830867663E1    -5.803253930828885E1    -9.355041585651429E-1   -2.038496161316847E1    -8.380750327512700E1     1.377914025849967E2
                        -8.763327955399285E1     6.032710009971816E1    -9.062431450177226E1     2.353858039912492      -9.177280510688414E1    -1.089417287974756E2    -8.969011284274024E-1   -1.753124459436857E1

 3.040000000000000E7    -2.689761595452247E-1    9.170344826528965E1    -6.592806647289984E1    -4.900999860818650      -8.495328980360070E1    -1.723495019035241E2    -8.261750508529337E1     2.391756639141655E1
                        -6.766048906967572E1     5.979218512702221      -2.338798077812110E-1    9.918564476459768E1    -8.688864324299323E1    -6.774285405436459E1    -9.384118455610057E1     6.282259277156461E1
                        -7.971987907141808E1     1.252437749322484E2    -8.453984165604260E1     5.235909325413958E1    -9.355566986256941E-1   -2.073539560756223E1    -8.708098982096672E1    -2.764830790357749E1
                        -1.038943795196931E2     4.914169211096310      -8.042443684132462E1    -1.718090871621096E2    -7.630931667664359E1     5.954749993272239E1    -9.042725447806275E-1   -1.781105326872698E1

 3.042500000000000E7    -2.668267596466051E-1    9.138370098570940E1    -6.666011742349963E1    -4.260056773301678E-1   -8.685224848766717E1    -7.491205878996352E1    -9.039177870726626E1     1.192716611483670E2
                        -6.826889978959936E1     1.557749180552278E1    -2.308238189468478E-1    9.890184577245690E1    -8.004896082987980E1    -1.679568724550920E2    -9.648143345756509E1     1.421667350109691E2
                        -8.507675204784412E1     7.451933593344874E1    -9.346476687322840E1     5.760415596737252E1    -9.356548946098299E-1   -2.106045916465324E1    -9.496428789854006E1     1.618191827762878E2
                        -8.001680351454147E1     9.766252255014842E1    -9.038408056730188E1     3.465175447974578E1    -8.732760952612136E1    -1.111442101207393E2    -8.987645145922357E-1   -1.814450887849356E1

 3.045000000000000E7    -2.744891635189291E-1    9.101504302485280E1    -6.754901552473771E1    -1.480284336159736      -8.402436176086093E1    -1.734644875720450E2    -8.165720759459317E1    -1.686730769872264E2
                        -6.658998277439669E1    -1.885375492086493      -2.312294889396453E-1    9.856767187331822E1    -9.420733575227285E1     4.139540533671235E1    -8.938830477734018E1    -6.277638312283866E1
                        -8.314986660925941E1    -9.927414302074264E1    -7.988377426144095E1     4.215486911936385E1    -9.236453189793402E-1   -2.132420823291721E1    -9.229009995532744E1     5.694134017687196E1
                        -8.180436022352474E1    -4.869236159083135E1    -8.754428938843537E1    -1.584081928298923E1    -8.989488240484013E1     1.400126232825320E2    -9.045925086623141E-1   -1.838829695011406E1

 3.047500000000000E7    -2.773096072436942E-1    9.069595948712905E1    -6.686602843195554E1    -1.753092723464479E-1   -9.075160258680741E1     9.284564789816179E1    -9.597598421247977E1     7.407623458846219E1
                        -6.693710843356699E1    -3.748175325914179      -2.290776085207806E-1    9.830162436901776E1    -8.456623059340714E1    -1.552918976559888E2    -9.468938742325889E1     1.050664210204686E2
                        -8.833787292142718E1    -1.685923196279815E2    -8.520254681412831E1    -1.706617117487950E2    -9.297351279009071E-1   -2.158474628774011E1    -9.054243236439132E1     1.276444886699026E2
                        -8.599006537587060E1     7.313543208436222E1    -8.584336206293976E1    -1.709039358131675E2    -8.286564203171605E1     6.697580022511018E1    -8.999216884646750E-1   -1.871138913208661E1

 3.050000000000000E7    -2.696470266870834E-1    9.035775153845437E1    -6.740811958607240E1    -5.231696035883232      -8.880267839298784E1     1.348449152353562E2    -9.167960837689537E1    -1.504215824353428E2
                        -6.699069615963906E1     4.025538581297496      -2.289150277793904E-1    9.793705751058752E1    -8.377801461733547E1     8.519958487617322E1    -8.835490392121747E1    -1.134064308667296E2
                        -9.275299927452168E1     7.068627739658051E1    -8.390569599771987E1     1.992722515149659E1    -9.346664514972159E-1   -2.197469635399322E1    -7.912245765764848E1    -7.341850368282304E1
                        -8.131602543110193E1    -1.736874704809813E2    -9.065233592500942E1     1.225750309146559E1    -8.470869363627077E1     1.275654426003614E1    -9.029709872085370E-1   -1.902294776876212E1

 3.052500000000000E7    -2.669616768782839E-1    9.001543760172930E1    -6.750754485858907E1     1.666843988381951E1    -8.417011437616232E1    -6.093669032338796E1    -8.223572763425592E1    -7.884153263338411E1
                        -6.592138394699005E1     4.975573191481472      -2.303435689307708E-1    9.760913625381009E1    -8.341611035174969E1    -1.603919088307332E2    -9.079153672683027E1    -1.464023673650868E2
                        -8.260221790784129E1     1.522273866994507E2    -8.729204387025432E1    -6.483601847425892E1    -9.386663086571954E-1   -2.227005805030617E1    -8.786260195295959E1    -1.430771349202318E2
                        -8.954176968969138E1    -4.195006638436077E1    -9.777804518617892E1    -1.757154170204130E2    -8.968974244164825E1    -7.726265618281953E1    -8.982240287225087E-1   -1.929949118870941E1

 3.055000000000000E7    -2.693947083323273E-1    8.962810794389493E1    -6.603930373696444E1     4.263218921400654      -9.133510552621858E1    -5.302033185346563E1    -8.655954253651744E1    -2.791521599732663E1
