#  HZ   S   DB   R     50.00 
! Rohde & Schwarz Vector Network Analyzer 
! Rohde-Schwarz,ZNB8-4Port,1311601044102961,2.82
! Created: UTC 2/12/2019, 2:24:01 PM
! freq[Hz]                db:S11                  ang:S11                 db:S12                  ang:S12                 db:S13                  ang:S13                 db:S14                  ang:S14
!                         db:S21                  ang:S21                 db:S22                  ang:S22                 db:S23                  ang:S23                 db:S24                  ang:S24
!                         db:S31                  ang:S31                 db:S32                  ang:S32                 db:S33                  ang:S33                 db:S34                  ang:S34
!                         db:S41                  ang:S41                 db:S42                  ang:S42                 db:S43                  ang:S43                 db:S44                  ang:S44
! 
 3.000000000000000E7    -2.762515289791563E-1    9.708355724082388E1    -7.105403951320605E1     1.767313284249776E1    -8.025601384016311E1    -1.569518562553725E2    -8.434765592096754E1    -3.059468047430955
                        -7.078164802121901E1     1.565359819023548E1    -2.277799059581276E-1    1.047269719898493E2    -1.002105072943871E2    -5.298943896280926      -9.163375542828473E1    -2.829153440740693E1
                        -8.646832495314875E1    -7.197093349200094E1    -8.291744119402202E1    -1.517273990710699E2    -9.339829788088517E-1   -1.575324543573084E1    -8.301836587260385E1     4.579514980457923E1
                        -8.842961792128030E1     9.222049752987195E1    -9.004259151494838E1    -1.653103903695771E2    -9.783016029497667E1     4.971795974483502E1    -8.974671924894330E-1   -1.304694740537238E1

 3.002500000000000E7    -2.831402122095893E-1    9.676021844038732E1    -7.021403228945330E1     1.281233338595422E1    -9.750222879933793E1    -4.260769307624993E1    -8.049276516315997E1    -1.264728545673964E2
                        -7.192951238221501E1     9.214597907950658      -2.320752759811487E-1    1.043765933375722E2    -8.909820048629912E1    -3.324913457932931      -8.319609378363892E1     3.260369408067279E1
                        -8.312261771703072E1     1.067520484671977E2    -1.029905816235444E2     6.639955171508990E1    -9.424600424020414E-1   -1.611063515752528E1    -8.538466979488979E1    -1.608964749936547E2
                        -8.300125468444925E1    -7.768055013969722E1    -1.020132810937954E2    -1.548263331150987E2    -9.232633441553431E1    -1.531049713934034E2    -9.005249560945372E-1   -1.333390613950446E1

 3.005000000000000E7    -2.805404535310676E-1    9.644306530412008E1    -7.056403786770004E1     1.581133420346978E1    -8.894588939508653E1     1.149259177680321E2    -9.433877760785430E1    -7.396387315099862E1
                        -7.038592221464651E1     1.825087470240084E1    -2.232836185472584E-1    1.041154632920620E2    -8.351591870261090E1    -6.052377385960042E1    -8.083517610417391E1     1.411361999667431E2
                        -8.093027173368347E1     7.587664653079862E1    -8.388261461545974E1     1.827895721058608E1    -9.387010539100492E-1   -1.634587279460635E1    -8.083831257826043E1    -6.012196225865865E1
                        -9.021499016277662E1     1.594734626186430E2    -8.387724285381880E1    -9.654706477402648E1    -8.714092668313114E1    -7.884417446549797E1    -9.009837646076964E-1   -1.360368821885778E1

 3.007500000000000E7    -2.715282624345155E-1    9.609261102185585E1    -6.886761122463074E1     5.417132936142232      -8.176925931908393E1    -9.350803619162887      -8.367313389022151E1    -1.603995734171104E1
                        -7.103978715955908E1     6.735317820552361      -2.208776719152261E-1    1.037660533559633E2    -8.363706498420200E1    -1.360471460464183E2    -8.471709619461578E1     1.597488862132550E2
                        -9.158216313189975E1    -4.517338984655367E1    -8.345437258475346E1    -4.592024438787923E1    -9.360674795549429E-1   -1.668513057820959E1    -8.396272512257394E1     7.357821461712571
                        -8.782053092903851E1     4.313276294535441E1    -9.565385539899117E1     1.181511573946637E2    -1.071302306444930E2     1.016924700621875E1    -9.028908483671434E-1   -1.392869958280734E1

 3.010000000000000E7    -2.777060987949144E-1    9.577807216710242E1    -6.880363122828021E1     1.096939467104524E1    -8.979568217864583E1    -8.135522099081106E1    -9.191896574702035E1    -1.149530226412102E2
                        -6.937923504318967E1     9.789319583443428      -2.271173313480938E-1    1.034793188335166E2    -8.371906497962557E1    -1.043857804148052E1    -8.737160875199979E1     3.167789090964495E1
                        -8.894925499627868E1    -5.404255057174699E1    -8.567534184946105E1    -2.295447683035855E1    -9.295245151044393E-1   -1.696737525439942E1    -9.172452400669090E1    -2.147777504031100E1
                        -8.583713467720367E1     1.505747898399069E2    -1.000432273960986E2     1.407918773638238E2    -9.074663246848260E1    -1.554113606938092E2    -8.993869820013554E-1   -1.421495090458831E1

 3.012500000000000E7    -2.657303290935643E-1    9.541231021898082E1    -7.158350986736905E1     5.141787048266566      -9.791600609250686E1    -4.945507500349746E1    -8.220835303519615E1     1.012418318374255E2
                        -6.894146164439300E1     9.460435198758194      -2.266055179060470E-1    1.031906313031552E2    -9.014144603095387E1    -1.511079268508022E2    -9.224598340492484E1     2.648674761079244
                        -8.682883933392768E1    -1.771248977835068E2    -9.243304011623104E1    -1.776214543878684E2    -9.382973065968002E-1   -1.730178297250271E1    -8.587869900009625E1     3.320557087395628E1
                        -7.986144923114161E1     1.134080414257954E2    -8.902268139949372E1     1.725732086385375E2    -9.174991922030480E1    -1.648685027393780E2    -9.026919752789360E-1   -1.453644554132904E1

 3.015000000000000E7    -2.745354767031728E-1    9.507460253414280E1    -7.095127273038966E1     1.716339297065526E1    -8.445473326916626E1    -5.174697660213536E1    -7.963740347483919E1    -1.119103192716127E2
                        -6.794150040819591E1     9.422289929935461      -2.317022918296993E-1    1.028267389820360E2    -8.413632600495430E1    -4.114483165866212E1    -8.397843144780870E1     1.191163573410392E1
                        -8.403262010512906E1    -1.752135597856641E2    -8.356737414489783E1     1.303189817323609E2    -9.390336817789292E-1   -1.756286360191134E1    -8.986424664721108E1    -1.293909828628526E2
                        -9.060485865098229E1     1.197925366755930E2    -8.163658040799091E1    -7.900761109192236E1    -8.956730884703799E1    -7.492004957600169      -9.005400004596327E-1   -1.478366637881325E1

 3.017500000000000E7    -2.659948063607965E-1    9.472957467950930E1    -6.964643979899878E1     1.231011473738374E1    -8.409459899063043E1     1.350094019269024E2    -8.061956204036417E1     4.069921654450026E1
                        -6.890316218181337E1     1.747333877126503E1    -2.241964833799444E-1    1.025320449796507E2    -8.853036535103838E1    -1.781236766023135E2    -8.990182728065996E1     1.069841829919246E2
                        -8.808408360176024E1    -1.049042461576146E2    -8.651828739828788E1    -1.163253996874221E2    -9.370310346655765E-1   -1.789730348023393E1    -9.152357896487584E1     1.178337384381233E2
                        -9.269445474468708E1    -1.319924310016042E2    -8.169842475025327E1    -1.729003423123919E2    -8.720915492508796E1     1.083723434402845E2    -9.001787531674378E-1   -1.514386261927780E1

 3.020000000000000E7    -2.670338426424502E-1    9.440121438314932E1    -6.997562634488577E1     1.148272508222414E1    -1.030520574695698E2    -7.148830538596505E1    -8.083785939023734E1    -1.421425440742846E1
                        -6.871012855542082E1     3.608821948635264      -2.233087731137131E-1    1.022651329017116E2    -7.943784706455087E1    -1.016514558194663E2    -8.435290701586361E1     9.211564210047733E1
                        -8.977194555824607E1    -1.548584778704093E2    -8.570066786905102E1     4.856397100247399      -9.406426923266060E-1   -1.824283626691483E1    -8.976988381673212E1    -1.655019304232717E2
                        -8.404166622952116E1    -1.386034992253032E2    -9.396929173121032E1    -1.249741360469679E2    -8.914693406179006E1     4.582297269271125E1    -9.020237238494190E-1   -1.542442703702560E1

 3.022500000000000E7    -2.704557905577589E-1    9.411658294601331E1    -6.831279924111378E1     1.302723242800375E1    -8.200853423536161E1     1.507546912568929E2    -8.424131811042454E1    -1.400473055516025E2
                        -6.906791659844343E1     1.444987735554473E1    -2.213088130992262E-1    1.019635142795130E2    -8.582973454396941E1     1.622551151457042E2    -9.159307002074330E1     1.485529715566663E2
                        -7.777837255557789E1    -1.284055224285432E2    -8.239558700195076E1    -9.597280790025377E1    -9.289820560826816E-1   -1.855414468042720E1    -8.388608806519331E1     1.147229801717263E2
                        -9.215642524642477E1    -7.530815372514377E1    -8.980079471417945E1    -9.794558540227790E1    -8.594624408284869E1     7.164285479905438E1    -8.994253294264586E-1   -1.572152319570070E1

 3.025000000000000E7    -2.694855886773064E-1    9.377594374274999E1    -6.986767197129109E1     6.100776000736254      -1.042727099039907E2     1.428101550490592E2    -8.049011505763767E1     1.698322566071426E2
                        -6.896731494227534E1     5.805576955535457      -2.327525252984488E-1    1.016463097981872E2    -8.920696101481306E1     1.779382344067041E2    -8.504202503120303E1    -1.119578944142159E2
                        -9.157137351722055E1    -1.780786961896998E2    -8.041578657316862E1     1.021971445603832E2    -9.309243555317658E-1   -1.884148741140467E1    -1.004553279231222E2    -7.772279386526171E1
                        -8.634046606516614E1     1.728718177144806E2    -8.941067559515942E1    -2.776396974845833E1    -9.368668209233837E1    -2.136898135406283E1    -9.015191961263025E-1   -1.600350331545460E1

 3.027500000000000E7    -2.655592868896777E-1    9.345325628409091E1    -7.044394855436516E1     1.272744745540878E1    -8.561503119263824E1    -1.082032398461288E2    -8.382329632140177E1     1.454975834097503E2
                        -6.824185532770875E1     1.086362204253904E1    -2.136379285539840E-1    1.013304521039646E2    -8.469783758820472E1     1.561363024566908E2    -7.891193971813179E1     1.278039087438635E2
                        -8.806094377150401E1    -7.456643658264323E1    -8.921669544057920E1    -1.780146305630074E1    -9.351448506448961E-1   -1.916000129237368E1    -8.241188977421673E1    -5.196805015506777E1
                        -8.403330304175783E1     1.112263943554627E2    -9.070642731868182E1     1.770485861751903E2    -9.889969282214265E1     1.118307709661883E2    -8.997573723704397E-1   -1.629853973987163E1

 3.030000000000000E7    -2.713604497618556E-1    9.309577612334850E1    -6.979912291261752E1     1.550344901124026E1    -8.787784512506163E1    -1.191568979874012E2    -8.475179666268045E1     1.008626408043890E1
                        -7.067709556327139E1     2.575008137945752      -2.252120475639842E-1    1.010215398261992E2    -8.797164429593558E1     1.351766668782622E2    -9.023703358983093E1     7.165996807017643E1
                        -8.996485390794868E1     1.507645542551331E2    -8.781279116209350E1    -1.468799237590593E2    -9.391118463714016E-1   -1.947177250362921E1    -8.646284465090787E1     4.085395668878643E1
                        -8.785351834201728E1    -9.468503541402099E1    -8.482541993017409E1    -1.596954839277039E2    -8.940976494478875E1    -1.480770635151827E2    -8.988387158772093E-1   -1.662414989959624E1

 3.032500000000000E7    -2.694969325934540E-1    9.277447836230984E1    -6.943917365373947E1     9.769865928228214E-1   -9.951136169460489E1     8.662264817562553E1    -9.710007556576933E1    -6.053238811146762E1
                        -7.184483931870031E1    -3.376113108881702      -2.150128006132753E-1    1.006843222336385E2    -9.083818750550726E1    -1.405354607639531E2    -8.511252167962516E1     2.862921058023598E1
                        -8.499529822896129E1    -1.155023640505874E2    -8.661054326559744E1     8.033784117519932      -9.325235830773204E-1   -1.981358402973176E1    -8.824569698534739E1    -8.936466544847070E1
                        -8.591417124330860E1     5.521040360950723E1    -8.757855077899315E1     5.927429982901969E1    -8.543129712292145E1    -1.430864969309008E2    -8.991172308723784E-1   -1.691677030200820E1

 3.035000000000000E7    -2.599903149150757E-1    9.245412325885422E1    -7.019096072812280E1     5.923331479715158      -8.294369352171290E1     1.305080051978444E2    -8.883243392300791E1    -5.041836142789083E1
                        -6.884988289466531E1     4.819190765862997      -2.190245273917082E-1    1.004418245917063E2    -7.886395705216293E1     6.530645327533597E1    -8.887797297759050E1    -7.909856364454144E1
                        -8.827035101257897E1     6.190896296569270E1    -9.111303045037835E1    -1.248351098559460E2    -9.333028165275631E-1   -2.013943141030265E1    -8.252023294938667E1    -1.606994007976574E2
                        -8.883423214978629E1     5.872472735317651E1    -8.387270335407722E1    -9.760454078342137E1    -1.005392053806861E2    -1.184712098938713E2    -9.051639115074052E-1   -1.723185161515261E1

 3.037500000000000E7    -2.570505704098589E-1    9.205588466854780E1    -6.875177056768204E1     1.291389327842687E1    -8.581364177926963E1     5.770060577326877      -8.988095774586567E1    -8.210887560968995E1
                        -6.912891980432541E1     4.421339766710034E-1   -2.217696584908888E-1    1.000805376798065E2    -8.493110340817461E1     5.537359173468995E1    -8.457160524383144E1    -1.079685970838534E2
                        -8.238196898648911E1     5.492870818065720E1    -8.157733305441963E1     2.811622605896687E1    -9.385017631551946E-1   -2.038731171992060E1    -8.669807898600087E1     6.862190390075438E1
                        -8.395082427618556E1     1.431309801151239E2    -8.686130626163369E1    -1.449666125201775E2    -9.545544076627822E1    -3.940660005305944E1    -9.035463689481972E-1   -1.747767012360858E1

 3.040000000000000E7    -2.607768276422849E-1    9.173800472808789E1    -6.901545828654949E1     1.356970968115686E1    -8.149058015379437E1    -7.736823995607681E1    -7.993574253683823E1    -2.461261019277579E1
                        -6.999713745172520E1     4.025486153305582      -2.199406956904451E-1    9.983305877871193E1    -9.209510647336572E1     1.273689596849185E2    -9.128860134080884E1    -9.176485610043521E1
                        -8.901602522786308E1    -1.502062258858684E2    -1.066816351154644E2     1.544640077308467E2    -9.350825339285191E-1   -2.069296664462621E1    -9.994362614782831E1     8.731835919192314E1
                        -7.967076569022152E1    -8.240119876717972E1    -8.056403049846956E1     1.075849804616844E2    -9.953939757239974E1     1.653048514507670E2    -8.989005070209140E-1   -1.783271659212894E1

 3.042500000000000E7    -2.613849371060988E-1    9.138272874653238E1    -6.788915877970970E1     1.176821561023542E1    -8.937262955907018E1    -2.248303456342677E1    -8.091373983478080E1    -1.290985499581539E2
                        -6.772802401747988E1     4.397015418507242      -2.259182008761878E-1    9.954384623085790E1    -8.948405178781472E1    -1.181658870470759E2    -8.521012663777174E1     5.285263082395826E1
                        -8.548460724728429E1    -8.580007225256551E1    -9.101303251104831E1     6.204172436010401E1    -9.373198349718785E-1   -2.103457964746960E1    -9.064922996482198E1    -1.673336668291909E2
                        -8.592575479173455E1    -7.145598743267809E1    -9.116669008642616E1    -2.621037924586393E1    -8.448109995070325E1     1.253710508010812E1    -8.990483624351414E-1   -1.813925926727878E1

 3.045000000000000E7    -2.662136908061346E-1    9.107061235521971E1    -6.909937762175331E1     1.606613938557932E1    -8.423932817540003E1    -1.761914554707084E2    -8.404637653682457E1    -4.292678849997216E1
                        -6.958572535992160E1    -5.040037583732508      -2.173787075172539E-1    9.914754390599599E1    -8.640617522641256E1    -1.506830198705785E2    -8.558583543611942E1     1.669011369549056E2
                        -8.547169209849940E1    -1.370649929952941E1    -9.481348068308890E1    -1.765463837071802E2    -9.242763778970764E-1   -2.131194099502567E1    -8.616268057414366E1     9.602140908025793E1
                        -9.308879796929573E1     1.024729522227948E2    -9.052941873208484E1    -1.250237152533961E2    -8.442916810806210E1    -1.005986717320719E2    -8.981433527396581E-1   -1.841677060763094E1

 3.047500000000000E7    -2.684954195701945E-1    9.072898826977983E1    -6.719639697719181E1     4.641907116632396      -7.838001398509171E1    -1.088366363042908E2    -8.122886818721128E1    -9.169081044192218E1
                        -6.897855947701524E1     1.159400393320604      -2.149368193030917E-1    9.891119287193135E1    -8.727662127297953E1    -5.714159748502581      -9.230277057621311E1     1.526434456105424E1
                        -8.804357878065383E1    -7.829493823697028      -8.932888998736992E1    -1.747127478502321E2    -9.361493693430535E-1   -2.162543838393648E1    -8.222791952565024E1    -6.065337662819532E1
                        -8.850221558700623E1     9.539561187850148E1    -8.847808095294110E1     3.701952367402559E1    -8.260137803330791E1     8.094600639705194      -8.994889584535080E-1   -1.872611895507224E1

 3.050000000000000E7    -2.659617369945654E-1    9.038475032598814E1    -6.783619287127044E1     1.155670478292761E1    -8.202505029076322E1     1.740087888704555E2    -8.865706903873702E1     1.436074857244398E2
                        -6.874675034349374E1    -1.159263775518843E1    -2.128981200412561E-1    9.857802763589774E1    -7.764798603084674E1    -1.409613297200840E2    -9.150951839460410E1    -6.349465330451956E1
                        -9.614150587942176E1     1.668743737827191E2    -9.037010829941852E1     1.379477095597726E2    -9.296744505334559E-1   -2.195204012151596E1    -8.574457445553820E1     1.219222267617885E2
                        -8.904854588963158E1     3.210791807924091      -9.543817052847457E1     1.297268431188435E2    -8.316304118420915E1     1.123859980312716E2    -9.039501049209879E-1   -1.901511303861130E1

 3.052500000000000E7    -2.627631327095941E-1    9.006467558679492E1    -6.945567479231238E1     1.496267000652346E1    -8.950137039754819E1    -1.149017651779187E2    -9.171159586294570E1    -1.312595693925136E2
                        -7.065119160889574E1     9.267029154150233      -2.118539291856692E-1    9.828955405370164E1    -8.709846826954761E1     1.993838241420871E1    -8.405618719923214E1     1.533481822376807E2
                        -9.442756841332272E1     7.081873792595017E1    -8.486699148197508E1    -9.790510883022253E1    -9.356656725417920E-1   -2.228213004968259E1    -8.808951781215237E1     9.023695390989116E1
                        -9.400666116174219E1     1.206060963040160E2    -8.768968124577023E1    -1.673153703045837E2    -9.227288628929620E1     1.640440362651161E2    -9.006039329592318E-1   -1.931010692978101E1

 3.055000000000000E7    -2.569047406285891E-1    8.969324790178470E1    -6.936934242685646E1     6.680234035780504      -8.028792967114197E1     1.783485815500688E2    -8.493582563706697E1    -9.141668240163091E1
