#  HZ   S   DB   R     50.00 
! Rohde & Schwarz Vector Network Analyzer 
! Rohde-Schwarz,ZNB8-4Port,1311601044102961,2.82
! Created: UTC 2/13/2019, 1:34:59 PM
! freq[Hz]                db:S11                  ang:S11                 db:S12                  ang:S12                 db:S13                  ang:S13                 db:S14                  ang:S14
!                         db:S21                  ang:S21                 db:S22                  ang:S22                 db:S23                  ang:S23                 db:S24                  ang:S24
!                         db:S31                  ang:S31                 db:S32                  ang:S32                 db:S33                  ang:S33                 db:S34                  ang:S34
!                         db:S41                  ang:S41                 db:S42                  ang:S42                 db:S43                  ang:S43                 db:S44                  ang:S44
! 
 5.525000000000000E7    -4.276828780343385E-1    9.748721198176241E1    -2.984562869022515E1     6.995594523195842E1    -8.144999106605565E1    -6.596580257725094      -8.058643459625333E1     1.489995518081765E2
                        -2.985394614242351E1     6.951603213703226E1    -2.670112559544920      -1.455667839578510E2    -6.679201067358957E1    -1.669603495111167E2    -7.799991158058155E1    -1.140441417896054E1
                        -8.468657963533167E1     6.481148937308137E1    -6.731788310255899E1    -1.577663669880341E2    -1.413293560398609       2.467616361564297E1    -8.620387094868431E1     3.358436472512724E1
                        -9.181608217973363E1     5.222329012753726      -7.212815265974571E1     1.255051707764285E1    -9.650825671892271E1     8.499802032707910E1    -1.437809439561901       3.119509711244604E1

 5.525025000000000E7    -4.311976838336183E-1    9.748469907336445E1    -2.985005907874320E1     7.023365202163240E1    -8.415247449734582E1    -3.656361288357922E1    -8.806117525902197E1    -1.631946683208909E2
                        -2.994788914807077E1     7.028989608725969E1    -2.675409432474958      -1.456075502750401E2    -6.588557092923217E1    -1.626237573916910E2    -7.422742377180184E1     4.773313966761254
                        -1.055406533272412E2     2.775614393337583E1    -6.637218768944135E1    -1.674517912783902E2    -1.412679629268883       2.468161879895460E1    -9.505655735037543E1    -1.002479811208790E2
                        -8.954766629143973E1     1.998571039762280E1    -7.682999094381935E1    -7.023199976098978      -9.103396548218976E1     1.318148379027556E2    -1.429059230535587       3.117698201663145E1

 5.525050000000000E7    -4.300765736196903E-1    9.746801665389506E1    -2.977513633376018E1     6.984643255122491E1    -8.059182197866271E1     1.042474731993951E2    -8.692469027242689E1     1.487013405663447E1
                        -2.985576885006245E1     6.976874919655984E1    -2.670963234792600      -1.456459544284872E2    -6.683689969075699E1    -1.574268765325118E2    -7.773193253781544E1    -1.563461728089047E1
                        -9.295557763875094E1     1.764744395683157E2    -6.754529489795067E1    -1.662888916040356E2    -1.414310445237472       2.471120709653734E1    -8.730106743424607E1    -1.068580081172673E2
                        -8.549172738483101E1     7.696857377587979E1    -7.558118133360961E1    -6.656840828582548      -8.885857270240865E1    -9.460139237600096E1    -1.430592733023387       3.121798740640296E1

 5.525075000000000E7    -4.296851696485278E-1    9.749852339567195E1    -2.977822148816051E1     7.017399019592814E1    -8.322613713169832E1     7.446586197124948E1    -8.266972586894751E1     1.646157700388223E2
                        -2.982344592524800E1     7.016986158437129E1    -2.678675624825424      -1.456791238189101E2    -6.715935262742576E1    -1.599701139036057E2    -7.594740058509035E1    -1.295300270872630E1
                        -9.240955468315148E1    -8.046553501175380E1    -6.609931752497722E1    -1.618035240645080E2    -1.409974568878358       2.471099920018865E1    -8.904388288744474E1    -1.701590427400268E1
                        -9.195220246405094E1     2.810805727747952E1    -7.215092026944588E1    -4.038024569278959      -9.395014779633245E1     1.272971153799851E2    -1.435918897912871       3.117697864514037E1

 5.525100000000000E7    -4.314875561100927E-1    9.748502274774072E1    -2.985781877529078E1     6.997880618973574E1    -8.382759255546775E1    -1.442794430345602E2    -9.126834560703247E1     9.063007182090229E1
                        -2.989039415559791E1     6.937336568085966E1    -2.680933299544022      -1.457494288982799E2    -6.594824170074439E1    -1.625925931379088E2    -7.455292403908688E1    -2.562263314818406E1
                        -9.921161555622876E1    -8.142992736195090E1    -6.741235868218068E1    -1.657467750545949E2    -1.412839145500374       2.468941868954461E1    -8.196581437686416E1     1.571111078902846E2
                        -8.486253439441461E1     1.086780778990280E2    -7.475638430498043E1     2.833999512589181      -8.507033179056205E1    -4.689772589343511E1    -1.431455950802281       3.120216874323991E1

 5.525125000000000E7    -4.336804951981149E-1    9.746106523395328E1    -2.978475165060136E1     6.996922590395755E1    -9.093585266163694E1    -5.206723830258691      -8.933746674566459E1     7.792022228813067E1
                        -2.988384964465891E1     6.984821341507258E1    -2.685024481757246      -1.458187288489703E2    -6.711749339885282E1    -1.597190849034322E2    -7.752000744878589E1     4.819899526416877
                        -9.223180233504459E1     1.530542074703041E2    -6.642696440217677E1    -1.600014111844256E2    -1.416481337023548       2.469078029355918E1    -8.580321529769282E1    -1.399638833303319E2
                        -8.669313095008370E1    -3.613151926527219E1    -7.608687217686791E1    -1.413620720680005E1    -1.046533507056415E2    -1.639873620026124E2    -1.433725782135629       3.117352680646805E1

 5.525150000000000E7    -4.312856923785412E-1    9.745276710023217E1    -2.986977723801843E1     6.999043858239075E1    -8.480649017092448E1     1.021990192006521E2    -8.234972589144947E1     1.385704420192883E1
                        -2.981220274101646E1     7.014148299847133E1    -2.694237552145748      -1.458466496406208E2    -6.628772575659501E1    -1.587849847553312E2    -7.788774878233190E1    -5.889981592927684
                        -9.291661930622377E1    -9.582283266858772E1    -6.673584867217964E1    -1.618683696438887E2    -1.415264747023400       2.468645736021960E1    -1.011753377510581E2    -9.867897343331825E1
                        -8.786446572458542E1    -5.059240476570223      -7.429785415351768E1     1.938084528459010E1    -8.885251646515852E1     1.085602493028149E2    -1.433876716003080       3.120892947164617E1

 5.525175000000000E7    -4.311834023938924E-1    9.747884782615239E1    -2.981927583370372E1     6.993861263154625E1    -9.094672079624866E1    -6.293602996984251E1    -8.760860317292207E1    -2.357712318977507E1
                        -2.989198639991394E1     6.990359321342264E1    -2.696458655279867      -1.458274483433491E2    -6.618043049252853E1    -1.621953491506056E2    -7.559959749339681E1    -1.503331400878535E1
                        -9.020566299975843E1     1.051869095345101E2    -6.723552054084631E1    -1.552347215247096E2    -1.411170397136865       2.468062674150416E1    -8.374017918095035E1     1.354789087940293E2
                        -9.058266412435006E1    -1.525959934416475E2    -7.613884579505891E1    -3.035316105533363      -8.226976256242091E1    -9.379421878813088E1    -1.434747999637009       3.118151938210561E1

 5.525200000000000E7    -4.297523201345744E-1    9.742811498268451E1    -2.982665575818148E1     6.987669156121793E1    -7.971787578945076E1     5.662481415442088E1    -8.920677284262095E1    -3.140245338935683
                        -2.985465223052924E1     6.983499677462012E1    -2.693541933828900      -1.459186513602756E2    -6.776385201275426E1    -1.524168746150779E2    -7.202219452502098E1    -6.803655801158827
                        -8.480736159413024E1    -1.381332158393805E2    -6.658089547219178E1    -1.680203567082629E2    -1.411701807369984       2.463461605035239E1    -9.571949639019395E1    -1.447276626478886E2
                        -8.692879917669144E1     8.751071052328953E1    -7.235575605302763E1    -2.297965191191250E1    -8.062868927669966E1    -6.278961192998209E1    -1.431934359235905       3.118321457676967E1

 5.525225000000000E7    -4.293318331735658E-1    9.744995526032729E1    -2.975772364408041E1     6.989438413076992E1    -8.446708199737607E1     1.738788169123988E2    -8.445987326990911E1    -4.658063878095112E1
                        -2.990810276581948E1     6.965392298757207E1    -2.699299070166754      -1.459535935193600E2    -6.711972287637784E1    -1.651971339607213E2    -7.558386849803755E1    -2.825152539500707E1
                        -8.965572358146773E1    -2.245076058539129E1    -6.672537677077381E1    -1.643032981690909E2    -1.410230819642151       2.470171966141372E1    -9.094426082170685E1     1.234044986280368E2
                        -8.144697395377855E1     1.028831999055259E2    -7.680404786210546E1     1.707147823098799E1    -9.762843279323644E1    -9.416497469459213E1    -1.430137060049174       3.116268593491665E1

 5.525250000000000E7    -4.277603392226212E-1    9.743807209834303E1    -2.984968932418383E1     6.998319819043147E1    -8.844189780792283E1     9.188119909318806E1    -9.253505533792492E1    -1.614630885219015E2
                        -2.991295651968513E1     6.958585380714335E1    -2.705186264526616      -1.459788246383599E2    -6.628123997936552E1    -1.584600933170765E2    -7.531730759677268E1    -1.302364083217483E1
                        -8.151165652854874E1    -1.998494014270863E1    -6.625320363219572E1    -1.620865589989007E2    -1.409471359805212       2.466297941664558E1    -8.594889850620430E1    -1.228378608624185E2
                        -9.081097598294861E1    -8.948183032669931E1    -7.716599829755216E1    -2.906478768889305E1    -9.084960885921066E1    -1.415383983237550E2    -1.434193084748073       3.118700726286766E1

 5.525275000000000E7    -4.287060051834697E-1    9.743246233365090E1    -2.987107535911655E1     6.934787819059285E1    -8.463868076395032E1     5.531987072542669E1    -8.722654682779790E1     1.579327004079878E2
                        -2.987636306178527E1     6.980474584204053E1    -2.711066567415602      -1.460500689191211E2    -6.776782205864481E1    -1.640736821496940E2    -7.528080227840751E1    -2.503295264692548E1
                        -8.480870791057468E1     1.597055826901928E2    -6.629193886316119E1    -1.653143934970482E2    -1.411675842862805       2.462444432967933E1    -9.494815286328199E1     4.525474685487157E1
                        -8.706173910503112E1    -1.581756561109946E2    -7.671021174917701E1    -1.702881019079381E1    -8.195895031142413E1     1.563274316139199E2    -1.432247982872466       3.115889188179120E1

 5.525300000000000E7    -4.276672944776223E-1    9.743020783124489E1    -2.978874532064256E1     6.974324734524519E1    -8.796210151272334E1    -1.267187340916458E2    -8.666349482393795E1    -4.493760164361907E1
                        -2.978420762619540E1     6.946550292407963E1    -2.711185977560777      -1.460705676301112E2    -6.791512699551758E1    -1.708610841483541E2    -7.541784173335960E1    -1.023785039930158E1
                        -8.160852159454967E1     1.120069615400203E2    -6.671810302350653E1    -1.637148147000506E2    -1.410899133867526       2.463251424875976E1    -9.071294366185207E1    -1.505637283487015E2
                        -9.318869159029121E1    -8.997267972942215E1    -7.536902523208028E1    -1.869562830888804E1    -8.826042490601573E1     8.800487612228693E1    -1.431437412171428       3.118283979765813E1

 5.525325000000000E7    -4.324035610439033E-1    9.743603378778512E1    -2.984887790195894E1     6.974875859693889E1    -8.592165796918360E1     9.479169787430950      -8.296673587026817E1     9.800209509733297E1
                        -2.989768942532362E1     6.986691280756676E1    -2.717141829001509      -1.461542597768148E2    -6.656392794947155E1    -1.611469997143389E2    -7.765243335146143E1     7.493262739746915
                        -8.796767294534905E1     1.012360194335433E2    -6.728806857054590E1    -1.576815646017647E2    -1.408452445046763       2.464975150428219E1    -8.893421664683507E1     1.605015510705070E2
                        -9.096738106340209E1    -1.373944929012842E2    -7.593972818546446E1    -3.673140630610709      -1.015405624992730E2     7.871504425341529E1    -1.433262502643277       3.116769602586104E1

 5.525350000000000E7    -4.300003523889225E-1    9.744271018760304E1    -2.985140387637339E1     6.929289168686896E1    -8.294628059418184E1     1.523156229989918E2    -8.577008069479118E1     4.132416725104281E1
                        -2.987901429759612E1     6.989724091390265E1    -2.717805442686119      -1.461825932950452E2    -6.596039150507258E1    -1.633913304648419E2    -7.276412382545736E1     2.776425557310033
                        -8.258590777442444E1    -5.479039282322222E1    -6.693407545715726E1    -1.612520898195546E2    -1.414258218378870       2.466877942495971E1    -8.384573735321186E1    -2.395380350353960E1
                        -8.672837600870162E1     1.317969261089447E2    -7.378680647249527E1    -1.263606097659953E1    -9.346049501473524E1    -1.709834475110224E2    -1.427655513489629       3.112814549310431E1

 5.525375000000000E7    -4.299847765444348E-1    9.741417955481984E1    -2.983095079964107E1     6.917861017200104E1    -9.277406346417754E1    -1.342174721099251E2    -8.312926428129234E1    -9.118891190436585E1
                        -2.979203190161937E1     6.900113636762919E1    -2.724351655089694      -1.462060935240020E2    -6.686331769023214E1    -1.565817173293867E2    -7.437851995661499E1     5.141472079410174E-1
                        -8.381446057186894E1     1.805343666584884E1    -6.671514233474242E1    -1.663030694958024E2    -1.411921870470736       2.464154766854082E1    -8.717086417614000E1     1.500555377011393E2
                        -9.087280025970316E1     9.985185607029463E1    -7.369980093527545E1    -9.432684579773772      -1.030916021892847E2     2.119799185104445E1    -1.431006570398560       3.115131224346937E1

 5.525400000000000E7    -4.340876882446637E-1    9.738226556860303E1    -2.983719440522133E1     6.960288858674346E1    -8.285396471467374E1    -1.568611497580270E2    -9.257386988622081E1    -1.483805410843116E2
                        -2.992948083104695E1     6.985224506541535E1    -2.719609176280437      -1.462440587110777E2    -6.659648084601648E1    -1.603183990610590E2    -7.630410042782862E1    -1.174300509275647E1
                        -8.922778465382291E1    -2.337368405361288E1    -6.676508116500574E1    -1.533833427377619E2    -1.411513369773372       2.467925819007537E1    -8.490009794208334E1    -1.572172824494952E2
                        -8.717072559461003E1     1.417174324341775E2    -7.476729763605611E1    -9.693881723422082      -9.168068739051651E1     9.163391289107884E1    -1.435708199927554       3.114095687987920E1

 5.525425000000000E7    -4.279338220968834E-1    9.739183978138199E1    -2.984986562102179E1     6.954227587321955E1    -8.507078770306151E1    -7.812459107957488E1    -9.376783075965739E1    -6.176115967389126E1
                        -2.992257514517861E1     6.968079754476079E1    -2.730070581450817      -1.462956464959856E2    -6.670305662051720E1    -1.693915427684875E2    -7.403836521662620E1    -2.839727918075696
                        -8.704926265789629E1     4.431206885966291E1    -6.683296242798279E1    -1.690968609324764E2    -1.418337019240188       2.459980415092367E1    -9.937163835196213E1    -1.489757012724593E2
                        -8.214875536648972E1    -4.667573144664134E1    -7.385787847538991E1     5.229741288749970E-1   -8.059552265396277E1     5.648962788803026      -1.433660657456255       3.117525744433507E1

 5.525450000000000E7    -4.332977672748487E-1    9.738703456487663E1    -2.981305790240130E1     6.949913190424095E1    -8.001757333840519E1    -1.061202671335333E2    -8.631908735156688E1     4.235265025310245E1
                        -2.983217810659410E1     6.979274722425640E1    -2.737194586673243      -1.463359159613778E2    -6.630427858332644E1    -1.688806443805221E2    -7.721909981464590E1    -1.963693529572029E1
                        -8.823929122292192E1    -8.376520781913840E-1   -6.687776165934969E1    -1.620914021046253E2    -1.410222029180272       2.466630992646747E1    -9.568086067239921E1     9.126061409390837E1
                        -9.339644585650541E1     3.941199454738902E1    -7.505928322566555E1    -1.782413844488482E1    -8.368124263268376E1    -3.239247229099191E1    -1.428268689529396       3.116997008720662E1

 5.525475000000000E7    -4.267430536068324E-1    9.743040274243317E1    -2.982333498774527E1     6.985978714391852E1    -9.247908875089004E1    -8.718812034649754E1    -9.070992492068400E1     4.967185038460946E1
                        -2.986023366886728E1     6.974802800227428E1    -2.735777588583259      -1.463852406058228E2    -6.612922349029675E1    -1.564848127514097E2    -7.587974758219256E1    -1.092722134902409E1
                        -8.530480988670662E1    -1.431915351155488E2    -6.681115542566413E1    -1.677121339205685E2    -1.412781755592268       2.462887131025509E1    -9.955513861827200E1     1.165588379974460E2
                        -8.396541969519744E1     1.118907754419827E2    -7.798695716764001E1    -2.596236007161003E1    -9.253567286086026E1    -1.475313614476647E2    -1.432863113086786       3.114392303399675E1

 5.525500000000000E7    -4.276370906908091E-1    9.741038395483666E1    -2.982582676752476E1     6.960376560935079E1    -8.675742138224307E1     8.669786113173788E1    -8.124490399910060E1    -1.245381064408459E2
                        -2.981966092647253E1     6.989052639850139E1    -2.732581550970364      -1.464357113104541E2    -6.613936598455682E1    -1.626625191317193E2    -7.576777840894248E1    -7.207366148076908E-1
                        -8.105258448566846E1     1.254468785284543E1    -6.763305813377482E1    -1.616523861431676E2    -1.413685341857822       2.460669077422827E1    -8.788263467745964E1    -1.343852409745037E2
                        -8.639952052728440E1    -1.280669824658642E2    -7.359309031704170E1     6.958943809122162      -9.790492856758749E1     1.075199047424292E2    -1.435553025273125       3.112731611570944E1

 5.525525000000000E7    -4.292731355951475E-1    9.736838872135149E1    -2.976685924770624E1     6.974221364650266E1    -9.108189740848530E1    -1.465355925249167E2    -8.671605896109945E1     1.229395269227453E2
                        -2.993660049343340E1     6.958674805705961E1    -2.739708591094626      -1.464866585712767E2    -6.714553389995132E1    -1.517925925110365E2    -7.405551485652288E1    -1.781016320459328E1
                        -8.814130273170363E1     9.327642255662873E1    -6.706119769102963E1    -1.573675029891824E2    -1.412027532217032       2.461367073573642E1    -1.048166374967216E2    -9.896573045419329E1
                        -8.853497388737738E1     1.146323600274350E2    -7.458136438621663E1    -1.537973772762719E1    -8.437073835261919E1    -1.745869291063484E2    -1.428533743131540       3.115369554136588E1

 5.525550000000000E7    -4.305992976005025E-1    9.737523109134015E1    -2.986320976955841E1     6.950222604076228E1    -7.937261746904107E1     3.877172918734237E1    -9.401659407425412E1    -8.470981090236174E1
