#  HZ   S   DB   R     50.00 
! Rohde & Schwarz Vector Network Analyzer 
! Rohde-Schwarz,ZNB8-4Port,1311601044102961,2.82
! Created: UTC 2/13/2019, 2:23:38 PM
! freq[Hz]                db:S11                  ang:S11                 db:S12                  ang:S12                 db:S13                  ang:S13                 db:S14                  ang:S14
!                         db:S21                  ang:S21                 db:S22                  ang:S22                 db:S23                  ang:S23                 db:S24                  ang:S24
!                         db:S31                  ang:S31                 db:S32                  ang:S32                 db:S33                  ang:S33                 db:S34                  ang:S34
!                         db:S41                  ang:S41                 db:S42                  ang:S42                 db:S43                  ang:S43                 db:S44                  ang:S44
! 
 3.000000000000000E7    -2.683415949955189E-1    9.356191729441716E1    -7.017765717281135E1    -8.352193289602697      -8.979306986046706E1     1.613986024675382E2    -9.562412789497400E1     1.665184517651545E2
                        -6.976568524363331E1     5.239489761494583      -2.524846556648354E-1    1.008218592348250E2    -8.529923207494966E1    -1.797224877141721E2    -9.776625576577246E1     9.895190305572240E1
                        -8.222267420290112E1    -3.277796230556249E1    -8.612206511468369E1    -6.133550440950958E1    -9.424943490908602E-1   -1.971195321749813E1    -8.668497134210078E1    -6.888561612642437
                        -8.425871484594094E1    -6.719128221768933E1    -8.400601402250510E1     1.024932118365150E2    -8.507617876706894E1     1.155567884834050E2    -9.156404202756643E-1   -1.698130438434161E1

 3.002500000000000E7    -2.715035444760874E-1    9.326067835693786E1    -6.851946778464379E1     3.079343988412430      -8.726557268157779E1     2.100503980437479E1    -9.141451579046375E1    -1.082048100615091E2
                        -7.096117555583146E1     9.595766700018150      -2.584834261214213E-1    1.005003712229682E2    -9.284340550095439E1     5.575149885837286E1    -8.930770253238768E1     1.718832481680144E2
                        -8.644331928694069E1     3.779008594961488E1    -1.014656711800862E2     8.805098135830519E1    -9.422302500346429E-1   -1.998850999767669E1    -8.862865593216668E1    -4.023830740679396E1
                        -1.076296778414050E2    -1.163145308550596E2    -9.098852763540081E1     9.821350273393578E1    -8.285775875969050E1    -1.024266386835231E2    -9.173197899634074E-1   -1.723798227263429E1

 3.005000000000000E7    -2.737897918507579E-1    9.288188024146932E1    -7.039705902082856E1     2.952505398053129      -8.487406725340509E1    -1.647480449710651E2    -1.012059882073113E2     5.385370551243119
                        -6.945377078452972E1     4.754135037701071      -2.594955179608847E-1    1.002027673478421E2    -8.989488087926168E1     2.951688291822121E1    -9.068980643741691E1     9.396127833148475E1
                        -8.887176348752577E1     5.198641019956794E1    -8.950281382583870E1    -2.056266271530954E1    -9.508825919204320E-1   -2.027649528860601E1    -8.759579340037405E1     5.046412876417264E1
                        -8.564847815973423E1    -3.214457840721615      -8.512981963683879E1    -1.169631377373266E2    -8.921159483536863E1     1.634386527414985E2    -9.170904650673093E-1   -1.755186473546433E1

 3.007500000000000E7    -2.668988858496426E-1    9.258112766487403E1    -7.007515715749067E1     3.955663572489995      -8.957878409630878E1     9.084079430793668E1    -8.464116927336009E1     1.016663105222639E2
                        -6.928509907982479E1     8.144718306827297      -2.563235023846917E-1    9.987159023616543E1    -8.616070986529957E1     6.047108858695424E1    -9.294549198737425E1    -9.867469835239720E1
                        -8.036611019872692E1     7.179861348992822E1    -8.682624222104414E1    -1.499905493919964E2    -9.479660054375595E-1   -2.062413129933232E1    -8.460361628818328E1     1.476508713761971E2
                        -8.878361438182601E1    -2.645303139892610E1    -9.454827654227073E1     1.864731710666348E1    -8.755990747995277E1     2.824622225450371E1    -9.148706450457644E-1   -1.784248903150294E1

 3.010000000000000E7    -2.680361879457256E-1    9.227523611185046E1    -6.926945353675870E1     1.850929672888479E1    -8.616716502170320E1     3.584381008976540      -8.438953465916725E1    -6.161770763193677E1
                        -7.005418954389441E1     1.635322056719310      -2.586579048658094E-1    9.956889037014190E1    -8.120502064368620E1    -5.754065420756468E1    -8.307490306780579E1     1.293006950994399E2
                        -9.707731882359917E1    -7.030514372324171E1    -8.872279255343648E1    -7.664780089472077E1    -9.450061354252897E-1   -2.092974670795121E1    -8.655155928679832E1     3.931201411806919E1
                        -8.969144456085105E1     2.126939865854047E1    -8.416659858496689E1    -1.564208104181862E2    -8.749433560581485E1     5.695721724746286E1    -9.180976056624567E-1   -1.811478245918868E1

 3.012500000000000E7    -2.627598762197026E-1    9.188866916129517E1    -6.798625997378036E1     8.288602937167724      -8.321902916365406E1    -9.216058110066939E1    -9.138674047871321E1    -1.015584609355547E2
                        -6.923898462244998E1     6.149548474672621      -2.596209572771210E-1    9.930204155960060E1    -8.952583739328657E1     1.384323517133961E2    -8.274936058505864E1    -7.345191586246810E1
                        -8.439682008414296E1    -8.100657740181931E1    -9.313113837174180E1    -1.172131956655488E2    -9.482045971081844E-1   -2.125198188508432E1    -9.030885089371475E1     7.425185978428988E1
                        -8.317366409486650E1    -1.022346219780036E2    -9.082039408135897E1     2.691951892359212E1    -9.179425553277488E1     1.359447836445435E2    -9.147921262814618E-1   -1.845348705562294E1

 3.015000000000000E7    -2.661669960449789E-1    9.159344077162950E1    -6.775669761527743E1     6.286470326449137      -8.657142331847858E1     3.833504035021579E1    -7.923821676999151E1    -3.540687460393221E1
                        -7.014386331718906E1     8.013203429858482      -2.557871680337703E-1    9.895798490340161E1    -9.362319840787109E1    -1.744545907349281E2    -8.069751132788552E1    -6.790671289248354E1
                        -8.031195443226808E1     4.669094673432805      -8.164888955180817E1    -1.778694478961381E2    -9.489572983422896E-1   -2.157202759750189E1    -8.599224734066219E1    -9.740615229169703E1
                        -9.443576963441538E1    -6.362672511034942E1    -9.349147751444411E1    -3.854022294141537E1    -9.427441479872199E1     5.855242684999055E1    -9.111133974611620E-1   -1.874888541108700E1

 3.017500000000000E7    -2.613843244771529E-1    9.121705871886286E1    -6.881625107414402E1     1.072047729168756E1    -9.512962473082672E1    -1.341531960161055E2    -8.340185453112873E1    -5.276487125471842E1
                        -6.787541178913706E1     7.541804487874340      -2.532674580809669E-1    9.866525589315432E1    -8.532109464723379E1    -1.603169350370831E2    -8.375547703628692E1     7.982042848504628E1
                        -9.211986167065584E1    -5.826381394069429E1    -7.996170702107263E1     1.609617063933401E2    -9.488119711981791E-1   -2.188047915201058E1    -8.407335996281483E1     1.026427562322323E2
                        -8.416997194355558E1    -1.307063735433935E2    -7.975551027353184E1     1.432163442151823E2    -8.111415965174544E1    -1.319053783743032E2    -9.116062215588916E-1   -1.904874950277254E1

 3.020000000000000E7    -2.605051651835400E-1    9.087608864293016E1    -7.054100292245521E1     1.662174249620427E1    -8.596680132139161E1     1.485940090923439E2    -8.021725578217895E1     1.090384108630997E2
                        -6.969432178397338E1     1.276131515106907E1    -2.553570908878414E-1    9.829911939434670E1    -8.372230180108016E1     1.783290917372827E2    -8.596153088050789E1    -1.319933428465771E2
                        -8.295255031049679E1    -1.525785236936104E2    -8.645529971163684E1    -1.339694530355652E2    -9.409211911946422E-1   -2.220935804127058E1    -9.293877839444896E1     1.638269740945117E1
                        -8.680710666895121E1     4.294329036086330E1    -9.024365389700911E1    -1.427637364980129E2    -9.436311975570038E1     1.495386415227821E2    -9.172312191912300E-1   -1.939296295663603E1

 3.022500000000000E7    -2.700110967126947E-1    9.053112697421042E1    -7.015480239540308E1     2.002418155184229      -8.001099142426745E1    -1.697229480878258E2    -8.268739924189818E1    -5.782940115119440E1
                        -6.905651234890141E1    -9.872967636184342      -2.567391773329817E-1    9.805201549061236E1    -8.780144851514996E1     1.222261603322677E1    -9.053096614750649E1    -3.689193187693333E1
                        -8.466683889845416E1    -3.633940543903066E1    -8.438360252288631E1     9.172673058997795      -9.450909923341329E-1   -2.252161071476836E1    -8.414402415672809E1     1.354285616054883E2
                        -8.336436919373543E1    -1.081023606954397E2    -8.339517331634508E1    -3.140721940930956E1    -9.367248326380567E1     1.326834285351677E2    -9.113336494757502E-1   -1.967956917169747E1

 3.025000000000000E7    -2.617424307367893E-1    9.018772496248317E1    -7.063803121166235E1     1.178972221881549E1    -7.832535976269412E1    -3.695448590995228E1    -8.620300867442020E1    -1.342604687512465E2
                        -6.941544661913318E1     9.996065300217444      -2.683080893906408E-1    9.770838873646940E1    -8.568864305705615E1     6.511378757256178E1    -8.744320661857643E1    -4.515061473877150E1
                        -8.273493981250731E1    -5.621373634249982E1    -8.750843472032892E1    -1.399839737953955E2    -9.486670130872820E-1   -2.281727495656128E1    -7.894058988816545E1     3.517310871192206E1
                        -8.407408236728280E1     1.480020490602345E2    -8.634379199269961E1     3.986838405119470E1    -9.109933920055519E1     6.273321945871868E1    -9.157785711196291E-1   -1.996237715935569E1

 3.027500000000000E7    -2.636954582013989E-1    8.984195637980102E1    -6.824336758073356E1     7.940654656333670      -8.734231179279603E1    -7.741710990053517E1    -8.428544059266790E1     1.324912115026979E2
                        -6.911491189049330E1     1.033316173709732      -2.475988527566525E-1    9.739245318942375E1    -8.329050397207971E1     7.751341612632228E1    -9.433266161082541E1     2.457833333298313E1
                        -8.467628795621771E1    -6.080794413213906E1    -8.730397734236016E1    -5.125918503517823E1    -9.426393837227785E-1   -2.314938761960131E1    -9.375657590695353E1     2.880077252834834E1
                        -8.493649074364197E1    -1.046699463411603E2    -8.714278265156550E1    -4.778693585626282E1    -8.468762027149674E1     4.687857440997534E1    -9.113085788327590E-1   -2.027607668364323E1

 3.030000000000000E7    -2.630943381964546E-1    8.956216992133230E1    -6.972324699429410E1     7.520119312126830      -8.622949521264150E1     9.616467964562382      -8.920584501729468E1    -8.705659714558888E1
                        -7.079556798440325E1     2.977738817933085      -2.571657399661592E-1    9.711808440447305E1    -7.684680127766757E1     4.337740402239639      -8.948150235810408E1    -1.784822417103651E2
                        -8.097899247497151E1    -1.545391404617750E2    -8.532740917801721E1    -6.189633991393341E1    -9.505333337930122E-1   -2.347295363261567E1    -9.052277855363150E1     4.001019671479764E1
                        -9.012265700005318E1    -6.459160004192718E1    -7.952357703164458E1    -1.188093253759310E2    -9.408657214717970E1    -1.627162221385660E2    -9.151887284846370E-1   -2.059042201051937E1

 3.032500000000000E7    -2.609219492460319E-1    8.919129518269023E1    -6.985798564122000E1     1.427115596189450E1    -8.411420012868838E1     1.318721355146662E2    -8.096084643292005E1    -9.201635573681587E1
                        -6.784885430631691E1     8.975000296641456      -2.458438686950121E-1    9.675468757643920E1    -8.721552147019077E1    -1.679013463267472E2    -8.460661766304462E1     3.595359977015092E1
                        -8.491849924744810E1     8.407080933290675E1    -8.809021807901627E1     7.177133561746585E1    -9.529036002416959E-1   -2.378950660150435E1    -9.341856537650470E1     1.286226990410258E2
                        -8.445404477783475E1     1.113391914531493E2    -8.849581827887917E1     9.138128235703012E1    -9.679407085179692E1    -1.765478129615347E2    -9.137952017466556E-1   -2.087653265726303E1

 3.035000000000000E7    -2.574888816697881E-1    8.887545030376518E1    -6.889216567929088E1     1.140459550714668E1    -8.240353989729790E1     4.766640560169856E1    -8.340835043726813E1    -4.981523713324176E1
                        -6.779730123956976E1     3.198615946848753      -2.537364733869759E-1    9.644398746533811E1    -9.088597428229777E1    -3.613488310008141E1    -1.016102044632405E2     1.454915396567890E2
                        -9.499181313393045E1     1.376033328022262E2    -8.386789839968461E1     1.079733560354989E2    -9.457670471611086E-1   -2.411029522556557E1    -8.454611506353798E1     6.105968680896884E1
                        -8.714349004228743E1     1.401464628450920E1    -8.326296425926824E1     9.854191411267744      -8.235555295407497E1    -1.530195329965035E2    -9.154941871680913E-1   -2.119673944110040E1

 3.037500000000000E7    -2.541164864079478E-1    8.850199260489816E1    -7.105819494635186E1     1.705138826648883E1    -7.923744954857013E1     2.992555233448215      -9.004713037943486E1     7.765527943326695
                        -6.908627316001525E1     2.005687081209506      -2.575750568746409E-1    9.615007553473230E1    -8.253041467875333E1     1.747069593577328E1    -7.816711807681232E1     5.220841557605893
                        -8.304140246997386E1     6.356213289972988E1    -9.648626959803556E1     1.332884099997214E2    -9.486384180226355E-1   -2.440200604176139E1    -9.657300177019245E1    -1.411489228175703E2
                        -9.219365647109137E1    -2.277562130532878E1    -8.938327172277320E1     1.361710011517480E2    -8.114821884756142E1    -1.535134648841751E2    -9.106801516930163E-1   -2.145470657603707E1

 3.040000000000000E7    -2.517108716558325E-1    8.816708662136858E1    -6.815890648024688E1     6.694942142257824      -8.029317272915068E1     3.192595858739805E1    -8.777998034162444E1    -1.124619135279536E2
                        -6.884120690996662E1     1.515405210120632      -2.491353412749783E-1    9.581985289241239E1    -8.073906051182794E1     1.545271753387702E2    -9.336642541541259E1    -8.646194918415915E1
                        -9.669164496361995E1    -8.531097302506429E1    -8.872824128269613E1     6.152677301150301E1    -9.450507214145337E-1   -2.472419227147026E1    -8.396019883472758E1     7.531604349842421E1
                        -9.318805630400986E1    -2.921645840889292E1    -8.363366109916228E1    -9.933627284237080      -8.830501712452181E1    -1.443161512966021E2    -9.184875829540751E-1   -2.179478966402623E1

 3.042500000000000E7    -2.536548644015795E-1    8.786432747794181E1    -6.890725769305385E1     6.417062002648374      -8.204765418666474E1    -2.814862117002097E1    -8.303503244182775E1    -1.076633499406987E2
                        -6.813520977196363E1     3.103297812809866      -2.547230863407657E-1    9.556968564733427E1    -8.743633042742610E1     6.168192045820750E1    -9.347617492624497E1    -3.981043045786657E1
                        -8.223586693912388E1    -5.836235768687848E1    -8.627413702876972E1    -4.345346096306535      -9.510927734791247E-1   -2.508845133286936E1    -8.464677942490376E1     7.398772398200723E1
                        -8.887398344318683E1    -7.408400060523890E1    -8.266990670594657E1     1.541037915205050E2    -8.729854425292204E1     1.183421124865559E1    -9.141300393100137E-1   -2.212620418366846E1

 3.045000000000000E7    -2.628824274938830E-1    8.745968457394110E1    -6.873483600800230E1     4.494087236692877      -9.074329774975345E1     1.477867360500760E2    -8.411160186629631E1     8.270642175454510E1
                        -6.886601442841052E1     5.532091693241073      -2.481672368038176E-1    9.521177841420261E1    -8.708661367300164E1    -1.029892527511256E2    -8.542925172924561E1    -1.634552935693972E2
                        -9.107829666318031E1    -1.357308051401635E2    -9.387534033233196E1    -9.391807841436544E1    -9.494368239701362E-1   -2.539429432665334E1    -8.888447417401494E1     7.249860096926948E1
                        -9.826227471761112E1     1.665967291058368E2    -9.761700371685328E1     8.484335279547784E1    -8.805737179690556E1     1.012366597009595E2    -9.169853582754115E-1   -2.241682306046483E1

 3.047500000000000E7    -2.594436674202084E-1    8.714494623083209E1    -7.002805710598750E1     3.216330522846560      -9.265415904897125E1    -3.676773175266672E1    -8.514728298291715E1    -7.109393077880598E1
                        -6.956466804944884E1    -2.982114685383884      -2.477759506574347E-1    9.494584059120726E1    -8.394706516237832E1     1.668138384234102E2    -1.035413805921860E2    -1.121223863490869E2
                        -9.626915140783048E1    -1.346471562515021E2    -9.610603140284127E1    -7.203754633655935E1    -9.495504414979926E-1   -2.567956864867147E1    -7.853399249858362E1    -1.254972166550648E2
                        -8.698485880886420E1    -7.332018202441674E1    -9.234052637244189E1     1.142022923101105E2    -9.606741677009956E1    -4.398464333346680E1    -9.197665538762341E-1   -2.272356844216856E1

 3.050000000000000E7    -2.667422510404096E-1    8.681434525633502E1    -6.917068361586934E1    -1.535194109227140E1    -8.416396966564682E1     5.868547901884560E1    -8.553342828251820E1     1.751072605306269E2
                        -7.020877808369721E1    -1.180518027718967E1    -2.522101032134289E-1    9.459909650573083E1    -9.451616577799530E1    -9.481149935388859E1    -8.208246396208637E1     9.432436558010458E1
                        -8.633707897199179E1    -6.008067961761135E1    -8.110818078615232E1     1.344114684205262E2    -9.505114639788576E-1   -2.601936854761669E1    -8.399330486143725E1    -1.378031744019563E2
                        -8.846124965153058E1    -7.890718510581942E1    -8.943108398812454E1    -5.205252049118411E1    -8.157523003111862E1    -1.174778069839105E2    -9.166692215704475E-1   -2.301504800713961E1

 3.052500000000000E7    -2.531832202134388E-1    8.649887309500220E1    -6.867140549167647E1    -1.793392677435947      -8.904194835912115E1     1.414757232616135E2    -8.600215578946794E1     4.086066290845528E1
                        -6.954183241974153E1    -4.711030957771540      -2.526326533725469E-1    9.430087890887572E1    -8.746400135763255E1     3.804969796846191E1    -9.600718381778408E1     9.694303966241743E1
                        -9.396264268394563E1     1.597092900656270E2    -8.794530886470545E1     2.260604960024999E1    -9.518686166672085E-1   -2.629878693689490E1    -8.705341294136397E1    -1.227712820323306E2
                        -9.173981546525809E1     1.293240235171589E1    -9.219584447441369E1     3.352314934652435E1    -1.022681144150535E2    -2.817116677323613E1    -9.157779664858570E-1   -2.335858655042885E1

 3.055000000000000E7    -2.524128130150704E-1    8.609160811924714E1    -6.872984405464020E1    -1.154122052545536      -7.922340791784077E1     3.064341741502638E1    -8.300359342427917E1    -1.174474757849315E2
