#  HZ   S   DB   R     50.00 
! Rohde & Schwarz Vector Network Analyzer 
! Rohde-Schwarz,ZNB8-4Port,1311601044102961,2.82
! Created: UTC 2/12/2019, 1:54:33 PM
! freq[Hz]                db:S11                  ang:S11                 db:S12                  ang:S12                 db:S13                  ang:S13                 db:S14                  ang:S14
!                         db:S21                  ang:S21                 db:S22                  ang:S22                 db:S23                  ang:S23                 db:S24                  ang:S24
!                         db:S31                  ang:S31                 db:S32                  ang:S32                 db:S33                  ang:S33                 db:S34                  ang:S34
!                         db:S41                  ang:S41                 db:S42                  ang:S42                 db:S43                  ang:S43                 db:S44                  ang:S44
! 
 4.775000000000000E7    -2.901856464579130E-1   -9.975575290025488E1    -2.986309742347778E1    -1.392161836479184E2    -8.339689739136311E1     1.449687148707773E2    -8.763449919907515E1     9.495121396511772E1
                        -2.999347314944372E1    -1.393380882637430E2    -2.652238778278348E-1    1.531125547487562      -7.252049144934009E1    -3.541753796453241E1    -8.281584108312094E1    -1.780742131530820E2
                        -8.577617447253826E1    -1.758696643641999E-1   -7.303368200154259E1    -4.918037472914349E1    -1.410226121728186       1.229413068365164E2    -9.306844588179436E1    -1.350789751469926E2
                        -8.912325746389396E1    -1.433727278193592E2    -8.875990239261589E1    -2.965512053268909E1    -8.405720213186329E1    -1.170978786248160E2    -1.411236551788319       1.304719791687368E2

 4.775025000000000E7    -2.907445942852751E-1   -9.980445121466482E1    -2.992979794931685E1    -1.392725645042852E2    -8.229589642035697E1     1.085049171302753E2    -8.805785539021133E1    -1.279826714764824E2
                        -2.994819249744286E1    -1.397102572940444E2    -2.598015410120008E-1    1.486404273625160      -7.270831110426938E1    -2.450466842044206E1    -8.674185729382913E1     5.137540042398847
                        -8.756915287984860E1     1.543727526903076E2    -7.464666903845040E1    -1.926013848893733E1    -1.399549033681519       1.229436777980993E2    -8.272927827392266E1    -5.407126135417833E1
                        -8.736684114462346E1     7.195364129660656E1    -9.156566146200517E1    -1.789552291527104E2    -8.828328854672637E1     1.638901730463172E2    -1.414790727188418       1.304365448927453E2

 4.775050000000000E7    -2.949828418139052E-1   -9.982171544296359E1    -2.996866502972554E1    -1.398188182423744E2    -8.846483331339201E1     7.894779332290194E1    -1.006435100284325E2     1.288248336103427E2
                        -3.002640550364161E1    -1.390957284032045E2    -2.657625952255300E-1    1.481178853661872      -7.131476154394164E1    -4.900206165440217E1    -8.132887339003899E1    -4.526944310495844
                        -8.979260939040992E1     9.393576769603587E1    -7.233822681662642E1    -2.018354731591314E1    -1.399689785945125       1.229283882162171E2    -8.263635981921239E1    -1.518142631601235E2
                        -9.531721753220452E1    -1.004997738301831E2    -8.303161688017300E1     4.627188027900009E1    -8.823537019673184E1    -1.593613312785664E2    -1.412225781064338       1.304808854902583E2

 4.775075000000000E7    -2.947731976550967E-1   -9.977459213463642E1    -3.000171434848826E1    -1.394368153055802E2    -8.421327165218331E1    -1.583718267578865E2    -9.976971119638105E1     5.579331495218530E1
                        -2.997704023629224E1    -1.397890274947553E2    -2.657935854672359E-1    1.432929759461796      -7.346108688735603E1    -2.689065969994526E1    -8.286185770375589E1    -1.160326796612663E2
                        -8.826016305527091E1     1.624006405083291E2    -7.386993440845455E1    -2.184412057095243E1    -1.404556397695299       1.229311489239219E2    -1.002042073166824E2    -1.508055773334260E2
                        -8.155108101564142E1    -1.744987132956679E2    -7.740448841908697E1    -1.168697481776744E2    -1.029943472789709E2    -7.200324870146442E1    -1.410730310092073       1.304286955164362E2

 4.775100000000000E7    -2.978902989744981E-1   -9.980579110468429E1    -2.989258233927799E1    -1.392128958642358E2    -8.904594932745162E1     1.681550953650095E2    -8.910194029090300E1     1.553563779304052E1
                        -3.002573895145407E1    -1.391856308570687E2    -2.669286487425166E-1    1.479975009749279      -7.413223676079865E1    -3.886030203590428E1    -8.636234256024108E1     7.095219375880744E1
                        -8.957818355549337E1     4.131021709529868E-1   -7.162049207499064E1    -3.162498469794400E1    -1.404006687837288       1.228991719118569E2    -8.440312874897583E1    -3.291888388371267E1
                        -8.747046615241750E1    -3.565388912587515E1    -9.082808036594749E1    -1.225597897225234E2    -8.432784234788460E1    -8.218157677834898E1    -1.411424352513466       1.304322522660741E2

 4.775125000000000E7    -2.928057287394877E-1   -9.983352345448456E1    -2.989725796153461E1    -1.389377303768582E2    -8.030874781665960E1    -1.697601366508534E2    -8.570995812028328E1    -1.102173376007323E2
                        -3.003260168975451E1    -1.392795063730889E2    -2.618994788830648E-1    1.426162272928392      -7.159297609673787E1    -2.329274850404348E1    -8.493356983267253E1     1.416428007076666E2
                        -9.284777236130199E1     1.505369592682858E2    -7.488254967638325E1    -3.256452510082936E1    -1.404473783660835       1.228895054171494E2    -9.068068746215516E1     1.098173328569590E2
                        -8.925558139753059E1     1.463629705694464E2    -8.882030216540606E1     1.756989690527784E2    -8.638232726142331E1     6.781309725416843E1    -1.411254701090580       1.304201138531538E2

 4.775150000000000E7    -2.958894336815822E-1   -9.977139679906131E1    -2.996190621073579E1    -1.391018834159660E2    -9.573881330934594E1     6.891947687623012E1    -9.341241374108077E1     1.326293475621689E2
                        -2.988012779677996E1    -1.394807662005991E2    -2.640727548861079E-1    1.396631069668533      -7.009250444617827E1    -3.227984420294497E1    -8.110082703024104E1     1.274428696801154E1
                        -9.000571986149502E1    -1.156129162045004E2    -7.303647208032305E1    -2.384610232306009E1    -1.400027525829358       1.229448351123677E2    -8.786436778059647E1     1.685355758610784
                        -8.277424070936021E1     1.419433373456754E2    -8.775322908411381E1     2.088762025637364      -8.627874960040522E1    -1.273061606093935E2    -1.411606414433861       1.304405641643949E2

 4.775175000000000E7    -2.963684286067236E-1   -9.982328601256015E1    -2.990957708739773E1    -1.397353422976651E2    -9.224068059945849E1    -9.113349328670657E1    -9.509043474217405E1    -2.856800133912491E1
                        -2.991711851198068E1    -1.392550025324105E2    -2.622668605570779E-1    1.399931313388206      -7.210077390309540E1    -2.984518379361856E1    -9.143632895486981E1     1.258340401871334E2
                        -8.626171030713388E1     6.352595382900704E1    -7.405990246972817E1    -2.187966577179768E1    -1.406811847480718       1.229264218472961E2    -9.010449155473209E1    -9.134314210490398E1
                        -7.931786445827029E1    -9.598158324141591E1    -8.555561259457664E1     6.689658381313043E1    -1.055118185145406E2     6.550897632815386E1    -1.405724262183952       1.304245524695797E2

 4.775200000000000E7    -2.937318168117981E-1   -9.982205131212051E1    -2.988395041269868E1    -1.398233803369747E2    -9.113557473231866E1     6.602283601007937E1    -8.449719685961512E1    -1.644035521087633E2
                        -2.995244404046954E1    -1.394189388482718E2    -2.593654333448581E-1    1.368303729338714      -7.501791252114464E1    -4.549534027471497E1    -8.024943277145566E1     9.250081661589823E1
                        -8.465890607944401E1    -1.111432454924986E2    -7.299499395377816E1    -2.949327336505145E1    -1.405993354701278       1.228902465358488E2    -8.205622531525322E1     8.643746015457943E1
                        -8.685040509460342E1    -4.121265069294214E1    -8.399985917662291E1     7.863015664000886E1    -8.246279844027248E1    -1.363323879312415E1    -1.408880116436217       1.304108153193870E2

 4.775225000000000E7    -2.948144261492421E-1   -9.982691444041923E1    -2.986849071960084E1    -1.401090391982122E2    -8.593106738804983E1    -5.635803856130050E1    -8.232171814201747E1    -4.528797104996039E1
                        -2.999877596019833E1    -1.395959695804009E2    -2.658242555105050E-1    1.352565585816863      -7.277535564427674E1    -3.484741252907670E1    -7.943763877569484E1    -7.274910476060485E1
                        -8.181267458108519E1     1.666258870111285E2    -7.475131869996149E1    -5.719361624668630E1    -1.405195892681740       1.228536461976763E2    -8.958920674938477E1    -6.742893909717756E1
                        -8.452484656328538E1    -3.449080731047033E1    -8.836985021178367E1     3.397486088935861E1    -9.493085212821845E1    -1.324523269303067E2    -1.407595540929763       1.304200877563706E2

 4.775250000000000E7    -2.946113437266877E-1   -9.983612210199748E1    -2.996369805870211E1    -1.390919039033172E2    -8.703954119811712E1     4.046499428126892E1    -8.872082126929732E1    -1.633618368649824E2
                        -2.990024320405794E1    -1.392784894091898E2    -2.661787042220909E-1    1.350234335542266      -7.354924147707187E1    -2.892913376658575E1    -8.436563406695704E1    -1.627400365784419E2
                        -8.426380828385659E1    -1.313905916925567E2    -7.199725201355247E1    -2.301587138079741E1    -1.399639246910205       1.228656648476743E2    -9.444320966623425E1    -1.076537757859627E2
                        -8.657353813519222E1    -1.711424841905568E2    -8.975669683580014E1     1.062007044523252E2    -8.936712308389286E1    -1.788108297735040E2    -1.408105673943597       1.304100397808284E2

 4.775275000000000E7    -2.941160817867797E-1   -9.984311879076094E1    -2.983015544107396E1    -1.396258599459783E2    -8.663190707294390E1    -4.831079535235754      -8.897690941189772E1    -2.682145608304100
                        -2.985356172635348E1    -1.394778303115081E2    -2.646221099451506E-1    1.302207870009397      -7.138439718124948E1    -4.575125148103734E1    -9.108683741197982E1     9.332959635535085
                        -9.121852955142003E1    -4.346876413893109E1    -7.435476369789399E1    -2.170801421276153E1    -1.406979444564129       1.228616334334819E2    -8.915341601120795E1     5.717410258780470E1
                        -8.578188227928438E1    -1.220639714761201E2    -8.882525024498881E1    -1.370595544261187E1    -8.861585128366895E1     6.582897260384215E1    -1.407535400422640       1.304175156152029E2

 4.775300000000000E7    -2.943680117924197E-1   -9.984400673014788E1    -2.987349733194144E1    -1.397961996042421E2    -8.833696247512111E1     3.719689702363756E1    -8.700510582040054E1     4.509190358538008E1
                        -2.982376026989769E1    -1.398937750554581E2    -2.651355200940770E-1    1.295673180397867      -7.140437550789106E1    -3.361399162990059E1    -8.831421066771141E1     1.364146598319916E2
                        -9.784163784208717E1    -1.559938689773198E2    -7.233160809557975E1    -3.591810533401672E1    -1.402614951164546       1.228813566120356E2    -8.710459294432914E1     1.404657730099087E2
                        -8.404911631085233E1     6.571520431176498E1    -8.267895325621382E1     7.021945327989550E1    -9.023262184459972E1     1.566389505886323E2    -1.408884653580292       1.303889985736409E2

 4.775325000000000E7    -2.929226910010164E-1   -9.985999368430650E1    -2.992986527576944E1    -1.395482641909489E2    -9.890341180991051E1     3.125382520098206E1    -9.129871368982822E1     9.682156458285600E1
                        -2.997777422676167E1    -1.398452969722356E2    -2.666026569572873E-1    1.296724426935223      -7.230899382008727E1    -3.937959792437008E1    -8.680431478878056E1    -1.119202221863300E1
                        -9.497415973872607E1     9.853338949860982E1    -7.404293467170825E1    -2.398120773204407E1    -1.409473598989694       1.228957348553420E2    -8.870059072949907E1     8.801672537679616E1
                        -9.115167486813475E1     1.558219361408406E2    -8.560492405839688E1     8.858639821630422E1    -8.497737257443482E1    -1.608974052372579E2    -1.405830152499832       1.303786793814142E2

 4.775350000000000E7    -2.936665849218156E-1   -9.986173526873324E1    -2.994489233834053E1    -1.394667115397321E2    -8.694340021029917E1    -1.258904566499852E2    -8.279031756028874E1    -1.518576143362733E2
                        -2.992911836763652E1    -1.398053866729858E2    -2.619195599707130E-1    1.215881239192004      -7.265205602371825E1    -5.802498669803754E1    -9.389344549103240E1    -6.809559134729560E1
                        -9.059451346165943E1    -4.806649237160355      -7.500992425363504E1    -3.436772188755246E1    -1.399998519784324       1.228877292977289E2    -8.259290188338822E1    -2.941118209403589
                        -8.459040527458704E1     1.497103367423787E2    -8.358819563494134E1    -1.663214212736935E2    -8.687551049432119E1    -9.577145973919663E1    -1.408897318095588       1.303863389892206E2

 4.775375000000000E7    -2.949473159771599E-1   -9.986255414714597E1    -2.991884000905290E1    -1.397225562774754E2    -8.500887124880278E1    -8.266136544752315E1    -9.750085599200590E1    -1.203039771740475E2
                        -3.000797275028879E1    -1.397826132250697E2    -2.673820346000664E-1    1.237411424544703      -7.048701048641803E1    -2.242085450996652E1    -9.030454974438216E1     8.718401059366708E1
                        -8.494598172251648E1    -8.785120153110749E1    -7.591601116297680E1    -1.830608056208784E1    -1.406301728035294       1.228630710603079E2    -8.825928005496812E1     9.951341464792035
                        -1.028851117837850E2    -9.230705398230938E1    -9.194636300672366E1    -8.316155332136522E1    -8.582265351797715E1     7.664681397101680E1    -1.402990482514668       1.303890584227137E2

 4.775400000000000E7    -2.986183003764833E-1   -9.983556738490746E1    -2.994817982169769E1    -1.398144235133944E2    -8.353337957657757E1    -1.036579450752944E2    -8.149795199960099E1     8.819843867154366E1
                        -2.999658741916815E1    -1.395082954570587E2    -2.595157358138417E-1    1.198351550666954      -7.190153866898183E1    -3.690518430343386E1    -9.697878163749023E1     1.391545685700855E2
                        -8.632911900672242E1    -1.068638435939340E2    -7.270152800308000E1    -3.016841626938288E1    -1.406406652065526       1.228560725091145E2    -8.603518438890347E1    -1.760651271695869E1
                        -9.010096604897709E1    -3.990808896808457E1    -8.703591637680326E1    -3.072209171181736E1    -8.822386235680796E1    -1.517617316013884E2    -1.409127995406061       1.303838775981166E2

 4.775425000000000E7    -2.917106769416450E-1   -9.987557287962332E1    -2.997636513658999E1    -1.397459848360626E2    -8.669705542071598E1    -7.516027732672642E1    -9.304003308257092E1     7.229918813909274E1
                        -2.987668435642697E1    -1.397271470978195E2    -2.626767545412563E-1    1.204781911643740      -7.357148325467425E1    -1.523696805702139E1    -8.762739853667183E1    -1.767424786226818E2
                        -9.827531401747841E1    -5.729320677178337      -7.187960671379899E1    -3.203760253454183E1    -1.408326085563814       1.228663313426986E2    -8.935551323664113E1     8.215227132092211E1
                        -9.428200800589474E1     1.193502017127112E2    -8.340228797026633E1     1.761281099886132E1    -9.353909675802333E1    -1.047245198212997E2    -1.412989411799132       1.303852351604713E2

 4.775450000000000E7    -2.952425903203036E-1   -9.986023357482254E1    -2.991373771711141E1    -1.395947570714748E2    -7.964380131410375E1    -1.598798593547365E2    -9.185407104583801E1    -4.681246167716939E1
                        -2.992451481894627E1    -1.396156645967304E2    -2.671176001130030E-1    1.213981324674926      -7.196364070724324E1    -3.330252665501324E1    -8.576403742882837E1     1.338640038604103E2
                        -8.977791057847884E1     8.119046296060832E1    -7.279432183288905E1    -2.059152484805501E1    -1.399763674147020       1.228562395332825E2    -8.270707495539618E1    -5.928571996370097
                        -8.733835975581131E1    -4.209902561136270E1    -8.342460461316762E1    -1.673692073442651E2    -8.507400310102746E1    -1.186310337023212E2    -1.405684309395630       1.304154558843332E2

 4.775475000000000E7    -2.946984054871571E-1   -9.988791021309180E1    -2.991493498672620E1    -1.391956177420917E2    -8.438574592852856E1    -5.588865415134480E1    -8.102515980696751E1    -1.444602918138152E2
                        -2.994732229836177E1    -1.398865473140687E2    -2.615264210200858E-1    1.174293425679000      -7.104669050449181E1    -2.386851895793216E1    -8.629409175452557E1     1.913432318562690E1
                        -8.677306225291518E1    -1.378039871885039E2    -7.434715667219501E1    -2.824506039296721E1    -1.401569701913055       1.228657527527973E2    -8.945177255418777E1    -8.909551901434959E1
                        -8.355044067672162E1     3.669964401819775E1    -8.692196583821547E1     7.713579903551445E1    -9.602611776604449E1    -1.232790936664067E2    -1.413241646428815       1.303873900289641E2

 4.775500000000000E7    -2.912626621280384E-1   -9.991268231991320E1    -2.988146501670132E1    -1.395519016147054E2    -8.346338200333655E1    -5.931972367341781E1    -8.855333142987475E1     1.101355206826428E2
                        -2.995294368018599E1    -1.401130845790408E2    -2.663322409166576E-1    1.182250290353793      -7.440737303413863E1    -1.793811324049794E1    -1.072996410603182E2     1.442674190123926E2
                        -9.436155205889305E1    -1.013172073693265E2    -7.147671189108522E1    -3.539177694191016E1    -1.403187711262624       1.228600358318436E2    -8.519118739925673E1    -4.510590353526675E1
                        -8.567314618091172E1    -1.568550275314884E2    -8.814116672367388E1    -1.146278978881846E2    -8.524893315876513E1     7.772987674618085E1    -1.404670874797082       1.303853829515258E2

 4.775525000000000E7    -2.931467247922280E-1   -9.987403432486890E1    -2.999766758142238E1    -1.395439982879124E2    -9.889453952942350E1     1.253159070788445E2    -8.880281065443066E1    -1.699878551004757E2
                        -2.997350237992207E1    -1.399799864327048E2    -2.623965887178837E-1    1.123231306816581      -7.075647879710621E1    -2.409031973580618E1    -8.201928092860193E1     1.197459319293696E2
                        -9.016071264523342E1     1.830844829983730E1    -7.053752721762608E1    -3.203230120198886E1    -1.404771146272220       1.228758113711906E2    -8.679134537943051E1    -4.606299056484073E1
                        -8.732924303794792E1     5.861305012949054      -9.171303707369292E1    -3.932569629253583E1    -8.994992814681280E1    -1.140817312450352E2    -1.406253053961788       1.303519575561886E2

 4.775550000000000E7    -2.936951221201408E-1   -9.989965398857629E1    -2.996743431981781E1    -1.399696038326439E2    -8.549141003928030E1     8.804812368681618E1    -8.450233282876526E1     1.760771010430017E2
