#  HZ   S   DB   R     50.00 
! Rohde & Schwarz Vector Network Analyzer 
! Rohde-Schwarz,ZNB8-4Port,1311601044102961,2.82
! Created: UTC 2/12/2019, 2:38:11 PM
! freq[Hz]                db:S11                  ang:S11                 db:S12                  ang:S12                 db:S13                  ang:S13                 db:S14                  ang:S14
!                         db:S21                  ang:S21                 db:S22                  ang:S22                 db:S23                  ang:S23                 db:S24                  ang:S24
!                         db:S31                  ang:S31                 db:S32                  ang:S32                 db:S33                  ang:S33                 db:S34                  ang:S34
!                         db:S41                  ang:S41                 db:S42                  ang:S42                 db:S43                  ang:S43                 db:S44                  ang:S44
! 
 3.000000000000000E7    -2.708888073403702E-1    9.717600868270068E1    -7.965723392175073E1     5.896009297813611E1    -8.716964334132690E1     1.519537535094672E2    -8.753634455151654E1    -1.047908833378702E2
                        -7.873774053711554E1    -2.229865097174449E1    -2.211366749357653E-1    1.068259839433791E2    -8.813279128950528E1    -1.391625360707212E1    -9.624785597957799E1    -1.747873036362804E2
                        -8.339307730163640E1     1.666725871725232E2    -8.536131323145332E1    -1.580805477661321E2    -9.350209177781028E-1   -1.572639633598848E1    -8.271958643001015E1    -7.372112222456173E1
                        -8.422525510250038E1     1.284262504223437E2    -8.395996698270557E1     1.289379623483251E1    -8.629998117533052E1     8.054176151951582E1    -9.000354856683390E-1   -1.303887690964309E1

 3.002500000000000E7    -2.773354524263085E-1    9.684730472845330E1    -8.204487512571517E1    -4.966168904157927E1    -8.389751551026750E1    -2.533345960059553E1    -9.111584324392146E1     5.429373793094059E1
                        -8.495715735179576E1     2.386244401371189      -2.291948510000464E-1    1.064925059512139E2    -8.595196446402923E1    -5.681050830942753E1    -8.703424364739844E1    -1.510873114532255E2
                        -8.402084398600928E1    -3.819043585465861E1    -8.541151442882918E1    -6.731462831002050E1    -9.338012676833539E-1   -1.608664589080460E1    -8.281509335221635E1     1.606000339421233E2
                        -8.592536737147215E1     5.581026655402136E1    -8.459481295839110E1    -9.925814921872834E1    -8.293444512875564E1    -1.450585590702885E2    -9.020893880104685E-1   -1.331423651150074E1

 3.005000000000000E7    -2.743809945393669E-1    9.656539334642055E1    -8.008961758446752E1    -1.377823783313237E1    -9.291243568515051E1     1.783571710965919E2    -9.937948748771171E1    -1.125009542838193E1
                        -8.583694554434443E1     3.265075729312606E1    -2.191284913849964E-1    1.062145278025753E2    -9.412578091146835E1    -9.680707178409082E1    -8.491939068513041E1     1.587847049277327E2
                        -8.856204808371643E1     5.007063749741722E1    -8.973597572375877E1     6.739556973989932E1    -9.321503872587131E-1   -1.634849830254204E1    -8.670822529354247E1     1.046823256415400E2
                        -8.555159392843538E1    -4.390849046838474E1    -8.622171986042562E1    -1.577748032247509E2    -9.459120303267446E1    -6.999042721483345E1    -9.029289509173473E-1   -1.363589012338752E1

 3.007500000000000E7    -2.739317488652109E-1    9.620221066618871E1    -9.016497004705884E1     1.581973435249613E1    -8.640610463417362E1     1.664728251422266E2    -9.090531033814176E1     4.852516865437065E1
                        -9.070035070860463E1    -1.734602835233216E2    -2.240222402366602E-1    1.058766817072285E2    -8.521300687081124E1    -7.885939561447169E1    -8.681042029822372E1    -1.077777386602448E2
                        -9.368701468947627E1    -8.354290849137806E1    -9.040244519385772E1     1.677399836622308E2    -9.388142872637523E-1   -1.670586948573741E1    -8.827925414468474E1    -1.490268936591528E2
                        -8.275619757384887E1    -9.707468484575367E1    -8.807362915795147E1    -1.319289820028986E2    -8.898264878690944E1     1.727704431261478E2    -9.071639255857997E-1   -1.392819088836225E1

 3.010000000000000E7    -2.684628749937296E-1    9.586562935798645E1    -8.027684690302519E1    -2.040666233988225E1    -9.327829932983246E1    -6.792499401267563      -8.294896621750782E1     1.432483038006037E2
                        -7.810282600368480E1     4.360575324721858E1    -2.228207171126540E-1    1.055914213830470E2    -8.707521125903415E1     4.654941745675534E1    -8.379452545420861E1    -1.728210844287455E2
                        -8.635876198222697E1    -1.736396815624373E2    -8.736181822393485E1    -3.280803845263507E1    -9.305926111348882E-1   -1.700199272713963E1    -1.023146586749244E2    -7.615441915613521E1
                        -8.816317499573940E1     3.903070583867552E1    -9.069906091953421E1     1.068627667155365E2    -9.083191652642609E1    -3.934536044294140E1    -8.998076884306743E-1   -1.420364535899520E1

 3.012500000000000E7    -2.674122256363233E-1    9.552660301551042E1    -8.223910493441140E1     8.826168276016595      -8.684034190094722E1    -1.412880231847778E2    -8.372912386567262E1    -5.137557085367567E1
                        -8.368630556476381E1    -2.484700655993597      -2.237871089005264E-1    1.053057740238228E2    -1.049753853735445E2     7.589086961841107E1    -9.603459929496742E1    -9.513961261586479E1
                        -8.656967075214803E1     3.064737738910214E1    -8.740003942265551E1    -9.093232066441065E1    -9.370639172361908E-1   -1.727852710946510E1    -9.704382924089947E1     1.672495755712468E1
                        -9.881456632317067E1    -3.155964322465397E1    -9.570170268879851E1    -1.117971225116587E2    -9.358699661631255E1    -1.555590662894496E2    -8.965176868754641E-1   -1.452862766276053E1

 3.015000000000000E7    -2.689514904749982E-1    9.520488277710567E1    -8.081326064912405E1    -9.276721339390749      -8.672209650578773E1    -1.696009056771380E2    -8.367954235618741E1     6.902177918921190E1
                        -8.117619229249088E1     8.394090011882833      -2.233827587324336E-1    1.049883502851952E2    -9.855152826888809E1    -1.100129941473020E2    -8.288365050659573E1     3.573210226698632E1
                        -8.031636331498014E1     1.646744348406727E2    -9.333732035085716E1    -7.690867703172273E1    -9.380112853395607E-1   -1.759921769872494E1    -8.760963018175838E1     1.182772644953366E2
                        -8.310391198151392E1     2.865800960224582E1    -8.807603906301284E1    -1.094265219314508E2    -8.427693203859626E1    -9.003792411430554E1    -8.995261559728363E-1   -1.483272102929990E1

 3.017500000000000E7    -2.659629601675728E-1    9.483346300638782E1    -8.141196912323210E1     2.838156186632146E1    -7.827722457931345E1     1.138496148301484E1    -8.337168885352884E1     9.732288238755777E1
                        -8.215284766622489E1     3.511565444582051E1    -2.235327996643756E-1    1.046585932305820E2    -1.011796055157454E2    -7.509344811079988E1    -8.737929852073420E1    -1.082840263992235E2
                        -8.840113864855786E1    -9.503901438318286E1    -8.424849924876907E1     1.672792831178597E2    -9.343252620396765E-1   -1.787850822657446E1    -8.608710020211279E1    -1.623040781056130E2
                        -8.913888740481815E1    -1.316725509507826E2    -9.084472395886458E1     1.603329102751912E2    -8.587953498331876E1     1.515219718079031E2    -9.017123570169079E-1   -1.512815560370755E1

 3.020000000000000E7    -2.660003595841496E-1    9.453666743768017E1    -8.533462908109107E1     4.674238134452636E1    -8.811687616297729E1    -9.357110542768973E1    -8.967339999691450E1     1.248355744759771E1
                        -9.051240201643707E1     2.930302531463174E1    -2.149338808615129E-1    1.043832669373956E2    -8.155603646164400E1    -1.596904015731000E2    -9.394839797247555E1    -1.282117337218659E2
                        -9.340450407363493E1    -1.397846893919825E2    -8.313235322213878E1    -7.049740419624662E1    -9.337706401104646E-1   -1.823521362291021E1    -9.003361972811136E1     5.775543064791542E1
                        -8.475340164515627E1     9.084952181743097E1    -9.593149381669710E1     1.728107848972858E2    -8.284286327044833E1    -4.165838112516877E1    -9.026778085755087E-1   -1.544696039014053E1

 3.022500000000000E7    -2.678140906638352E-1    9.416170341848687E1    -8.886249515145136E1    -8.096423044317557      -8.846575262278633E1    -1.762762522538775E2    -8.896312653869317E1     1.170439453901962E2
                        -8.683591694473094E1    -2.518468580259852      -2.233749517144677E-1    1.041398335203472E2    -9.619591687619540E1     1.455561291042433E1    -8.667180656832966E1     1.341502888785008E2
                        -9.497247655263820E1     7.811826758562069E1    -8.508195779267778E1     2.028685450429617E1    -9.375533269267999E-1   -1.857891644915958E1    -8.230940346584696E1    -1.485804716126151E2
                        -8.609208793666547E1     1.358372451328095E2    -8.612530501780464E1     1.094868096359972E2    -8.419672020280727E1     1.369031135618647E2    -9.018489198304934E-1   -1.570756239889996E1

 3.025000000000000E7    -2.673938018514577E-1    9.381958210387673E1    -7.931400039476078E1     2.670866867541747E1    -9.592022403929077E1    -1.372288439986035E2    -9.009587874459884E1     1.374553457088888E2
                        -8.470681045544427E1    -3.454645803125874E1    -2.282166547541449E-1    1.037986034195821E2    -9.681394089830684E1     1.006043034174186E2    -8.493205329083702E1    -1.470367450294512E2
                        -8.548146182769926E1    -9.646138100520047E1    -8.471302951159898E1     1.609020496459100E2    -9.394224073567320E-1   -1.884560455977645E1    -8.768442623147433E1    -1.388715304364395E2
                        -9.337136136771201E1     3.941038025318638E1    -8.609372300423939E1    -1.276749923272897E1    -8.734130606200353E1    -1.274402012785873E2    -9.027021291640367E-1   -1.604699217762927E1

 3.027500000000000E7    -2.662463044913912E-1    9.354058670125826E1    -8.419203037060680E1     5.698870169992093      -8.191582209364263E1    -1.205973209180981E2    -9.045192754132381E1     5.535646570068315E1
                        -9.383647730528637E1    -2.309978753446729E1    -2.141296471484685E-1    1.034568562549171E2    -9.816938363288992E1    -1.446652141339988E1    -8.480114764017944E1     9.206751171868153E1
                        -8.223259747940331E1     1.507459997882768E2    -8.670577143521697E1    -3.876664541365799E1    -9.326989458068148E-1   -1.916356066159505E1    -8.578973697706323E1     2.979666092265607E1
                        -8.359536868403090E1    -4.403662284304122E1    -8.538848438847745E1     1.012400185841645E2    -8.663917889937557E1    -1.601331754942501E1    -9.042326150705284E-1   -1.635869769781384E1

 3.030000000000000E7    -2.636163607194418E-1    9.321120768284185E1    -8.164590907813293E1     1.197945308089550E1    -8.419119024335492E1    -1.507990518035709E2    -8.294038448756317E1     1.121048570926434E2
                        -8.004618753221513E1    -1.735430802701752E1    -2.252883377739131E-1    1.032021438546682E2    -8.332737327197742E1    -1.337720702170697E2    -8.321153242412642E1    -7.606802614167104E1
                        -9.575168522150059E1     7.702076800330838E1    -8.307886927048470E1     8.332679660211314      -9.402585439929289E-1   -1.947965459724990E1    -8.407848748814948E1    -9.998366897617210E1
                        -9.179811434655696E1    -2.570788885004173E1    -8.187420478809395E1     1.685698271140167E2    -8.376228571581201E1     6.427751750890656E1    -8.987108179824035E-1   -1.660912897954004E1

 3.032500000000000E7    -2.677539572849167E-1    9.286033388784423E1    -7.773911051019523E1     2.082258776858016E1    -9.248146019883180E1     5.512578888140077E1    -9.338016267178064E1    -1.095468000182410E2
                        -7.835799997087024E1    -7.054092218176951      -2.128616475532237E-1    1.028619758560309E2    -9.058435569089980E1    -2.935565129809792E1    -9.058468993117671E1     1.952767330826800E1
                        -8.406524019375510E1    -4.642403000875398E1    -8.565603614872849E1     9.738618829017425E1    -9.304760314106298E-1   -1.981896618887060E1    -8.188811624370479E1     1.644478649448374E2
                        -8.035806102142496E1     2.279597800486657E1    -8.110290136441533E1     1.160006743430467E2    -8.425984970622383E1     4.436215678326467      -8.994810390343844E-1   -1.690771208260662E1

 3.035000000000000E7    -2.575087406062361E-1    9.253901723767947E1    -7.861728695663234E1    -5.030793591177466E1    -8.723410420920328E1     1.740626703817351E2    -8.385572185642039E1     1.122708243213138E2
                        -9.488305641162773E1    -1.080203239101943E2    -2.166996106701047E-1    1.025803200949999E2    -8.817383675720561E1    -3.048147520985804E1    -8.625787238925699E1     8.722029755896732E1
                        -8.468056056736153E1    -1.006598914352436E2    -9.139184436338996E1    -1.325899148915790E1    -9.340239798911669E-1   -2.013807316608432E1    -8.386084781118299E1     1.104844600215415E2
                        -8.483002930308606E1     6.335132247991626E1    -9.426129036521331E1    -1.314636775668514E2    -7.821634200434826E1    -1.030220848156814E2    -8.996266273173325E-1   -1.720182614505580E1

 3.037500000000000E7    -2.577280053425806E-1    9.221357701875544E1    -8.046248963526422E1    -2.693060997961669E1    -8.548074049096060E1    -9.498883209797783E1    -8.275148851488366E1    -9.507897195205912E1
                        -8.653632145908112E1     3.359565293075509E1    -2.191408843322532E-1    1.022462887827367E2    -8.351382340229765E1    -1.785296816546191E2    -8.442878295945033E1     1.264993704781002E2
                        -8.591835886655142E1    -3.743627262781236E1    -8.359335101289302E1     7.514069505251086E1    -9.361350032543730E-1   -2.041363714329534E1    -8.619219209208927E1     3.682343898271868E1
                        -9.352875900724246E1    -9.191247679181680E-1   -8.970450687732958E1    -1.456222252621208E2    -9.295263135891008E1    -9.358570063096650      -8.994047116854653E-1   -1.749794747163286E1

 3.040000000000000E7    -2.627110467131334E-1    9.184336140685585E1    -8.443923621821254E1     1.164511459819120E1    -9.169560732918194E1    -4.691298923854648E1    -7.735179604546993E1     6.554177670124670E1
                        -8.293813090855153E1    -2.194908060741909E1    -2.219570541589072E-1    1.019527060982104E2    -8.109685067683132E1     1.350402592769179E2    -8.233832018938331E1    -9.764755446409810
                        -8.846155311415735E1     6.145391231408571E1    -8.835172846868031E1    -1.167795654804626E2    -9.379259821537804E-1   -2.073579541276732E1    -8.474041902293139E1    -3.087109519925886E1
                        -8.180995168780024E1    -5.143774096425257E1    -8.271019965865661E1    -1.158133770269700E1    -8.568586282946845E1    -7.523802957615553E1    -8.998253183862771E-1   -1.784129088734470E1

 3.042500000000000E7    -2.602591817548836E-1    9.146353812045376E1    -8.184368435707955E1     5.693600008759621E1    -8.819715743453487E1    -6.252758279835159E1    -9.647607964447533E1     1.423365034380011E2
                        -8.210022523685478E1     4.372254140864220E1    -2.159517293963731E-1    1.016960963952180E2    -8.183184296174963E1    -1.276188694347719E2    -9.708275052729181E1     8.990028847178937E1
                        -9.754554756303313E1     5.707714636279201E1    -9.142222636304432E1    -1.217921870825784E2    -9.413310729515746E-1   -2.109502768117545E1    -8.257532030680814E1    -1.308133518264020E1
                        -8.725209776648111E1     1.085354122196895E2    -9.154763769546257E1     4.781444320171645E1    -8.360426943926491E1    -2.254035764395789E1    -8.979571862182598E-1   -1.813437459422775E1

 3.045000000000000E7    -2.570077293564319E-1    9.118018252308481E1    -8.253621679106973E1    -3.760491512985637E1    -7.991112774073332E1     1.690253034069798E2    -8.658699519328124E1    -9.690201535675715E1
                        -8.598170059086849E1    -3.125733137507957E1    -2.175626393817911E-1    1.013685487032424E2    -8.021045900694179E1    -1.968104997221538E1    -9.932048732677814E1    -1.312745528925330E2
                        -8.692336223439988E1    -2.657396477809403E1    -8.242326654522162E1     1.426585506961216E2    -9.342520233807984E-1   -2.130472601350639E1    -8.332962101086824E1    -6.434682304926393E1
                        -8.549828503309705E1     1.329360631362386E2    -9.067245247000119E1     7.903573676918941E1    -8.146430726425331E1    -3.314658304691382      -8.962167567719195E-1   -1.840136614228546E1

 3.047500000000000E7    -2.590019735658191E-1    9.083452619706897E1    -7.614584962725395E1     1.282378250178526E1    -8.070170831747504E1     2.006415610940717E1    -8.651115749721738E1     9.259533358484332E1
                        -9.002306755553379E1    -2.629710569094955E1    -2.197464344236015E-1    1.011164209040089E2    -7.921625170224394E1    -8.055404730648110E1    -8.853561962267236E1    -1.637600138603475E2
                        -9.304941660155410E1    -1.608052224247118E2    -8.469932976066639E1     5.031874125475587E1    -9.367685098875846E-1   -2.167049355700993E1    -8.738937502654450E1    -6.638779294591437E1
                        -8.196069121501610E1    -1.287189258899971E2    -8.380186899484328E1    -3.682393448836421E1    -8.258624247948023E1     3.161817900092089E1    -9.020029037062594E-1   -1.871020138109792E1

 3.050000000000000E7    -2.630535272887815E-1    9.050447745054372E1    -8.616870844588284E1     7.716501148228549E1    -1.052241658462862E2     1.517749337746683E2    -8.298263381611405E1    -3.819580907139547E1
                        -8.123691628895432E1     1.905095436632191E1    -2.151446305175262E-1    1.008163167815945E2    -9.387728897335364E1    -9.368350328395364E1    -8.150555698443662E1     1.240525695250860E1
                        -8.115921957095188E1    -6.948593320058831E1    -1.003652998793617E2     1.555592960953959E2    -9.383210274974574E-1   -2.197950851851279E1    -8.695512699649484E1    -7.567442809037438E1
                        -8.912013464094986E1    -1.022794030900495E2    -8.369825740640202E1     7.132640247090068E1    -9.382562360628791E1     1.667568854110056E2    -8.972699093109038E-1   -1.902595166228066E1

 3.052500000000000E7    -2.565822515072825E-1    9.014077279267832E1    -7.752287829216550E1     2.239530136943482E1    -8.622910292338851E1     1.505777066068684E2    -9.521256400437302E1    -7.726770490711971E1
                        -7.577692118505129E1    -2.032873956217167E1    -2.165722692792490E-1    1.004772393279335E2    -8.039918684482417E1     4.246446238225668E1    -8.168239930937126E1    -1.088081496493003E2
                        -8.893151441007575E1     6.202734091238880E1    -8.897313971830505E1     1.361704274299701E2    -9.332861789172189E-1   -2.227245217286762E1    -9.425098895043064E1    -3.607425331151368E1
                        -8.520911591564533E1     2.826667164406936E1    -8.456793908349138E1    -5.582037866888390E1    -8.284550153333896E1     8.691621746107977E1    -8.990740045964574E-1   -1.932627205868592E1

 3.055000000000000E7    -2.594847569175261E-1    8.984755146468193E1    -8.526071833419989E1    -7.449217127254656E1    -8.567825942801514E1    -3.618327862813052E1    -7.932209077128714E1     1.029806644789270E2
