#  HZ   S   DB   R     50.00 
! Rohde & Schwarz Vector Network Analyzer 
! Rohde-Schwarz,ZNB8-4Port,1311601044102961,2.82
! Created: UTC 2/13/2019, 1:54:20 PM
! freq[Hz]                db:S11                  ang:S11                 db:S12                  ang:S12                 db:S13                  ang:S13                 db:S14                  ang:S14
!                         db:S21                  ang:S21                 db:S22                  ang:S22                 db:S23                  ang:S23                 db:S24                  ang:S24
!                         db:S31                  ang:S31                 db:S32                  ang:S32                 db:S33                  ang:S33                 db:S34                  ang:S34
!                         db:S41                  ang:S41                 db:S42                  ang:S42                 db:S43                  ang:S43                 db:S44                  ang:S44
! 
 5.525000000000000E7    -4.148558597234508E-1    9.749378947240747E1    -3.061321704586209E1     7.131544952769359E1    -8.721841223586445E1     1.574737039627048E2    -7.855134250246141E1    -4.131575844721154E1
                        -3.064827672283307E1     7.253100888807337E1    -1.909511664964250      -1.380143144374731E2    -7.459648494264624E1     1.483284051017553E1    -6.763827025287803E1    -1.505980687431975E2
                        -8.525175270789524E1    -1.673908303522331E2    -7.682965677224591E1    -1.106522525389636E1    -1.413824641519470       2.469746973202661E1    -8.299897726677826E1    -9.052757211857001E1
                        -8.619436737435470E1     7.765402608857400E1    -6.692279762784968E1    -1.505860377553312E2    -8.284360097254907E1    -2.639272902316623E1    -1.429210506439854       3.122721156824296E1

 5.525025000000000E7    -4.173956992009675E-1    9.750157250571428E1    -3.053307980684926E1     7.151793375237682E1    -8.384443567912349E1    -7.719374206447277E1    -9.020114355589269E1    -2.407195081756484
                        -3.067116168025102E1     7.159959245635555E1    -1.908654591297625      -1.380471516702173E2    -8.083586435279355E1    -2.696359172617580E1    -6.558506220831981E1    -1.521761655270364E2
                        -8.844482244360479E1     5.752960983563231      -7.884605368542637E1    -8.468468433791873      -1.420439063634478       2.469359416286896E1    -8.942013699966800E1     1.233615518240602E2
                        -8.800538345121886E1    -2.746144526020935      -6.586714541263959E1    -1.596742739781227E2    -8.429055897364576E1     1.517895184547807E2    -1.428939848737937       3.119776984769430E1

 5.525050000000000E7    -4.151360953817262E-1    9.751208558674925E1    -3.060505325900076E1     7.106727757730613E1    -8.707327270064360E1    -1.408589525083334E2    -9.190810199565584E1    -1.101041462911786E2
                        -3.064751071594405E1     7.140828982769085E1    -1.921706761599727      -1.381079310730123E2    -7.825912716439763E1     4.585193399107534E-1   -6.633429331682736E1    -1.481268413651190E2
                        -9.483255157230097E1    -1.074064627831432E2    -8.083224823898304E1     1.491969301672775E1    -1.406319329901687       2.468089478869787E1    -8.318305370084104E1     5.169450018905024E1
                        -8.728023336836394E1     1.070056913954814E2    -6.569703308436664E1    -1.557157201049712E2    -9.223691401454158E1    -1.770826085978484E2    -1.435855407521517       3.119798832842906E1

 5.525075000000000E7    -4.159558651593125E-1    9.748959428337703E1    -3.061319024488606E1     7.107549162952216E1    -8.827970401818408E1     1.643392095365809E2    -9.140940428942416E1     1.091607047199210E2
                        -3.053787418261720E1     7.218340260606088E1    -1.920406261198781      -1.381391483675112E2    -7.845469202125265E1     1.825270411997629E1    -6.516762997660022E1    -1.616264029161441E2
                        -8.421805252065994E1     1.697452192828222E2    -7.767448403356778E1    -6.118378023056321      -1.415937729317863       2.470288964260609E1    -8.279619519691471E1     1.382057164657012E2
                        -8.694112622241138E1     3.902136639414134E1    -6.658830022626223E1    -1.557917448776300E2    -8.564725363663037E1    -5.026206543469326      -1.431995241983201       3.118265653802637E1

 5.525100000000000E7    -4.102461462669348E-1    9.747483021532626E1    -3.054931442214665E1     7.183766940844453E1    -8.639330131184806E1     3.023146576468415E1    -9.606514614585313E1     1.113985703307376E1
                        -3.054659132721297E1     7.150184325955814E1    -1.924343859886539      -1.381718819877047E2    -7.766807923246068E1    -8.913860908221110      -6.776942172551323E1    -1.527468583347374E2
                        -8.084614797977639E1     1.019474541010314E2    -8.016418212149959E1    -3.869853461748862      -1.410212024720337       2.469117215189238E1    -8.753833570931360E1     1.677620783054459E2
                        -8.999637104854270E1     1.368142057448951E2    -6.693956511864448E1    -1.515762093809111E2    -8.884065036599864E1    -9.436147816308106      -1.430633228575511       3.116907125710939E1

 5.525125000000000E7    -4.126828046193185E-1    9.746485579439518E1    -3.052929480846572E1     7.152499585610295E1    -9.843597409145517E1     8.188527615891796E1    -8.642149724071726E1     1.292404768083412E2
                        -3.071980596121723E1     7.119568650971523E1    -1.924818657730790      -1.382248710585188E2    -7.619519075329070E1    -1.041766788573453      -6.646250093017218E1    -1.484128790183116E2
                        -8.107450496923811E1    -8.441577848514113E1    -7.689608207349981E1     1.601089546599988E1    -1.414057646598114       2.472005824568658E1    -8.928771107497205E1    -1.359478248617053E2
                        -8.149953074562188E1     6.476557597817801E1    -6.649821974431927E1    -1.589894837495293E2    -9.252551715048750E1    -9.840723680310143E1    -1.431010370718018       3.118652487380397E1

 5.525150000000000E7    -4.175211349528143E-1    9.749470475770295E1    -3.053902640793860E1     7.159442907569549E1    -9.115022130744214E1     5.619310977695410E1    -9.354477328564956E1    -1.760650153256662E2
                        -3.046837022652888E1     7.176008184776551E1    -1.919996390281850      -1.382459429952191E2    -7.810093498032313E1    -7.036991717449825      -6.777661971616271E1    -1.477533794916925E2
                        -8.693994613821727E1    -8.109665473341923E1    -7.896149797987816E1     9.625505973625554      -1.417934133832278       2.468551106188502E1    -9.918066070325153E1    -2.925775396135131E1
                        -8.114749159641411E1    -1.372358783687114E2    -6.714616881820530E1    -1.539801266169103E2    -9.993869643266072E1     2.467220325753561E1    -1.433786490019637       3.121147226558007E1

 5.525175000000000E7    -4.190130337031732E-1    9.746429968640962E1    -3.056927858972829E1     7.180048252026469E1    -9.394393808682004E1     1.019864705554307E2    -8.008507065639424E1     1.970461852187810E1
                        -3.069399269924963E1     7.211343960355165E1    -1.927268224050734      -1.382883079347643E2    -7.794430238350996E1    -1.988888844904394E1    -6.732716356154811E1    -1.461064134942213E2
                        -9.116816979750118E1     7.769742792185834E1    -7.999161628295593E1    -1.176814965155605E1    -1.416348476542510       2.469996941853610E1    -8.231846865128674E1    -1.397515904020504E2
                        -9.342731514150138E1     6.906286308251174E1    -6.596359345351561E1    -1.535076770399372E2    -9.198571694404940E1    -8.317530193656138E1    -1.430907692044202       3.115017349463270E1

 5.525200000000000E7    -4.133335597001612E-1    9.746503223839541E1    -3.059986353652823E1     7.192027742193088E1    -9.103153202955768E1     1.152971240389945E2    -1.001180766128871E2     1.411104568828034E2
                        -3.068038356075206E1     7.161459366440518E1    -1.930791558317806      -1.383223659236329E2    -7.606694545869154E1    -6.808352042719878      -6.683947367906998E1    -1.567561454337135E2
                        -1.002138755717323E2     1.294989079982543E1    -7.932308542541982E1     9.942228517053650      -1.408800742689609       2.468577898942506E1    -9.378774096803262E1     3.316526035268235E1
                        -9.172970272401688E1     1.789741911737750E2    -6.694231593181871E1    -1.542011866745925E2    -8.984954484176669E1    -1.162864494085564E2    -1.432625706780274       3.117152835027077E1

 5.525225000000000E7    -4.136066186050660E-1    9.747779117145848E1    -3.060389761629511E1     7.165003677166502E1    -8.521654805439383E1     1.809647117634509E1    -7.993251522218814E1    -1.631184833888487E2
                        -3.058988397671989E1     7.146033024280986E1    -1.932960540189448      -1.383893216935305E2    -7.735639871638557E1     1.365885878710051      -6.716588724839974E1    -1.573295676313097E2
                        -8.466938860164675E1    -9.933822765533449E1    -7.927885250813691E1    -1.269519948841515E1    -1.415535293676126       2.468110945375172E1    -9.702344047446880E1     7.623717649878903E1
                        -8.167860224484598E1     1.596647413943601E2    -6.668875674868683E1    -1.513770895731598E2    -8.555740038176394E1     6.903694634908243      -1.429743677195385       3.118237721724802E1

 5.525250000000000E7    -4.129444234869829E-1    9.745506326924888E1    -3.061039165631945E1     7.168848530938284E1    -7.988944449596475E1     2.089091096444422E1    -8.145555539498135E1     2.377808081522216E1
                        -3.063224936833631E1     7.116131836621024E1    -1.938661175044676      -1.384201247126992E2    -7.797337481614936E1     1.469437801593469E1    -6.822429687901342E1    -1.510197377015552E2
                        -8.816625211855451E1    -1.784074616516354E2    -7.599101793679995E1    -1.318703653907113      -1.411975210914268       2.466264169448871E1    -9.232194765495970E1     7.737152337690456E1
                        -8.281848906668088E1    -6.050081690217119E1    -6.696081587576430E1    -1.552722494727102E2    -8.530253857987057E1    -5.551756900965377E1    -1.430724190542039       3.116751554069681E1

 5.525275000000000E7    -4.135222123898036E-1    9.748019196787141E1    -3.059782531380226E1     7.163332387649732E1    -8.730629761982274E1     1.981836828907786E1    -8.280468626689263E1     1.136965333237259E2
                        -3.073802395592649E1     7.094551825601552E1    -1.934882389377304      -1.384789114732416E2    -7.922839458346216E1     5.078119101182776      -6.722876910658233E1    -1.553411166300180E2
                        -7.954349526088610E1     1.546807610172520E2    -7.517859372376793E1    -1.319311843719871E1    -1.410913361206688       2.467234072370939E1    -8.295709870036690E1     4.453214547601291E1
                        -8.753915732511389E1    -8.866541123312545E1    -6.753134521247395E1    -1.671354141884154E2    -8.918428921206113E1    -5.728281103849535E1    -1.432066283492279       3.116683122755218E1

 5.525300000000000E7    -4.166689640460983E-1    9.742578327334384E1    -3.060837603240952E1     7.200418326388775E1    -8.775212210569944E1     1.546657545051025E2    -8.393023312813270E1     8.559114115190262E1
                        -3.054231628991907E1     7.169536263332743E1    -1.941009755979682      -1.385006861110171E2    -7.468678896218663E1    -6.126265422889045      -6.647044123801925E1    -1.472162170388105E2
                        -8.921784474944660E1     1.124550966694396E2    -7.788695688976462E1    -1.368701865684543E1    -1.415274586648727       2.465888116986677E1    -1.141654960680356E2    -1.071844746828945E2
                        -8.972098783511407E1    -8.811068742816578E1    -6.647471730983102E1    -1.535429654778697E2    -8.258782824020166E1     1.785109891828747E2    -1.437513156347839       3.118881289881976E1

 5.525325000000000E7    -4.120627819027184E-1    9.746230431277230E1    -3.068763315869234E1     7.169585661538868E1    -8.304232645632979E1     6.670873361411701E1    -7.781390938276887E1     1.102885824038475E2
                        -3.060719864426407E1     7.204874345190770E1    -1.944664238998136      -1.384976248969612E2    -7.648859483028222E1    -1.239706767226841E1    -6.789320585291995E1    -1.555938733117388E2
                        -8.587821974248604E1    -5.490055574206689E1    -7.392484508167252E1    -2.281675723194051      -1.416351399474671       2.468646695288118E1    -9.982013712863848E1    -1.027501399217498E2
                        -8.816868154741668E1    -7.096429718773226      -6.824258057387195E1    -1.548422089945557E2    -8.282203310858650E1     1.436664257973346E2    -1.434758222818968       3.117107194376323E1

 5.525350000000000E7    -4.172552994755255E-1    9.745826146864094E1    -3.069106262046286E1     7.202618477674851E1    -8.180108259294974E1     7.526329280673997E1    -9.014409498867524E1    -1.605557256096944E2
                        -3.065139800354190E1     7.132047366844108E1    -1.941697497995996      -1.385716853467036E2    -7.419628476598257E1    -2.311307950272020E1    -6.722973322274547E1    -1.528745973409888E2
                        -8.704825725559857E1     7.064063890130177E1    -7.877373235212144E1     4.884284135767773      -1.413399442415482       2.463810231763220E1    -9.361208758234045E1     5.821221594142509E1
                        -8.551101306110054E1     6.970664608111055E1    -6.640091734449297E1    -1.596096220731614E2    -7.928149377114583E1     1.029550650526787E2    -1.432251650095444       3.115718364260193E1

 5.525375000000000E7    -4.133007332288494E-1    9.742238133130090E1    -3.071389333192217E1     7.127589684931941E1    -8.687098503989108E1    -3.477523837243479E1    -9.863849939841452E1     9.975681244820084
                        -3.075374874731276E1     7.119231975277317E1    -1.949979192924738      -1.386184680013654E2    -7.756845765065619E1     1.714642897488457      -6.778271023688228E1    -1.571358319583757E2
                        -8.540587645134947E1     9.009394425161995E1    -7.943300609376740E1    -6.195211440674135      -1.413058746408425       2.468814385704018E1    -8.618887025581259E1     1.713098842743318E2
                        -8.557847454355212E1    -6.173717211859162E1    -6.629473044834646E1    -1.487159313403560E2    -8.611854364972656E1    -1.317069816440340E2    -1.429792286474996       3.114449322080658E1

 5.525400000000000E7    -4.159562417199126E-1    9.742323639821166E1    -3.063575237613211E1     7.152937364546970E1    -8.999090446745670E1    -1.730341740321258E1    -8.531649398505068E1     1.498287757423956E2
                        -3.057482725026404E1     7.168920255646968E1    -1.944410798829526      -1.386586043107133E2    -7.486232685746883E1     1.883358556088027      -6.679273474307090E1    -1.584923899671543E2
                        -9.086120562900945E1     1.645823796644974E2    -7.388662255170387E1     2.143942852890261E1    -1.409436808989474       2.467322200745245E1    -8.733234979144837E1    -1.326532787338011E2
                        -9.174189126322311E1    -3.255288973176788E1    -6.721421788156853E1    -1.531571476271904E2    -8.586077938109315E1     1.424620865066624E1    -1.433586571505609       3.117125032936851E1

 5.525425000000000E7    -4.170434499901937E-1    9.742255983455307E1    -3.061355169350268E1     7.115441407781334E1    -8.461659684913531E1     2.588564830457469E1    -8.738950509466547E1     5.083159116632518E1
                        -3.063958766830210E1     7.142816788463745E1    -1.951876897334270      -1.387334610218322E2    -7.697092031736685E1     2.687550899918292E1    -6.703904850072797E1    -1.506163667941614E2
                        -8.772199451141029E1     1.172689476941821E2    -7.549294777826046E1    -1.157623916333382      -1.410915360875904       2.464552338863865E1    -9.648396789678061E1    -7.693635054450375E1
                        -9.087136585896884E1     9.050887858390848E1    -6.708980499831208E1    -1.560155843741164E2    -8.647741063065986E1    -6.187190212758624E1    -1.430379102246895       3.114904587175210E1

 5.525450000000000E7    -4.105222442056471E-1    9.742038065122917E1    -3.069704556415892E1     7.189838749403963E1    -8.612433546455746E1    -1.178482741357633E2    -8.343829883940062E1    -1.463103938476584E2
                        -3.067836203591529E1     7.117624497080773E1    -1.952959766570728      -1.387187067261463E2    -7.776954400149988E1     1.701050058123679      -6.791702240186797E1    -1.590857128828349E2
                        -8.549876474401346E1    -1.454905727237064E2    -7.906691114422782E1    -2.702707889974945E1    -1.408138038846371       2.463454890699563E1    -8.486786720077619E1     1.027549181185478E2
                        -9.259095605025439E1     1.241742310090668E2    -6.790117050564274E1    -1.578164803901922E2    -7.985803156148266E1    -7.886131195058673E1    -1.432256577696142       3.112702812085242E1

 5.525475000000000E7    -4.098532856343634E-1    9.739226074744460E1    -3.062003258639008E1     7.146193803810112E1    -8.664644380999999E1     2.077216234705579E1    -9.130457639917771E1     8.278334868794748E1
                        -3.069366186483821E1     7.108226729577015E1    -1.954399209198630      -1.387640162386323E2    -7.581498796301473E1     1.891194374040373E1    -6.669971194912523E1    -1.448756666779206E2
                        -9.279453674607389E1    -1.678040537591602E2    -8.093796907574578E1     2.390644244124883E1    -1.415116031836898       2.463967979862127E1    -8.022650980296720E1    -1.064173584055888E2
                        -9.714729483312503E1    -1.457624325286868E2    -6.689107476086639E1    -1.477814361886134E2    -8.585008700054033E1    -8.496747737090203E1    -1.433305800450935       3.111544205988496E1

 5.525500000000000E7    -4.111725936168545E-1    9.737165266424475E1    -3.064357350434467E1     7.165948898411139E1    -8.402545353747625E1    -7.045274608279107E1    -8.167070386255602E1     1.008709807686300E2
                        -3.065029452486987E1     7.165024983304119E1    -1.955350705321517      -1.388096912792393E2    -7.459336256004121E1     3.186203062923972E1    -6.647646341324114E1    -1.471988928721081E2
                        -8.817921555534306E1    -1.551173986059278E2    -8.409020937017858E1     4.068456826723246      -1.412283681541751       2.462964873685603E1    -9.456974657347855E1    -1.075220031554061E1
                        -8.069406654758345E1    -1.462340552188086E1    -6.595284540941694E1    -1.580713710178221E2    -8.600421868958108E1     1.429740657312317E2    -1.427738752155600       3.111422090858799E1

 5.525525000000000E7    -4.121236178165282E-1    9.740769021642437E1    -3.071705109032666E1     7.107308577424809E1    -9.318331152902306E1    -7.087669290517914E-1   -8.469867810121905E1    -1.050286936966442E1
                        -3.057317529209876E1     7.140699464715011E1    -1.960632163568667      -1.388634572111982E2    -7.738997440912085E1     1.241294287654559      -6.712978135540800E1    -1.495928934789958E2
                        -9.412585527390698E1    -1.727322028474402E2    -7.586856953944636E1    -6.340884425192491      -1.411070663405015       2.463688975431183E1    -9.656031387462889E1     8.652135525704340E1
                        -8.061530257412939E1     8.251263719610283E1    -6.711453126966990E1    -1.549212181685643E2    -8.837363503895985E1     1.268899888490021E1    -1.428816365830218       3.111896097365325E1

 5.525550000000000E7    -4.139373372799041E-1    9.742320008581375E1    -3.070225057244771E1     7.100183482325498E1    -8.806466505945927E1     8.143264993286696      -9.523999427825181E1     2.785533343451492E1
