#  HZ   S   DB   R     50.00 
! Rohde & Schwarz Vector Network Analyzer 
! Rohde-Schwarz,ZNB8-4Port,1311601044102961,2.82
! Created: UTC 2/13/2019, 2:20:06 PM
! freq[Hz]                db:S11                  ang:S11                 db:S12                  ang:S12                 db:S13                  ang:S13                 db:S14                  ang:S14
!                         db:S21                  ang:S21                 db:S22                  ang:S22                 db:S23                  ang:S23                 db:S24                  ang:S24
!                         db:S31                  ang:S31                 db:S32                  ang:S32                 db:S33                  ang:S33                 db:S34                  ang:S34
!                         db:S41                  ang:S41                 db:S42                  ang:S42                 db:S43                  ang:S43                 db:S44                  ang:S44
! 
 5.525000000000000E7    -4.069191207617618E-1    9.754439172924322E1    -2.927512264398091E1     7.481861926914147E1    -8.491395029293508E1     6.007583933049830E1    -8.117677293972987E1     6.817082979739172E1
                        -2.916679622693237E1     7.480741641175790E1    -1.106427098085340      -1.292746111404305E2    -6.688125163162155E1    -1.515814719948185E2    -8.160691571257897E1     1.897456213857606E1
                        -8.833919715400964E1     7.733427329556983E1    -6.727890196661043E1    -1.558048356100985E2    -1.414043492432299       2.470130015767032E1    -9.497980295521245E1     6.380695417794176
                        -9.656242704998047E1     4.247030983745131E1    -7.852617837473241E1     2.993266421439496      -8.277277191965061E1    -9.624059844178674      -1.435124974840538       3.121988548231527E1

 5.525025000000000E7    -4.059655222472133E-1    9.753146394307237E1    -2.923467666250483E1     7.452627497917770E1    -8.926386546640865E1     1.330117379995519E2    -8.250426153917016E1    -1.372574504787497E2
                        -2.922777715998131E1     7.494005011946157E1    -1.108733723579884      -1.293600393759047E2    -6.881061597196488E1    -1.543680583583257E2    -8.184734387524483E1    -2.201705915968349E1
                        -8.554377547795177E1     5.518883663340096E1    -6.741246020803493E1    -1.436688147814520E2    -1.412918477430878       2.470969296217785E1    -8.383198869366730E1    -9.719559209335966E1
                        -8.011219101150202E1     9.664864183475008E1    -7.724249036889491E1    -1.845297361315276E1    -8.723156574867423E1    -1.108614771784173E2    -1.427275338631753       3.120370904834751E1

 5.525050000000000E7    -4.042002856990588E-1    9.754454800470867E1    -2.916956208620782E1     7.474835695609923E1    -9.519141322565132E1     3.678970420765177E1    -9.074465560514291E1    -1.713185754642637E2
                        -2.927882714741821E1     7.473375167860633E1    -1.109773558685402      -1.293725778866277E2    -6.645051033974306E1    -1.515380658034147E2    -8.160677848648248E1     1.483632025861743E1
                        -9.979742253795088E1     1.069801921077815E1    -6.598471848092035E1    -1.404791642606442E2    -1.410293104248209       2.469010798320387E1    -9.491791517890334E1     3.830470107840894E1
                        -8.271409668166322E1    -1.366462796762710E2    -8.098849830033886E1     3.328379270185518E1    -8.711136954427659E1    -4.677978327142978E1    -1.431269876031813       3.119756238577885E1

 5.525075000000000E7    -4.092991811280483E-1    9.751065716775767E1    -2.923572148798453E1     7.455845706837347E1    -8.528810578771072E1    -9.672728065986559E1    -9.748871586300660E1     1.191878280072384E2
                        -2.919196548247344E1     7.535976475083518E1    -1.111330853558867      -1.294167054757263E2    -6.802733236781292E1    -1.445040563912703E2    -8.059099809903968E1    -5.923630414178946
                        -8.410757699526286E1     9.348747287783459E1    -6.599759531306339E1    -1.483892190209071E2    -1.410868898167813       2.464916996177459E1    -8.791151299179091E1    -1.240975879477932E1
                        -9.183672872028303E1    -1.490059509565788E2    -7.824682954199275E1    -1.804276979967696      -8.534389518553755E1     9.375850734022687E1    -1.431337320394326       3.120019456186725E1

 5.525100000000000E7    -4.057636805429763E-1    9.750421037260709E1    -2.920618364662494E1     7.446919193844168E1    -9.290842398271822E1    -1.011902683124597E2    -8.368276975298770E1    -7.861255651800221E1
                        -2.923451723366387E1     7.477312430067710E1    -1.114489245062049      -1.294342706155767E2    -6.631352898562631E1    -1.477544612336588E2    -7.923899445199956E1    -7.303931793977062
                        -9.667048873022624E1    -1.556335102149082E2    -6.904839495770835E1    -1.444443319485125E2    -1.411069528557761       2.467649466548096E1    -8.235359839058850E1     2.478360547957147E1
                        -8.635404260019625E1    -1.332073314408013E2    -7.724387981614373E1    -2.090497333607965E1    -8.888789071184716E1     3.382783639445748      -1.436669659747816       3.118156175241082E1

 5.525125000000000E7    -3.953843576653982E-1    9.748479308757763E1    -2.915949321246039E1     7.469438812233082E1    -8.154596961862346E1    -1.605478842454191E2    -7.946066166148130E1     9.362463102264196E-1
                        -2.919909828369885E1     7.497780384806246E1    -1.113882182535131      -1.294693357363931E2    -6.830239991819494E1    -1.587513750581385E2    -7.943007293947466E1    -1.613583349491165
                        -8.697552552615608E1     1.267067788959221E2    -6.653778253146288E1    -1.499391571020940E2    -1.414155763040572       2.466906207851325E1    -8.935192169834365E1    -6.106160573977799E1
                        -8.413928439114885E1     8.258440669221362E1    -7.901419352835463E1     2.838019842690326E1    -8.976909555670235E1     1.261323152085888E2    -1.431112313982791       3.118113582011404E1

 5.525150000000000E7    -4.038712765639141E-1    9.750860670067594E1    -2.923429414984362E1     7.468059165898727E1    -8.486720961011750E1    -7.987837266116240E1    -8.001879219072265E1    -1.513373879690419E2
                        -2.920551602978949E1     7.526614856105324E1    -1.116430580518511      -1.295109165761485E2    -6.684536200328454E1    -1.508967501076329E2    -8.006696469641776E1    -2.576645048679731E1
                        -9.374322087578130E1    -8.052968754698138E1    -6.662765087218043E1    -1.494552690460380E2    -1.414073590295290       2.466415810889425E1    -8.603190987691782E1     2.943748936821903E1
                        -8.811171246794429E1     8.252967888418473E1    -7.970420690967877E1    -1.418831144365836      -8.816341801430067E1     5.292354950546377E1    -1.436242303910092       3.116915715363937E1

 5.525175000000000E7    -4.051579576437989E-1    9.751350403277415E1    -2.923144376686945E1     7.503575853387358E1    -8.409517133985290E1     1.177117032539317E2    -8.764019051624439E1    -1.494941857239606E1
                        -2.920580461043112E1     7.478661839269942E1    -1.113870379332822      -1.295112164670762E2    -6.770000198509655E1    -1.512488838271915E2    -7.716114785796137E1     1.710651298278102
                        -9.567982938820620E1     8.516429361893398E1    -6.632971888242048E1    -1.491678032575395E2    -1.418744015949580       2.465419142080964E1    -9.244193778845100E1    -1.519014895402605E1
                        -8.443395071518125E1     6.999037612301412E1    -8.369219995175814E1    -1.435926751457156E1    -9.640757195114303E1    -1.628234819118978E2    -1.434396011850230       3.119034241577591E1

 5.525200000000000E7    -4.069630208729642E-1    9.747460115451449E1    -2.922729940337455E1     7.478769369016794E1    -8.272321494178344E1     2.712570209266182E1    -8.578644566659932E1    -8.413229991487955E1
                        -2.922424603025316E1     7.424421996179419E1    -1.113691366778552      -1.295869353371807E2    -6.793865353883950E1    -1.468840469459599E2    -8.088426811438973E1    -6.875977483728509
                        -8.657431314401364E1     5.613075083775084E1    -6.778061619182238E1    -1.475044806745692E2    -1.412631858906958       2.466143959915262E1    -8.386983862342501E1     1.281603943538847E2
                        -8.982298627413638E1     1.109965248253004E2    -7.761392868472959E1     9.082101604518718      -9.351589252543049E1    -7.537155372674943E1    -1.434468824828472       3.119345468460498E1

 5.525225000000000E7    -4.086439118178469E-1    9.744939632504391E1    -2.924740440670156E1     7.403300490311999E1    -7.955877548404943E1     3.028191175011266E1    -8.579067685744020E1     5.475707294338177E1
                        -2.923848943661121E1     7.425524668576453E1    -1.120714418024433      -1.296007694307322E2    -6.610575377403789E1    -1.471151786732315E2    -7.736013779673051E1    -6.237732989686113
                        -8.150840534390314E1     8.697126716688487E1    -6.717594309540422E1    -1.513891709410127E2    -1.411817846138102       2.466631408748934E1    -9.527453132124366E1    -1.605714709069800E2
                        -8.761153227782479E1     1.789092953026719E1    -8.123624700958735E1     1.281161370069919E1    -8.333486508268149E1     1.287963077974810E2    -1.433455245485299       3.118178026032559E1

 5.525250000000000E7    -4.043132494669945E-1    9.748314637577626E1    -2.918017076455944E1     7.455521496674382E1    -8.205737326230172E1     2.925655964102985E-1   -8.721522594096660E1     9.027115894818982E1
                        -2.917039222019976E1     7.430722063870195E1    -1.123876714132660      -1.296077756051907E2    -6.704503220120172E1    -1.441139400162415E2    -8.065373405795178E1    -2.170819417540626E1
                        -8.290967313041458E1     5.360039772771232E1    -6.723100685461100E1    -1.474991557756649E2    -1.412834918510837       2.464355785436444E1    -8.340485316374938E1    -1.878080165016076E1
                        -8.283235234503781E1    -1.256246860650970E2    -7.773586707421106E1     2.336786407334089E1    -8.429018325793281E1    -4.879427457665296E1    -1.428022983606174       3.116952474387872E1

 5.525275000000000E7    -4.011733803590388E-1    9.747348964295308E1    -2.926073417029475E1     7.471204944000455E1    -8.472590914270674E1     4.746234552661550E1    -8.464956232638969E1     1.390335359726999E2
                        -2.915577890391683E1     7.465186685111135E1    -1.120960185954090      -1.296747863575950E2    -6.781484352532020E1    -1.483927080474248E2    -8.334791008772258E1     1.093157010260898E1
                        -9.109987645598872E1     1.463577663843130E2    -6.696754762690598E1    -1.498308214618942E2    -1.415586059188961       2.464371702252106E1    -8.893992937217945E1    -2.289952783644201E1
                        -8.937524554487456E1    -1.283172839188872E2    -8.164778835597097E1    -4.702888104343080      -8.802633010330952E1     3.138220007669743E1    -1.435961004970518       3.118181341888644E1

 5.525300000000000E7    -4.037272345500566E-1    9.743998357806429E1    -2.923300636878747E1     7.477005080357147E1    -1.186545092284912E2    -7.177291729829187E1    -8.817551287715659E1    -6.498382862980198
                        -2.927242611765245E1     7.420376564301657E1    -1.122661714017635      -1.297174093116196E2    -6.682388812005627E1    -1.488369208075600E2    -7.966258882327071E1     1.878347252665419E1
                        -1.087307720445133E2    -1.599515279611411E2    -6.662871061733956E1    -1.506849361906974E2    -1.415121198594596       2.463503536134356E1    -8.276306572407887E1     1.048913051486889E2
                        -9.063870874517409E1    -8.347673962087410E1    -7.761653032461311E1     5.253087894010906      -8.414563823087917E1    -1.527212314614580E2    -1.432438465297230       3.117034612676845E1

 5.525325000000000E7    -4.038884995606119E-1    9.748176485680898E1    -2.930347779205212E1     7.455053171975351E1    -9.124648590195862E1     9.422783099969443E1    -1.018871316262017E2     9.840936506777462E1
                        -2.919668950405380E1     7.405572271571447E1    -1.119333260277019      -1.297623249215519E2    -6.666062562954521E1    -1.514939547998167E2    -8.163463875796582E1     3.462938281647658E1
                        -8.360664821675607E1     5.001072722825828E1    -6.740395434383612E1    -1.443789130020959E2    -1.412300083079295       2.462061848826177E1    -8.672556651107769E1    -1.502673512551181E2
                        -8.250662236347984E1     1.297064578859739E2    -8.976632054416942E1     7.893299811498038E1    -8.339613707111509E1    -1.342849732011166E2    -1.428999041498203       3.111572640108889E1

 5.525350000000000E7    -4.069075216915085E-1    9.748532733672943E1    -2.923125657366979E1     7.476137300785672E1    -8.726816609653818E1     1.687096983174283E1    -8.862165941381724E1     3.511074172356901E1
                        -2.916040046074515E1     7.486759778081505E1    -1.125492821813124      -1.297493983834167E2    -6.708060983656031E1    -1.532024160307528E2    -8.062602498195727E1    -2.213936846060982E1
                        -9.032193348882376E1    -5.182049933814630E1    -6.719533609285872E1    -1.432620963119263E2    -1.411244905629704       2.461844182386614E1    -8.337313419431288E1     2.524957637779587E1
                        -9.158554236376861E1     5.168813937591914E1    -8.565256180653664E1     9.429935302381209      -8.059206627659560E1    -4.152825457515173      -1.428946689276019       3.116961703423718E1

 5.525375000000000E7    -4.055685109844636E-1    9.745157992024046E1    -2.922379251242075E1     7.409695467862916E1    -1.016893008386190E2     3.140938924425290E1    -9.018306544440902E1    -4.488603117524830E1
                        -2.929419054380202E1     7.406535106852402E1    -1.126991256294029      -1.298309152988205E2    -6.630912604544014E1    -1.493886473282567E2    -8.234369361035554E1     2.208383073832978E1
                        -8.233405177741832E1     1.750234709447709E2    -6.826664297105208E1    -1.452293996937953E2    -1.413424454069176       2.462042222075365E1    -8.251558422687188E1    -3.238478947539551E1
                        -8.959203057167942E1     1.197038356705610E2    -8.121130051257190E1     4.007345623231073E1    -9.382328686858310E1    -2.176325141346235E1    -1.432342409837473       3.114820313168571E1

 5.525400000000000E7    -4.065620472885828E-1    9.744353872056320E1    -2.925467212396961E1     7.450820642145742E1    -8.776764515002732E1     4.586621917721272E1    -8.493941775324893E1    -1.429173606886390E2
                        -2.934518440712021E1     7.445837233086421E1    -1.125802048217983      -1.298465333105578E2    -6.545891370843401E1    -1.436245771178818E2    -8.443847428184975E1     6.716829371103391
                        -8.565413334239645E1     9.503034545266111E1    -6.768472660478295E1    -1.537282221924414E2    -1.411794821798747       2.464309450100702E1    -8.535853415353230E1    -1.536804182229668E2
                        -9.377403208373261E1    -1.540693051600927E2    -7.723602864324219E1     1.775109739245187E1    -8.746368538631461E1    -1.128583761636240E2    -1.433104307036199       3.116821448308312E1

 5.525425000000000E7    -4.040882773832306E-1    9.744493204180466E1    -2.924178985890741E1     7.441332173788706E1    -8.338764593474755E1     2.990334642864209E1    -8.522282568052208E1     9.155440484813835E1
                        -2.930922001441061E1     7.446824104818879E1    -1.131789555189645      -1.298705085690134E2    -6.754175722517825E1    -1.601318010834082E2    -7.559797930781956E1     5.646782699323499E-1
                        -8.534689670642186E1     1.331497665616846E2    -6.680702856992616E1    -1.471825380421338E2    -1.415816761852625       2.462859069822311E1    -8.559048914037221E1     8.724683536238887E1
                        -9.200742567857860E1     1.623941629591173E2    -7.720973722917317E1     7.282003053145145E-1   -1.002643334166715E2    -2.625624383506774E1    -1.434991043935160       3.114281558579413E1

 5.525450000000000E7    -4.008762113187916E-1    9.744321850036950E1    -2.927508568618350E1     7.461493118507192E1    -9.140260894664350E1    -1.427049398598083E2    -8.550923821662202E1    -6.655292214572528E1
                        -2.920762509176735E1     7.483922699163779E1    -1.129378368415561      -1.299332801548163E2    -6.785695073661103E1    -1.470068299922967E2    -7.970881252939981E1     2.137940559631771E1
                        -9.476734998093392E1     2.336164499621532E1    -6.744526574730166E1    -1.552376949976574E2    -1.409214488979720       2.462352459374139E1    -9.060051432713797E1    -1.386032629670971E2
                        -8.584778801150907E1     6.641273687921733E1    -7.830853923485262E1    -2.714888819849402      -9.116007770017254E1     9.820540565867722E1    -1.433669968976119       3.111902560665804E1

 5.525475000000000E7    -4.074536077726372E-1    9.743775070746428E1    -2.922082990266996E1     7.436679547708501E1    -9.865949309711638E1    -1.516963883835451E1    -8.867524573048625E1    -5.491308773436315E1
                        -2.931958458556285E1     7.416011994182006E1    -1.133282702928780      -1.299638759809195E2    -6.688891500730648E1    -1.480616030311315E2    -7.788324667380725E1    -5.768351476804899E-1
                        -8.002498728966329E1     1.272387127866293E2    -6.742878134074010E1    -1.450796005056849E2    -1.411747145162693       2.465740024116901E1    -9.519899409964133E1     1.593247344872066E2
                        -9.279937674246932E1    -1.527481686175756E2    -7.843907661164647E1    -1.456240630086177E1    -1.019884480385243E2     1.348579585718982E2    -1.433104193234777       3.116340743607090E1

 5.525500000000000E7    -4.035829904854981E-1    9.741874215570775E1    -2.928123519485498E1     7.439159926782986E1    -8.528260249932876E1    -1.408058243793859E2    -8.353677450456267E1    -8.642635717187255E1
                        -2.922147653982656E1     7.414721606539797E1    -1.130964973286744      -1.299566218934489E2    -6.693687189916703E1    -1.451955305866912E2    -7.797596519559438E1    -1.753859466231103E1
                        -8.794008196495797E1     1.794646632722954E1    -6.562808346261991E1    -1.420072697084829E2    -1.415579966278684       2.460835879440291E1    -9.124393041369302E1     8.801924573876046E1
                        -8.628671989519374E1     1.044397023334998E2    -8.019986578284258E1     3.425820899983101E1    -8.086874092263011E1     8.552365047428064E1    -1.427258901853989       3.115401007411990E1

 5.525525000000000E7    -4.031419035516338E-1    9.741470853701448E1    -2.926810786720791E1     7.483541944602892E1    -8.636495409932491E1    -3.801910821427230E1    -8.234979473896340E1     1.789342680650840E2
                        -2.933780391445093E1     7.437726375306889E1    -1.132491597473239      -1.300135440504443E2    -6.770614067209752E1    -1.534497355300656E2    -8.615452494741511E1     3.859294349000523
                        -9.296050046815739E1    -1.079749557715095E2    -6.724604361298775E1    -1.564499967836461E2    -1.409307023187617       2.459560452369767E1    -8.589392628980490E1    -1.115264929705076E2
                        -8.434172055565570E1     4.193318385686579E1    -8.122992923150234E1     2.010720675554438E1    -9.113396326247697E1    -1.541198065780184E2    -1.436720974278120       3.115832760091060E1

 5.525550000000000E7    -4.041114676571516E-1    9.741748002598642E1    -2.924409346224870E1     7.462149438235899E1    -8.977985966114264E1     1.557573784872082E2    -8.463418235399119E1    -4.394946062632328E1
