#  HZ   S   DB   R     50.00 
! Rohde & Schwarz Vector Network Analyzer 
! Rohde-Schwarz,ZNB8-4Port,1311601044102961,2.82
! Created: UTC 2/12/2019, 2:17:25 PM
! freq[Hz]                db:S11                  ang:S11                 db:S12                  ang:S12                 db:S13                  ang:S13                 db:S14                  ang:S14
!                         db:S21                  ang:S21                 db:S22                  ang:S22                 db:S23                  ang:S23                 db:S24                  ang:S24
!                         db:S31                  ang:S31                 db:S32                  ang:S32                 db:S33                  ang:S33                 db:S34                  ang:S34
!                         db:S41                  ang:S41                 db:S42                  ang:S42                 db:S43                  ang:S43                 db:S44                  ang:S44
! 
 5.525000000000000E7    -4.448872776821504E-1    1.035695489765890E2    -2.911081641139560E1     8.773256361924075E1    -8.736199937153887E1     6.988459135931554E1    -8.260267137388702E1     4.694216780708011E1
                        -2.919914502813460E1     8.831836919242318E1    -4.072101981704448E-1   -1.077020170370221E2    -6.912400646266049E1    -1.348939295660719E2    -8.619830821958846E1    -5.360138766690249E1
                        -8.312068474376571E1    -1.667896744842695E2    -6.796295291994228E1    -1.269543867917805E2    -1.399375932968443       3.172817834157225E1    -8.729309101488326E1    -4.940929917514561E1
                        -8.590316228557100E1     1.676835330116028E2    -9.456313791222866E1     1.378746309876097E2    -8.987487351438409E1    -4.371203018169393E1    -1.416163567128402       3.820205234642300E1

 5.525025000000000E7    -4.440584308483187E-1    1.035745276478199E2    -2.908912811873176E1     8.779311143496045E1    -8.518715120800736E1    -6.561405345660613E1    -1.116645293149393E2     4.339913227580030E1
                        -2.913305288950199E1     8.776013796828264E1    -4.138518354162297E-1   -1.076840761789412E2    -6.927823361498291E1    -1.309063213456282E2    -8.283131522569811E1     1.436588445534926E2
                        -9.041529914938373E1    -1.655926689691952E2    -6.878699985982054E1    -1.264086638132269E2    -1.398176851243939       3.175143586083068E1    -9.320911901595453E1     1.241231527562469E2
                        -8.424937267283198E1    -1.333766752789924E2    -9.084364194379671E1    -8.651500070289005E1    -8.792328575897204E1     1.389549152256862E2    -1.418311454687848       3.818151379856428E1

 5.525050000000000E7    -4.421819433465369E-1    1.035525724159550E2    -2.904839792923718E1     8.817256580377503E1    -8.429698762050290E1     3.125163922505391E1    -8.945540562758293E1    -1.131289384233481E2
                        -2.914496783259196E1     8.787157934582440E1    -4.105059963490036E-1   -1.077297270788790E2    -6.840241857456365E1    -1.396308890953142E2    -8.748474651333298E1    -6.122415751377164E-1
                        -9.212983319462700E1     4.851311507661806E1    -7.036297732380984E1    -1.287732938128603E2    -1.399032156576394       3.175863626575904E1    -1.094939076597127E2    -1.003492880090640E2
                        -8.652072762712098E1     7.330388758508063E1    -8.334306088159227E1     1.154462589357143E2    -8.280527503269498E1     1.448166659046644E2    -1.418220808934202       3.821916845000835E1

 5.525075000000000E7    -4.386170039702352E-1    1.035619868670079E2    -2.912634306642653E1     8.764408708803579E1    -8.214586018436336E1     6.065440150914243E1    -8.317527421814438E1    -1.206406289687388E2
                        -2.918864712087501E1     8.789241797647367E1    -4.092252111776542E-1   -1.077531565696368E2    -6.982664730336845E1    -1.309369471595940E2    -8.520004528620478E1    -1.566066555755273E2
                        -8.298538564139967E1     1.389835107764578E1    -6.960067795256467E1    -1.451236364132301E2    -1.399032946091949       3.177335256454106E1    -9.034787640538328E1    -3.631668380186977E1
                        -8.505836739756644E1     1.027298426168910E2    -9.137859896658571E1    -9.953433411641630E1    -9.818050166851342E1    -9.346612764309997      -1.417115097568669       3.819542960381741E1

 5.525100000000000E7    -4.407941389926308E-1    1.035588998758477E2    -2.921554508344062E1     8.774386150408398E1    -8.517391648715378E1     1.024858246890078E2    -8.642645693601114E1    -4.007011618374413E1
                        -2.921936392323511E1     8.776735093160507E1    -4.126400778731792E-1   -1.077690311768187E2    -6.992848575632625E1    -1.233981341305214E2    -8.890051660160482E1    -7.798212430977895E1
                        -9.632203808924707E1     4.431973894614264E1    -6.918053511946337E1    -1.282860291947501E2    -1.400176152313000       3.172342046519035E1    -8.230411400139636E1     1.374079213459441E2
                        -8.862924035520551E1     1.169309576391942E2    -8.400148698211243E1    -1.579138633260732E2    -8.526505069468848E1     1.280664387142245E2    -1.416051499119400       3.817506409187995E1

 5.525125000000000E7    -4.406810836979110E-1    1.035725200998660E2    -2.910936016953406E1     8.706628874738593E1    -8.910663692224748E1    -1.676133952160708E2    -8.418255793869383E1    -1.642438477590487E2
                        -2.918096251192330E1     8.795184119665665E1    -4.185381428654404E-1   -1.078093377891644E2    -6.912983140715630E1    -1.357201437716955E2    -8.084056085309774E1    -1.216225120574747E2
                        -8.830033446770516E1    -1.308161771433812E2    -6.848356840918103E1    -1.348153020729724E2    -1.401405392329235       3.175115553860740E1    -9.145228663773921E1     5.847162331023185E1
                        -9.872677487859237E1    -1.763142042241868E2    -9.033393317398370E1    -1.602023052462953E2    -9.228226986074562E1    -5.908753813841614E1    -1.422172242928460       3.818465743471482E1

 5.525150000000000E7    -4.456760668526064E-1    1.035673945636207E2    -2.919240566411374E1     8.758842321136766E1    -8.593039475490912E1    -9.560419233309011E1    -8.660882564368899E1     4.440801142887113E1
                        -2.911621187664942E1     8.785107927996566E1    -4.137058146936363E-1   -1.078277710479736E2    -7.012121132713463E1    -1.233388386685878E2    -8.070204171592633E1     1.634876896520869E2
                        -9.284038004244779E1    -1.748586995751358E2    -6.905525646880528E1    -1.256320946826209E2    -1.402094017232598       3.174827960997456E1    -9.647617896123406E1    -6.805315879567561E1
                        -9.279668178336937E1    -6.432293921846691E1    -8.736379682076164E1    -8.808122125738089E1    -9.005260725292038E1     1.759323735971259E2    -1.419566520236211       3.817112168855891E1

 5.525175000000000E7    -4.408748774430298E-1    1.035699661005326E2    -2.913142469944261E1     8.770165492502188E1    -8.827154401176655E1     8.618106222822405E1    -8.703882942897998E1    -1.783319772336519E2
                        -2.915547446724170E1     8.812774592227883E1    -4.095106867828196E-1   -1.078539388619895E2    -6.939984336226526E1    -1.316931903715559E2    -9.393854840224337E1     1.572963225146913E2
                        -8.616049691251928E1     3.473204129225338E1    -6.979790183677866E1    -1.242756037284789E2    -1.405996571802100       3.174293604902276E1    -9.040092206439942E1    -8.799028130459723
                        -8.350879940006811E1     1.631494312475746E2    -8.456971912298999E1    -1.077483080602808E2    -8.311719210313937E1    -1.799949596454281E1    -1.416986351462287       3.818005875172143E1

 5.525200000000000E7    -4.421771473842669E-1    1.035475119828765E2    -2.916999459186086E1     8.804734078853939E1    -8.466511555278886E1     1.135062455779921E2    -8.698501765633198E1     4.932275960511352E1
                        -2.907775260845386E1     8.795475066881200E1    -4.143925595424470E-1   -1.078813942650832E2    -6.804447765397310E1    -1.270529983755543E2    -8.445079527911274E1    -1.028090644932028E2
                        -9.269519554757024E1     1.740555968417329E2    -6.824545159761770E1    -1.261306568239722E2    -1.401101031426676       3.172967132709534E1    -8.507148430005607E1    -1.181149206239614E2
                        -8.954501183192087E1    -4.601764963767248      -1.087110376030610E2     5.997687624397238E1    -8.849763440195345E1     1.035936207805502E2    -1.418063634127913       3.818893478061203E1

 5.525225000000000E7    -4.348211783293748E-1    1.035288095827794E2    -2.910388102358913E1     8.755202109366221E1    -8.742646886718865E1     5.651166364074996E1    -8.616799818040711E1     3.635439064912531E1
                        -2.914698100586730E1     8.781857145511786E1    -4.159677109992916E-1   -1.079133647546183E2    -6.941566338791606E1    -1.202614493798429E2    -9.178633093355843E1    -5.729469694400226
                        -9.783956160671158E1    -1.592169492795380E2    -6.830176887480597E1    -1.395723227008332E2    -1.400249666615821       3.170697441679395E1    -9.595457684010282E1    -1.319941310548937E2
                        -8.959713959278682E1    -4.338167083365536E1    -8.593601914909216E1    -3.004346779905039E1    -8.263672247967513E1    -1.010444335460679E2    -1.417124419351791       3.816911325264993E1

 5.525250000000000E7    -4.388412958452325E-1    1.035176738141154E2    -2.906339069791198E1     8.766245259548930E1    -8.559198815652110E1     5.051077861225344E1    -8.474515728817269E1     1.331010698867346E2
                        -2.908391637563198E1     8.770302071096124E1    -4.127321366726312E-1   -1.078934900393421E2    -6.785773195989160E1    -1.278732858978865E2    -8.339781590316990E1    -8.574947995434069E1
                        -8.547117039821033E1     1.159542631967777E2    -6.923364864279579E1    -1.321652173075407E2    -1.398835238728561       3.173644172197280E1    -8.327392540963874E1    -3.570313545482828E1
                        -9.957001578852454E1    -1.578822474612475E2    -7.938172241673564E1    -9.985355839879379E1    -8.679502560853285E1     7.322825489110277E1    -1.414702040851031       3.815945634273514E1

 5.525275000000000E7    -4.372453037167858E-1    1.035297034646173E2    -2.913430270035013E1     8.764429714054441E1    -8.689163478429893E1    -7.433192533136574E1    -9.207399229026919E1     1.095901957725934E2
                        -2.916721422426499E1     8.819272868664949E1    -4.101833244528172E-1   -1.079584610230259E2    -6.894131583667299E1    -1.325865545482229E2    -8.714636183838722E1    -2.328545117185483E1
                        -8.510798976000807E1    -1.399065301124734E1    -6.950801464595236E1    -1.268706371143758E2    -1.400436805754402       3.174857326308991E1    -9.045984264548847E1     1.851394479995745
                        -8.449965162909108E1     3.929577352301938      -8.739709991712454E1    -1.048438037589831E2    -8.573057577654589E1     2.480728183125708E1    -1.413410943381429       3.814901662103033E1

 5.525300000000000E7    -4.352767379222972E-1    1.035298246338880E2    -2.909275635713292E1     8.749927108748047E1    -8.186465836492030E1    -3.816937566225437      -8.883305237242632E1    -1.596346316431805E2
                        -2.912026766484372E1     8.789750177470111E1    -4.153340699645241E-1   -1.079236342715376E2    -6.867143675443987E1    -1.314664762238830E2    -8.690457577974996E1    -1.305277089345676E2
                        -9.370810520120470E1     6.688126580435751E1    -6.881618001200798E1    -1.339595248619914E2    -1.398963610623077       3.170870820701107E1    -8.895772690204370E1    -1.489971665946813E2
                        -9.953720365102598E1    -1.005370912710053E2    -9.108130182929715E1    -2.517483215175125E1    -8.468929630763897E1    -1.483396108735649E2    -1.418743131825291       3.814075625940079E1

 5.525325000000000E7    -4.346955366217249E-1    1.035098298447316E2    -2.912467901338659E1     8.747856962072933E1    -8.960960066945880E1     1.495954632632445E2    -8.938204686932515E1    -1.010445754753479E2
                        -2.909078616363324E1     8.807196325022991E1    -4.132528451895950E-1   -1.079730052830725E2    -6.937378074455472E1    -1.389922949070128E2    -8.595206555867812E1    -1.394003545325847E2
                        -8.908451954845960E1     1.496302348541660E2    -6.823520138529895E1    -1.337321600951989E2    -1.396795836023300       3.172064812013121E1    -7.876244079767012E1    -2.316919317937685E1
                        -8.486293101005616E1    -1.121330313664344E2    -7.869256495729111E1    -1.017514867866570E2    -8.613912168194105E1    -1.703310571965385E1    -1.415399593925593       3.815721622098720E1

 5.525350000000000E7    -4.356144688375613E-1    1.035203262655941E2    -2.913328346583274E1     8.770005960074586E1    -8.976941612235713E1    -3.866375967294267E1    -8.066166678417150E1    -1.826096926102746E1
                        -2.912415396901834E1     8.755072802213475E1    -4.181180833456413E-1   -1.080166209744360E2    -6.914769073480355E1    -1.334840942534641E2    -8.633457294889553E1    -1.104220081555571E2
                        -9.822333215129162E1    -1.313838210203538E2    -6.985045802370340E1    -1.362746813003988E2    -1.394961859036737       3.173394329199032E1    -8.104090226644884E1    -1.540813397661324E1
                        -8.721455823575531E1     3.791663399760399E1    -7.903326339535515E1    -1.235312966462796E2    -9.342843733492971E1    -1.285249130297278E2    -1.420727242712436       3.815014772189750E1

 5.525375000000000E7    -4.391676077191605E-1    1.034894575916361E2    -2.911389577136213E1     8.732675806036781E1    -8.161984461415437E1     4.816729812407678E1    -8.288766800522464E1    -1.013677809006824E2
                        -2.906048664366203E1     8.817701943767561E1    -4.166330957559040E-1   -1.080112992205157E2    -6.993823503342247E1    -1.212379929528541E2    -8.913733248213526E1     8.123809969625137E1
                        -8.317633239536305E1     7.056340978904747E1    -6.922197152216073E1    -1.381067731217481E2    -1.396832719974585       3.169209583050776E1    -9.263242941268393E1     6.377769711094135
                        -8.259668363754199E1    -2.828740936212159E1    -8.837586745977635E1    -8.149116022141755E1    -8.506282253095327E1     5.988766635813094E1    -1.412598072790699       3.817334090360888E1

 5.525400000000000E7    -4.347552199720651E-1    1.035209392824723E2    -2.915788045676887E1     8.751909414279345E1    -9.082360232707792E1    -1.315920585677834E2    -8.792618316862343E1     1.366929252274492E2
                        -2.916567596128249E1     8.735673721517692E1    -4.160186431266257E-1   -1.080335636420887E2    -6.994901669558669E1    -1.318928609066589E2    -7.692752802413008E1    -5.704853192089359E1
                        -8.208376362153415E1     8.763649431205640E1    -6.867754342666598E1    -1.343563973197854E2    -1.401160331315030       3.173939516911323E1    -8.142943825307583E1    -6.230049146751307E1
                        -9.032488553853079E1     7.633433203821191E1    -7.943200301328604E1    -1.345137806937073E2    -8.673381959543350E1     1.003761883562051E2    -1.415538688904934       3.812391982383366E1

 5.525425000000000E7    -4.383976273282919E-1    1.035045051669914E2    -2.925655850463457E1     8.713671794297302E1    -8.942295982155991E1     1.695798500761190E2    -8.987775529719542E1    -1.621245918702988E2
                        -2.910877115821455E1     8.803971282004004E1    -4.152508580246729E-1   -1.080578226907101E2    -6.996085611502710E1    -1.331813969214736E2    -8.375408105099133E1    -1.525199619109368E2
                        -9.238004933083028E1     4.832031809824412E1    -6.858395455784233E1    -1.292655272419753E2    -1.397948071809553       3.168303127836711E1    -8.307305233049020E1    -8.217363859477358E1
                        -9.115113031588439E1    -7.365528880762398E1    -9.534926457209701E1    -1.266235840113874E2    -8.856432096623648E1     7.293305314969913E1    -1.416789873711536       3.813589714515104E1

 5.525450000000000E7    -4.377098931479743E-1    1.035019834831122E2    -2.918491065143382E1     8.750891598614015E1    -9.466502289345459E1    -1.539689403592063E2    -9.020544379415732E1    -9.815477577941944E1
                        -2.912433093379546E1     8.735938587520720E1    -4.168340758491991E-1   -1.080802459702732E2    -6.863346826284493E1    -1.292740736050941E2    -8.182019618772257E1     1.786195584284261E2
                        -9.822747284561888E1    -8.564056839917237E1    -6.913867401306787E1    -1.312034137732008E2    -1.400263033691513       3.170459538959827E1    -8.658107862000395E1    -7.922764129328805E1
                        -8.652650544761170E1     1.228078201470447E2    -9.775245274367566E1    -1.754234050678743E2    -8.266652651534054E1     1.189392877340676E2    -1.416466286281561       3.814636411894004E1

 5.525475000000000E7    -4.382815052456601E-1    1.034683289990091E2    -2.917102669799054E1     8.764854393724488E1    -8.649837579385090E1     1.691917067221350E2    -8.592332716378900E1     1.537837214715446E1
                        -2.916433986459719E1     8.809500071222112E1    -4.152346966020281E-1   -1.081220373165360E2    -6.701803810125527E1    -1.335981080724827E2    -8.437076493996415E1    -4.685091714510523
                        -8.817778895834017E1     1.643596887665747E2    -6.999039448877328E1    -1.308494460302416E2    -1.399838729239441       3.169216889409907E1    -8.989769868333944E1    -1.344318437314339E2
                        -8.591663128620002E1    -1.651302890817472E2    -8.341527814841852E1     1.602600008722013E2    -8.392650355703097E1     1.658829791850242E2    -1.415566802821910       3.815497664138065E1

 5.525500000000000E7    -4.399507056767456E-1    1.034862788778203E2    -2.921166145139821E1     8.789208983425328E1    -8.028583714355783E1     5.754442237378671E1    -8.712431964411663E1    -6.848819575910988
                        -2.913357275659221E1     8.750757736349610E1    -4.161587273751039E-1   -1.081153685482317E2    -7.123454714929991E1    -1.356295377696218E2    -8.791950353638057E1    -1.308718655991540E2
                        -9.357018761113962E1     2.630617746651454E1    -6.770355971749446E1    -1.305829125600964E2    -1.397726989635143       3.168234549881215E1    -9.117406698408692E1    -3.207944695371199E1
                        -8.803677861737114E1    -9.305404062328113E1    -7.898726638023321E1    -4.299771872053123E1    -8.879427319190612E1     1.726814504251913E2    -1.416665846532611       3.813588186228507E1

 5.525525000000000E7    -4.356983976499209E-1    1.034867444932286E2    -2.910004802203201E1     8.728578332972415E1    -7.977769893191356E1     1.208287811062418E1    -8.588641159782220E1     1.061432333086859E2
                        -2.915033522206829E1     8.699146082744782E1    -4.159284949197466E-1   -1.081481635066778E2    -6.847710619632791E1    -1.273487534636191E2    -8.537929853774733E1    -3.629842872613617E1
                        -8.943943654425054E1    -1.756757491290204E2    -6.825409069487999E1    -1.196721120926742E2    -1.394507602670023       3.171460876119231E1    -8.323819273568134E1    -5.431627193959405
                        -8.410869080538893E1    -5.007135908873234E1    -8.520754171730380E1     1.858683872359677E1    -9.406102730795146E1     1.772724396100176E2    -1.414683808163808       3.813163899165417E1

 5.525550000000000E7    -4.447790729201948E-1    1.034950429577937E2    -2.908230039539790E1     8.804638734955906E1    -1.036039426617004E2     3.900145850188448E1    -8.426485842231159E1    -5.128992694396946E1
