#  HZ   S   DB   R     50.00 
! Rohde & Schwarz Vector Network Analyzer 
! Rohde-Schwarz,ZNB8-4Port,1311601044102961,2.82
! Created: UTC 2/13/2019, 2:04:59 PM
! freq[Hz]                db:S11                  ang:S11                 db:S12                  ang:S12                 db:S13                  ang:S13                 db:S14                  ang:S14
!                         db:S21                  ang:S21                 db:S22                  ang:S22                 db:S23                  ang:S23                 db:S24                  ang:S24
!                         db:S31                  ang:S31                 db:S32                  ang:S32                 db:S33                  ang:S33                 db:S34                  ang:S34
!                         db:S41                  ang:S41                 db:S42                  ang:S42                 db:S43                  ang:S43                 db:S44                  ang:S44
! 
 5.525000000000000E7    -4.101567405553285E-1    9.751339662717798E1    -2.940031696922931E1     7.337492479757927E1    -8.566333899742281E1     1.014316869856238E1    -8.105513027332164E1     3.390592392081786E1
                        -2.928182856456064E1     7.314049515953376E1    -1.318996520177156      -1.327227776290415E2    -6.641461960605528E1    -1.517405254629221E2    -8.023875502451149E1     5.377146823607514
                        -8.516080093853788E1     1.276345237676447E2    -6.704718788587383E1    -1.490716473567039E2    -1.416145147333164       2.469851931876210E1    -8.582150612852098E1     4.443824404950469E1
                        -9.329742980406002E1     1.721421317313323E2    -7.362576656397889E1     3.831644324838212      -9.014603611167155E1    -5.705061853683259E1    -1.431195322654388       3.119533896424427E1

 5.525025000000000E7    -4.084884082363515E-1    9.750340211043289E1    -2.939433216099260E1     7.337784723670411E1    -9.436733569083302E1     1.234641792219490E2    -1.046633558235004E2    -4.075485480236318E1
                        -2.933177762669867E1     7.339236276840609E1    -1.322085567388086      -1.327708127320408E2    -6.688690362311391E1    -1.495226064114263E2    -7.524281123455575E1     4.648444092995741E1
                        -9.096466935695217E1     9.890352038257434E1    -6.631672657675313E1    -1.527708920429468E2    -1.414422493239175       2.471379033812071E1    -8.506054897619434E1     5.282019050371143E1
                        -8.611379259488717E1     1.291761929209272E2    -8.938636454651083E1     3.227402230660719E1    -8.280639882622663E1     1.666747399104105E2    -1.431803039511386       3.117388313928762E1

 5.525050000000000E7    -4.099388873790663E-1    9.749845952448611E1    -2.934230382827659E1     7.340630729496783E1    -8.341497366611485E1    -4.188174279629259E1    -9.296790189409974E1     7.310258724666707E1
                        -2.922695433804563E1     7.391568889574177E1    -1.322352171632607      -1.327953653354482E2    -6.709380501483912E1    -1.522343796602161E2    -7.603925731846447E1     7.574077109338508E-1
                        -9.288368560180045E1     4.148268572941006E1    -6.647319875366989E1    -1.413087016200232E2    -1.412393975478673       2.468696492626372E1    -9.015180902996812E1    -5.965811178768200E1
                        -8.314293419973379E1    -2.299631202236346      -7.837244743758126E1     1.332774088161708E1    -9.864427330752886E1    -1.017580529225749E2    -1.432704599522097       3.121039662244755E1

 5.525075000000000E7    -4.115360156738765E-1    9.748977952839597E1    -2.927994784662538E1     7.340840321893801E1    -8.588223725579164E1     1.056030754854763E2    -8.516020264597580E1    -1.644263438449971E2
                        -2.931519081247802E1     7.315715658730986E1    -1.325544792148017      -1.327899677656127E2    -6.673452448896828E1    -1.550489623218041E2    -7.864930351379969E1    -3.028014559596383E1
                        -9.131986179700695E1    -2.175764219521645E1    -6.532824371989605E1    -1.479785934085839E2    -1.415661407313282       2.468556609320726E1    -8.555558986409449E1    -1.305469673222107E1
                        -8.744443612706776E1     1.609585444796726E2    -7.926868990712660E1     1.635356355052944E1    -8.447086965014890E1     6.334685082081061E1    -1.430220056214373       3.120664965440260E1

 5.525100000000000E7    -4.121786529120317E-1    9.749518108096237E1    -2.934344351887981E1     7.292942850993295E1    -8.245153327214582E1    -2.124429210974013E1    -9.194924585275874E1    -4.730550702758730E1
                        -2.933941052112681E1     7.310276273698263E1    -1.322490628955034      -1.328698235891544E2    -6.896534611528536E1    -1.510434083153725E2    -8.118626422602122E1    -1.303743410070316E1
                        -8.948865089253340E1    -2.151870232996408E1    -6.714769025775607E1    -1.422382228567971E2    -1.411223601956637       2.469684115855969E1    -8.161843698912504E1     1.121563781884039E2
                        -9.146586800593342E1    -3.180273510369674E1    -7.783315553216146E1     3.430490899460574E1    -8.273724813580549E1     6.367369574408865E1    -1.431322992092408       3.118845319200576E1

 5.525125000000000E7    -4.125013221583940E-1    9.747703379512289E1    -2.936770996306725E1     7.331465200707278E1    -8.349594598227027E1    -1.131960585527834E2    -8.027204634624127E1     1.500393973143090E2
                        -2.934126137880887E1     7.329088130314818E1    -1.329854523680763      -1.329027217150930E2    -6.677878570658703E1    -1.450402981181312E2    -7.773832492579615E1     1.866171959535093E1
                        -8.831139836344025E1    -1.156559494433472E2    -6.620870941569238E1    -1.540512203020752E2    -1.412087213399035       2.466596770002546E1    -8.975566651439144E1     6.996436415203814E1
                        -9.923657332456229E1    -1.526140177527036E2    -7.727649817421367E1    -4.147740743671731      -8.456838503663531E1    -6.593688271706110      -1.432140215941546       3.117574582088879E1

 5.525150000000000E7    -4.111798017387756E-1    9.750145788842642E1    -2.935323840409999E1     7.322780972487422E1    -1.109398526997851E2     1.442399929262036E2    -8.887545284165428E1     9.340344502763134E1
                        -2.939372383063134E1     7.343303034124214E1    -1.330952041291207      -1.329604575695052E2    -6.683887186829109E1    -1.590462019492882E2    -7.577568725335161E1    -4.997931526941214
                        -8.464454987860322E1     5.100110557257900E1    -6.775863988839228E1    -1.521178951533981E2    -1.414948373308581       2.467626965315853E1    -8.324835034002609E1    -1.320139837523839E2
                        -9.951401139850327E1     1.506125475847094E2    -7.760386544245887E1    -4.317050190177517      -8.884740430277776E1    -6.085303969077905E1    -1.433539466755865       3.117156876356147E1

 5.525175000000000E7    -4.101720694711581E-1    9.747330847057025E1    -2.931135984286001E1     7.323829968332383E1    -8.502327078115833E1    -8.579683031392393E1    -7.861554314899382E1    -7.063347280521137E1
                        -2.943751472638067E1     7.387299207489566E1    -1.331761365134123      -1.329581906797183E2    -6.659021316168713E1    -1.520145622725316E2    -8.237137310807314E1     1.346155712355801
                        -8.807146055364157E1    -1.465588856986174E2    -6.687562391135204E1    -1.488115011493319E2    -1.408664233516985       2.468339561498654E1    -9.560154705034150E1     3.225852664061488E1
                        -8.784912391542426E1     7.999952147510292      -7.877085797654999E1     9.126866744060083      -8.415696584370946E1     1.248276509698807E2    -1.433158027271265       3.116782593687202E1

 5.525200000000000E7    -4.108563425087774E-1    9.751291581303890E1    -2.929657400344483E1     7.336662439835635E1    -8.829182858912108E1     6.907446629282100E1    -8.037142900525595E1    -1.772104753146921
                        -2.935860021164971E1     7.272818212909435E1    -1.335606084654101      -1.330293127876059E2    -6.706651042639120E1    -1.515962854988320E2    -7.553317956075573E1     2.184178482964737E1
                        -8.872496078852164E1    -1.163084778708254E2    -6.662878087271741E1    -1.507628523286105E2    -1.410993851959414       2.463894557413194E1    -8.747418577725173E1     1.359011330944271E2
                        -8.852856357460306E1    -1.568225579020291E2    -7.837458476021777E1     2.819602538133161E1    -9.562146468927189E1     2.937408117631976E1    -1.434080538217788       3.119980853764296E1

 5.525225000000000E7    -4.089313207163388E-1    9.744557147644846E1    -2.931295006591806E1     7.300074817273642E1    -9.398938010384327E1    -1.099338577363049E2    -8.530023897693607E1    -5.546426610993224E1
                        -2.930530194406725E1     7.345206268560385E1    -1.330878100636133      -1.330780797707517E2    -6.751355883841391E1    -1.503520539660989E2    -8.064939212925731E1    -5.653241703441330
                        -8.632128288616772E1     1.782297723772015E2    -6.717753489170855E1    -1.555876922356796E2    -1.412493971738783       2.467054892182325E1    -8.041336644715250E1    -1.123999587202457E2
                        -8.222739749950135E1    -1.360656294905025E2    -7.870294406229718E1     2.185539326580917E1    -8.340754222557911E1     1.271831024459953E2    -1.431312401504556       3.117780681137533E1

 5.525250000000000E7    -4.120275135596721E-1    9.744479940798146E1    -2.926004850461526E1     7.299178048139552E1    -8.655231215902606E1     1.383858140699407E2    -9.231047449317687E1     2.474917170151199E1
                        -2.931586956480772E1     7.335936258371039E1    -1.337326267819541      -1.330993889672201E2    -6.747738341282866E1    -1.517027314962656E2    -8.219695073788299E1     3.565513194900185E1
                        -9.027683904899226E1     1.613899084414713E2    -6.604545285755475E1    -1.542398313539531E2    -1.410137158624340       2.465827095324054E1    -9.357133546835880E1    -6.588236353444498E1
                        -8.349346191365058E1    -4.389499910059283E1    -7.966823434562845E1     1.272173525270021E1    -8.297178065374396E1     1.445202660755852E2    -1.434299405761290       3.116717767533565E1

 5.525275000000000E7    -4.119877469483912E-1    9.746077636631834E1    -2.924287398177269E1     7.283720790846569E1    -8.621145530013040E1     1.115230239100740E2    -8.782837881332354E1    -1.194250227920150E1
                        -2.927374553449154E1     7.298892867073721E1    -1.331365730275016      -1.331546777091447E2    -6.611562532848521E1    -1.550465612657013E2    -8.622381069256561E1    -1.751378057188770E1
                        -8.472699357311959E1     5.439967537536170E1    -6.602249669980692E1    -1.490086851904170E2    -1.413076086835537       2.463463050426592E1    -8.721299241749159E1     2.137411285750958E1
                        -1.004620528315800E2    -1.231629437542708E2    -8.463094960495752E1    -1.155686151352058E1    -8.505183868680072E1    -1.669189385741984E2    -1.435597823969468       3.117124651895833E1

 5.525300000000000E7    -4.095981116406428E-1    9.747097688427799E1    -2.924874948763365E1     7.373855083586074E1    -8.188200275189352E1     5.573496044166781E1    -8.659865488868655E1    -9.598176755842506E1
                        -2.930786970807396E1     7.333788193670002E1    -1.334728233771845      -1.331632544414474E2    -6.821696627063926E1    -1.605677857388963E2    -7.874425239772000E1    -2.083406738581752E1
                        -8.030350040358445E1     1.050738654948989E2    -6.635986895538038E1    -1.497342175441838E2    -1.408263169652585       2.468726614770941E1    -8.646116792817806E1    -1.669767889338292E2
                        -8.560225500268089E1     4.693104896185123E1    -7.683420201594703E1     1.174583393890536E1    -8.346956018273609E1     1.689577524444233E2    -1.430034976954554       3.115388527411032E1

 5.525325000000000E7    -4.045917337514579E-1    9.745978164072147E1    -2.930884895113352E1     7.296663867970136E1    -8.474361949131082E1     1.385824126410627E1    -8.819810948085048E1     1.405825219303825E2
                        -2.940166890879978E1     7.330349987123223E1    -1.338562656428836      -1.331987605287453E2    -6.633348441100043E1    -1.495280928955654E2    -8.132568040634028E1    -1.803218822865512E1
                        -8.937340695015563E1    -6.739446420795252E1    -6.699677743079886E1    -1.603316192210800E2    -1.414661100166485       2.464926752288090E1    -9.408462935389879E1     1.688538392045246E2
                        -9.625578987392194E1     8.844980239678674E1    -7.932378554601917E1    -1.526429532309399E1    -9.453720001010878E1    -1.174750885539362E2    -1.430341478789951       3.117053521660656E1

 5.525350000000000E7    -4.108464416404171E-1    9.743244771620319E1    -2.932381732388736E1     7.333120393199080E1    -8.377027297419548E1    -1.180038092222726E2    -8.213512547867255E1     6.130487885669634E1
                        -2.931647896929368E1     7.299150336517174E1    -1.342191099710312      -1.332479894438294E2    -6.611515752532554E1    -1.471380312463193E2    -7.759706586672274E1    -3.573072779685849
                        -8.651323590890610E1    -4.062929967087021E1    -6.650551567710087E1    -1.475760743720465E2    -1.412364200490475       2.463443632747201E1    -9.495522832978027E1     4.772540045579252E1
                        -8.845445276066222E1     6.732072968169931E1    -8.114584785086538E1    -3.852992297709020E1    -8.782114426179072E1    -1.436704333950870E2    -1.430894814371325       3.114465594296807E1

 5.525375000000000E7    -4.095201868631454E-1    9.744067047339742E1    -2.928065105863685E1     7.269232241013704E1    -9.045826023942381E1     6.489438910904653E1    -8.903546933452083E1    -3.911678699085775E1
                        -2.936895346100647E1     7.314630612294431E1    -1.347219621746606      -1.332972830796344E2    -6.664438203089848E1    -1.579512907766891E2    -7.772324441288113E1     1.109979523856774E1
                        -9.112613844926200E1    -6.645424667013467E1    -6.638474049411782E1    -1.555623947875537E2    -1.412923580943214       2.466302286089995E1    -8.785138460520828E1     7.697139925308932E1
                        -8.894025214895879E1     1.660148288287872E2    -7.632734322135553E1     7.493826827566268      -8.041013239248926E1     5.572267905352550E1    -1.434861942017574       3.117230463669988E1

 5.525400000000000E7    -4.112587827711676E-1    9.741195618949276E1    -2.932388505452714E1     7.298025702846297E1    -8.820841942607139E1     1.562087444773827E2    -8.245953271874696E1     1.116833709262041E2
                        -2.934698833172865E1     7.276304430659798E1    -1.347657511609536      -1.333464012984367E2    -6.682216286517489E1    -1.428579965937168E2    -8.063073611002402E1     2.623992212760574E1
                        -8.542109632089105E1     1.037672709641239E2    -6.663524055496201E1    -1.527732170569101E2    -1.410240238692673       2.465549566761542E1    -9.861024475085758E1    -1.361173206457276E2
                        -8.649611167520860E1     1.134652566684461E2    -8.300809925822401E1     2.358344718562992E1    -9.160573893692259E1     6.039291234086866E1    -1.434897273681556       3.113902899697030E1

 5.525425000000000E7    -4.098741445157040E-1    9.744580735985917E1    -2.930179735479657E1     7.262777909801554E1    -8.850944266217340E1     1.075713879239089E2    -9.084773777039027E1     1.127848338706167E2
                        -2.933723039649588E1     7.337639946430531E1    -1.353959899326424      -1.333663040169824E2    -6.681279487815253E1    -1.496038500658811E2    -7.861925648080857E1    -3.356924359880789
                        -9.868390798486230E1     6.177161627280690E1    -6.679775911499658E1    -1.511284794489173E2    -1.412561454156038       2.463924462994719E1    -9.068195585254289E1     1.374374986425129E2
                        -9.486222604480108E1    -9.735527516949743E1    -7.737605082146190E1    -1.791473174172835      -8.115979961728165E1    -1.461459319092653E2    -1.436949921728773       3.115829376537655E1

 5.525450000000000E7    -4.106110502906556E-1    9.743982742979024E1    -2.939954582796778E1     7.315246357574534E1    -8.143710618393860E1     1.144204104482948E1    -8.646087957544579E1     1.528302694860698E2
                        -2.928735148822458E1     7.321129446360969E1    -1.348898026382507      -1.333959226053601E2    -6.672584322049215E1    -1.468270216913985E2    -8.109648168411637E1     7.449920009257343
                        -8.869443753053832E1     6.425309640674426E1    -6.682148610279998E1    -1.506892883903958E2    -1.411874852840294       2.465791785955667E1    -8.466395397488746E1     1.268787227818084E2
                        -8.258630026973926E1     1.710236705627936E2    -7.459911064409488E1    -6.880879331132477      -8.672912607593040E1    -1.715352900309762E1    -1.432531764203472       3.116451960862058E1

 5.525475000000000E7    -4.106912186392182E-1    9.742075467533734E1    -2.932432869885041E1     7.306217509714486E1    -8.510302708060310E1    -8.087966585476515      -8.314660070736315E1    -7.505163155949276E1
                        -2.926659817302063E1     7.353560015960305E1    -1.352733749608177      -1.334163480645900E2    -6.739232194334343E1    -1.491711560872668E2    -7.555542632944403E1     1.070616276791758E1
                        -9.960930423143152E1     9.591419817344982E1    -6.773747146980149E1    -1.449486585878990E2    -1.410086083865938       2.464308697790456E1    -9.135650112293524E1    -1.346980716659463E2
                        -8.346708284335902E1     2.429643098298329E1    -7.611697698307839E1     8.686296532241626      -9.614064260368339E1     5.407502144482179E1    -1.432884871813805       3.115274453031367E1

 5.525500000000000E7    -4.131324243044512E-1    9.743938197140442E1    -2.932048335103963E1     7.335749659224695E1    -8.057571250895323E1     6.129963658986029E1    -8.506537166019974E1    -6.603330230952537E1
                        -2.930793440089825E1     7.330442036160936E1    -1.355010497156221      -1.334998699851942E2    -6.651700519481933E1    -1.528936849341436E2    -7.484456600811868E1    -1.389121483352941E1
                        -8.474777893187383E1     9.147590971289566E1    -6.679818075590870E1    -1.531293288737134E2    -1.413268703066040       2.465086906312552E1    -9.609727350341053E1     1.348398682421862E2
                        -8.752847710933824E1     4.107371115128800E1    -7.488286523327459E1     7.598718675611051      -8.411151401356594E1     3.576609845683265E1    -1.432368806169755       3.110660424252531E1

 5.525525000000000E7    -4.072329661779433E-1    9.740559736491986E1    -2.929122443931713E1     7.270764325062613E1    -8.600539079705540E1    -8.194088650453843E1    -8.888524222792407E1    -1.450795835051387E2
                        -2.943202387423847E1     7.315553038900407E1    -1.350706926005260      -1.335155623020355E2    -6.846591700078847E1    -1.477093881799238E2    -7.805403413829640E1    -5.910904976317005
                        -8.090948149873597E1     8.216254572916381E1    -6.681761566271761E1    -1.516270515097199E2    -1.412289498566675       2.460251710475917E1    -8.565070389720486E1     1.651505098156423E2
                        -9.543450836306664E1     6.766783935594971E1    -7.816629327158431E1    -1.247148761574236E1    -8.630933021292178E1     2.068309452190291E1    -1.433718145378331       3.115354017119637E1

 5.525550000000000E7    -4.068470730164256E-1    9.745677119633842E1    -2.934759812209449E1     7.223634843709746E1    -8.500730407205082E1     2.862106698493513E1    -9.939085648216661E1     1.078131783934386E2
