#  HZ   S   DB   R     50.00 
! Rohde & Schwarz Vector Network Analyzer 
! Rohde-Schwarz,ZNB8-4Port,1311601044102961,2.82
! Created: UTC 2/13/2019, 12:13:58 PM
! freq[Hz]                db:S11                  ang:S11                 db:S12                  ang:S12                 db:S13                  ang:S13                 db:S14                  ang:S14
!                         db:S21                  ang:S21                 db:S22                  ang:S22                 db:S23                  ang:S23                 db:S24                  ang:S24
!                         db:S31                  ang:S31                 db:S32                  ang:S32                 db:S33                  ang:S33                 db:S34                  ang:S34
!                         db:S41                  ang:S41                 db:S42                  ang:S42                 db:S43                  ang:S43                 db:S44                  ang:S44
! 
 5.525000000000000E7    -4.482891530876618E-1    9.741431790039817E1    -3.011628378210808E1     6.886890249067750E1    -8.786992208810023E1     8.426125863601834      -8.801549439698707E1    -6.140159359885468E1
                        -3.011766569372718E1     6.914340589902463E1    -3.464086365523581      -1.520707092468933E2    -6.632188802793264E1    -1.669083064005161E2    -7.791253821498921E1    -5.603919782936212
                        -9.454953330833288E1     3.841163734618559E1    -6.772393062631062E1    -1.671502426816640E2    -1.415938641564874       2.475822099495478E1    -9.761329855261884E1     1.097830879876746E2
                        -8.770975627755944E1    -7.428354062886444E1    -7.529172357344676E1    -2.222050724553649E1    -8.565919576330877E1    -7.796236249465676E1    -1.429592674300966       3.123152699650773E1

 5.525025000000000E7    -4.537317255337631E-1    9.739601011206239E1    -3.019148198449795E1     6.919097407813761E1    -8.555672501004311E1    -1.246554677351411E2    -8.588966839421759E1    -4.014669055945976E1
                        -3.026844817622294E1     6.844291406046000E1    -3.467079318678418      -1.521042183327841E2    -6.684947521429604E1    -1.670942512950424E2    -7.263377653204088E1    -8.580577393816139E-1
                        -8.199522716349713E1    -7.655898175212420E1    -6.734551351025306E1    -1.689213559017094E2    -1.412011314743102       2.474157009328358E1    -8.949499455381712E1     3.545609374004921E1
                        -9.583532907933645E1     4.529027299545706E1    -7.533984973454103E1    -2.546277342176832E1    -8.754639431991259E1     2.645148408192132E1    -1.433227219039237       3.121969628505042E1

 5.525050000000000E7    -4.521253867677001E-1    9.736874313266944E1    -3.010406328580105E1     6.818795199234201E1    -8.801199999693820E1     7.666723721419810E1    -8.797998195308540E1     1.236313271276269E2
                        -3.026688550974352E1     6.873416747238976E1    -3.471516329785207      -1.521519080716788E2    -6.785712788274120E1    -1.714390872512310E2    -7.609604928123159E1    -1.949131116039154E1
                        -8.865390336101775E1     2.648187952731229E1    -6.646349447582077E1    -1.677348107538851E2    -1.413283960565351       2.474207663108085E1    -8.523790085938356E1     8.789194997355064E1
                        -8.606218198049321E1     1.651095574385418E2    -7.517422916547395E1    -1.274084743990979E1    -8.592693420348665E1    -1.716485161004879E2    -1.431488647122996       3.125319413304508E1

 5.525075000000000E7    -4.487658990655662E-1    9.742172944897727E1    -3.013043729500522E1     6.915140614214553E1    -8.466643769320720E1    -8.467136314331542E1    -8.384205803106995E1     3.885364825087676E1
                        -3.019614681244948E1     6.939633959227717E1    -3.485241580785450      -1.522005242329956E2    -6.772873304832805E1    -1.651387147558543E2    -7.182978228382994E1    -3.479107228181987E1
                        -8.409732554476324E1     9.332625605253766E1    -6.599840167207543E1    -1.691586815619579E2    -1.413447115980964       2.470908948157994E1    -9.469683548759798E1    -4.478570680234409E1
                        -8.194634788735455E1     5.271056254063662E1    -7.619941961449365E1    -5.068383640733170      -8.980364628510593E1    -7.282433799344146E1    -1.431659729766941       3.124759948553198E1

 5.525100000000000E7    -4.513758676225982E-1    9.737324461278800E1    -3.009228192352341E1     6.846022654528728E1    -9.010287253839097E1    -2.825163653071171E1    -9.517459633901169E1    -1.470430156403761E2
                        -3.015229239065800E1     6.914638438887448E1    -3.481972272650566      -1.522342322216181E2    -6.694626537763743E1    -1.671803938295660E2    -7.714149317497063E1     1.869037338676517E1
                        -9.197091314763298E1    -1.771919801965034E2    -6.589119921320246E1    -1.659954645907440E2    -1.412069521384916       2.473778514272638E1    -8.536887068614868E1    -2.249822948245668E1
                        -8.345758660358467E1     1.279470896903207E2    -7.602880731390025E1    -2.074201157981941E1    -9.118449506581237E1    -1.270866709510905E2    -1.430313488568738       3.125697765766848E1

 5.525125000000000E7    -4.500494387380771E-1    9.736982037792367E1    -3.024026850664823E1     6.874680878340512E1    -1.046345143407733E2     1.406509184658528E2    -8.476269054043293E1    -3.892539352067716E1
                        -3.025226792592898E1     6.884473773394643E1    -3.484042795247247      -1.522692717571644E2    -6.823344270635934E1    -1.689526531522504E2    -7.181124088648232E1    -8.657065875643081
                        -8.597538405000128E1     1.024782073789025E2    -6.658314266234990E1    -1.708511306144386E2    -1.407399401011479       2.471516147994631E1    -8.915209329830952E1     1.287074182081934E1
                        -9.484397111331967E1    -7.632438455384718E1    -7.369840676643861E1    -4.084847209802698E1    -8.800356030755859E1     2.319554695643731E1    -1.433510418496006       3.120916960422519E1

 5.525150000000000E7    -4.484968566429800E-1    9.736474055244075E1    -3.023594421111782E1     6.821496653936464E1    -8.988096696891780E1    -1.766353783028811E2    -8.708129212067422E1    -6.850683045711394E1
                        -3.023235014692402E1     6.896758877339700E1    -3.491934453999472      -1.523112621965313E2    -6.657311902292722E1    -1.583212379996813E2    -7.198736109731703E1    -2.091277973431721E1
                        -9.460515431487848E1    -6.773987033913771E1    -6.685620346251218E1    -1.700964543541382E2    -1.414056728942290       2.474789204419984E1    -9.711468774644524E1     4.658430858564451E1
                        -9.209786750487645E1     9.017061817393093E1    -7.389268825663048E1    -1.923658278489921E1    -8.215446765132813E1    -1.413893653281369E2    -1.428094645369912       3.124569955189651E1

 5.525175000000000E7    -4.541827353921475E-1    9.736355480294554E1    -3.021071608397847E1     6.854861364309276E1    -8.318065622307644E1     1.660331327687965E2    -7.830369497445051E1     6.627012182151994E1
                        -3.026252708205684E1     6.931461724166232E1    -3.490910956348412      -1.523812218005157E2    -6.682747477802322E1    -1.747619814565771E2    -7.825154183128062E1    -7.491143527003670
                        -8.737244933521707E1    -8.277057768607484E1    -6.740623583449261E1    -1.743262001638449E2    -1.416280004332928       2.473465115803624E1    -8.225544607827088E1    -1.672174665191779E2
                        -9.059647501441177E1    -1.264303493555054E2    -7.518136173974989E1    -1.297944401999601E1    -9.647142196740568E1     1.059047810657638E2    -1.433441533459738       3.122738836872200E1

 5.525200000000000E7    -4.466863998111218E-1    9.737015958540091E1    -3.013986560113173E1     6.901680147460658E1    -9.264364430275633E1     8.012761855167165E1    -8.180843143358035E1    -6.348217787105831E1
                        -3.015794967439254E1     6.890034320349299E1    -3.494606782102840      -1.524448616315667E2    -6.745943867425949E1    -1.603663043377645E2    -7.387449858575297E1     2.922052778296192
                        -9.563359578439992E1    -1.235724344077136E2    -6.610313673843345E1    -1.693536049569285E2    -1.411106809991936       2.470935446077481E1    -8.803155752213934E1     1.185236185130252E1
                        -8.165692941053435E1    -5.385765159625319E1    -7.484169980827203E1    -2.387607634643025E1    -9.351399457061044E1     1.545612818202876E2    -1.431406876920683       3.124153907742891E1

 5.525225000000000E7    -4.464219910790264E-1    9.735532412053641E1    -3.015541634962892E1     6.864456091871320E1    -8.341383485240606E1    -1.460144156627236E1    -9.044639264876487E1     1.651365423490760E2
                        -3.012559656867559E1     6.835387843283155E1    -3.500993020263418      -1.524599896851527E2    -6.828046994210655E1    -1.652496666416788E2    -7.226065673448427E1     2.533250448648090
                        -8.319046932689659E1    -1.498527926627183E2    -6.743868976108277E1    -1.641986558544700E2    -1.408054712715221       2.473722353171140E1    -9.049569060328602E1     4.704253053932688E1
                        -8.345044941837331E1    -1.087012283807369E2    -7.415103451444031E1     6.253193733406278      -8.417976518169755E1     1.334537508908774E2    -1.433280900681962       3.120965611278830E1

 5.525250000000000E7    -4.528741611768230E-1    9.736977962114170E1    -3.021674158288656E1     6.858108061478774E1    -8.568313509721421E1    -2.978748774521280E1    -8.228071207298137E1     1.210434633628669E2
                        -3.026659335580136E1     6.871127492688692E1    -3.505535607825290      -1.525032586868333E2    -6.644765585777616E1    -1.790656520252854E2    -7.767735379204716E1    -8.362864161757454
                        -8.149359384557619E1    -4.379935559683054E1    -6.537405813952185E1    -1.676308332496132E2    -1.408341852878248       2.468672865696365E1    -8.153310392355395E1     1.719963064199256E2
                        -8.827534865315771E1    -3.611939424354236E1    -7.539999809003339E1    -1.961233198135722      -8.585265729695712E1    -1.722767946174571E2    -1.430429516356384       3.121066498160957E1

 5.525275000000000E7    -4.535250624595249E-1    9.737015942450672E1    -3.022866968000096E1     6.842772179535797E1    -8.874203990973315E1    -7.181127729074497E1    -9.297924401599744E1     3.898296774391372
                        -3.017195629923487E1     6.813470667347556E1    -3.505719852857804      -1.525563381587995E2    -6.595404639086561E1    -1.731055460501308E2    -7.365867125822538E1     1.532648914473585
                        -8.081114225568337E1     1.946585849841928E1    -6.631835542366738E1    -1.714189124038285E2    -1.411716848648760       2.471872331460462E1    -9.488458980273613E1    -6.884791048778658E1
                        -8.313737202262527E1    -9.265531012011546E1    -7.336584856151829E1    -2.192432237887790E1    -9.288988637760951E1    -3.653148764942009E1    -1.432674976623687       3.120106243565954E1

 5.525300000000000E7    -4.452961273656182E-1    9.736065915421918E1    -3.024762982270478E1     6.882699277456845E1    -8.130324256700692E1     1.387321932380643E2    -8.675211954500890E1     8.433566652577514E1
                        -3.025741093072544E1     6.870597911278470E1    -3.512044852920244      -1.525735167962455E2    -6.668550337334068E1    -1.642538749211234E2    -7.232321045749407E1    -2.075835307558786E1
                        -8.878447487748807E1     4.071555143530276E1    -6.604262111002362E1    -1.627835825914674E2    -1.412982242523646       2.472221040615859E1    -1.181432016547964E2    -9.742785864145623E1
                        -9.538687031370651E1     1.001288444855054E1    -7.439545676964856E1    -9.598216689292805      -8.666653783385264E1     1.018541840119703E2    -1.430092612967262       3.122125397438779E1

 5.525325000000000E7    -4.481692463781033E-1    9.735353988381230E1    -3.021207060982105E1     6.860750175083655E1    -8.971238441370653E1    -1.635154223725536E2    -9.687940708370741E1    -9.765026612091466
                        -3.030862161892862E1     6.863420294745544E1    -3.520572227951216      -1.526524291939942E2    -6.648910960921128E1    -1.598587993397270E2    -7.253935122231201E1     3.224039219129350
                        -8.486928942587554E1     4.668749238112005E1    -6.601925743725940E1    -1.606725028286669E2    -1.409981868986709       2.472259003127847E1    -9.056917281302864E1    -1.351619234400956E2
                        -8.623538661525342E1     8.980002491425336E1    -7.250271566425354E1    -2.783421947400322E1    -8.754458505521899E1     1.418706277181531E2    -1.426932332975251       3.119819768681192E1

 5.525350000000000E7    -4.460772208659741E-1    9.734086275168104E1    -3.012483314658610E1     6.807611377468041E1    -8.783972584024042E1     9.048065108090493E1    -8.352157001849362E1     7.578387023315712E1
                        -3.026094649846904E1     6.883079297081203E1    -3.523096951115595      -1.526571974554809E2    -6.732931207948879E1    -1.698731041726622E2    -7.212350153138645E1     5.998723153991071E-1
                        -8.481373940306119E1    -1.663738640695569E1    -6.729482350732098E1    -1.708731720046632E2    -1.411187945031728       2.471036241007178E1    -8.418355738669513E1     2.419934523918454E1
                        -8.535142562851704E1     1.981853972610810E1    -7.647485327220949E1    -6.923858751137283E-1   -8.506173150217674E1     1.442635016747407E2    -1.430018421571891       3.122192626142492E1

 5.525375000000000E7    -4.529129495393355E-1    9.736685992020333E1    -3.020225674227845E1     6.833723474868096E1    -8.552694722311733E1    -5.844664083667296E1    -8.243561135298330E1    -7.412119229716289E1
                        -3.033792556340847E1     6.862451432832059E1    -3.529800872878914      -1.527439014232803E2    -6.702369529268169E1    -1.650608238653816E2    -7.827885510405318E1    -2.547734518238259E1
                        -8.638653521643265E1    -7.432280097859736E1    -6.752247087635402E1    -1.540759350751086E2    -1.412557222447830       2.471977764310627E1    -8.152174139840071E1    -2.829081842426309E1
                        -8.504569303567422E1     1.031078474013636E2    -7.514951531879331E1     2.239454619655317E1    -8.443220604899354E1    -1.141708344411565E2    -1.432112608922589       3.119518054872884E1

 5.525400000000000E7    -4.485472297517700E-1    9.733216684389682E1    -3.022536167165413E1     6.822152427429938E1    -8.453993387075313E1     1.331009765999004E2    -8.819728441099920E1     1.265382662239289E2
                        -3.028642740361408E1     6.869824522149378E1    -3.536469754105579      -1.527748322498428E2    -6.715343881880844E1    -1.665207171860278E2    -7.362249618092601E1    -1.561220780430895E1
                        -8.306578508738451E1     4.417623740107765E1    -6.702303262701952E1    -1.579320056949197E2    -1.410179931634550       2.469492885002640E1    -8.232664020287204E1     1.561080343589332E2
                        -8.945746743070538E1     7.418270537757498E1    -7.546879730909375E1     7.496804400940283      -8.493402297528932E1     1.575526996074665E2    -1.432460498297278       3.120755221361502E1

 5.525425000000000E7    -4.490449411177276E-1    9.730343493903260E1    -3.017990245574245E1     6.871820313046115E1    -8.864875808171036E1     8.777896089404621      -8.838812870088317E1     1.744515223690114E2
                        -3.017674126239617E1     6.834955985594939E1    -3.531529763851591      -1.528297046130523E2    -6.614547365606421E1    -1.606905441956982E2    -7.413636182144958E1    -1.635914876365141E1
                        -9.636023505394374E1    -1.059660187189128E2    -6.800566398543894E1    -1.635706512251846E2    -1.408484571198110       2.471541934603766E1    -8.648268916847444E1    -3.731778033398564E1
                        -8.979205131246366E1     9.323970731561796E1    -7.139287448463909E1    -1.607222907760182E1    -8.933000422499630E1    -8.052295141806862E1    -1.427669756994313       3.118797751423666E1

 5.525450000000000E7    -4.488651289511466E-1    9.728121298840189E1    -3.021356255503280E1     6.827133196331977E1    -9.385388561694904E1    -2.333441620686756E1    -8.237338299622870E1    -1.595158168131576E2
                        -3.017608862272965E1     6.818409145297883E1    -3.544106274579895      -1.528382559818915E2    -6.803222966179531E1    -1.585194505220889E2    -7.484762086782556E1     1.132129082667831E1
                        -8.667566088995079E1    -1.621606360633871E2    -6.551027640247457E1    -1.655767597023737E2    -1.408792869422243       2.471535452534693E1    -8.873298845042922E1    -1.222976141711915E2
                        -8.364954091144357E1     9.716324283558105E1    -7.398475078992487E1    -3.795164236418151      -8.484671507511879E1     3.435284257404531E1    -1.431152036359773       3.118075196318606E1

 5.525475000000000E7    -4.482063507121272E-1    9.730879049653562E1    -3.024289182446720E1     6.840948541620716E1    -8.814744375347395E1    -1.612284486953180E2    -8.151333749239601E1     9.788933366320741E1
                        -3.024252427955930E1     6.759119207781929E1    -3.545290505753349      -1.528967473493218E2    -6.715556140568461E1    -1.654106499205475E2    -7.791338790349519E1    -1.865419587788738E1
                        -8.522607553585041E1    -1.338759549978233E2    -6.617743921629879E1    -1.550502841438228E2    -1.410578398682226       2.468976634208594E1    -8.440438669070618E1     1.748262910811305E2
                        -8.757420745880337E1     1.614567050534249E2    -7.532467861625963E1    -2.225650468286976E1    -8.014369832754750E1    -1.791118246050721E2    -1.432344955023043       3.117775827269527E1

 5.525500000000000E7    -4.455885558302767E-1    9.729334217706879E1    -3.024800550723160E1     6.808127033155111E1    -8.489664716731126E1    -8.490668629405191      -9.453219880169398E1     7.698849718876052E1
                        -3.014508222201648E1     6.865172962849771E1    -3.547285895406588      -1.529489761784440E2    -6.527136710335572E1    -1.666784081580666E2    -7.302410427110603E1    -1.970140646498787E1
                        -8.909235022284277E1     5.332498415603748E1    -6.546402932666724E1    -1.688750823870192E2    -1.413539311313855       2.468803309743069E1    -8.824620089031677E1    -1.878177879368248E1
                        -9.154433342306248E1     8.102584462702642E1    -7.652842909766051E1    -8.218511761083342      -8.228763981161571E1    -1.066721057240995E2    -1.424738040007851       3.118937386708705E1

 5.525525000000000E7    -4.523648918898374E-1    9.730864320530651E1    -3.022068325557695E1     6.854516315630180E1    -8.059248711886750E1    -1.309331189216912E2    -9.116385967987547E1     1.535451341537457E2
                        -3.029171251991216E1     6.825005389409020E1    -3.556108390177900      -1.529963260225356E2    -6.658484694823054E1    -1.634175334658207E2    -7.409463330030067E1    -3.043812344540325E1
                        -1.012052082599506E2     1.936017028711082E1    -6.605408949739027E1    -1.702254709390670E2    -1.407414210868470       2.468134517844556E1    -8.801608678677494E1     1.225434726689578E2
                        -8.606184718466690E1     7.760946907895784E1    -7.510739746891036E1    -2.846502480731302E1    -8.505309813427184E1    -8.069762793468184      -1.433033806985250       3.117278485704687E1

 5.525550000000000E7    -4.479629135277403E-1    9.727008918049334E1    -3.016726905005431E1     6.801027828474645E1    -8.119914688419507E1     4.232739222247010E1    -8.776706258064229E1     1.048098342843380E2
