#  HZ   S   DB   R     50.00 
! Rohde & Schwarz Vector Network Analyzer 
! Rohde-Schwarz,ZNB8-4Port,1311601044102961,2.82
! Created: UTC 2/13/2019, 2:14:04 PM
! freq[Hz]                db:S11                  ang:S11                 db:S12                  ang:S12                 db:S13                  ang:S13                 db:S14                  ang:S14
!                         db:S21                  ang:S21                 db:S22                  ang:S22                 db:S23                  ang:S23                 db:S24                  ang:S24
!                         db:S31                  ang:S31                 db:S32                  ang:S32                 db:S33                  ang:S33                 db:S34                  ang:S34
!                         db:S41                  ang:S41                 db:S42                  ang:S42                 db:S43                  ang:S43                 db:S44                  ang:S44
! 
 5.525000000000000E7    -4.101619270602253E-1    9.752434982568296E1    -3.004576746629166E1     7.401910970474161E1    -1.034679211684033E2     9.744133828114606E1    -8.222339234698481E1    -6.447650068887759E1
                        -3.015479808893955E1     7.406576375372127E1    -1.181496934635505      -1.297002626424988E2    -8.017214355310536E1     2.840283993624077E1    -6.692634018864005E1    -1.445052131353348E2
                        -8.401181149038008E1     7.049583776476921E1    -8.147598114634255E1     1.771947721903440E1    -1.412007735501278       2.465937767372499E1    -8.319674564274959E1     8.615814661484345E1
                        -8.865663185862772E1     1.436422537831216E2    -6.750238052489780E1    -1.479600762632518E2    -8.429655060025864E1    -1.512581393039430E2    -1.435935476749399       3.119824064600272E1

 5.525025000000000E7    -4.069819008063929E-1    9.751045150826849E1    -3.001165010520598E1     7.392033786182718E1    -8.258037105652073E1    -6.187915831760035E1    -8.757214615441369E1     6.070733461015142E1
                        -3.016061854136623E1     7.401590549133771E1    -1.187535565829643      -1.296888537150265E2    -8.097671957483172E1     1.057567512110201E1    -6.573566553333936E1    -1.484516597451918E2
                        -9.579892052896167E1    -1.449942581728086E2    -8.372606897521567E1     1.052697876362962E1    -1.415763482853087       2.467485896413859E1    -8.493164352754533E1    -9.546998304150350E1
                        -8.789281253544971E1    -7.984686014044050E1    -6.747023085006244E1    -1.488104662618135E2    -8.312954531762307E1     1.358702098253744E1    -1.432762328798189       3.122470861338412E1

 5.525050000000000E7    -4.092414855961366E-1    9.749764194643220E1    -3.010033535128668E1     7.419265049041030E1    -8.357790236805172E1     1.191247340491662E2    -9.197397114638739E1     9.484660416209659
                        -3.007217130852299E1     7.388019834948888E1    -1.183396399958773      -1.297098073895843E2    -8.434273222171042E1    -4.484507823035835E1    -6.705588778213213E1    -1.497526183264012E2
                        -8.423825757612522E1     5.881680819452038E1    -7.976908914411725E1    -4.955566496271370E-1   -1.412334479860495       2.468057516737055E1    -9.026737785067419E1    -1.597707820179559E1
                        -8.232169924241183E1    -7.860869890566443E1    -6.739461507152942E1    -1.393795143027415E2    -8.357705697005558E1    -1.695471872829161E2    -1.435858839667239       3.117929083393163E1

 5.525075000000000E7    -4.048231875440842E-1    9.751453001184673E1    -3.006001844336333E1     7.361731855213607E1    -8.468026384381366E1     1.536175016404670E2    -7.988908472820158E1    -1.308105066211844E2
                        -3.011290181638630E1     7.468786546827370E1    -1.182715030605795      -1.297831992695447E2    -7.661603328796589E1    -1.757717854113956E1    -6.736324920709048E1    -1.511722013876158E2
                        -8.033111159162107E1     5.065764979850398E1    -8.164902426232891E1    -8.573306658104350      -1.410547565147723       2.467381073582653E1    -9.056982550045174E1    -1.141178111014211E2
                        -8.456114731679612E1    -2.594480132375221      -6.657661231427136E1    -1.498876064106277E2    -8.728500257372528E1     1.895526100609801E1    -1.434797746617240       3.117570857094530E1

 5.525100000000000E7    -4.048922607917688E-1    9.752477660635066E1    -3.004906282094334E1     7.388051380168776E1    -8.856598787504994E1    -1.731610954961004E2    -8.760022353567075E1    -4.241634447965860E1
                        -3.013640338902789E1     7.391963197269597E1    -1.187217831267499      -1.298044552342816E2    -7.845021196335846E1     1.067707481910573E1    -6.777712478925979E1    -1.590020583672716E2
                        -8.395326545079790E1    -1.083772500888125E2    -8.726759217726908E1     1.556463041178571E1    -1.415742819777836       2.465401064772719E1    -8.895261126845696E1    -1.386157404483315E2
                        -8.348381708920590E1     9.067716204420849E1    -6.827397431209722E1    -1.495673025682035E2    -8.583726955627363E1    -1.783744041277216E2    -1.430004783868992       3.120060295191698E1

 5.525125000000000E7    -4.054823325249359E-1    9.751105383624113E1    -3.004291112071254E1     7.402625007856692E1    -8.524053396755976E1    -1.336917366143906E2    -8.725691696769897E1    -1.457471792708385E2
                        -3.008024449294747E1     7.379530161744980E1    -1.186017464660417      -1.298281140780434E2    -7.440696853349381E1     1.610378465785504E1    -6.779099620259649E1    -1.482952271650179E2
                        -7.902421174373525E1    -8.558885687542843E1    -8.059696195215550E1     4.515483027677410E1    -1.411047848226041       2.466417831038092E1    -8.951613505992384E1    -3.200330172490222E1
                        -8.455515143966389E1    -3.516003703657544E1    -6.745701716858383E1    -1.487481796168349E2    -8.098775372628862E1     4.603024431497303E-1   -1.437233552532450       3.118938598467403E1

 5.525150000000000E7    -4.087222444686420E-1    9.748279512594642E1    -2.995760135945362E1     7.411056820287004E1    -8.564650109409271E1    -1.305347060886412E2    -8.558669772951879E1     1.251988742767186E2
                        -3.006484716014929E1     7.459230252485122E1    -1.188278478489135      -1.298912096165105E2    -8.129562213687343E1    -8.746252969859176      -6.763966268708923E1    -1.448339217834476E2
                        -8.901512029158191E1     8.066790571965021E1    -8.165106018465308E1     7.789129237468290      -1.409206323746744       2.468164149896802E1    -8.387036021187012E1    -1.033409022091070E2
                        -8.384886914805578E1    -1.905348329472244      -6.733701257203737E1    -1.459039457066323E2    -8.391668908862998E1     6.389101353252309      -1.431200928512945       3.118194328844444E1

 5.525175000000000E7    -4.056468566824735E-1    9.751113936202604E1    -3.002921816722239E1     7.370546712565157E1    -8.414627735349816E1     1.652195530086730E2    -8.113770488616261E1    -7.103405448952655E1
                        -3.010613875136279E1     7.346306997493927E1    -1.188893823400823      -1.299062760075835E2    -7.858821460414760E1     2.764897245719170E1    -6.846090213960326E1    -1.477215441296146E2
                        -9.106445518300180E1    -1.782864812475912E2    -8.000115178458685E1     2.625923332144412E1    -1.415091079106841       2.465423338746395E1    -8.468585978005893E1    -1.661086149690568E2
                        -8.907908409542077E1     9.778266549223802E1    -6.809840309055338E1    -1.455292963115609E2    -8.811701927198406E1    -4.808805057163474      -1.427326101367244       3.117624205627067E1

 5.525200000000000E7    -4.043968697008534E-1    9.749874434304503E1    -3.003840193234403E1     7.428724107295416E1    -9.479126023133289E1    -1.240561995355510E2    -1.020708517082640E2     1.401049506188357E2
                        -3.006122130259444E1     7.357997999105560E1    -1.193914870776967      -1.298983922518005E2    -8.427513989624883E1     1.678261097412097E1    -6.709967807270562E1    -1.414400222093373E2
                        -8.616200312576325E1    -1.940910753755208E1    -8.046931193946350E1    -1.835351751440777E1    -1.411643852141340       2.464611132102439E1    -8.454298278356845E1    -9.181493220850738
                        -9.854864818467658E1     2.270914006043539E1    -6.746214764228438E1    -1.444270311383937E2    -8.970942647452503E1     1.162261412451295E2    -1.432520314874186       3.116925071063353E1

 5.525225000000000E7    -4.062823210990471E-1    9.746803521427336E1    -2.999656888610308E1     7.405562207546321E1    -8.747331385045030E1    -9.319152751633104E1    -9.232653588619387E1     1.103861250789484E2
                        -3.011790344792319E1     7.390043849044001E1    -1.194514633167883      -1.299634440912636E2    -9.314632302661863E1     9.580845202700539E1    -6.674871140742845E1    -1.445152697566407E2
                        -9.408510549518189E1    -1.717806458478654E2    -7.820247761723759E1    -2.916735432785142E1    -1.410613780341000       2.466503094778440E1    -9.353198263626948E1     6.216418893760281E1
                        -8.808822162287638E1    -1.564767131101946E2    -6.670250638645123E1    -1.460562701282017E2    -8.389499646299387E1    -2.673118339540949E1    -1.429765912296459       3.118110663144702E1

 5.525250000000000E7    -4.042723222824913E-1    9.746651133483135E1    -3.003868558818380E1     7.403751233728865E1    -9.631000266812271E1    -1.737236961012039E2    -8.756184746199853E1    -8.863691002664784E1
                        -3.002725717787646E1     7.425724663981903E1    -1.195970786539441      -1.300154565741792E2    -8.003377667235324E1     2.320304510335222E1    -6.756087167068503E1    -1.490244797679227E2
                        -9.468275398640176E1    -1.673982442339793E2    -7.640507978751317E1     5.000745728207357E1    -1.410467779356702       2.467263387763139E1    -9.004719989396790E1    -5.990634475430982E1
                        -8.735872169070758E1     2.243074079486372E1    -6.784680606510149E1    -1.482937341401831E2    -8.257685451261482E1     1.148999089645904E2    -1.432761018073873       3.115752384699638E1

 5.525275000000000E7    -4.054136697864714E-1    9.743951478570592E1    -3.009750286654477E1     7.362033060251402E1    -8.679536593291479E1    -3.393913368635949E1    -8.019594599882754E1    -1.330909157747376E2
                        -3.009274490377161E1     7.411083524450280E1    -1.196022014071998      -1.300351968501298E2    -8.075720952119207E1    -8.660342425413223      -6.829574238191140E1    -1.501042510948630E2
                        -9.238575089657579E1     3.918777429351686E1    -7.623329552137128E1    -7.712345038848892E-1   -1.410472374166610       2.466504231511319E1    -8.648399113205201E1    -1.331064022279617E2
                        -8.785123824193745E1    -3.985353681658794E1    -6.676615276963462E1    -1.487040648561531E2    -8.573316897959211E1    -6.533855085627199E1    -1.431329996682172       3.115780119456123E1

 5.525300000000000E7    -4.047634350825197E-1    9.744925176605800E1    -3.004463919306838E1     7.414426295846228E1    -8.610402068012716E1     3.709116255412409E1    -8.768185326266617E1    -1.603894393591221E2
                        -3.010565821212165E1     7.384997565342745E1    -1.196221481871142      -1.300567248088015E2    -8.171941202728067E1    -1.328101506348178E1    -6.716612580274841E1    -1.569109988633213E2
                        -8.595897184233466E1     1.234428166631634E2    -7.811889130456281E1     7.630453711785438      -1.413061008743716       2.466687729885119E1    -9.473525718896632E1    -1.716674908401327E2
                        -9.326179309696107E1    -8.132915619773910E1    -6.651753075152732E1    -1.470983869617376E2    -8.384923625725992E1    -9.175871936885922E1    -1.431999521973044       3.118792018781000E1

 5.525325000000000E7    -4.051447456569232E-1    9.745033951459514E1    -3.012717886504211E1     7.394849419102995E1    -8.059631204793426E1    -9.181846506330255E1    -8.947081580341893E1    -2.883222014541193E1
                        -3.001146014969137E1     7.383844630234603E1    -1.201100780015555      -1.301277165204879E2    -8.902076642462521E1    -4.707770759547002E1    -6.652314015010100E1    -1.487653420242345E2
                        -9.331874601770898E1     6.636011981940563E1    -8.115512720634989E1     1.377386460315638E1    -1.414131598987172       2.464542235701939E1    -9.101634992047472E1     1.286182591365875E2
                        -8.513343427838495E1     1.012877613433819E2    -6.639963488820574E1    -1.485789242334232E2    -8.273277078111039E1    -2.819677622789871E1    -1.431071269338847       3.113920099722268E1

 5.525350000000000E7    -4.027774503260629E-1    9.748069315361624E1    -3.009355289965376E1     7.356840536562466E1    -8.640077260040874E1     1.136930874027869E2    -8.735105348348391E1    -8.456053293645635E1
                        -3.008244059721569E1     7.389626586769136E1    -1.194885660284411      -1.301358991720672E2    -7.642547611596949E1     1.690661785635153E1    -6.843199276354291E1    -1.482297079282793E2
                        -9.016173409391976E1     1.372482369942277E2    -8.228866228656031E1     6.165866342910611E1    -1.414710866592579       2.465289664539208E1    -8.954472861164513E1     2.024983642211073E1
                        -8.847192904681396E1     1.526287343454732E2    -6.723929318832684E1    -1.476360728438008E2    -8.606680409552777E1     1.189804003590458E2    -1.433679427804568       3.114847556415927E1

 5.525375000000000E7    -4.032535694410499E-1    9.746320114426084E1    -3.014086135287165E1     7.401438209583834E1    -9.125783659521841E1    -4.726484041631756E1    -8.836763378963740E1    -2.986821450714202E1
                        -3.008884996321665E1     7.318616232007723E1    -1.204057249422716      -1.301938481769002E2    -8.548737961941902E1     6.395369561129972E1    -6.630468927813651E1    -1.508859177977381E2
                        -1.016386613305201E2    -9.579918636738675E1    -7.818753153014181E1    -2.617907479638072E1    -1.417233208581940       2.462916928919513E1    -9.219530720698499E1    -1.171403064848806E2
                        -9.424266154762185E1     1.789601459538203E2    -6.712446797771786E1    -1.467715531349178E2    -8.570578752760385E1     6.206600837606836E1    -1.434528038622752       3.115198991369147E1

 5.525400000000000E7    -4.068101634016150E-1    9.743131385245093E1    -3.005684975955726E1     7.385038008585512E1    -9.321708785296040E1    -1.775073714389302E2    -8.700843406521304E1    -1.551303907991002E2
                        -3.020793235626550E1     7.416059786693221E1    -1.200242844933384      -1.302129514148098E2    -8.187927595025782E1     1.809816907797730E1    -6.742153256877114E1    -1.444564605872920E2
                        -8.340974104278730E1    -9.282992176381745E1    -8.036726696700200E1     1.670002622099101E1    -1.411120224932895       2.464084373053647E1    -8.158806170833282E1     1.166436962579037E2
                        -8.779395588491241E1    -1.280615583859489E2    -6.795278112968512E1    -1.493339026340860E2    -8.513197478757053E1    -1.492054625654243E2    -1.430802562583283       3.116372257093491E1

 5.525425000000000E7    -4.060760975078795E-1    9.742222071181205E1    -3.002380910363332E1     7.374819539124032E1    -9.449614431747006E1    -8.623846110786684E1    -8.545987983083720E1    -1.303066928211135E2
                        -3.012951032736197E1     7.437435245498548E1    -1.204106125017474      -1.302492955650965E2    -8.042796804754980E1     1.880592008847083E-1   -6.676371560845620E1    -1.442828467795851E2
                        -8.262266838207538E1    -1.586229815062570E2    -7.813425163518014E1     6.894767268867912      -1.411534820995893       2.463006972590094E1    -8.697018400825179E1    -5.410853315699036E1
                        -8.493387683066325E1     4.435874915356417E1    -6.742986968023304E1    -1.506155727108112E2    -9.422553977060012E1    -1.887734636079073E1    -1.430528125215640       3.113367466602117E1

 5.525450000000000E7    -4.078907118452071E-1    9.744758071918426E1    -3.015410456578454E1     7.385717474268967E1    -8.954580800271351E1    -8.342821400143934E1    -9.545772408559097E1    -4.188263776303269E1
                        -3.014118044080851E1     7.417012305608031E1    -1.210835711212349      -1.302831918382185E2    -8.321543798347774E1     5.825521527527830E1    -6.798621509096404E1    -1.527641187730165E2
                        -8.442487123507550E1     9.010910856353552E-1   -7.841162532023071E1     1.988538795064458E1    -1.414632753935775       2.461221172321557E1    -9.038011541316288E1    -4.069289044037181E1
                        -8.396287412015263E1     6.017498184872244E1    -6.699603185599742E1    -1.436799932309060E2    -9.018873410689847E1    -1.323460204487031E2    -1.431848448183614       3.116367284279921E1

 5.525475000000000E7    -4.021190238137237E-1    9.741822968414567E1    -3.002983841774256E1     7.389293260956318E1    -8.923390616063210E1     5.431119718794035E-1   -8.665094011299617E1     1.331224995761440E1
                        -3.007109290096906E1     7.393613267925251E1    -1.209886965915363      -1.303546471114369E2    -8.034436112777988E1     2.723722655869847E1    -6.652631632769041E1    -1.440878659129200E2
                        -9.219345749024012E1     3.226749508792394E1    -7.877991275945335E1     9.235375354789207      -1.410066774726452       2.463261067332393E1    -8.969305146434641E1    -1.613555655495003E2
                        -8.662086443244056E1     1.215693839621629E2    -6.875665984508498E1    -1.486954747589765E2    -8.981325845171182E1    -1.049097089644599E2    -1.429521580296624       3.114776321743002E1

 5.525500000000000E7    -4.047835264414138E-1    9.744202412161755E1    -3.015052313893011E1     7.415305124560641E1    -9.562709254676945E1     2.562197509644062E1    -8.743897850214688E1     1.226054985628036E2
                        -3.009452736942166E1     7.430282890895097E1    -1.212779347248306      -1.303640703045161E2    -8.470012208358456E1     9.142610942657061      -6.811420550748227E1    -1.421585093957958E2
                        -8.795638616354458E1     1.675637985814300E2    -7.829654494740284E1    -3.032468517705656E1    -1.416356205097447       2.459104000732790E1    -8.815245598169896E1     3.838425862540915E1
                        -8.952462192925640E1    -1.329694823087529E2    -6.634815704979124E1    -1.482463404482256E2    -8.920269913243317E1    -1.504473073136167E2    -1.432801355378974       3.116206022811764E1

 5.525525000000000E7    -4.074100818088429E-1    9.742221056230213E1    -3.007578700326165E1     7.366013182105353E1    -8.978380854154841E1    -1.606081899632864E2    -8.520259008577543E1     3.323231303294234E1
                        -3.015491760338477E1     7.331871187764494E1    -1.210351742478862      -1.303851572126687E2    -8.362242505934837E1     5.221786814479363E1    -6.856844253686789E1    -1.332558012382193E2
                        -8.735831883723689E1    -1.390993994776474E1    -8.115309628451689E1    -2.044379903151391E1    -1.412331772666315       2.462874352621268E1    -8.775062624512685E1     2.948537532222277E1
                        -9.800064256861226E1    -5.709907535862622E1    -6.784017308076285E1    -1.436580213063830E2    -8.876358641280886E1     1.282587656569354E2    -1.429832835096054       3.114200844893345E1

 5.525550000000000E7    -4.067074036213791E-1    9.741403924643373E1    -3.007067616040855E1     7.423346141585350E1    -8.120300654467700E1     8.163830103829035E1    -8.651979082081343E1     2.782064221751438E1
