#  HZ   S   DB   R     50.00 
! Rohde & Schwarz Vector Network Analyzer 
! Rohde-Schwarz,ZNB8-4Port,1311601044102961,2.82
! Created: UTC 2/13/2019, 2:32:40 PM
! freq[Hz]                db:S11                  ang:S11                 db:S12                  ang:S12                 db:S13                  ang:S13                 db:S14                  ang:S14
!                         db:S21                  ang:S21                 db:S22                  ang:S22                 db:S23                  ang:S23                 db:S24                  ang:S24
!                         db:S31                  ang:S31                 db:S32                  ang:S32                 db:S33                  ang:S33                 db:S34                  ang:S34
!                         db:S41                  ang:S41                 db:S42                  ang:S42                 db:S43                  ang:S43                 db:S44                  ang:S44
! 
 5.525000000000000E7    -4.062901303204970E-1    9.755465612771171E1    -2.994541607664327E1     7.501662226738763E1    -9.268962535765196E1     9.826036048791073E1    -8.472329871365807E1    -1.446133612869585E2
                        -3.001708202897486E1     7.544755047629404E1    -1.013640041712069      -1.274875030782364E2    -7.617223604513976E1     7.626650418765608      -6.690873777473198E1    -1.515266552612679E2
                        -1.004113605967120E2    -2.530504027099915E1    -8.212278004427964E1     4.441051788675703E1    -1.411048641034050       2.468707795586038E1    -8.888337829391725E1     8.478822466168775E1
                        -9.208472276359160E1     4.182321308133328E1    -6.799893825848129E1    -1.532584618662569E2    -8.642404861390291E1    -1.183296252834923E1    -1.427007156841716       3.121040793824014E1

 5.525025000000000E7    -3.971423373970817E-1    9.753330947014263E1    -2.995798832758543E1     7.532959901566640E1    -8.792244142925927E1     8.219771587978255E1    -9.666204844864086E1     1.306799618441073E2
                        -2.991557905265990E1     7.505009060622938E1    -1.012275064698362      -1.275120483319636E2    -8.102499395789334E1    -1.992966104725352E1    -6.615010537556601E1    -1.391905030184290E2
                        -1.041944551596985E2    -2.166613899959814E1    -8.169519309564782E1     2.552166899437100E1    -1.412764464847844       2.467686655545809E1    -8.241942549000085E1     5.126782418582717E1
                        -8.850258863062372E1    -9.962842185113176E1    -6.652482521632884E1    -1.429970180490491E2    -9.140955469932102E1    -7.147613350210810      -1.434628813244961       3.117353872077021E1

 5.525050000000000E7    -3.951131341525091E-1    9.751746556688596E1    -2.990708756638923E1     7.534009636782371E1    -8.719798765398181E1    -8.653153098309259E1    -9.224628911287519E1    -1.525593450699270E1
                        -2.989640631206783E1     7.504687456825398E1    -1.010428508134365      -1.275126076419192E2    -8.090029409362465E1    -1.889526226436509      -6.723606923478391E1    -1.403377148115229E2
                        -9.289832463876448E1     1.186449219458495E2    -8.552753605422143E1     3.494426989416124E1    -1.413710682902914       2.466982011108846E1    -8.664190676299288E1    -6.968596399814548E1
                        -8.307311136621017E1     6.133327797991617E1    -6.851365460355481E1    -1.436203006808983E2    -8.204301347028130E1     6.011013678546281E1    -1.431324648415495       3.115733009747679E1

 5.525075000000000E7    -4.002345607845642E-1    9.750622038571159E1    -2.992683925493582E1     7.516821977843226E1    -7.960937877952907E1    -2.726410032618313E1    -8.744557401885659E1    -1.254922810628647E2
                        -2.992262616223747E1     7.472244137758688E1    -1.015020833178711      -1.275672326618555E2    -8.685773257680866E1     3.004061743836530E1    -6.670862432377501E1    -1.537527314123170E2
                        -8.485683219810215E1    -1.437073926636811E2    -8.341882432385873E1     6.263352560150812E1    -1.415894655846940       2.465666895794674E1    -8.622683267339276E1     1.770041332604190E2
                        -8.764062036119888E1    -1.051177801804023E2    -6.665372738126501E1    -1.367666901745267E2    -8.629173846217907E1     1.450661252979358E2    -1.430398728055377       3.119271220446303E1

 5.525100000000000E7    -4.021569018979738E-1    9.748928689706165E1    -3.002670807222797E1     7.489420834778760E1    -8.609168840500513E1    -1.200904474724924E1    -8.909217392134909E1    -2.622417900743367E1
                        -2.997544565613778E1     7.504923701424144E1    -1.005649492189551      -1.276059763164239E2    -8.081380491310993E1     1.431813950793643E1    -6.804722151678621E1    -1.405821788274878E2
                        -8.616217537497968E1    -1.066094426580048E2    -7.766862972586188E1    -2.319552814766111E1    -1.413061163078117       2.466460522166597E1    -1.048071579942301E2     1.596067728031577E2
                        -8.455666003879679E1    -2.173641177019110E1    -6.754511987768061E1    -1.469798292537088E2    -8.069986328372318E1     1.729149350307449E2    -1.438268647926186       3.116160231962801E1

 5.525125000000000E7    -4.031885088111284E-1    9.751131144569705E1    -2.997378068737016E1     7.439052308410902E1    -9.045842314251496E1    -5.491137297800071E1    -8.327251854031970E1     1.263876273149868E2
                        -2.994434879228059E1     7.545396155408631E1    -1.014853265247891      -1.276581163542098E2    -8.872138509543922E1    -1.097291013616020E1    -6.722791911169533E1    -1.516620206316595E2
                        -8.800669042671561E1     1.637551150096756E2    -8.420850641345270E1     2.375741827059526E1    -1.411260556232559       2.466403475994727E1    -8.521481971433116E1    -9.602098920531800E1
                        -9.867691707380479E1    -1.001226535086463E2    -6.686496507477766E1    -1.450283247458000E2    -8.406685649167905E1    -1.099945455742277E2    -1.433319020950794       3.117963656385767E1

 5.525150000000000E7    -3.987432741512434E-1    9.752994908636399E1    -3.004209280529676E1     7.506831596384068E1    -7.998698636315862E1     2.872103834236694E1    -8.980693563736224E1     1.522877883554083E2
                        -3.003472399252271E1     7.437689179685596E1    -1.013998261004541      -1.276762280773935E2    -8.203412273631170E1    -5.606113117987428      -6.642206252268123E1    -1.418383255659950E2
                        -9.117967568662634E1    -9.823919364690016E1    -8.931044569264526E1     9.673471324182357      -1.415328298219588       2.464785116002676E1    -8.905156474301121E1    -9.445486392406579E1
                        -1.080540931902060E2    -3.747793920356727E1    -6.730229524347573E1    -1.421169193070011E2    -9.304766203877949E1    -1.782707151853437E2    -1.430458234650972       3.115960708238989E1

 5.525175000000000E7    -3.998142597728328E-1    9.752372626672627E1    -2.996628973258513E1     7.473155058199193E1    -7.987266510966012E1     8.921239973360099E1    -8.462119905135907E1     9.132608519958595E1
                        -2.993349356518033E1     7.507672824913209E1    -1.014173783505221      -1.276875208640885E2    -7.693555231311579E1     3.120431844160214E1    -6.806765834746929E1    -1.444422078083507E2
                        -9.349316336903490E1     2.372200773312911      -8.244542839406037E1     1.825064129351990E1    -1.411745431525020       2.465446484994735E1    -8.842829351478194E1     1.234908017306526E2
                        -8.315807706241529E1    -2.566355448135925      -6.833250075557021E1    -1.403046806092225E2    -8.560936636124303E1    -5.563015869101191      -1.432254807879780       3.116679374751066E1

 5.525200000000000E7    -3.966007934806728E-1    9.751791468455092E1    -2.995474204035280E1     7.456710178900072E1    -9.234309345989817E1     1.746087634988060E2    -9.068708937197744E1     1.751145839810844E2
                        -2.985649684454494E1     7.473121266838074E1    -1.018614440973147      -1.277291978671833E2    -8.503162649985998E1    -9.392245517887604E1    -6.804190615161292E1    -1.484808126406659E2
                        -1.043213107738756E2    -6.289352878650887E1    -8.040835158750853E1    -3.550067826333460E1    -1.412774765061350       2.465131254650362E1    -9.067092613599372E1    -5.041494689022691E1
                        -8.803244126635141E1     6.795096706436665E1    -6.663670084841171E1    -1.440726487432420E2    -8.725235118464553E1    -1.179226577175105E2    -1.430297758096282       3.113149030348252E1

 5.525225000000000E7    -3.966969624867965E-1    9.749719286239957E1    -2.996129024614269E1     7.500803706943559E1    -8.607894459813443E1    -8.048591181443034E1    -8.722262284138139E1    -5.563064927379298E1
                        -2.994414511369678E1     7.500889036088533E1    -1.019573329835739      -1.277956485151964E2    -7.912917801695033E1     3.212717541387465E1    -6.696761074087077E1    -1.492770456520424E2
                        -9.001822451845550E1    -3.621770108481024E1    -7.740048121875314E1     5.720202106968630E1    -1.407299377487915       2.465807352133501E1    -9.234911290451993E1    -4.586945494066509E1
                        -7.978370836478644E1    -1.041253654446708E1    -6.845016028703972E1    -1.502722352438771E2    -8.042883733390043E1     3.964056029582368E1    -1.430739409875696       3.112056675794844E1

 5.525250000000000E7    -3.982345579517865E-1    9.747804988159767E1    -2.993303065494485E1     7.523060953889554E1    -8.725207112950487E1    -1.288078029947998E2    -9.820080202439851E1     7.139902205500094E1
                        -2.993109588588203E1     7.509156053287254E1    -1.014706297079326      -1.277765700930139E2    -7.943194519527529E1     4.640122482771703E1    -6.750087802285273E1    -1.437709648879293E2
                        -8.603474362220545E1    -1.795125081643817E2    -7.890864052121330E1    -5.246304363963092E1    -1.413853073522491       2.464233283370298E1    -9.591402364296080E1     6.577964728717392E1
                        -8.860251381844364E1     4.215644848315185E1    -6.744347199253569E1    -1.448595439082348E2    -8.286579454790910E1    -1.575179958132208E2    -1.430608486399112       3.113675761443617E1

 5.525275000000000E7    -4.018444323629762E-1    9.751155976766327E1    -2.995981531558550E1     7.487440682916224E1    -8.143111479000694E1    -3.035546994275300E1    -8.667343801642741E1     6.113774266907790E1
                        -2.998762453455709E1     7.459588678976286E1    -1.020022605301121      -1.278224840122381E2    -8.183398589512419E1     4.480325178530807      -6.729580991079843E1    -1.502631259934016E2
                        -9.346770575148545E1    -1.202830187303682E2    -8.850927755773022E1     2.160700138763240E1    -1.412657598506123       2.464703691252227E1    -8.538797331343405E1    -1.358428755299357E2
                        -9.666322715347009E1     1.003919089308901E2    -6.743075769308986E1    -1.444997944709720E2    -9.046548060435762E1    -1.621175037998193E2    -1.432175773974199       3.111412368372369E1

 5.525300000000000E7    -4.025018757895280E-1    9.749295097473821E1    -2.995866313591579E1     7.472401888123140E1    -8.107668471554439E1    -1.688894524639634E2    -8.380956550554356E1    -1.504117963789298E2
                        -2.996349977018671E1     7.477211644822202E1    -1.025050182645417      -1.278849542002336E2    -8.506614835408145E1    -2.010292743484869      -6.860964968846825E1    -1.417574465429014E2
                        -8.555679231470285E1    -1.725516170688657E2    -7.648651378684488E1     1.916419710407578E1    -1.413149683505599       2.463414964656902E1    -8.650859855875829E1     1.068517176498596E2
                        -8.968757357655527E1     3.917834366821306E1    -6.580106817246185E1    -1.491389637633384E2    -8.833103217456481E1     1.197128053899549E2    -1.428672024710150       3.115412381766018E1

 5.525325000000000E7    -3.969046326790010E-1    9.747588751272409E1    -2.997659189010365E1     7.475436662276687E1    -8.944055842923889E1     1.644536762026029E2    -8.501788903672043E1    -1.125359172408687E2
                        -2.991080644276936E1     7.462414445406357E1    -1.025297316588061      -1.278880762700065E2    -8.134918442614386E1     1.539539256108415E1    -6.693002755197009E1    -1.440170448139363E2
                        -9.453394203751954E1     9.710108858120417E1    -8.099524215272544E1    -3.649348353957522E1    -1.411225181909211       2.461211806131300E1    -7.755165429896391E1     1.089078832551439E2
                        -8.500187191141025E1     8.195692545400407E1    -6.725173919774920E1    -1.380385642266161E2    -8.036968746453135E1    -1.911616590711972E1    -1.429333421776311       3.114066463328333E1

 5.525350000000000E7    -3.993967377646518E-1    9.742649506411308E1    -2.998564329314175E1     7.454447365485864E1    -8.840442715562340E1    -1.118737580222164E2    -8.272976769072932E1    -3.391657406038960E1
                        -3.006181086921522E1     7.408697828731955E1    -1.023874170731202      -1.279509070833458E2    -7.768287382362048E1    -1.098445556483971E1    -6.719640673510128E1    -1.368050670480609E2
                        -9.231292958346327E1     1.159600473122044E2    -7.706869746459162E1    -3.364661140780682E1    -1.408190995650996       2.461103963382900E1    -9.682794807621616E1    -3.140644606322332E1
                        -8.620950101573556E1     1.397064587170174E2    -6.686837870260072E1    -1.451786221027592E2    -8.728314977308207E1    -1.578246424396042E2    -1.436388227785205       3.116889432701494E1

 5.525375000000000E7    -3.977181267314853E-1    9.744564176159078E1    -2.997369541893083E1     7.495186846854722E1    -8.429498775815637E1    -1.607520864310325E2    -8.753853964980138E1     2.422146773109959E1
                        -2.992384679880538E1     7.445035028878057E1    -1.028039487851902      -1.279675739768950E2    -7.756871359466716E1    -7.148895719976035      -6.724412062453470E1    -1.447988349375241E2
                        -8.686877002715347E1    -1.041744894548726E1    -7.845986000248132E1     7.463386021024830E-1   -1.414912577791289       2.460203353503427E1    -9.945883953857168E1     2.354783083713013
                        -8.556782521814449E1     7.989785064088756E1    -6.834508452431001E1    -1.492415885982935E2    -8.359130515266985E1    -1.123175593698209E2    -1.431574347336173       3.115443270030957E1

 5.525400000000000E7    -3.999865945693135E-1    9.747713875288943E1    -2.997396317374499E1     7.430978254668658E1    -8.185302345632599E1    -1.775070091059866E2    -8.677854794215170E1    -1.188244522014223E1
                        -3.000142636691782E1     7.477531736305355E1    -1.024290517615298      -1.280256056010293E2    -8.439123638021559E1    -7.642558679139626      -6.804693684357285E1    -1.503938041304944E2
                        -8.624681496250672E1     5.093484597100241E1    -9.124156241894505E1     1.112319459865605      -1.414967915686779       2.464606504524528E1    -8.989623490816041E1    -4.005266249670900E1
                        -8.404722510494905E1     1.390768188165646E1    -6.671473500533067E1    -1.515203794073797E2    -8.851699933398987E1     1.173995434795773E2    -1.426819658851667       3.113536593937985E1

 5.525425000000000E7    -3.989839399255670E-1    9.745564726574087E1    -2.999058090698431E1     7.473345882678130E1    -7.926443585689576E1    -1.626698441457096E2    -8.629245599514589E1    -1.663313920242129E2
                        -2.993260328013310E1     7.513650915752353E1    -1.028562559891005      -1.280282283126794E2    -7.945733038319942E1    -2.623664646758198E1    -6.709106104163186E1    -1.482563809982109E2
                        -8.565235964150254E1     5.998710276178144      -7.662135200836738E1     2.742340234815506E1    -1.410486944303727       2.462206282861189E1    -9.540285209139371E1     1.343395576300440E2
                        -9.029672131363722E1     2.395454847322779E1    -6.753801925015280E1    -1.437981064976555E2    -9.105606307803933E1     1.662680635585763E1    -1.428472700971837       3.113276026941604E1

 5.525450000000000E7    -3.966739606534173E-1    9.743296854088672E1    -3.002151363003802E1     7.467092010725204E1    -8.011077329264415E1    -1.428639143994681E2    -8.213287758471742E1     7.768257389062488E1
                        -2.997054187663675E1     7.429843404541832E1    -1.027424344599333      -1.280538532975935E2    -7.911330601149635E1     1.373333387185982E1    -6.788268560730725E1    -1.455907190494048E2
                        -8.969952550321855E1     1.168257561023912E2    -9.045888414062446E1     2.875486653507080E1    -1.415300317121366       2.464121540289259E1    -8.929439206470420E1    -7.251800079522548E1
                        -8.595185169641178E1    -1.379812660818838E2    -6.774037320917449E1    -1.328218427517869E2    -9.259925590857164E1     1.084499899091783E2    -1.437375500177878       3.112709302911041E1

 5.525475000000000E7    -3.986326795393465E-1    9.747265467991167E1    -2.995533883071686E1     7.475637040171202E1    -8.427101391611002E1     1.502940106448775E2    -8.789189416296961E1     1.263087679949760E2
                        -2.999241775230858E1     7.507180780720930E1    -1.025211125057095      -1.281221954398285E2    -7.523629011685844E1    -3.377849374948566E1    -6.764922818876302E1    -1.513458298562810E2
                        -8.377177396960184E1     1.759146232615079E2    -8.531117845235086E1     1.362941238260772E1    -1.411579098318691       2.460669598097228E1    -9.909182965092484E1     1.624716717831837
                        -8.699491431299997E1     6.140539705082959E1    -6.709814526525477E1    -1.473677939747180E2    -8.328933741258588E1    -2.197247654472672      -1.435815875729409       3.109565869432058E1

 5.525500000000000E7    -3.970195701778029E-1    9.741415366103462E1    -2.990807824841752E1     7.487036204306513E1    -8.857192638135700E1     1.508362831449142E2    -8.390093093998664E1     8.766352875140759
                        -2.992594816613970E1     7.399847564071456E1    -1.029483604772020      -1.281514130752767E2    -7.970119670933713E1     1.347044961651504E1    -6.634679442739778E1    -1.437100750361798E2
                        -8.416038329726655E1     2.497885580748147E1    -8.220930481051542E1    -1.458862056071784E1    -1.410990566557097       2.459882784354041E1    -9.141462453590071E1    -4.330356630896413E1
                        -9.489498001969773E1     9.338098089788703E1    -6.666482162633901E1    -1.458976531836443E2    -8.896213919800510E1    -1.166143529791239E2    -1.429412648970273       3.112734545115492E1

 5.525525000000000E7    -3.956440384946132E-1    9.741328751137917E1    -2.989843737877245E1     7.420846655783062E1    -9.988059363572846E1    -7.859973584406747E1    -8.492711140073234E1     7.185621530818308E1
                        -3.001030564659479E1     7.510535935570728E1    -1.030752295884598      -1.281694005939804E2    -8.491156149946050E1     1.007793596589427E1    -6.733607684603850E1    -1.510624127925462E2
                        -9.019628067472624E1     1.428883611922168E2    -8.849084716879504E1    -7.788360161938684      -1.413751804240660       2.461028056611421E1    -8.726070627583351E1     6.185040512851733
                        -8.765575761469079E1     7.308914981329258E1    -6.815883140476369E1    -1.461677543919512E2    -9.004170544905702E1     1.049998104459209E2    -1.430252204679092       3.110078233631863E1

 5.525550000000000E7    -4.043205516074228E-1    9.742870862590945E1    -2.996162677033355E1     7.477619100440268E1    -8.603002818522387E1     1.414581184321988E2    -9.138231857353971E1    -1.347877241506790E2
