#  HZ   S   DB   R     50.00 
! Rohde & Schwarz Vector Network Analyzer 
! Rohde-Schwarz,ZNB8-4Port,1311601044102961,2.82
! Created: UTC 2/12/2019, 2:29:56 PM
! freq[Hz]                db:S11                  ang:S11                 db:S12                  ang:S12                 db:S13                  ang:S13                 db:S14                  ang:S14
!                         db:S21                  ang:S21                 db:S22                  ang:S22                 db:S23                  ang:S23                 db:S24                  ang:S24
!                         db:S31                  ang:S31                 db:S32                  ang:S32                 db:S33                  ang:S33                 db:S34                  ang:S34
!                         db:S41                  ang:S41                 db:S42                  ang:S42                 db:S43                  ang:S43                 db:S44                  ang:S44
! 
 5.675000000000000E7    -3.962994734122321E-1    7.728554051210469E1    -2.911909414198348E1     6.197377237330861E1    -8.361007919534825E1     3.364430731850142E1    -8.888391050928408E1     4.803245144435689E1
                        -2.900703713443512E1     6.214008810754389E1    -4.471712280313251E-1   -1.329079822336040E2    -6.725192230572012E1    -1.564877973864200E2    -8.464759580375755E1     1.298264209484949E2
                        -8.866718017409684E1     1.497910992873521E2    -6.919906938862417E1    -1.468982941020680E2    -1.395884937251982       1.328175452816343E1    -8.821113895218812E1    -2.903666175205962E-1
                        -9.019925003210524E1    -1.232402626953900E1    -8.468832574515859E1    -1.029134069377590E2    -9.264297535097229E1    -1.263857111866694E2    -1.404885706462598       1.986106377716367E1

 5.675025000000000E7    -3.957501878876116E-1    7.726834663153805E1    -2.897486839894168E1     6.226964661427762E1    -8.200951468640571E1     1.025542246650147E2    -8.149993694897019E1    -7.623621160820775E1
                        -2.899849707814955E1     6.232422517048590E1    -4.511415886295641E-1   -1.329023307911913E2    -6.911993307748348E1    -1.536632705559049E2    -8.239796375556392E1    -1.003007589201416E2
                        -9.442520309316504E1     1.036572920552478E2    -6.912783691838300E1    -1.446874305604019E2    -1.394819199779627       1.329441341566461E1    -8.999281369951078E1    -8.364316758441553E-1
                        -8.922308176459643E1     4.521870333020568E1    -8.217915603477277E1    -1.256882921582205E2    -8.171022324621291E1    -8.307885405127622E1    -1.402956825205701       1.982417690067023E1

 5.675050000000000E7    -3.980347762581666E-1    7.727000157489584E1    -2.893767834845892E1     6.159521805950973E1    -8.502422684348312E1    -6.661658706747064      -8.613034057559828E1     1.129342279289007E2
                        -2.904214597138210E1     6.264418095179033E1    -4.514250781235676E-1   -1.329079023974125E2    -7.053273414858279E1    -1.412519088966791E2    -8.519192181871989E1    -1.164964386041736E2
                        -8.149135019012653E1     1.310156894006281E2    -6.931229025219933E1    -1.531553499009139E2    -1.398995253618404       1.330711196427297E1    -8.502253554409728E1    -1.504721581479635E2
                        -8.816475685363878E1    -7.835141057565575E1    -8.123958306226737E1    -1.589035768794404E2    -8.164010165925328E1    -1.056645782690919E2    -1.399271478702623       1.983500647209771E1

 5.675075000000000E7    -3.963795898885816E-1    7.729918237018860E1    -2.898038591458457E1     6.207193734935637E1    -8.676804616400088E1     3.106630084609397E1    -8.360211257970678E1    -1.135365778067985E2
                        -2.903300999071813E1     6.223565660695467E1    -4.531112497897332E-1   -1.329288089956505E2    -6.855491268639258E1    -1.548391153948419E2    -9.472553024117211E1     1.700067601565511E2
                        -8.510071492132845E1     1.701958854308838E2    -6.778415693670854E1    -1.551475750297342E2    -1.395758879514621       1.329601202906545E1    -8.625146005095354E1    -1.719309334224170E2
                        -8.553966509105069E1     1.588203681144788E2    -9.244475381861561E1     1.772663370039940E2    -8.608465528952777E1     1.731046967608756E2    -1.406269129139234       1.985141164533216E1

 5.675100000000000E7    -3.961334572223361E-1    7.725848887875243E1    -2.899391115802024E1     6.235602970950892E1    -9.097009413269481E1    -1.745160864470188E2    -8.237117395165761E1    -4.898398717013962
                        -2.900701127044846E1     6.177798870025668E1    -4.523366411836069E-1   -1.329655976175412E2    -6.822411845628704E1    -1.624548393836037E2    -8.240266180660841E1    -1.253276074580392E2
                        -8.269200481422902E1    -9.308675824035878E1    -6.672312460235308E1    -1.638012882308441E2    -1.397619968657778       1.325613491822193E1    -7.889715875165111E1     1.469789056534686E2
                        -8.451167056774879E1    -8.732688309196172E1    -8.483261124788407E1    -1.792538166862753E2    -8.493560077740742E1    -1.160450963110020E2    -1.403245536031425       1.986028893786194E1

 5.675125000000000E7    -3.936506103976659E-1    7.728876210004734E1    -2.898477477017529E1     6.196360526946162E1    -8.930742348206677E1    -5.612142029163849E1    -8.175078278864066E1     4.390454717401967E1
                        -2.904814450180334E1     6.227707815174672E1    -4.429130987942612E-1   -1.329966306940842E2    -6.831812341681791E1    -1.596313523434304E2    -8.346485587822866E1    -1.195321901253800E2
                        -9.320337758072552E1    -6.504993100503968E1    -6.829008373045164E1    -1.424762092959897E2    -1.399436412285814       1.328378924828846E1    -8.756538751245921E1    -8.678944869328961E1
                        -8.417356246591658E1     1.602668227279144E2    -8.819468265706189E1    -7.899220707798037E1    -8.932375994419309E1    -6.883852607336287E1    -1.405885600496198       1.983111786465538E1

 5.675150000000000E7    -3.920355728423237E-1    7.728062213016402E1    -2.901749715462465E1     6.197351127233704E1    -8.407802042971230E1     8.747834162132995E1    -8.148962419764001E1    -5.981192285874010E1
                        -2.909507630647642E1     6.224192090564276E1    -4.501112767440955E-1   -1.330008523197223E2    -6.736084858842428E1    -1.568456821051383E2    -7.949686306807053E1    -1.164852562236881E2
                        -9.084878131666061E1     5.020750418347058E1    -6.788736038535048E1    -1.496421434682108E2    -1.396991271666129       1.325996917615185E1    -8.992198171895632E1     5.740963785810854
                        -9.237753112532013E1    -1.219463013261423E2    -9.429938111302394E1     8.384232990036123      -8.372939640794812E1     1.415938963043417E2    -1.403779440726689       1.982875800334716E1

 5.675175000000000E7    -3.975434174074463E-1    7.722607683669268E1    -2.903936102548249E1     6.217962940300824E1    -9.205366012684848E1    -6.686285301508009E1    -8.848444133670968E1    -2.209929518047617E1
                        -2.908846026545357E1     6.295168972942116E1    -4.521156636711832E-1   -1.330396786553885E2    -6.856887987055656E1    -1.514088982498481E2    -8.530224146165251E1    -8.250571785334505E1
                        -8.840204510345674E1     1.521429270992429E2    -6.888049587731450E1    -1.508946492697294E2    -1.397665144070288       1.326744218241621E1    -8.295940761049911E1     1.455269904580150E2
                        -8.277629745161713E1     3.783537939426763E1    -8.136775242256327E1    -9.401370366841587E1    -8.335301555693845E1     5.752725656965708E1    -1.405294171193107       1.982037042192225E1

 5.675200000000000E7    -3.946208893037982E-1    7.726180585948798E1    -2.904204470997907E1     6.247230726801843E1    -8.511398088524911E1    -1.481950750285753E2    -8.100838496637786E1    -1.403143271488381E2
                        -2.909231622710299E1     6.213447035228762E1    -4.531649558327563E-1   -1.330644336428067E2    -6.900335923443062E1    -1.385690317865914E2    -7.880741343125621E1    -1.723042681343536E2
                        -8.519125460498640E1     1.036675257041911E2    -6.681088550476348E1    -1.413283585335238E2    -1.398417996497732       1.326425045012901E1    -8.555535959196286E1    -8.857694623631380E1
                        -9.315210622537707E1     1.562155178169975E2    -8.177606968204515E1    -1.619227977876179E2    -8.636634685196509E1    -1.207518681121319E2    -1.404887008192429       1.978906716990376E1

 5.675225000000000E7    -3.923914111573950E-1    7.728512852803064E1    -2.902705132321629E1     6.219565230706534E1    -8.311149182639156E1     9.117174924306141E1    -8.475478366512985E1    -7.853198972706274E1
                        -2.896500790479190E1     6.219259786130464E1    -4.510794554173308E-1   -1.330719070132238E2    -6.801451587293478E1    -1.424642237218916E2    -8.660637483267159E1    -1.600953826355985E2
                        -8.950330397784477E1     1.587342897670202E2    -6.842444482045755E1    -1.538211222894070E2    -1.393620863943972       1.324464999105019E1    -8.462948960268881E1     4.739556901113395E1
                        -8.740093240898879E1     3.558797100149997E1    -9.215075684509898E1    -1.605150372870867E2    -8.522242832655229E1     5.618658101775429      -1.404176071436560       1.983262253836075E1

 5.675250000000000E7    -3.950879012503956E-1    7.727205071623484E1    -2.899391547929911E1     6.253632250362276E1    -8.188887770207509E1     1.382416390908245E2    -8.699608790842525E1     6.219200108550096E1
                        -2.896086098177867E1     6.205571590422216E1    -4.505335569996730E-1   -1.330863544115509E2    -6.831534837870069E1    -1.493484214255861E2    -8.120631377817571E1    -1.351406801899869E2
                        -9.329836278003221E1     1.421142420820917E2    -6.905603974917733E1    -1.442834390431736E2    -1.396111627125594       1.327010945842193E1    -9.404863702032985E1     1.702816835868528E2
                        -8.502867703977489E1     3.781270108165624E1    -8.190099503088098E1    -1.360062212912658E2    -9.316458510021602E1    -1.111038520450184      -1.404927764412376       1.981177823328240E1

 5.675275000000000E7    -3.932939521292705E-1    7.725397798065399E1    -2.901475458773958E1     6.214051035234710E1    -7.962744631063491E1    -1.627440982591170E2    -8.348202058183981E1    -9.097937292215970E1
                        -2.904391639744656E1     6.200018110770564E1    -4.501884611371613E-1   -1.331398291981360E2    -6.681986173618611E1    -1.570948295930916E2    -8.681372297179883E1    -1.704972473752388E2
                        -8.254234266264481E1     1.002093543639282E2    -6.834244071196895E1    -1.574677185217356E2    -1.392385182470460       1.325057934055593E1    -9.148384424672034E1     1.616424003809550E2
                        -8.224295621278199E1    -1.520716716018780E2    -8.643589008884734E1     1.219459190258075E2    -8.951264905308756E1    -1.370157866976559E2    -1.402048445081008       1.982414224593017E1

 5.675300000000000E7    -3.909992288107421E-1    7.723328985563443E1    -2.908613292127505E1     6.210050729538261E1    -9.628923776888493E1    -1.756248587098709E2    -9.553966257377454E1    -1.519305029499274E2
                        -2.904976713873833E1     6.271826925699897E1    -4.472290657502120E-1   -1.331499076053318E2    -6.770635909146586E1    -1.590174182841891E2    -7.950321453593270E1    -1.106729748986568E2
                        -8.258369430563261E1    -3.163174187616623E1    -6.899278643460737E1    -1.464168141213930E2    -1.396530065434654       1.324471684013582E1    -8.346619856741491E1    -9.579004496409331E1
                        -8.255133267561274E1    -1.261043645480029E2    -1.021298951910777E2    -1.328624009530309E2    -9.145582342430228E1    -1.172955293699368E2    -1.404815656560125       1.981156266747314E1

 5.675325000000000E7    -3.971532906281742E-1    7.726179143805400E1    -2.902279154640015E1     6.223649699259543E1    -9.065386316665139E1     7.550889841440008E1    -8.037919185924245E1     3.772322634802559E1
                        -2.895794984986072E1     6.245138447563821E1    -4.517168662132689E-1   -1.331553941966732E2    -6.854822350262128E1    -1.522325070162349E2    -8.907562759605131E1    -1.361290198516777E2
                        -7.924353126310939E1     7.429862995171594E1    -6.745681549620993E1    -1.484602381350976E2    -1.397740106815257       1.325131101421703E1    -9.131773000637122E1     1.187199134807924E2
                        -8.379181287005031E1    -5.571629709465378E1    -7.894104096085839E1    -9.780033262696385E1    -8.718627123766231E1    -1.255482610110047E2    -1.404961175220409       1.979832056137323E1

 5.675350000000000E7    -3.911490268685814E-1    7.721462257510936E1    -2.898038386976799E1     6.210660100333239E1    -9.544200182836053E1    -1.654815673651112E2    -8.846238339822153E1    -1.593997718299169E2
                        -2.896031222825038E1     6.169338839577004E1    -4.511475243060569E-1   -1.331863607438714E2    -6.686631463196143E1    -1.576826906042537E2    -8.185593731216821E1    -7.501725862678765E1
                        -9.105087845526742E1    -4.055600461239200E1    -6.959410290850644E1    -1.500626269092601E2    -1.393402670822170       1.325914313164619E1    -9.233377019099906E1    -1.461229915122241E2
                        -8.105676663983428E1    -7.048157111144704E1    -8.860242418329830E1    -6.538532900716443E1    -8.981090524207741E1    -1.461868717779135E2    -1.404644864867336       1.983785708875573E1

 5.675375000000000E7    -3.896616325274054E-1    7.722810386248094E1    -2.899367897086705E1     6.179805863281550E1    -9.053276335353202E1     6.830804482137698E1    -8.551263418958170E1     1.718203465090196E2
                        -2.910526501096243E1     6.199508329016815E1    -4.529428331362217E-1   -1.332420977871281E2    -6.994299139977724E1    -1.492102870900387E2    -8.155090022539382E1    -1.025257234349391E2
                        -8.060943029509141E1    -4.944020476878287E1    -6.670673638077359E1    -1.514756373939690E2    -1.395471430644037       1.325398781906202E1    -9.429030779867296E1     3.033891488918042E1
                        -8.369301801647312E1     1.534140768648929E2    -8.540816329444924E1    -1.541908728335595E2    -9.030008979777499E1     1.577126597507290E2    -1.405643862181065       1.981338837423695E1

 5.675400000000000E7    -3.921798383191926E-1    7.723989728085145E1    -2.905464217519688E1     6.171310042696270E1    -8.599308564137309E1     5.746491843705274E1    -9.381913944275419E1    -3.557529537601766E1
                        -2.900714166064576E1     6.206163606074849E1    -4.516512617227046E-1   -1.332428996336988E2    -6.667464873547692E1    -1.622373961957289E2    -8.568975213391418E1     1.389840374026159E2
                        -8.231527249366309E1     1.574288144346398E2    -6.927183895512125E1    -1.560668305297096E2    -1.395613079425675       1.325031860978759E1    -1.006314034724098E2    -1.472293994920158E2
                        -8.469163394794803E1     1.238140784114268E2    -9.009967358066623E1     1.761875561071643E2    -9.447022494286199E1     9.073767195170339      -1.401385509176413       1.980906108608026E1

 5.675425000000000E7    -3.916945570768402E-1    7.725734657202750E1    -2.901960012447827E1     6.153792578846085E1    -8.062430828923299E1     6.194781864336537E1    -7.939099092029028E1     1.478834471424906E1
                        -2.908245559263406E1     6.148399631248802E1    -4.492955961510869E-1   -1.332600823032822E2    -6.981809744228988E1    -1.530528750217782E2    -8.524183296852448E1    -7.909611574489098E1
                        -8.905284854969450E1     3.575623279997124E1    -6.856207172752255E1    -1.582561137493912E2    -1.396845070517106       1.323016338924911E1    -8.688294897165446E1    -1.311360388614552E2
                        -1.087553055225053E2    -1.395491757490015E2    -9.170409191488753E1    -8.317354258115960E1    -8.567174066780127E1    -1.760199398911806E2    -1.403935533240837       1.978917885881090E1

 5.675450000000000E7    -3.907259474602156E-1    7.723837155256970E1    -2.899711391529050E1     6.174858250109285E1    -8.980791687398806E1     8.925044153804680E1    -8.316850026532467E1    -1.507503346018415E2
                        -2.905928972482355E1     6.190766000368600E1    -4.510549218649070E-1   -1.332917508309475E2    -6.808885679945887E1    -1.599296575331542E2    -7.838554662318721E1    -1.166150037912745E2
                        -9.497288307788293E1     5.166746425239187E1    -6.781120241261132E1    -1.502264636560769E2    -1.396343483255098       1.322664717148283E1    -8.674027941288779E1     1.971733366072477E1
                        -8.543201028578876E1    -8.171261143977446E-1   -8.210038745448881E1    -1.455429218820350E2    -9.125119811777003E1     1.707891970369482E2    -1.402143693447739       1.978360078241303E1

 5.675475000000000E7    -3.932002696963627E-1    7.724404416723242E1    -2.902238734320179E1     6.224573382921775E1    -8.826025613373173E1     1.070323130915053E2    -8.593866876407111E1    -1.298657865470118E2
                        -2.903113084619848E1     6.263865086418014E1    -4.522482889909928E-1   -1.332697067044173E2    -6.872237839059415E1    -1.500920663763190E2    -8.344371240696245E1    -1.355230623988458E2
                        -1.005680701435512E2     1.079432909143708E2    -6.948121970300879E1    -1.505535326726455E2    -1.398299521893457       1.324282673213880E1    -8.684459784821917E1     2.336014178801747E1
                        -8.483893969410973E1    -4.600398371069596      -9.403586410620170E1    -1.172014977915216E2    -8.505007086918135E1    -3.666920334814847E1    -1.397983534918937       1.979769885501736E1

 5.675500000000000E7    -3.967383968951393E-1    7.720600294646945E1    -2.901715950775465E1     6.237290076711323E1    -8.302762225924707E1    -4.884141504800103E1    -8.638722737015110E1    -7.178502939732769E1
                        -2.908825743802563E1     6.226735118533678E1    -4.477295823030181E-1   -1.333350436905254E2    -6.843279370967386E1    -1.472923610739040E2    -8.484443416733510E1    -2.754927631859332E1
                        -8.686149428356997E1    -1.650145708803674E2    -6.851577745717177E1    -1.517419657121933E2    -1.396683866687602       1.325585164510271E1    -8.097590132447684E1     9.678872819748496E1
                        -9.001901201887891E1    -3.234580306612095      -8.646051805410779E1    -1.045138230954114E2    -8.555488224353780E1     1.669991150899031E2    -1.404240760481359       1.981816732508559E1

 5.675525000000000E7    -3.888954595391924E-1    7.720832690928125E1    -2.900661628204828E1     6.189031360386746E1    -8.252058774545112E1     1.288583438115394E2    -8.694323514189799E1     2.559469719502715E1
                        -2.906524800108481E1     6.184301213202106E1    -4.522058872251716E-1   -1.333585549222953E2    -6.814831206362618E1    -1.475570091876086E2    -8.364512610456242E1    -3.826886134459483E1
                        -8.290460212344605E1    -3.144367585129468E1    -6.803668975540595E1    -1.443695159277150E2    -1.393893776606748       1.321656274843786E1    -8.286225438623438E1    -1.093225306694478E2
                        -8.144919895177202E1    -7.646836243766292E1    -8.156711736543828E1    -7.823692215855515E1    -8.947864217422621E1    -1.447406605958848E2    -1.401925175542622       1.979933215031495E1

 5.675550000000000E7    -3.892773620427298E-1    7.719518610987170E1    -2.906656467173903E1     6.229225745832039E1    -9.169672161673358E1     6.598238582351345E1    -1.083091230231328E2     1.755987902757689E2
