#  HZ   S   DB   R     50.00 
! Rohde & Schwarz Vector Network Analyzer 
! Rohde-Schwarz,ZNB8-4Port,1311601044102961,2.82
! Created: UTC 2/12/2019, 2:07:20 PM
! freq[Hz]                db:S11                  ang:S11                 db:S12                  ang:S12                 db:S13                  ang:S13                 db:S14                  ang:S14
!                         db:S21                  ang:S21                 db:S22                  ang:S22                 db:S23                  ang:S23                 db:S24                  ang:S24
!                         db:S31                  ang:S31                 db:S32                  ang:S32                 db:S33                  ang:S33                 db:S34                  ang:S34
!                         db:S41                  ang:S41                 db:S42                  ang:S42                 db:S43                  ang:S43                 db:S44                  ang:S44
! 
 5.275000000000000E7    -4.850612753380026E-1    1.530870539579628E2    -2.927355304995022E1     1.320474712347243E2    -9.551091157390536E1     1.077483489102004E2    -8.103772099448585E1     3.912717869908118E1
                        -2.936466481985779E1     1.321805045188498E2    -3.264463173640070E-1   -6.844358848372929E1    -6.959060152250439E1    -9.603828181373871E1    -8.924445537258072E1     1.348937892758224E2
                        -9.350721275474824E1    -9.443506394988400E1    -7.146754375294391E1    -9.557823211262348E1    -1.413114047386656       6.221772641618522E1    -8.621835097200089E1    -6.194559093953544E1
                        -9.213857049252951E1    -4.651564466346607E1    -8.471619215155413E1    -8.525082591845820E1    -8.260871243708378E1     1.069005127627681E2    -1.435044467002106       6.882325564690780E1

 5.275025000000000E7    -4.874614782220451E-1    1.531082389921839E2    -2.933375731591029E1     1.313106592030658E2    -7.906435741298745E1     9.510346579245140E1    -8.415143584036755E1     3.858686754597271
                        -2.931372917681152E1     1.321809366054885E2    -3.338124674416217E-1   -6.846466498143168E1    -6.867353842089696E1    -1.011241111798016E2    -8.483825264819805E1    -1.316716298024574E2
                        -9.320077410712781E1    -3.568962214110580      -7.045824465984477E1    -9.441495656738607E1    -1.408643307080800       6.225703129049077E1    -8.970038312392319E1    -1.473825438862360E1
                        -8.646880738824578E1    -4.963286766952771      -8.735106315507855E1     5.576812608098891E1    -8.804876644527455E1     9.243844181087846E1    -1.432514209021707       6.882127164630160E1

 5.275050000000000E7    -4.890679849160717E-1    1.530844395602422E2    -2.929713538934697E1     1.314859407595422E2    -8.902088899432181E1    -5.990232748271689E1    -8.826461238858074E1    -9.801236547506420E1
                        -2.932599418732846E1     1.319797578676723E2    -3.319216125364335E-1   -6.849319190891386E1    -7.149269688899875E1    -9.652314099469055E1    -8.715949073959884E1     9.059400194964938E1
                        -8.696732579852937E1     1.771479004719861E2    -6.910998882160311E1    -8.852076697082801E1    -1.410485748543222       6.223457884366739E1    -8.517988053368656E1    -1.553293622802279E1
                        -8.234301881482662E1    -1.199044025867276E2    -8.925783402245756E1    -1.373637803160835E2    -9.099378126329387E1    -1.229808441155081E2    -1.427530346214706       6.882197002539515E1

 5.275075000000000E7    -4.864421685550382E-1    1.530849474478371E2    -2.921059409025629E1     1.322076492749645E2    -8.493389732357230E1     1.034197834706796E2    -8.757369746345832E1    -6.129117174644838
                        -2.940156187068844E1     1.319484227812455E2    -3.346446190616347E-1   -6.857909865689663E1    -7.166281556291835E1    -1.137797928779865E2    -8.506803662362057E1    -1.537252453682128E2
                        -9.103627991207999E1     7.470078348197173E1    -7.076733158514303E1    -1.106333332271415E2    -1.410416488532844       6.223277602920410E1    -8.932329367643490E1    -4.920091974956091E1
                        -9.438200786165091E1    -1.038652099651099E2    -8.447685590550324E1    -3.979503980998595E1    -8.977589596186721E1    -1.257106738921387E2    -1.429846213947718       6.884212067765012E1

 5.275100000000000E7    -4.850076430645747E-1    1.531247223796127E2    -2.927826197004117E1     1.322932680225207E2    -8.236487644286710E1    -1.626149386193112E2    -8.500898572966517E1    -2.917191058871179E1
                        -2.937904906740155E1     1.316279562894942E2    -3.326621062533161E-1   -6.855277314648271E1    -7.127707505680044E1    -9.551557909658941E1    -8.793851068989227E1    -2.263296806876486E1
                        -8.714415866985007E1    -1.034562461077179E2    -6.985156205478505E1    -1.031233392529806E2    -1.410705202452330       6.221766763694708E1    -9.223192552048522E1     1.176341527998770E2
                        -1.055284045638090E2     6.114034379195117E1    -8.333280491630521E1    -2.157434543515671E1    -8.699516383294677E1    -6.312459933526881E1    -1.429834201510397       6.881533852552742E1

 5.275125000000000E7    -4.900546143664591E-1    1.530785808938169E2    -2.926004159373103E1     1.318791214607695E2    -8.230919774136402E1     9.017073234083000E1    -8.804688684532098E1    -5.437066963374461E1
                        -2.926990664550997E1     1.318618717155255E2    -3.344206965399332E-1   -6.858678583207554E1    -7.041484386061335E1    -1.123470750227431E2    -8.829987430465039E1    -8.968252255822230E1
                        -9.186581311135387E1     6.644768586402527E1    -6.950622504513692E1    -9.752286698221882E1    -1.414691744026506       6.222635075033475E1    -8.588644684323216E1    -1.268206104849499E2
                        -9.496562390019223E1    -8.808348205949551E1    -8.485171356073997E1     1.477182395460367E2    -8.530543071332765E1     9.266815416167260E1    -1.434976635456284       6.884780373202324E1

 5.275150000000000E7    -4.881727822912901E-1    1.530506432072183E2    -2.940411104569034E1     1.319213573502188E2    -8.275910704224654E1    -1.001409188087787E2    -7.993715150922043E1    -7.020899237742472
                        -2.928521864627358E1     1.321119641626462E2    -3.340116716500517E-1   -6.859151992043005E1    -7.237784914137576E1    -8.419130362577178E1    -8.295470447458280E1    -4.314308055026398E1
                        -8.671905208307216E1     1.264961857644876E2    -7.026598626795519E1    -1.043968942008920E2    -1.409510543896208       6.218739290164422E1    -8.992495857041260E1    -1.426358311074539E2
                        -8.537401723274661E1     5.428807890224363E1    -8.569912626606697E1     2.842224305622077E1    -9.112349598401713E1     8.992754024910937E1    -1.431937937497308       6.883984796819750E1

 5.275175000000000E7    -4.861297699854529E-1    1.530613161486948E2    -2.925507607437290E1     1.319802929905485E2    -9.523305513900726E1    -4.756129347298244E1    -8.397567011587968E1    -5.103248590807861
                        -2.932284445758438E1     1.314373174363424E2    -3.333327289000571E-1   -6.860065696963315E1    -6.838831256606500E1    -9.886057157202515E1    -7.920885340172922E1     1.601701980790538E1
                        -8.694495705954635E1    -4.700637392639327      -7.067231662359910E1    -6.923447086317147E1    -1.410668418454857       6.219574431945056E1    -8.545298025711924E1     1.769275854436604E1
                        -8.113645456707125E1    -1.589323788864691E2    -8.253109199231504E1    -5.469002062643445E1    -8.829471017459102E1    -1.164740442641398E2    -1.431924418285091       6.880234347542391E1

 5.275200000000000E7    -4.846376486170770E-1    1.530641331598329E2    -2.928257234171820E1     1.321477535024557E2    -8.719329675004636E1    -2.243863253401025E1    -8.770647710386319E1     1.070118831116481E2
                        -2.933910242330918E1     1.322636564362780E2    -3.269470681735843E-1   -6.860617412790934E1    -6.956852143484997E1    -8.312821043671380E1    -1.018332919119760E2    -1.786679031568873E1
                        -1.014861441035231E2     1.402534103175570E2    -7.079929793989942E1    -1.054623547629217E2    -1.413754538170225       6.223049006970400E1    -8.990540354093417E1     7.887938601067829
                        -9.234484847746086E1     4.195219148023575E1    -9.014831207010823E1     1.788667074466576E2    -8.538127920225750E1    -2.526771583363795E1    -1.431765410747796       6.879716055748484E1

 5.275225000000000E7    -4.845962234928633E-1    1.530836219987400E2    -2.926294453200096E1     1.321300213049520E2    -7.933714272688515E1    -1.765550274569364E1    -8.416701731207368E1    -1.463099673226409E2
                        -2.924047518485381E1     1.316121214173186E2    -3.306956122837678E-1   -6.867407524796521E1    -6.971855556750235E1    -9.741216159137308E1    -8.519830592053626E1     7.349259392413082E-1
                        -8.156404272790644E1     1.051699039749190E1    -6.954065117747646E1    -9.751432013252855E1    -1.408577553501565       6.218936843751902E1    -8.920455211523331E1     1.839358821277846E1
                        -9.743876168839651E1     1.177499831574549E2    -8.203611478518049E1    -6.021449901142687E1    -9.181200216218679E1    -3.038852389455535E1    -1.432893191764016       6.882335356181108E1

 5.275250000000000E7    -4.870010335398006E-1    1.530677617547746E2    -2.934710673692596E1     1.317073773321729E2    -8.833969615696083E1     3.146513056842090E1    -8.407664531928535E1    -1.310836986500542E2
                        -2.931112378504697E1     1.314602260583639E2    -3.338880119082340E-1   -6.865563024835079E1    -6.808935157122740E1    -8.333085472239017E1    -8.525307704499342E1     1.561743523262844E2
                        -8.246602135381107E1     1.248294662082340E2    -7.237726471332979E1    -9.944616484457578E1    -1.410110848578040       6.218382583150996E1    -9.316047855370439E1     6.424063297717247
                        -8.738533690355544E1    -1.461401073326943E2    -9.017215409683841E1     2.794234654438337E1    -8.132063445583255E1     1.761516591250025E2    -1.432995862267286       6.882382478434376E1

 5.275275000000000E7    -4.848579643520857E-1    1.530643631796557E2    -2.929114588295316E1     1.312403003445067E2    -8.285589646012372E1    -9.150657231930406E1    -9.567842033872792E1    -1.057281364574123E2
                        -2.937764738129562E1     1.313342294224550E2    -3.363894218132760E-1   -6.869803265753164E1    -7.252533317170031E1    -9.941049790479158E1    -9.797026123052162E1    -5.586742014449481E1
                        -8.751803923354643E1     1.437017482535398E2    -6.944457220352328E1    -8.992652821418628E1    -1.414884714757053       6.217885492759441E1    -8.920853094999885E1     4.311216006354179E1
                        -9.077791864223801E1    -1.333255056111501E2    -8.417020550743317E1     1.080837380492344E1    -8.923853179657785E1     1.254278301582810E2    -1.430971896109611       6.880574307960765E1

 5.275300000000000E7    -4.857553951457135E-1    1.530503602334161E2    -2.935596327695965E1     1.314396969306786E2    -8.428616753469501E1    -7.858983666747416E1    -8.243495335969989E1    -7.930328849999712E1
                        -2.936020071209886E1     1.312288447608220E2    -3.315258005391554E-1   -6.871842487922586E1    -6.892286144426390E1    -9.939942818045869E1    -8.911762218738106E1    -3.034552839040865E1
                        -8.715680351201416E1    -1.325806247544208E2    -7.169455172264695E1    -1.038292654138177E2    -1.415875997710077       6.217640363005566E1    -8.881146733391651E1    -1.614096789296133E2
                        -8.249540166365233E1     1.672931964160587E2    -8.366032969723608E1    -6.262017706215863E1    -8.981342179511324E1    -4.294979763731974E1    -1.430166718106441       6.882582496064138E1

 5.275325000000000E7    -4.845448059823138E-1    1.530741240216505E2    -2.937473869318810E1     1.322658550751798E2    -8.844254517342537E1     9.307410689610552E1    -8.454069914927575E1    -4.689878257089291E1
                        -2.924940700086656E1     1.315703396977531E2    -3.310064611672028E-1   -6.872824783596157E1    -7.116623062756710E1    -8.851140194439974E1    -7.990365463383779E1    -3.275819483392232E1
                        -8.755804501232939E1     1.113570315825015E2    -7.124949256112100E1    -9.330825039670827E1    -1.412112775352134       6.217482010493932E1    -9.080988105414878E1     4.855441427241821E1
                        -8.799230314562307E1    -1.762908938471512E1    -9.070860196344489E1    -8.565138684582541E1    -8.743733952388612E1    -1.228535515315134E2    -1.436311348638660       6.879548120687684E1

 5.275350000000000E7    -4.822741597998142E-1    1.530198067156902E2    -2.931447567819037E1     1.317446891910124E2    -8.727869689249758E1     1.265396079430226E2    -9.308371285167625E1    -5.991726080098393E1
                        -2.933520662914908E1     1.314944086619700E2    -3.356346112691428E-1   -6.873849808002095E1    -7.093626115212882E1    -1.075186496191383E2    -8.185866238272072E1    -6.571163446488026E1
                        -8.509461632155690E1     2.988713614912834E1    -7.019429248067426E1    -8.728393210676758E1    -1.412815133819487       6.220924938222242E1    -8.857538094392631E1     1.225680182531771E2
                        -8.576631576490897E1    -1.246079154641723E2    -8.003429597227687E1    -3.878950866318257E1    -9.268580118616519E1    -3.479213759994462E1    -1.431323428234641       6.880617263403798E1

 5.275375000000000E7    -4.837970984640996E-1    1.530374118207074E2    -2.928843441550086E1     1.321846815881965E2    -8.906910911025628E1    -1.154477417465531E2    -8.647344708204955E1    -7.887261850112267E1
                        -2.929128093903405E1     1.318527211303332E2    -3.358439204250774E-1   -6.875099730125595E1    -6.909357808417163E1    -9.524490433729069E1    -8.668015535060738E1    -1.047546133841868E2
                        -9.043757541965047E1     1.161119543480488E2    -7.166993469705903E1    -8.544178653415902E1    -1.415133198715823       6.216820614155130E1    -9.027013509882099E1    -3.092718180719649
                        -9.790211453324345E1     1.520439030635769E2    -9.771181903557704E1    -6.808323353608402E1    -8.902663858219046E1     4.996910748892998E1    -1.430423384647633       6.878246145872996E1

 5.275400000000000E7    -4.838058189483410E-1    1.530308307355789E2    -2.928687545771542E1     1.317543796516561E2    -8.215694768421056E1    -1.133156902358924E2    -8.607057584881382E1     1.067238330073351E2
                        -2.934363999396153E1     1.319484530284079E2    -3.342093321275633E-1   -6.877189658260701E1    -7.233956583615660E1    -9.295160766338893E1    -9.147795507228599E1     4.306867887326397
                        -8.504499596172053E1     1.214056687559573E2    -6.963821365496619E1    -9.770943131690197E1    -1.414446969589087       6.217779466603736E1    -8.070089091608431E1     3.729204137159439E1
                        -8.439946896472308E1     1.157598924389090E2    -9.252697438780446E1    -1.522231937560322E2    -7.961894627913624E1     2.610307887535219E1    -1.432675640440968       6.883569504977830E1

 5.275425000000000E7    -4.825788174420053E-1    1.530230039064802E2    -2.925939212842966E1     1.318387753945982E2    -8.817816321806069E1     9.598077894789410E1    -8.809222827547973E1     4.630239122439937E1
                        -2.919116671765632E1     1.314272167616585E2    -3.358438212922313E-1   -6.879910670027070E1    -7.110236121012474E1    -9.984509607219000E1    -8.450595242952480E1    -1.244864757493453E2
                        -8.134355791766481E1     1.670655578461090E2    -7.190764466656572E1    -9.304789983100069E1    -1.407839745554378       6.217269195830610E1    -9.047374426716927E1    -9.874788914179365E1
                        -8.965931721662520E1     8.420509211606382E1    -9.741369427523267E1     5.572126717902586      -8.862327582315623E1     2.077550686010862E1    -1.433366704921462       6.877446095841498E1

 5.275450000000000E7    -4.858178091493669E-1    1.530209855648655E2    -2.924910527042832E1     1.320769442209326E2    -8.839648749001135E1     1.052184062968410E2    -9.277822023302235E1    -1.636383220511155E2
                        -2.934391054922149E1     1.316519371168364E2    -3.329755405796250E-1   -6.880515388891351E1    -7.114095439912080E1    -8.474967456878480E1    -7.976994687510026E1    -1.206199016367652E2
                        -8.502214276772060E1     3.379718873572464E1    -7.141729289493648E1    -1.068914519723475E2    -1.413575598008549       6.220358621256833E1    -8.189518829943438E1     1.222177737389752E2
                        -8.765104816292026E1    -6.678795947307449      -8.720790203046427E1    -7.627795278461537E1    -9.322437482265354E1     1.245807693706309E2    -1.432120797741782       6.879082473775084E1

 5.275475000000000E7    -4.834858659601522E-1    1.530042172904850E2    -2.929331084005646E1     1.314718989375450E2    -8.781223688771142E1    -1.617315817974076E2    -1.152541746584958E2    -1.725665502293913E2
                        -2.925193575579513E1     1.315528174756546E2    -3.363243222989248E-1   -6.884118409083710E1    -6.926174074970244E1    -8.567844192158080E1    -9.235165561841276E1     7.777077548986107E1
                        -9.009482403685902E1    -4.383356253656071E1    -6.934445161827512E1    -9.528872602197619E1    -1.410981342769265       6.215451889333693E1    -9.079075620875562E1    -1.541995432118579E2
                        -8.652831433195811E1    -1.586302216491426E2    -7.926302727229609E1    -9.439815330929508E1    -8.685428171454028E1    -5.598853559233181E1    -1.432288297003045       6.882491471165025E1

 5.275500000000000E7    -4.840847329351188E-1    1.530144851530351E2    -2.927720573773765E1     1.312945701896019E2    -8.601737040380370E1    -1.354786726253961E2    -9.771914824651196E1     1.258816883322932E2
                        -2.927714789829158E1     1.313855359101760E2    -3.318495723500253E-1   -6.884858970694000E1    -6.955991340013095E1    -1.005970840475950E2    -8.009587810396569E1    -1.125721184932622E2
                        -8.747072563784160E1    -8.539273589243408E1    -7.119697888059945E1    -9.606946182119965E1    -1.410405255936418       6.217328044217179E1    -9.051281179011262E1     1.404446219124949E2
                        -8.576520150069202E1     1.056962944585854E2    -8.749047060312975E1    -1.237605812993385E2    -8.044515472630735E1     2.950600669598177E1    -1.429746398321533       6.878515354710332E1

 5.275525000000000E7    -4.867120037356514E-1    1.530119809724839E2    -2.929012439161506E1     1.321472283441231E2    -8.555286694695920E1    -6.484845917158799E1    -8.236074696610461E1    -1.519910160665543E2
                        -2.932360908066034E1     1.316747204289870E2    -3.343399116553781E-1   -6.888667363743279E1    -7.004926557397874E1    -1.009815714043092E2    -8.604599817470765E1    -5.030129809891542E1
                        -8.728781172928576E1    -1.318611639136607E2    -7.014056091755518E1    -9.568740791574911E1    -1.409183304909017       6.215695236536244E1    -8.975215707767340E1     9.152989875508403E1
                        -8.972526902636932E1     1.289994812815176E2    -1.013927046817694E2     7.292494925079802E1    -9.972449677039536E1    -9.944824242291642      -1.431485322946033       6.878962291853726E1

 5.275550000000000E7    -4.863431823015527E-1    1.530028551584369E2    -2.927975203734306E1     1.319058197280708E2    -9.354946781339892E1     7.147677609409521E1    -1.008914045129608E2    -1.718142111841200E2
