#  HZ   S   DB   R     50.00 
! Rohde & Schwarz Vector Network Analyzer 
! Rohde-Schwarz,ZNB8-4Port,1311601044102961,2.82
! Created: UTC 2/13/2019, 1:48:59 PM
! freq[Hz]                db:S11                  ang:S11                 db:S12                  ang:S12                 db:S13                  ang:S13                 db:S14                  ang:S14
!                         db:S21                  ang:S21                 db:S22                  ang:S22                 db:S23                  ang:S23                 db:S24                  ang:S24
!                         db:S31                  ang:S31                 db:S32                  ang:S32                 db:S33                  ang:S33                 db:S34                  ang:S34
!                         db:S41                  ang:S41                 db:S42                  ang:S42                 db:S43                  ang:S43                 db:S44                  ang:S44
! 
 3.000000000000000E7    -2.784103023790481E-1    9.349651439327695E1    -7.076313963571189E1     2.119868539852465E1    -8.747227694885736E1    -1.368087910105429E2    -8.491679944232115E1     1.100089054796667E2
                        -7.005250757356636E1     8.740152077351056      -3.212151152568320E-1    1.003811857549966E2    -8.963037724121739E1    -5.299486688740090E1    -8.705237020915469E1     1.326084082815868E2
                        -8.501643916513423E1    -3.973223626265865E1    -8.629727970739198E1     1.467045994683236E2    -9.419930333110794E-1   -1.963071205054352E1    -8.674386724747717E1     1.212284924045000E2
                        -8.503929825270049E1    -9.802443257831853E1    -8.687052515579941E1     1.428586828990385E2    -9.204008853511994E1    -8.715902856785016E1    -9.173603932014016E-1   -1.692213891872399E1

 3.002500000000000E7    -2.795151990976627E-1    9.317334339757946E1    -7.052176919701593E1     5.256245026356845      -8.509328160842165E1     3.231518057131534E1    -8.177340609761016E1     2.334611362935208E1
                        -7.005163739149614E1     8.220311404886557      -3.245180157161968E-1    1.000215297561587E2    -8.834160373570292E1     5.474456013677385      -8.675129923156752E1     8.837302239864746
                        -9.136678283345475E1    -1.440736627877059E2    -8.442429985832044E1    -5.373845713577111E1    -9.525403379913794E-1   -1.999805390421263E1    -8.308943833396022E1    -6.265022948742615E1
                        -8.555556081545952E1    -3.464037515199679E1    -8.281877735836605E1     1.403613838010565E2    -9.353704705840340E1    -6.035039625982571E1    -9.153953369991974E-1   -1.722011985270449E1

 3.005000000000000E7    -2.865507372841721E-1    9.283796679052236E1    -6.999985913978577E1     3.099014413686422      -8.414559206576317E1    -8.083006136807995E1    -8.416797044716469E1    -8.605140263998547E1
                        -6.987101726203174E1     1.308481427886996E1    -3.212059445842849E-1    9.976539506840592E1    -8.767010591628312E1    -7.963399789345051E1    -8.773234058230082E1    -4.220546540620418E1
                        -9.972928322977778E1     1.468914493281764E2    -8.829729274950370E1    -7.097017529876727E1    -9.481693604389643E-1   -2.032599517963537E1    -8.434458284446657E1     1.081340636603766E2
                        -9.022410884402140E1    -1.470965926643142E2    -9.136883548419299E1     4.703121846326844E1    -8.588246039378269E1     6.827582696313253E1    -9.174432742361173E-1   -1.754630114016211E1

 3.007500000000000E7    -2.804390266215985E-1    9.246558847514494E1    -6.860375398102090E1     1.130006931743739E1    -1.003291983408122E2     9.436509467232048E1    -8.836898060824952E1    -1.545808829749577E2
                        -7.024209861842510E1     8.930486471586523      -3.224731981789161E-1    9.943724580404630E1    -9.088618073638708E1     1.607437925376930E2    -8.862612483921097E1    -1.070001746463089E1
                        -8.768687877638573E1    -8.125350914090831E1    -9.426714906901695E1    -1.760969039148656E2    -9.468867927320706E-1   -2.063204459745524E1    -8.570622989013101E1     1.401191188081396E2
                        -8.790786893575853E1     3.663764215155413E1    -8.120111450500326E1     9.763072654610792E1    -8.749254681085310E1    -1.575042727905677E2    -9.164809116947175E-1   -1.782437938337294E1

 3.010000000000000E7    -2.776201121923801E-1    9.220527002978207E1    -6.867776549261191E1     1.550492114989378E1    -8.528431060421076E1     1.221624803019848E2    -7.994433219110076E1    -8.756096688634776E1
                        -6.935515643110328E1     3.731572367513719      -3.254451534659862E-1    9.910936541626462E1    -8.611523340221977E1     9.968298114690676      -1.013570779847882E2    -4.364130454900353E1
                        -8.583893072370771E1    -9.263712178108906E1    -8.965230171498632E1    -1.438985955021941E2    -9.459014196529993E-1   -2.094845438848902E1    -9.014453888706841E1     4.814134569686384E1
                        -9.062529577308952E1    -1.661967294012854E2    -9.021132547880463E1    -7.442417971444075E1    -8.130833796462474E1     1.306278588029938E2    -9.163545179737656E-1   -1.811381130229287E1

 3.012500000000000E7    -2.726260510867901E-1    9.182171624081781E1    -7.011762933156376E1    -6.696726782519637      -8.559946576480131E1    -1.309206530592091E1    -8.280435459770912E1    -1.133279427476962E2
                        -7.145496892330350E1     4.782078454395591      -3.250316194640308E-1    9.878818253380997E1    -9.405329436197411E1    -9.127330984451302E1    -9.073954265106613E1     1.466389001225609E2
                        -8.329152953969050E1     1.700681771825704E2    -8.581061457507184E1    -7.425527047588747E1    -9.461801982052969E-1   -2.123052095732061E1    -9.071457958755565E1     6.088461717195696E1
                        -8.471008449886472E1     8.726351469407076E1    -9.350106302796804E1     1.624228633803494E2    -8.999170607561183E1    -1.309257195779524E2    -9.135957387245725E-1   -1.846722664716468E1

 3.015000000000000E7    -2.761090074344587E-1    9.149079691869905E1    -6.923857712932906E1     1.246718649199765E1    -8.525566601620093E1     1.609331713897091E2    -8.306630071958156E1     1.789073557316108E2
                        -7.014887654142126E1     1.089634875897724E1    -3.288739715927430E-1    9.844402894241904E1    -9.351339613400059E1     1.270846078128173E2    -8.746579793582838E1     1.202570217040471E2
                        -8.744095186012962E1     3.771831690767672E1    -8.816094386873395E1    -2.362764526447631      -9.521053470782487E-1   -2.155262906974004E1    -8.806786668396354E1     1.237081573719480E2
                        -8.282214404686033E1     1.583558802518811E2    -8.923397885685151E1    -4.331979361190108E1    -8.294999760306988E1    -1.632919062848090E2    -9.138448320559899E-1   -1.875621976043333E1

 3.017500000000000E7    -2.756073906467458E-1    9.116770573646673E1    -7.178407620825509E1     8.594433171737915      -8.590390370136876E1    -8.744548580913998E1    -8.774645145765510E1    -1.477908796511531E2
                        -6.892224083280271E1     7.265777389307254      -3.231758436252208E-1    9.819505454142200E1    -7.994188768614109E1    -2.606193542082924      -8.602002167817402E1    -1.906245944598074E1
                        -8.199346171247206E1    -1.278764358722213E2    -8.548082072511697E1     5.598105820795151E1    -9.507470826566085E-1   -2.187844163980973E1    -8.770299549850219E1     9.202787876942779
                        -9.982179857524947E1     1.768823678673167E2    -8.612181940099632E1     8.978863250301322      -8.095992089296031E1    -7.115555888496375      -9.143003529488643E-1   -1.906328881218212E1

 3.020000000000000E7    -2.768754423862799E-1    9.077304246422705E1    -6.814913611775477E1     1.018882740311885E1    -8.591857930475894E1     1.755899160969799E1    -8.622111678713908E1     8.857151308219729E1
                        -6.817816932255416E1     4.085593425332903      -3.242717004169100E-1    9.786334103856403E1    -8.732328286957369E1     1.448248145828805E2    -8.833683375247829E1    -1.714504723575735
                        -9.118489732717490E1    -1.418196367885903E2    -9.313596025956821E1     1.799537434812015E2    -9.450590064756927E-1   -2.220520063404099E1    -9.422665570269959E1     3.514548652704603E1
                        -9.377077309221400E1     5.169438062360743E1    -9.127126618540567E1    -2.186669942858163E1    -8.587277881744733E1     9.453536191002422E-2   -9.191170183960047E-1   -1.938666249647458E1

 3.022500000000000E7    -2.810629807806326E-1    9.046176261644267E1    -6.855575361380949E1    -1.735775439854729      -8.151073400026668E1     8.991471396343538E1    -9.108180754902826E1     9.750572149423657E1
                        -6.963047503225488E1     4.606960390394151      -3.215954775158241E-1    9.756024906578375E1    -9.035433756034036E1     1.486439613244853E2    -8.306108534357179E1    -1.253922723819435E2
                        -8.531721932881389E1     1.721009665536814E2    -9.041431302161227E1     8.158346574172649E1    -9.456075061453889E-1   -2.254744536195537E1    -8.844923464297688E1     1.752166206490792E2
                        -8.797554158971781E1    -9.219165218635975E1    -9.014795141661165E1     3.977718984067686E1    -8.206831830972853E1    -5.905314528388427E1    -9.100227634978100E-1   -1.965335777791135E1

 3.025000000000000E7    -2.700269735525916E-1    9.014232163681187E1    -6.893935790211168E1     1.169639617917180E1    -8.499684316092198E1    -1.424816075512582E2    -8.825006341627284E1    -6.621347810529019E1
                        -6.892294905535022E1     1.254454414867104E1    -3.253237761537404E-1    9.722385816460560E1    -8.534658691028511E1    -4.928049312042985E1    -8.433441419918425E1     1.512331256979536E2
                        -8.643586876115022E1     1.813419631120762E1    -8.777655428589192E1     7.715116964213064E1    -9.433522399982736E-1   -2.283513456988411E1    -8.805246284563053E1    -1.544086397330597E2
                        -8.931808816289610E1     1.025717069317500E2    -8.264787648861326E1    -1.701193240388228E2    -9.766594232399369E1    -1.766232602708571E2    -9.179046866686956E-1   -1.997061960646925E1

 3.027500000000000E7    -2.701276829151559E-1    8.979677202516976E1    -7.172456321921752E1     2.008772484280077E1    -8.001857981236670E1    -1.384074849626963E2    -8.083886851067345E1    -2.372072614035545E1
                        -7.045402817279567E1     1.097068295997878E1    -3.136018070661452E-1    9.691683798712396E1    -8.605561206226993E1     1.785658299779705E2    -9.004787701179696E1     8.729964525495032E1
                        -8.855307213053746E1     7.320518961079743E1    -8.695261821692220E1     1.349262828145564E2    -9.438879275494243E-1   -2.315793319882673E1    -8.060031111957804E1    -3.012278341141769E1
                        -8.343997579930571E1    -1.372376245524238E2    -8.881351778163635E1     1.774453594678330E2    -8.987271419623443E1     7.682556715210265E1    -9.162535796631094E-1   -2.029038611564129E1

 3.030000000000000E7    -2.701867991714992E-1    8.948236168554168E1    -6.884584834876287E1     3.013574432262567      -9.135436751994948E1     1.184927339794189E2    -8.117304838603694E1     9.205314284100087
                        -7.070534179517274E1    -5.008847692724907E-1   -3.245352416364301E-1    9.660604340890886E1    -8.275437667257350E1    -9.396106506295375E1    -8.571087654017907E1    -1.618397160917533E2
                        -1.035371365353212E2    -7.904221313186261E1    -8.081022155799352E1    -1.056825340584866E2    -9.480855634095377E-1   -2.349714608276411E1    -8.189068274437520E1    -1.091093695229151E2
                        -8.955995488984252E1    -7.599394435285370E1    -9.644679580110088E1    -6.665740480614011E1    -8.212469390021460E1    -1.684779038715005E2    -9.136304730924565E-1   -2.061662072962200E1

 3.032500000000000E7    -2.773167842055814E-1    8.915842142675642E1    -7.051129540595105E1     2.088697882894515      -8.635488114842306E1    -1.218419097840458E2    -1.043879454777583E2    -3.992729088082518
                        -6.881668307258089E1    -4.942597903694111      -3.115401697296334E-1    9.631957265345713E1    -9.594259295364070E1     1.210098861130200E2    -8.917378113307065E1     1.142400209224993E2
                        -9.620212081775817E1     7.007404392339282E1    -8.803637333667895E1     6.265929535703171      -9.472094711303103E-1   -2.378357478214400E1    -7.974745394489864E1    -1.206602629551833E2
                        -9.046544179622291E1    -1.573699751006598E2    -8.723290089976906E1    -1.746988863954602E2    -8.960569942933344E1    -1.513569267589730E2    -9.092156589352120E-1   -2.089546029047000E1

 3.035000000000000E7    -2.686897872816613E-1    8.877143380916300E1    -6.773747776864616E1     1.440633280002877E1    -9.607385955660645E1    -9.389311724470865E1    -8.370552274633357E1     9.759277171165016
                        -6.903512410331381E1     1.423546295199774E1    -3.188552562607070E-1    9.596512911269264E1    -9.476252131436763E1    -7.417820444254646E1    -1.002365576097618E2    -8.423414394311804E1
                        -8.600455300101532E1     1.662308006946759E2    -1.108314613006319E2    -8.781474024228839E1    -9.467578157832811E-1   -2.409885446996395E1    -8.730845387874783E1    -1.407561206723503E2
                        -9.158209113537703E1    -4.428387645661510E1    -8.340519174771700E1     5.196226492458906E1    -8.695773800979629E1     1.206562040230933E2    -9.103152377508879E-1   -2.120757826056535E1

 3.037500000000000E7    -2.683239558438734E-1    8.844392891759586E1    -6.772508955530013E1     4.783697274690806E-1   -9.089001872285409E1    -9.054281236775483E1    -8.670497604649222E1    -6.340452384978772E1
                        -6.838773965773781E1     9.446731905290219      -3.166303076479504E-1    9.569094581152112E1    -9.026120591607680E1    -3.189708895632235E1    -8.307149495090792E1     7.698148390652277E1
                        -8.910811282367617E1    -1.717568691266990E2    -8.340233052567388E1    -2.331167781164503      -9.478922449806284E-1   -2.438972961996180E1    -8.573873333593519E1     7.324546840932610
                        -9.096445703673444E1     1.498955221598085E2    -9.014094101038037E1     1.295080830349856E2    -9.676972121997905E1     7.860379514237079E1    -9.124631995645022E-1   -2.153503640542588E1

 3.040000000000000E7    -2.675499061436968E-1    8.811363341425061E1    -6.862845215491785E1     1.005137399484094E1    -1.107340256160544E2    -1.157182609550374E2    -8.580742152955301E1    -7.433879738199906E1
                        -7.029540372157445E1    -1.965328210506863      -3.157217430896162E-1    9.538766608229267E1    -8.223920911880811E1    -5.849554289234912E1    -8.083537641469421E1     7.161597164979673E1
                        -8.282879970401928E1    -9.400212169942446E1    -8.753829083033544E1     1.091250956859000E2    -9.428818955012113E-1   -2.471312211601926E1    -1.090544655951062E2    -1.239010554995201E2
                        -8.545673233049783E1     1.656906308029151E1    -8.482036763107769E1     2.264146604322603E1    -1.126274762292614E2    -1.522046633475225E2    -9.182495518207107E-1   -2.181363011682297E1

 3.042500000000000E7    -2.693627904178255E-1    8.778887216913343E1    -6.953290642888980E1    -5.496760730720180      -9.309039531559813E1    -1.724366860426697E2    -9.136599119658696E1     8.163299247999003
                        -6.937290433865151E1     6.768643174155840      -3.191484085694412E-1    9.507599944582277E1    -8.819129992642276E1     1.674409781143546E2    -8.529735718788801E1     8.142061223365480E-1
                        -1.012699085599458E2     3.978232174604710E1    -9.642640866647427E1     1.138234320402533E2    -9.484249906427338E-1   -2.503139717546154E1    -8.744504182524119E1    -3.912284156100466E1
                        -8.460760097773965E1    -6.763071182178950E1    -8.240123892863964E1    -4.019582127828385E1    -8.873660945772943E1    -1.726101531014768E2    -9.083893244725867E-1   -2.213431001285798E1

 3.045000000000000E7    -2.674849645676334E-1    8.736567561574853E1    -6.866471447191800E1     2.514651154931611      -8.360674561250575E1     5.227039218539807E1    -8.347276129112177E1     1.015572532393158E2
                        -6.876537477253302E1     1.078375679222619      -3.111564188444588E-1    9.473242557633263E1    -8.537616407267720E1     3.518550224920083E1    -8.704237146325619E1     1.056076139651276E2
                        -8.529020309837165E1     1.190020269107123E2    -8.575357403357691E1     6.943505416973223E1    -9.430677781615233E-1   -2.534624571785652E1    -9.029037898749216E1    -9.854487965455000E1
                        -9.421191925983069E1    -1.642366762242964E1    -8.004729250694064E1     6.705415194942661E1    -9.349091727815645E1    -1.217425601270140E2    -9.156975681747313E-1   -2.239760465460084E1

 3.047500000000000E7    -2.681213588539853E-1    8.709637334937850E1    -6.807510303437906E1     6.571059050429677      -8.446523980568658E1    -4.835548436591387E1    -8.105175805749029E1     1.733444481453309E2
                        -6.948213245141933E1     9.103442313767824E-1   -3.161355313379233E-1    9.445907412575026E1    -8.255683246812896E1    -1.517340635782428E2    -9.262124686147479E1    -1.058015634599101E2
                        -9.335701522266669E1    -4.912730097123361E1    -9.253165804375067E1     1.302067220183524E2    -9.463233385248462E-1   -2.567625400019805E1    -8.709030200809615E1     1.706152515660697E1
                        -9.327389805885869E1    -1.482165364031603E2    -8.638046169567575E1     1.683604366792108E2    -8.167375368253404E1    -5.614599497189322E1    -9.171342785736093E-1   -2.274401403612768E1

 3.050000000000000E7    -2.800453072914154E-1    8.675027085516879E1    -7.014019933134659E1     2.305598354422876      -8.752375616280585E1    -6.497210306621837E1    -8.631225923321337E1     1.060773092740608E2
                        -7.098067653529731E1     8.257598765609297      -3.171804968028054E-1    9.411195386751790E1    -8.503542601560017E1     4.303424249400963E1    -8.561093966069709E1     5.136825163402830E1
                        -8.932673108602243E1     1.262107535679682E2    -8.991031284843351E1     7.489477984913094E1    -9.480501727722472E-1   -2.598230931205252E1    -8.759888316483087E1    -6.884746641936454
                        -9.573259645431196E1    -5.937989270017732E1    -8.956801082572153E1    -8.733692944007460      -8.524672408121676E1    -3.083323686525395E1    -9.152937345390256E-1   -2.305988300385727E1

 3.052500000000000E7    -2.649118118439253E-1    8.639392811113210E1    -6.876934871064569E1     2.518856816076854      -8.483595489587339E1    -7.998925487017726E1    -8.440645670188522E1    -1.879842089899347E1
                        -6.784693427383827E1     5.361805064524654      -3.201567971112140E-1    9.383300890718456E1    -8.238342142803786E1     8.415584903803419E1    -8.572124771400300E1     1.059005236174659E2
                        -9.752004969894409E1    -5.787079063221517E1    -9.416917527255961E1     5.403489067325995E1    -9.519794554391258E-1   -2.632009923343709E1    -8.035272780592054E1    -8.590039619451412E1
                        -9.806111511264950E1     1.326331346739293E2    -8.017639557348656E1     3.170946143620382E1    -8.999731903273383E1    -1.716141931597644E2    -9.158366400584119E-1   -2.335540580071889E1

 3.055000000000000E7    -2.611376532499663E-1    8.605509932178649E1    -7.035974818505963E1    -1.991531348666113      -8.879987536704151E1     9.451567689489105      -8.280211429612578E1    -1.087607590403042E2
