#  HZ   S   DB   R     50.00 
! Rohde & Schwarz Vector Network Analyzer 
! Rohde-Schwarz,ZNB8-4Port,1311601044102961,2.82
! Created: UTC 2/12/2019, 1:49:13 PM
! freq[Hz]                db:S11                  ang:S11                 db:S12                  ang:S12                 db:S13                  ang:S13                 db:S14                  ang:S14
!                         db:S21                  ang:S21                 db:S22                  ang:S22                 db:S23                  ang:S23                 db:S24                  ang:S24
!                         db:S31                  ang:S31                 db:S32                  ang:S32                 db:S33                  ang:S33                 db:S34                  ang:S34
!                         db:S41                  ang:S41                 db:S42                  ang:S42                 db:S43                  ang:S43                 db:S44                  ang:S44
! 
 3.000000000000000E7    -2.967561032681360E-1    9.699115595762063E1    -5.561930865584778E1     5.029717140176131      -7.764383044466999E1     9.710601658737863E1    -9.745514674999670E1     1.548109798394663E2
                        -5.553208342348806E1     6.701995597679006      -2.579269420570807E-1    9.370253757617840E1    -8.399486913797097E1     3.929737673686363E1    -9.145129532178640E1    -5.940654259108619E1
                        -8.703372945147277E1    -8.078589415188550E1    -9.067800976989680E1    -1.608831766526298E2    -9.275865798332674E-1   -1.577410333635871E1    -9.129502177594959E1    -5.060788406793050E1
                        -9.434214808340074E1    -4.049763582192040E1    -8.880073399756525E1     8.383759890347366E1    -9.095775153285257E1    -5.802564606600136E1    -8.980238386766857E-1   -1.303155468737028E1

 3.002500000000000E7    -2.951030297907900E-1    9.665430142949533E1    -5.573271813910595E1     4.635683801915088      -9.677943459427426E1     1.537505590285319E1    -9.273269635611587E1     1.707320762033516E2
                        -5.606397187087067E1     4.887091990396962      -2.658049080658125E-1    9.332606365952064E1    -9.893514961497147E1    -1.590128262419163E2    -9.162930736559630E1    -3.241884895729439E1
                        -8.525534466691084E1    -4.101733104631024E1    -8.997914973013536E1    -1.403518666715388E2    -9.320347917115319E-1   -1.604840021250635E1    -8.833407284076471E1    -1.475289631911334E2
                        -8.683783789230240E1    -6.630355590398882E1    -8.452430873949754E1     1.389256932052177E2    -8.413080844950990E1     1.495634030495403E1    -8.929633261556340E-1   -1.331120626163406E1

 3.005000000000000E7    -3.014944916189493E-1    9.633560385973269E1    -5.589754329017242E1     5.893642777244423      -8.086438216806066E1    -6.306403059823365E1    -8.475787677817229E1     1.122737343846153E2
                        -5.584633115526259E1     4.547324362531936      -2.536315651637366E-1    9.295279117380829E1    -8.088750561770542E1     1.672617522543708E2    -8.119627369586068E1     1.316415971105156E2
                        -9.010785971794654E1     1.193584353718123E2    -8.545020802070455E1    -3.283855745280564E1    -9.338874767547173E-1   -1.635073523354421E1    -8.818401516070844E1     1.401797603951529E2
                        -9.263882241500139E1    -1.106727686072361E2    -8.389765147746635E1    -1.376602335735425E2    -8.394199910393698E1     1.276655687720597E1    -9.003328746641359E-1   -1.363484391404943E1

 3.007500000000000E7    -2.942755201289551E-1    9.595448023825819E1    -5.546253427530721E1     6.900268732389140      -8.339200300310176E1     1.624861624746706E2    -8.356767349331862E1     1.294143011492865E2
                        -5.574070159762985E1     2.870883710143640      -2.480361130466441E-1    9.262449997862815E1    -8.635557485827327E1    -1.485029500338586E2    -9.056594980777227E1     1.204911408353231E2
                        -9.836528575781857E1    -7.099329707545844E1    -8.772216558394405E1    -8.947086260480339E1    -9.371893890249274E-1   -1.668828485539728E1    -8.349817848409532E1     1.552526336236514E1
                        -8.569848902111758E1    -1.358354833479035E2    -1.064290444430401E2    -3.312214639350422E1    -8.199326159607415E1    -1.696424753126237E2    -9.036079790454630E-1   -1.392489380927244E1

 3.010000000000000E7    -2.908806880541477E-1    9.566023980487394E1    -5.520298617273760E1     5.512602162871001      -9.351054638116918E1     1.580855853687658E2    -8.586591029140946E1     5.355896355718727E1
                        -5.551352169939847E1     6.097824246105005      -2.544205881694771E-1    9.223176900574011E1    -1.009158041924145E2    -7.516889418710916      -8.765116681602083E1     6.151321767586332E1
                        -8.390564650986038E1    -1.388384298468041E2    -8.893647572007751E1     1.118354982756931E1    -9.318766515299953E-1   -1.697609447408753E1    -8.739511003702251E1     4.190058869675152E1
                        -8.794197490115781E1    -9.666388118684698E1    -8.968624284585769E1    -4.632924173342702E1    -8.278557685483943E1    -1.118419359505151E2    -9.016746938605619E-1   -1.421425022669822E1

 3.012500000000000E7    -2.881373364780766E-1    9.533443624376788E1    -5.562429322108693E1     6.010265785954542      -8.415764826094060E1    -6.926207211108769E1    -8.847935749058848E1    -1.484134612104786E2
                        -5.532588019870868E1     3.326463899613706      -2.581315254326682E-1    9.189004290032212E1    -8.474685223429630E1     1.565599847739615E2    -8.722899845221768E1    -8.071282321379700E1
                        -8.044723916707368E1    -1.342344298308815E2    -8.602081021739522E1    -1.484246136693493E2    -9.398447513717163E-1   -1.727879567042659E1    -8.288186369731606E1    -1.007808003685459E1
                        -9.358518378434133E1    -4.673467804559902E1    -8.225648005395770E1    -1.602195330442823E2    -8.432095382608051E1    -1.066472566639769E2    -8.963716060652788E-1   -1.450010442462260E1

 3.015000000000000E7    -2.937935478932656E-1    9.499368998163035E1    -5.537358221758139E1     1.232492629708132      -8.237857040959595E1    -1.647980156234450E2    -8.785552310456114E1     1.061433403521237E2
                        -5.551140423926967E1     4.661287779518451      -2.603028689630851E-1    9.145460282382734E1    -8.608776308272239E1    -4.845563431047024E1    -8.258468141155873E1    -1.308753553465611E2
                        -9.126339015576532E1    -1.697961021315708E2    -1.033703565629640E2    -3.007364257373702E1    -9.303095222512454E-1   -1.763287345641236E1    -9.549012278651212E1    -7.109144567826904E1
                        -8.208852038285086E1    -1.270761685878533E2    -9.301666996021127E1     4.621255419308690E1    -8.341057487364232E1    -1.490761631009240E2    -9.012934326323863E-1   -1.483067125364457E1

 3.017500000000000E7    -2.885413018416234E-1    9.465954396342873E1    -5.539966536895257E1     3.982232634679298      -9.159314252985054E1     7.396331748957083E1    -7.895759802746150E1     1.175282639711512E2
                        -5.557291969962647E1     3.995902241725502      -2.532052644192152E-1    9.108343403666702E1    -8.903083198386098E1     6.493732259939752E1    -8.283503205607295E1    -1.326381509157793E2
                        -9.247927510727865E1    -8.246831713877067E1    -8.020440076911575E1    -8.566697376609308E1    -9.321582918270749E-1   -1.789888742402144E1    -8.574219998933273E1    -1.330547654075432E2
                        -8.454688473527713E1     1.292751541516830E2    -9.220139000852954E1    -9.457310254724609E1    -9.041094851746202E1     1.579253840200729E2    -8.959207557293670E-1   -1.509387381629699E1

 3.020000000000000E7    -2.833670697427029E-1    9.431540912556709E1    -5.523782412465479E1     2.804117804637450      -8.533607854974173E1    -6.620910609414527E1    -9.126705787680118E1    -9.477371132842970E1
                        -5.555571724487827E1     4.154273612843228      -2.572711722148086E-1    9.073632471113450E1    -8.291579024423307E1    -1.429136287667949E2    -9.452518275745975E1    -8.712810379446540E1
                        -8.220438193669978E1     8.621199380540149E1    -8.993003277593036E1    -5.643005026584377      -9.308863269347631E-1   -1.822991879466351E1    -8.740817843604239E1    -1.628866305120464E2
                        -8.643336963933481E1    -1.126609608723114E2    -8.388011177671302E1     8.340126634250457E1    -8.172183114322439E1     1.304339455439127E2    -9.047869677012634E-1   -1.542940819801272E1

 3.022500000000000E7    -2.933015573593902E-1    9.398017644106204E1    -5.507064380706284E1     6.407336194881111E-1   -8.614914036446444E1    -1.751042390855371E2    -8.210353531487667E1    -3.554017745752113E1
                        -5.506612402341119E1    -2.044973881432385E-2   -2.560990939883113E-1    9.038268673597356E1    -8.446618576847591E1     2.654744511684902E1    -8.029563578830251E1    -6.630878837604494E1
                        -8.430806714199235E1    -9.596666127931931E1    -8.105963022590301E1    -1.125273689036755E2    -9.338806805734596E-1   -1.850098216187817E1    -8.400028773686599E1    -8.571303543952880E1
                        -8.487121056801755E1    -2.520731098862911E1    -9.985761576235747E1    -1.685761374444202E2    -9.202967434212248E1    -2.134729461557279E1    -9.001190856325875E-1   -1.571321295950480E1

 3.025000000000000E7    -2.861809554091554E-1    9.368777240028763E1    -5.506629820801556E1     3.553838894405581      -9.342548339042244E1    -1.417107231236616E2    -8.820355789758203E1    -8.376585446556148E1
                        -5.492372122081000E1     9.441066922368131E-1   -2.638775849133593E-1    9.001931744408613E1    -8.394510199542835E1     1.119539776147085E2    -9.877766802957299E1    -5.938554797057138E1
                        -9.207938261791163E1    -1.303841782056879E2    -8.513016187040813E1     1.696049865519393E2    -9.352871392851109E-1   -1.885672295814558E1    -9.021023256774669E1     8.520998141522428
                        -8.594299404930042E1     1.239160723583101E2    -8.735536883361459E1    -1.590001404982981E2    -8.427595426799542E1    -1.129578507172097E2    -9.007236278667740E-1   -1.600938793097816E1

 3.027500000000000E7    -2.848199097679024E-1    9.332386712593259E1    -5.470616911957227E1     1.106607481835457      -8.854659771057860E1    -1.732451564429259E2    -9.964625094519485E1    -3.615328159962515E1
                        -5.523933283830935E1    -1.923884469246492      -2.464054654054376E-1    8.959171455238990E1    -8.740376758715185E1     6.295278456971523E1    -8.955902922483620E1     4.760278206538970E1
                        -9.380330014121897E1    -1.076746632776255E2    -9.301124358604722E1     4.582204240872509E1    -9.287302111200363E-1   -1.915424915673237E1    -9.053219701662806E1    -1.012092429432291E2
                        -9.459355308022819E1     4.662059942051301E1    -8.825446690291166E1    -1.265271748660210E2    -9.390825390179177E1    -9.010807641522320E1    -8.993141317727887E-1   -1.630051489730538E1

 3.030000000000000E7    -2.892180428525694E-1    9.301191306528037E1    -5.455045156441258E1     3.175593746583129      -1.010846213123006E2     9.193402604575918E1    -9.002433480366730E1    -1.277013049178125E2
                        -5.498346372821530E1     4.073440701387186      -2.584049551967958E-1    8.926299007592293E1    -8.615684980489414E1    -1.884510450649852E1    -9.882737531322266E1    -5.768733619810024E1
                        -9.047556999356604E1     1.666561227712270E2    -9.019773881768398E1    -1.387933092943998E2    -9.390815427630892E-1   -1.950676652741462E1    -8.684486014950743E1     4.361570351811923E1
                        -8.968699674388766E1    -4.793578830343984E1    -8.452455839020041E1    -7.752325736159001E1    -8.996961168079307E1    -3.329989425109986E1    -9.009626129610715E-1   -1.659780915117873E1

 3.032500000000000E7    -2.885826542280029E-1    9.265875333677768E1    -5.478842873372987E1     3.835022702917900E-1   -9.746317625484957E1     1.498782620266377E2    -9.055435871851593E1     6.806180143606594E-1
                        -5.509759075983018E1     1.161884156125109      -2.475858573588763E-1    8.887517154444443E1    -8.287658782040515E1     3.207269545014962E1    -8.406078260890658E1    -8.693476046001356E1
                        -1.143504851130921E2    -1.158997677674539E2    -9.529382443218937E1     1.238862639836262E1    -9.333029029553344E-1   -1.975524020517973E1    -8.685946893788841E1     4.581244375848650
                        -8.568170445362979E1    -1.574368650458859E2    -8.126904683010551E1     6.245852206728640E1    -8.348262808294621E1     1.713643992022166E2    -8.997100745826383E-1   -1.689439613631835E1

 3.035000000000000E7    -2.818248055786508E-1    9.234793554131522E1    -5.464529113620662E1     2.372996848818314      -8.650411967748040E1    -6.927177762404823E1    -8.080281783950485E1    -1.208889753953689E2
                        -5.443532294182493E1    -2.389857396648535E-1   -2.531373960180661E-1    8.841875296999936E1    -7.885188144135105E1     5.231749348934552E1    -8.947959189922568E1    -1.423343829007515E1
                        -8.665153533242253E1    -7.388879122298589E1    -8.436280933763962E1     1.299437439064886E1    -9.337482483060894E-1   -2.013217785992252E1    -9.132674690239875E1     1.135771013516404E2
                        -8.660290307499528E1     1.080156611292525E2    -9.276931666506283E1    -4.845775614822731E1    -9.098166621768370E1     8.832138120146766E1    -8.986524623244336E-1   -1.719865063653744E1

 3.037500000000000E7    -2.814285074789431E-1    9.195850990603884E1    -5.458918834657176E1     2.312350882907853      -8.699946930530683E1     1.232292090701712E2    -8.546267499372036E1    -3.257448536940346E1
                        -5.468191016153027E1     9.714883551547592E-1   -2.579432955698848E-1    8.810701205886879E1    -8.895858132033294E1     1.508995753745485E2    -8.328018556567335E1    -3.011441085909066E1
                        -8.611457336704463E1     8.355812271718708E1    -9.142970746391653E1    -1.672815379986172E2    -9.345392813784604E-1   -2.034457982506627E1    -8.582668792042304E1    -1.437203442203874E2
                        -7.979274160513288E1     1.234658240485429E2    -8.610662113850999E1    -4.110010724887795E1    -9.276084065388253E1    -1.759593697135227E2    -8.984159299923906E-1   -1.750637177666236E1

 3.040000000000000E7    -2.805793368896073E-1    9.164668119426965E1    -5.401844578294219E1    -1.379653321782562      -8.883143387501028E1    -1.269075898529291E2    -9.357961227126296E1    -9.703844715201204E1
                        -5.442854895844123E1    -1.266345538227801      -2.578478213980003E-1    8.776115402742489E1    -8.250276724267116E1    -3.237428632923549E1    -9.420048276100616E1    -6.205063602235749E1
                        -8.319907365811892E1    -1.105848792144317E1    -8.562533876446777E1     4.541356998016577E1    -9.347720137917506E-1   -2.069661567548177E1    -8.933164089292221E1     1.254266425113972E2
                        -8.921496155829040E1     1.473955662413287E2    -1.032524965095871E2    -5.845129512587693E1    -9.318259159987791E1    -3.905847150061897      -8.951002585938100E-1   -1.779915203712963E1

 3.042500000000000E7    -2.777216379285817E-1    9.127780767760378E1    -5.478251179248385E1     2.458053062104342      -8.893006494737547E1    -6.815857518680492E1    -8.973744800257413E1     1.377415406609485E2
                        -5.433221984225179E1    -4.704195062674764E-1   -2.586838099774292E-1    8.738298589392288E1    -9.403796486481595E1    -1.130133878111974E2    -9.004336852508466E1    -7.649590444334780E1
                        -9.186382668867077E1     1.249358298540260E2    -8.056923341983151E1     1.092202684302226E1    -9.346520622910743E-1   -2.105259019610350E1    -8.764448514565878E1    -5.004356519734007E1
                        -8.619794767779047E1    -4.931679723782401E1    -9.196643393181851E1     9.165253347138524E1    -8.913211604439077E1    -7.777065588789334E1    -9.018851890081190E-1   -1.809933901716726E1

 3.045000000000000E7    -2.803798359643218E-1    9.093010470194167E1    -5.435907147319890E1    -1.120355266517253      -8.933247060526286E1     1.399588685288126E2    -9.845517757653433E1     1.363390385332598E2
                        -5.415316801544971E1     1.257387817139893      -2.581417611425753E-1    8.697448729014104E1    -8.293433381101576E1     7.761140278801122E1    -9.737708143279832E1     1.710358918874364E2
                        -8.357112162294197E1     1.534479358430298E2    -8.557844227988866E1    -1.629316821379889E2    -9.336399138830188E-1   -2.134040065396496E1    -8.232803646887143E1     6.897669075848680E1
                        -9.726523922862170E1     1.418247689570150E2    -8.498972620872110E1    -1.534401019415183E2    -8.662568369344709E1     1.683753673420352E2    -8.976404777890428E-1   -1.840301559995530E1

 3.047500000000000E7    -2.838214217593242E-1    9.062369770382742E1    -5.451514799670076E1     6.002409840681791E-1   -8.498095671693622E1     7.649864048070111E1    -9.106237133631529E1     1.497465218059516E2
                        -5.435996192372879E1    -6.940683774020897E-1   -2.512637340594460E-1    8.664744047158500E1    -8.239597128683145E1     4.920820852156342E1    -8.170130666320999E1     2.355775667155217
                        -9.119880835554945E1     3.644015283905630E1    -9.007418523514610E1     9.167145383663842E1    -9.285356769721644E-1   -2.164235978706607E1    -8.422167613339619E1    -9.233130995224614E1
                        -8.970808826830543E1    -2.256164315171446      -8.930854200377299E1     1.053330098489911E2    -8.697503643789941E1    -6.455577984680565E1    -8.989689143619333E-1   -1.868996782335229E1

 3.050000000000000E7    -2.835654359776667E-1    9.025727484700275E1    -5.434497966152498E1    -1.955294908218280      -8.607659912551688E1    -7.165163828063761E1    -7.883547059857816E1    -1.633314773278993E2
                        -5.402045379640426E1    -2.839433818958942      -2.517263582411348E-1    8.624879478583256E1    -8.250494849355550E1     1.571428180349909E2    -8.649514956140352E1    -1.070160174976743E2
                        -8.300968949743924E1    -3.810920531284116E1    -8.817040071701800E1     1.026863780282140E1    -9.349578839612851E-1   -2.192974989470737E1    -8.806544632867046E1    -2.363507147433150E1
                        -8.940379673167416E1     1.302258286301044E2    -8.836371565945544E1    -1.046552040351931E2    -8.938553441205691E1    -2.992637318867749E1    -9.000559382231792E-1   -1.897502573701895E1

 3.052500000000000E7    -2.808521567890897E-1    8.997132863306180E1    -5.421571900371382E1    -1.035991050091169      -8.562938920933051E1     1.651596434292849E2    -8.899092823659302E1     1.339468146658784E2
                        -5.445522796319111E1    -2.456592415009549      -2.509867921026575E-1    8.587697393372044E1    -7.998005833069220E1     9.023700071250170E1    -9.525850491603931E1     1.711266804720426E2
                        -8.018927332187701E1    -1.914150191312362E1    -8.446855618926062E1     3.456486967412947E1    -9.299965159954865E-1   -2.226275197447338E1    -8.867254831414655E1     1.077819599272659E2
                        -1.015507605055972E2     1.360949399598185E2    -8.882979521581714E1    -1.076178283547525E2    -8.721520991515034E1     1.743695713071786E2    -9.012038740461231E-1   -1.928608038756726E1

 3.055000000000000E7    -2.778886320290074E-1    8.958890387642110E1    -5.368086030432566E1    -5.218762697245429      -8.095451308473676E1     7.587667115153117E1    -8.266194277178032E1    -5.682400471197867E1
