#  HZ   S   DB   R     50.00 
! Rohde & Schwarz Vector Network Analyzer 
! Rohde-Schwarz,ZNB8-4Port,1311601044102961,2.82
! Created: UTC 2/13/2019, 1:43:54 PM
! freq[Hz]                db:S11                  ang:S11                 db:S12                  ang:S12                 db:S13                  ang:S13                 db:S14                  ang:S14
!                         db:S21                  ang:S21                 db:S22                  ang:S22                 db:S23                  ang:S23                 db:S24                  ang:S24
!                         db:S31                  ang:S31                 db:S32                  ang:S32                 db:S33                  ang:S33                 db:S34                  ang:S34
!                         db:S41                  ang:S41                 db:S42                  ang:S42                 db:S43                  ang:S43                 db:S44                  ang:S44
! 
 5.525000000000000E7    -4.328152266053326E-1    9.741432489264162E1    -3.084889271058373E1     7.098703932512240E1    -8.829982067233944E1    -7.420480151850420E1    -8.413668446587110E1    -3.266807387452101E-1
                        -3.086112179140438E1     7.095574642992034E1    -2.247233568211613      -1.409052687023367E2    -7.795380419602238E1     1.947684861012279E1    -6.710337411089321E1    -1.501618510153100E2
                        -1.020905724102227E2     1.207403423435732E2    -7.794212077155358E1     7.583656407331859      -1.413840541440799       2.469153799359435E1    -1.103821618095780E2     1.658291726952926E2
                        -8.111976251507555E1     1.584782534928373      -6.631485151703348E1    -1.608457469026779E2    -9.359377272676012E1     1.112228173077225E2    -1.432923294985454       3.120915043220039E1

 5.525025000000000E7    -4.315670987227577E-1    9.741213776678646E1    -3.080132783525328E1     7.078673366744756E1    -8.741433514218502E1    -1.259628882372686E2    -8.127483415611515E1     9.623325243738509E1
                        -3.090193379065875E1     7.168591773991081E1    -2.246064803841862      -1.408909065102702E2    -7.973454013074635E1    -1.296813038206230E1    -6.635609174818012E1    -1.559378482677854E2
                        -1.014029315772846E2    -6.748376549031764E1    -7.727272153952028E1    -2.422121649370090E1    -1.409226267302791       2.471439672420937E1    -7.910902608741600E1     1.518234745964317E2
                        -9.051666721540272E1    -8.447183666583175E1    -6.658338110082222E1    -1.577418948271619E2    -8.663686176591767E1     1.980303949254869E1    -1.433736333463691       3.117804672663732E1

 5.525050000000000E7    -4.346083629185490E-1    9.742068690565083E1    -3.078741151885552E1     7.056924481775918E1    -8.499536444244912E1    -1.658042064551595E2    -8.724541899022287E1    -1.275641311709931E2
                        -3.091104444154463E1     7.142898869955832E1    -2.247915866653071      -1.409618602528950E2    -7.934918160466746E1     2.992351634990500E1    -6.687575594890789E1    -1.469729113645957E2
                        -8.219735201902638E1     1.781407706202398E2    -7.581803073469462E1    -2.303775351570123E1    -1.413888770995755       2.471756032244534E1    -8.505369976252325E1    -2.124806290243106E1
                        -8.515183635613029E1     4.039684229163714E1    -6.650329683362956E1    -1.631583477728401E2    -9.592880332474184E1    -1.492757094242043E2    -1.429705327273096       3.119439918575244E1

 5.525075000000000E7    -4.343177264986282E-1    9.745341460328791E1    -3.083372185878073E1     7.075419946988022E1    -9.148130653231009E1    -4.761757683667363      -8.304885816946184E1     2.610644359492372E1
                        -3.075037848167568E1     7.085306594650770E1    -2.253698533297930      -1.410134008740425E2    -7.898092796539059E1     9.058614929225485      -6.722763525887262E1    -1.512085986855165E2
                        -9.155364394062396E1    -1.487025141274010E2    -7.806729544669145E1     7.178131074759182      -1.413137326852392       2.468956533881873E1    -8.557177295385456E1     1.728008397486229E2
                        -8.488450926233547E1     7.449602729484076E1    -6.621513717609051E1    -1.629249776415263E2    -9.434659397016822E1     3.560371571338789E1    -1.433812769046672       3.120752260969971E1

 5.525100000000000E7    -4.323387506544992E-1    9.744237282543737E1    -3.086976319115631E1     7.118347665043713E1    -8.894705210676938E1     4.340255968481305E1    -9.089107192062247E1    -1.507829337175588E2
                        -3.076544892471654E1     7.047270381649916E1    -2.259222803688020      -1.410531851982432E2    -7.591149387668000E1    -1.251385831984357E1    -6.556647437985195E1    -1.540401813808078E2
                        -8.587311175640323E1     5.928989947312664E1    -7.693360050626728E1    -1.562289950009423E1    -1.412562073780658       2.468503544857871E1    -8.888556544729499E1    -2.543149172279216E1
                        -8.095713776460190E1    -8.728419308073276E1    -6.748038062279517E1    -1.559432663642168E2    -8.830289655006618E1     6.261830939401528E1    -1.432364794681438       3.116837168172354E1

 5.525125000000000E7    -4.317785957206288E-1    9.741631063011481E1    -3.073251437612345E1     7.144863596778150E1    -9.097793821533621E1    -1.705844441063155E2    -8.956804946645235E1    -4.947508146091735E1
                        -3.082772819670035E1     7.146437096976867E1    -2.255368499347478      -1.410998226652959E2    -8.007457181415350E1    -1.311671147828006E1    -6.610046321139730E1    -1.528321494194185E2
                        -8.102935425227560E1    -4.948795788102208E1    -7.443627629418957E1     1.793731882169743E1    -1.414051787567666       2.466053703052198E1    -8.938013835129178E1    -1.478762543288198E2
                        -9.494569281912133E1    -8.262298642473854E1    -6.743967108305492E1    -1.534242849253064E2    -8.096687390881947E1     4.673464270529492E1    -1.434368489609002       3.119305558143360E1

 5.525150000000000E7    -4.311386195982537E-1    9.743589106667329E1    -3.082198915908734E1     7.133107129739354E1    -8.595000563719596E1     3.888345541529964E1    -8.881627525090030E1     1.093825408686480E1
                        -3.080987718768327E1     7.176745407351537E1    -2.264883351125262      -1.411491391785466E2    -7.892847162075898E1     4.783851978044192      -6.602968615808359E1    -1.474873278415999E2
                        -9.634565082085855E1    -1.321764908473938E2    -7.347781070473349E1    -2.275373281777758E1    -1.411582636202460       2.469467343260440E1    -9.883718542041834E1     6.361079115557468E1
                        -8.253141135794181E1    -5.303637016090348E1    -6.784445234611813E1    -1.569738260036234E2    -8.346406292255792E1     8.704729420564983E1    -1.433716890157429       3.119588655721599E1

 5.525175000000000E7    -4.318452760718651E-1    9.739913162158304E1    -3.082524446359180E1     7.103008332977122E1    -9.365798366789150E1     8.134911759380793E1    -7.720892726969717E1    -1.487723854575038E2
                        -3.090690705922206E1     7.044851715850764E1    -2.265907662082152      -1.412050847206322E2    -7.642366664056077E1    -1.922046371560410E1    -6.665370817259371E1    -1.599958127617440E2
                        -9.505671481469001E1     6.188381390095709E1    -7.445268722655108E1    -9.338418659971634      -1.412426120400527       2.469442071809846E1    -1.012902120165715E2    -1.364736067439781E2
                        -9.096273226447525E1     4.021308282318886E1    -6.645381845793420E1    -1.600184701846268E2    -8.069964709235718E1    -5.657483090462716E1    -1.436248530526021       3.117819888487436E1

 5.525200000000000E7    -4.322246596951706E-1    9.738072795871941E1    -3.076338551094266E1     7.175612600070009E1    -9.178356507675733E1    -4.961381273986836E1    -8.312462814278700E1    -7.009370651786466E1
                        -3.088018915753581E1     7.153532834002994E1    -2.262991988052446      -1.412052898802446E2    -7.661239298304140E1    -1.323067218636064E1    -6.622520370169289E1    -1.589616597056958E2
                        -9.151707010936954E1     8.400011529025029      -7.204224567715103E1     2.486933538964308E-1   -1.414834424978600       2.464211428166009E1    -8.498086518518291E1    -5.057988311848747E1
                        -8.903077111339880E1     5.671621277635218E1    -6.642429518449623E1    -1.606953860907921E2    -8.864249554090121E1     1.097498766909609E2    -1.440955351266565       3.119455747363475E1

 5.525225000000000E7    -4.358299101646673E-1    9.740276790595759E1    -3.092630129351646E1     7.133100931182814E1    -9.099886914503580E1    -1.759014028907647E2    -8.037183036806580E1     1.139729806281450E2
                        -3.086833007083111E1     7.068005641832230E1    -2.271028846508188      -1.412253493886103E2    -7.969754234652481E1     1.392473458397586      -6.718164721812924E1    -1.577865294126552E2
                        -1.073299237835316E2    -8.128101611913486      -7.707909900336222E1     2.235848914381718E1    -1.408164530309691       2.467589735602922E1    -9.319567990064444E1     1.458625714789378E2
                        -9.460110806116953E1    -8.480226344006300E1    -6.588716506721902E1    -1.549391355612695E2    -8.367335679470686E1     1.123997773173842E2    -1.436608568784018       3.116452711160885E1

 5.525250000000000E7    -4.309978526074937E-1    9.737974811147907E1    -3.084519211328818E1     7.124184221933825E1    -8.251693605657003E1    -1.728411369818755E2    -8.382135845562220E1    -9.312466446306910E1
                        -3.086451368606351E1     7.088611375261678E1    -2.266467516333437      -1.412687273319467E2    -7.782388187417635E1    -1.664445786583386E1    -6.740717515923689E1    -1.590546628295305E2
                        -8.443326344055093E1     1.742730859495509E2    -7.563737021795312E1     2.416670864226026E1    -1.411288712028211       2.464356679877704E1    -8.906957428588498E1    -1.526618472539406E2
                        -8.816145075109043E1     1.291462626650354E2    -6.656123067259496E1    -1.587258060461268E2    -8.802911492476424E1     4.208715875669651E1    -1.433856541655919       3.119388092294122E1

 5.525275000000000E7    -4.344128176082630E-1    9.737093093928172E1    -3.087767360313207E1     7.090842362908661E1    -8.460053849901257E1     6.043289686920563E1    -9.708972314618657E1    -4.567929105501927E1
                        -3.086405413480086E1     7.016730564730950E1    -2.275443315328245      -1.413247275978287E2    -7.494934157128873E1    -6.963020073701887      -6.754302117036147E1    -1.558349675995514E2
                        -1.135453196390818E2     6.232824089481415E1    -7.242972663178693E1    -1.397733753631254E1    -1.411023437658106       2.464957459635865E1    -9.930805447497741E1    -1.419449383693728E2
                        -9.993917477664631E1     9.014454827304760E1    -6.644875754532006E1    -1.607775238892949E2    -8.944587520954663E1    -1.571387297230937E2    -1.432174036359486       3.118129093892203E1

 5.525300000000000E7    -4.329407655129387E-1    9.739045604175300E1    -3.086259153252545E1     7.123061086320922E1    -8.322220089211220E1     1.402799265581907E2    -8.274735400239509E1     8.218846570303548E1
                        -3.080312393435416E1     7.094867982494452E1    -2.277782433948278      -1.413670868423321E2    -7.807149929024963E1    -5.044670738925219      -6.724212336638389E1    -1.489293995140845E2
                        -8.360686164844685E1     1.680661900445920E2    -7.892632061524043E1    -6.407446276500876      -1.408445668939953       2.468656468107726E1    -9.153554363980308E1     1.226689898261927E2
                        -8.984547590641823E1     4.775987389834414E1    -6.601214789115245E1    -1.559954631153852E2    -9.987956462894481E1     1.131075001071558E2    -1.430079686061961       3.116533409579071E1

 5.525325000000000E7    -4.279977042299199E-1    9.737396147072562E1    -3.090080237424305E1     7.078144270441644E1    -9.177254321073612E1     7.673422927677203E1    -8.552940463401004E1     1.377142859857677E2
                        -3.094395545580850E1     7.072573454863317E1    -2.281390406786312      -1.414230808906406E2    -7.771601738987829E1    -5.434652519603505      -6.719112505605503E1    -1.643162940231900E2
                        -9.463023541493158E1     1.433428415632029E2    -7.382950353211761E1     1.717153877660686E1    -1.415170560077862       2.468121560651963E1    -8.138390987591504E1     3.183948666396758
                        -9.001273983771714E1     1.774634992816538E1    -6.626514573182692E1    -1.624267043686069E2    -8.344655254522145E1    -1.271434838881656E2    -1.436058214781172       3.116876026442329E1

 5.525350000000000E7    -4.272274022498135E-1    9.736043595856469E1    -3.085114383888397E1     7.129906620522948E1    -8.333692063279683E1     5.579209676850007E1    -8.899511438424129E1     1.343105534975970E2
                        -3.084696222795397E1     7.085434433773581E1    -2.284027600145434      -1.414956370037027E2    -7.718941963567333E1     2.177660709483851      -6.664471426373606E1    -1.517629941989177E2
                        -8.930990079524594E1    -1.660033743354958E2    -7.466795929588260E1    -2.137545527014349E1    -1.411885442030147       2.467093061030698E1    -9.390780794232185E1    -1.406885599705306E2
                        -8.997789693661362E1    -1.739654675471253E1    -6.649189176181119E1    -1.577575653080557E2    -9.590487537608560E1     8.033166103364421E1    -1.429025781998616       3.116829300291920E1

 5.525375000000000E7    -4.307059718690989E-1    9.735828660515359E1    -3.087006265816058E1     7.133843680420920E1    -8.643984333487246E1    -1.366544848964222E2    -9.154438326626290E1     9.506062938393468E1
                        -3.094632374563745E1     7.068917447462313E1    -2.286051287918088      -1.414788923756000E2    -7.715725324868464E1    -3.878911339472019      -6.587966101487113E1    -1.522375398219837E2
                        -8.407432917184359E1     8.642736419492321E1    -7.554759203495864E1    -1.011816359380745E1    -1.409259340640114       2.467679452637323E1    -8.123549711137468E1     1.144815873619556E2
                        -8.867975623482799E1    -1.017410438188743E2    -6.674247980242510E1    -1.519403682541883E2    -8.561153429980008E1     4.777163557405373E1    -1.429374996832671       3.114572492679858E1

 5.525400000000000E7    -4.297149182124310E-1    9.740206411766737E1    -3.086189725696761E1     7.040038248011419E1    -8.068352791930558E1    -8.015889688403743E1    -9.135640049007817E1    -2.800914234860684E1
                        -3.093860764699564E1     7.068460353415722E1    -2.291312732813283      -1.415441021431748E2    -7.690545304840128E1    -4.372695539252570      -6.532076757570712E1    -1.596393911465425E2
                        -9.314379902868809E1    -1.499245864528566E1    -7.778870225083242E1    -3.123789240403235E1    -1.409870414230714       2.465398712399823E1    -8.504808134079093E1     3.417168835672713E1
                        -8.558278740209786E1     1.785998705496321E2    -6.705687773107410E1    -1.596503690646831E2    -9.176781719734254E1     1.052489645367180E2    -1.434498138902052       3.112792468985576E1

 5.525425000000000E7    -4.318939601287616E-1    9.735340042512884E1    -3.092872140394575E1     7.081382273534547E1    -8.424142538392610E1    -2.092906202476991E1    -9.382487246381486E1    -1.189201215515600E2
                        -3.088851795843397E1     7.126598370929220E1    -2.290952028672354      -1.415609805411432E2    -7.933295760086210E1     1.475818792174048E1    -6.796769356727036E1    -1.493173325185398E2
                        -9.394439092129997E1    -1.042846169963430E2    -7.800250384701803E1    -2.139925911251269E1    -1.408843903033627       2.463707744555886E1    -8.579709092555243E1    -1.083199239946044E2
                        -9.284507316753009E1     1.252040706110241E2    -6.651095563677005E1    -1.532186480827487E2    -7.963928658981607E1     1.416190490264621E2    -1.433081802111655       3.115537164361805E1

 5.525450000000000E7    -4.349122018426087E-1    9.733302348513543E1    -3.080129703375397E1     7.089163645433649E1    -9.113817830857242E1     1.383288837364777E2    -9.374006556250819E1     1.098625446644781E2
                        -3.090576110492068E1     7.129879942897398E1    -2.288515619160020      -1.416193878453074E2    -7.723291540487888E1    -1.436245269859183E1    -6.693690602109618E1    -1.657945379569566E2
                        -8.769587930657274E1     4.787672105620299E1    -7.379005070957688E1     1.504403174498983E1    -1.409811502425011       2.465126736961982E1    -8.670315952251926E1     4.378528663360330E1
                        -8.423316486620431E1    -1.381259439267539E2    -6.677486754627485E1    -1.579721230905643E2    -9.098938402364857E1     2.992964406125605E1    -1.430614070806377       3.116834122137930E1

 5.525475000000000E7    -4.326621189546311E-1    9.736984657792878E1    -3.086523842970966E1     7.074855437519447E1    -8.586519629007618E1     6.707209492809253E1    -8.626518016381471E1     2.944303162508948E1
                        -3.086438452342259E1     7.037491730163073E1    -2.298099774534394      -1.416556293692838E2    -7.617540553424691E1     1.104879541782616      -6.597162668488477E1    -1.570294814977061E2
                        -9.090547986843569E1    -9.097503421024075E1    -7.516692804713678E1    -9.072826744062578      -1.412539617686240       2.463357202631750E1    -8.717085273769635E1    -1.426668961418972E2
                        -8.418137914422999E1    -1.228672162832125E2    -6.908266885598096E1    -1.495681439249827E2    -8.924599910398115E1     1.193526180829490E2    -1.433261812543393       3.111248575356794E1

 5.525500000000000E7    -4.316979048421460E-1    9.732912431570563E1    -3.083167771935236E1     7.109181865630225E1    -8.237216328106734E1     8.061031971895046E1    -8.584436650125977E1    -9.075990748252167E1
                        -3.092156226438928E1     7.058049230356750E1    -2.299114088021983      -1.417339069607650E2    -7.560503560742359E1    -2.260086828676005E1    -6.685553678099694E1    -1.554467393178363E2
                        -8.677789466255943E1    -1.128815147615952E2    -7.456270644580943E1    -1.429451077026561E1    -1.411278392434147       2.466190892517810E1    -8.701532606057728E1     5.781173029747845E1
                        -8.576113613183175E1     3.733737890216596E1    -6.810826773682102E1    -1.662712691870780E2    -8.458750141610767E1     9.804222378381442E1    -1.427560232356667       3.113889366980283E1

 5.525525000000000E7    -4.288271972805002E-1    9.733354177525114E1    -3.085389825654596E1     7.123387654215514E1    -8.251472423846779E1    -7.500607739479365E1    -8.299843237205411E1     5.982606580245685E1
                        -3.085716970988489E1     7.071892871576100E1    -2.296520047258385      -1.417098152650211E2    -7.321791289554896E1    -1.290674159545647E1    -6.570649630287437E1    -1.595211895614398E2
                        -8.036255349651509E1     1.492715607079932E2    -7.935180912875609E1    -2.459472548635033E1    -1.409017205679636       2.461985361880256E1    -8.363704023297464E1    -6.421788850440983E1
                        -8.455222489831471E1    -3.700469646514826E1    -6.602542974367407E1    -1.640452605092058E2    -9.371921427021758E1    -1.023174555384889E2    -1.429800791446930       3.112068862547712E1

 5.525550000000000E7    -4.324976848202954E-1    9.733425973110919E1    -3.082339499073948E1     7.089077102431821E1    -8.204530576065908E1    -8.255522668162660      -8.131038170196761E1     7.969119396655783E1
