#  HZ   S   DB   R     50.00 
! Rohde & Schwarz Vector Network Analyzer 
! Rohde-Schwarz,ZNB8-4Port,1311601044102961,2.82
! Created: UTC 2/13/2019, 12:01:59 PM
! freq[Hz]                db:S11                  ang:S11                 db:S12                  ang:S12                 db:S13                  ang:S13                 db:S14                  ang:S14
!                         db:S21                  ang:S21                 db:S22                  ang:S22                 db:S23                  ang:S23                 db:S24                  ang:S24
!                         db:S31                  ang:S31                 db:S32                  ang:S32                 db:S33                  ang:S33                 db:S34                  ang:S34
!                         db:S41                  ang:S41                 db:S42                  ang:S42                 db:S43                  ang:S43                 db:S44                  ang:S44
! 
 5.525000000000000E7    -4.813677512780604E-1    9.729589095387969E1    -3.048445399144411E1     6.902995769241517E1    -9.152898427661518E1    -1.390389831749484E2    -9.965665412801053E1    -8.147332069954241E1
                        -3.063372206125882E1     6.869861629059579E1    -4.359890126393429      -1.566217778638808E2    -6.819985418062404E1    -1.644349113040659E2    -7.705783946665892E1    -2.318629770758673E1
                        -8.256289761556562E1     9.385957834606096E1    -6.631383012296685E1    -1.692177614066734E2    -1.412818232024881       2.475827524726378E1    -8.348334859164540E1    -2.998495218386856E1
                        -8.735869479808213E1     3.220796665226140E1    -7.308722361903983E1    -2.308432320704134E1    -1.011310097683352E2     3.993887233230491E1    -1.426595674446123       3.124071961605973E1

 5.525025000000000E7    -4.779544447687849E-1    9.728551478660056E1    -3.046048122830230E1     6.883732650402045E1    -8.216086778723125E1    -7.405676790531504E1    -8.913376396079231E1     1.000627008820270E2
                        -3.046968114852584E1     6.862477527377504E1    -4.365557920909859      -1.567033202897584E2    -6.711415034012069E1    -1.635083968977235E2    -7.417668075158218E1    -2.858027620834159E1
                        -9.101777842056680E1    -9.635104636586574E1    -6.641037662306583E1    -1.741457467081188E2    -1.411386740829713       2.474247708220111E1    -9.284774933562790E1    -8.695950239446371E1
                        -8.934940797206814E1    -1.001257118038597E2    -7.366359480402217E1    -9.048143567629296      -9.203043982660785E1     2.678764608623208E1    -1.427172232967258       3.125603530626434E1

 5.525050000000000E7    -4.812473203427924E-1    9.724926350976260E1    -3.062874120482510E1     6.845719089863283E1    -8.514689713819720E1    -1.507663221850174E2    -9.445451521986810E1     2.927454798528878E1
                        -3.062406760699027E1     6.921227114369245E1    -4.372955396431498      -1.567401670366504E2    -6.728327428792083E1    -1.721118164618505E2    -7.125257865516402E1    -2.439230413809611E1
                        -8.747391892723904E1     2.423820193609992E1    -6.703691411696845E1    -1.673241500790560E2    -1.410534038223210       2.477769308997969E1    -9.132803286262379E1     9.907941444975316E1
                        -8.613303817262653E1    -1.865543246669148E1    -7.412289663037203E1     2.815116739532978      -9.612441251422325E1    -1.821415041029476E1    -1.436285453278349       3.124548904672811E1

 5.525075000000000E7    -4.833815369606206E-1    9.724152894500350E1    -3.055788862677311E1     6.844600027648754E1    -8.540697005950958E1     1.821674995043624E1    -8.526311987004357E1    -8.195946417333070E1
                        -3.062771460762455E1     6.882309407294029E1    -4.380801867820038      -1.567566735289629E2    -6.783378074935368E1    -1.724305994764317E2    -7.227475868818165E1    -3.196553112627635E1
                        -8.391720497340025E1    -4.054291811374522E1    -6.692741826834696E1    -1.749132232998128E2    -1.408824817343634       2.473505778193783E1    -8.726668527596138E1    -1.044250748462207E2
                        -9.023604790175418E1    -4.736568901427337E1    -7.685089245086699E1    -1.296816413855435E1    -8.663724519660575E1     1.764169615991494E2    -1.433551573484765       3.122766829012452E1

 5.525100000000000E7    -4.808241689127107E-1    9.724735790960484E1    -3.049021883738781E1     6.875033729221516E1    -8.534012068290694E1    -2.300053088901426E1    -8.234332388031095E1    -8.263952148816486E1
                        -3.053985204946415E1     6.875454751010138E1    -4.377837445297613      -1.567890202612767E2    -6.808177519717275E1    -1.660641244602695E2    -7.513826279377489E1     3.188062574042482
                        -8.819292302506126E1    -6.108162345224039E1    -6.708928221895292E1    -1.678667413847496E2    -1.408895766651071       2.475056755187287E1    -9.557129858468389E1     7.116818438221212E1
                        -8.383437394551547E1     3.531708719277464E1    -7.457752752214320E1    -2.085707148644113E1    -8.705912460625170E1    -6.414263456447467E-1   -1.428452864114999       3.124949356195751E1

 5.525125000000000E7    -4.762544670973894E-1    9.723333451782833E1    -3.053345301292602E1     6.871532484110720E1    -8.145585561008788E1     7.346224184673280E1    -8.418376527810436E1    -9.094948059203077E1
                        -3.065667921000453E1     6.816849930725023E1    -4.384203572199728      -1.568515452717956E2    -6.895921679267009E1    -1.659018697861748E2    -7.398151764488820E1    -1.489450580141593E1
                        -8.850308252952016E1     2.185332278679839E1    -6.686290046171189E1    -1.675884872535813E2    -1.410663248811966       2.470062102166919E1    -9.389689293361249E1    -1.144559124703719E2
                        -8.248152972339011E1    -2.312323581065472E1    -7.385277529721959E1    -8.584238073441659      -8.514176402169295E1     5.639384759291796E1    -1.433237653800035       3.124884652097983E1

 5.525150000000000E7    -4.801139125261739E-1    9.723473328973988E1    -3.052169963050198E1     6.911845635902961E1    -8.711849503696330E1     9.339401355643831E1    -8.051091679704457E1    -3.251587538433692E1
                        -3.057854710994447E1     6.889596588339873E1    -4.396440358724230      -1.568679763940170E2    -6.804606271388124E1    -1.719591027268303E2    -7.390491312797040E1    -1.882453399788746E1
                        -8.600863667349346E1    -1.229458368023299E2    -6.728385938592652E1    -1.672557478613052E2    -1.408826615685584       2.471672182064129E1    -8.681727003220040E1     4.466752309854445E1
                        -8.894430654608283E1     3.558450109072392E1    -7.683723656086397E1    -2.078938399855852E1    -8.862404839715815E1     1.039946608552284E2    -1.430620600119851       3.123466098665942E1

 5.525175000000000E7    -4.777638732271752E-1    9.723473900390297E1    -3.054854743702925E1     6.826685973655057E1    -9.937739637440502E1     6.509742180072387E1    -8.826854840790767E1    -8.816173069904772E1
                        -3.054041153148896E1     6.876342479202691E1    -4.396349313322341      -1.569770526380020E2    -6.747837101722425E1    -1.617543140451545E2    -7.448428257690455E1    -2.846061279443300E1
                        -8.524462711946930E1    -9.664167473505491E1    -6.627286215221156E1    -1.679203338878854E2    -1.413753842414299       2.473346437054265E1    -8.779096374501734E1     3.127399519233948E1
                        -9.666410461052635E1    -1.212479759638648E1    -7.411244497385954E1    -1.972456132528018E1    -8.727044959310052E1     5.574748643389639E1    -1.429718690097199       3.121254995714208E1

 5.525200000000000E7    -4.811840205157721E-1    9.723410728169101E1    -3.048113592998552E1     6.881652514939405E1    -8.746142388425982E1     4.443555970821073E1    -8.296897900576568E1    -1.604793323918971E2
                        -3.057141901467529E1     6.837162868637432E1    -4.401477280413642      -1.569886612950201E2    -6.709946064495350E1    -1.765849906718696E2    -7.378884672172111E1    -8.538523041652102
                        -8.998175892440555E1    -3.632181966971653E1    -6.726492099781213E1    -1.657726602696787E2    -1.408848066441407       2.472296591531138E1    -9.656356348705613E1     3.829825565089289E1
                        -8.962780863385291E1     3.714328454479879E1    -7.932010615281706E1    -2.444545290972191E1    -9.356547450088880E1     7.159442680008874E1    -1.428081710930122       3.119094819547989E1

 5.525225000000000E7    -4.818934337282552E-1    9.720037674587900E1    -3.047745609619081E1     6.862278595107313E1    -8.371467372188650E1     1.117261895406470E2    -8.746549510524025E1    -6.243078818054795E1
                        -3.065139967427644E1     6.768917151062136E1    -4.401638050064274      -1.570413228089860E2    -6.732974440345849E1    -1.711924495874121E2    -7.387978283249302E1    -3.077954887036034E1
                        -8.785656978586030E1     3.969594657662164E1    -6.730002089758527E1    -1.704774322191412E2    -1.410493716402234       2.471316783944650E1    -8.886936391017932E1    -1.002013666973573E2
                        -8.059491461434413E1    -3.714196707600740E1    -7.488148433348439E1    -2.175682381359542E1    -8.413635361091599E1    -3.942113911566960E1    -1.429852867305780       3.121816295367745E1

 5.525250000000000E7    -4.759525453638669E-1    9.721948349252206E1    -3.052323491344549E1     6.829412754819497E1    -8.394374027929439E1     1.459467728213208E1    -8.756420889650815E1    -8.188374903231571E1
                        -3.057623835178868E1     6.802516690281483E1    -4.406309393588609      -1.570881295005602E2    -6.796011113428243E1    -1.760537148843706E2    -7.566166500222865E1    -1.553617408230393
                        -8.054525589069060E1    -9.736628383696016E1    -6.851340339194134E1    -1.787141706076915E2    -1.409540914568126       2.473495580899300E1    -9.139981716955035E1     4.661797001637964E1
                        -8.519590051268318E1     1.068343932268738E1    -7.270055748143618E1    -1.091199571786499E1    -8.788718427617125E1    -4.944796084403097E1    -1.430811131694894       3.120015437739641E1

 5.525275000000000E7    -4.797075750089306E-1    9.722861740923294E1    -3.061885888970620E1     6.856688488823515E1    -8.356207976476510E1     1.329194809621519E2    -9.313702406508001E1    -8.619963717896741E1
                        -3.068080112463795E1     6.758419834376021E1    -4.411082741687494      -1.570697037943818E2    -6.581775072109926E1    -1.743932407163163E2    -7.225896587630768E1    -1.929512113198504E1
                        -8.786066376497996E1     2.275397518373383E1    -6.595258938519682E1    -1.693452740688189E2    -1.412867848533182       2.473071146948280E1    -8.805041128176623E1    -2.878634280638009E1
                        -8.974490426947172E1     1.515722347739940E2    -7.343806446987668E1    -2.228493742743403E1    -8.966540185115724E1    -1.991902451221785E1    -1.434602639389686       3.120568324544635E1

 5.525300000000000E7    -4.775728917102996E-1    9.721892615627117E1    -3.060957581905106E1     6.879714517148385E1    -8.590723392822025E1    -5.588257404287245E1    -9.407366678435943E1    -1.746637974358485E2
                        -3.052079040493577E1     6.850872687599545E1    -4.421519205601800      -1.571839929108712E2    -6.624272827730005E1    -1.750135206846713E2    -7.423250690678748E1    -2.012731793324035E1
                        -8.594677209998457E1     1.441555549236781E2    -6.746418262030221E1    -1.754548531458509E2    -1.409625027282263       2.472031496011183E1    -8.684183540725621E1     1.729318846935696E2
                        -9.072109973277213E1     8.622596167817052E1    -7.362918099873889E1    -1.344479048489408E1    -9.226553940279672E1     1.284328806383601E2    -1.429647063817290       3.121184899797283E1

 5.525325000000000E7    -4.765990658751363E-1    9.719970804648554E1    -3.049767253001156E1     6.847246424001173E1    -8.661724866866557E1    -1.795981692373715E2    -8.258614321199994E1    -9.370428165893647E1
                        -3.061261822853613E1     6.825121039297903E1    -4.429328588166394      -1.572319177590069E2    -6.621532432350207E1    -1.691290666910413E2    -7.879317422184570E1    -9.994611754264195
                        -8.654846288934351E1    -6.102903369570495E1    -6.679106812494408E1    -1.665476526538428E2    -1.406270142908688       2.475799984598035E1    -8.338330226317241E1     1.421550254277113E2
                        -9.556605916691709E1     1.606451827436838E2    -7.597307661805903E1    -2.166039618997005E1    -9.075276707478562E1    -1.067567761297910E2    -1.431002110650219       3.120840985673295E1

 5.525350000000000E7    -4.782252159090529E-1    9.719221530835966E1    -3.064690556612652E1     6.843640337922653E1    -8.134210179954584E1    -1.353053810746310E2    -8.153919955588486E1     1.467947236523071E2
                        -3.060698550599913E1     6.888029258745102E1    -4.423570468329176      -1.572926419566114E2    -6.763366235340710E1    -1.703803841043855E2    -7.368732881037148E1    -1.185296232306348E1
                        -9.817480542032570E1    -2.423007173284176      -6.710049455991599E1    -1.654362239172333E2    -1.413715510246507       2.470469357978429E1    -8.304802341481289E1    -6.572863383307985E1
                        -9.587133287153458E1    -1.242558310555258E2    -7.649441261902989E1    -2.059355804915474E1    -8.515221357277115E1    -1.531843017863031E2    -1.432235099903467       3.119751077419589E1

 5.525375000000000E7    -4.792015630835567E-1    9.717462174608744E1    -3.046669717389357E1     6.850458855630770E1    -8.398537003904310E1    -6.435119202538643      -8.338047629251253E1     1.053252022234801E2
                        -3.060955202349403E1     6.802726414695658E1    -4.431659757890821      -1.572967692355666E2    -6.632481329872459E1    -1.748997237617940E2    -7.111949071428529E1    -1.275149039369111E1
                        -8.742465886137859E1     5.770632816246756      -6.726562981943317E1    -1.775760298219510E2    -1.410910444062922       2.471985704303295E1    -8.350207929717317E1    -7.085726003589323
                        -7.967554011595504E1    -8.565270333802019E1    -7.637531833776495E1    -2.732914793234306E1    -7.961619196447882E1    -1.798223290004198E2    -1.429952903003043       3.121396199127700E1

 5.525400000000000E7    -4.748618315856836E-1    9.720828983737482E1    -3.063768352833399E1     6.843754837047398E1    -8.613403113783949E1    -6.814177548473377E1    -9.029563255337104E1     1.568584065590579E2
                        -3.059979688454065E1     6.804248330720586E1    -4.437934568285535      -1.573328542835650E2    -6.677235298691974E1    -1.652049133899606E2    -7.292279459880551E1    -2.605093473467676E1
                        -8.839184506936047E1     3.771764115581323E1    -6.713673442069940E1     1.793199197221391E2    -1.406591606298102       2.471393812747821E1    -9.061341805616841E1    -1.285470384749100E2
                        -8.873488182215360E1    -5.104062079526652E1    -7.500353607982282E1    -9.032312701609460      -9.219422373690793E1    -1.534738905270259E2    -1.433438568478304       3.121981970249184E1

 5.525425000000000E7    -4.779343322055935E-1    9.718903393913755E1    -3.057916770261873E1     6.842977552211642E1    -8.466253694814409E1    -4.792287101582436E1    -8.826866594848531E1     4.784951613382087E1
                        -3.059675476204509E1     6.849300096797306E1    -4.442306891247934      -1.574018144048003E2    -6.720284500035183E1    -1.682446641996647E2    -7.292935679709933E1    -5.997036166572082
                        -9.534592999488497E1    -3.303835125950756E1    -6.549353475866711E1    -1.749368221230112E2    -1.406508739924994       2.471930319187309E1    -8.051615661208234E1     5.211309182769480E1
                        -8.100723658508430E1    -1.707258697472841E2    -7.494847630271832E1    -3.272167442341227E1    -8.841669446031347E1    -9.226903084596593E1    -1.432828793025541       3.117157848727422E1

 5.525450000000000E7    -4.808166464082285E-1    9.721282067342703E1    -3.056297025326522E1     6.893743921128973E1    -9.276713177503913E1     8.600863392428227E1    -8.948615004065016E1    -1.245911981969729E2
                        -3.067754700193134E1     6.870291177325169E1    -4.451689298569291      -1.574254367251808E2    -6.676210134404067E1    -1.687567981255990E2    -7.432830435709469E1    -3.531259859193454E1
                        -8.575510884683369E1    -3.436185297508315      -6.618370567783511E1    -1.661206445367776E2    -1.407933705296196       2.468337633202854E1    -8.922069938300403E1    -1.249128209773353E2
                        -8.467952566968390E1    -1.606360920461040E2    -7.375458118198276E1    -2.027216292424316E1    -8.239986290536884E1    -3.812236197499275E1    -1.426674598544811       3.121038291368965E1

 5.525475000000000E7    -4.802879537613999E-1    9.718200708474305E1    -3.054760402731479E1     6.868479645797456E1    -8.801201787127567E1     3.124429215018999E1    -8.495817518043113E1    -9.503137498157658E1
                        -3.070127536482654E1     6.862247960194854E1    -4.458623515324483      -1.574501654494574E2    -6.688897536550931E1    -1.685008097282918E2    -7.458623682999536E1    -3.218141198898960E1
                        -8.528147721711598E1    -6.390318703322011E1    -6.765159006853571E1    -1.732960425819946E2    -1.410812749826945       2.473199990094940E1    -8.952797050842707E1     1.073565351823840E2
                        -8.473515363233403E1    -1.064226148008672E1    -7.275251560658273E1    -2.769291247782940E1    -8.632915434731686E1     3.618946658032807E-2   -1.427344343057473       3.119134957414965E1

 5.525500000000000E7    -4.727528651152996E-1    9.716727018566121E1    -3.059254214773063E1     6.773291883292451E1    -8.996330256769396E1    -9.947340242571440E1    -8.802149858860899E1     4.647218228862825E1
                        -3.062662854437919E1     6.745279608634749E1    -4.466867645429456      -1.575253678381069E2    -6.672194873133745E1    -1.749336948062134E2    -7.320387316475825E1    -3.529264064682094E1
                        -9.937799699556220E1    -1.407021977814720E1    -6.659636963356499E1    -1.727400050781563E2    -1.414312972949613       2.469753889515559E1    -9.652476304841089E1     9.007284141373676
                        -9.001127913406415E1     1.201330772897197E2    -7.296761035651704E1    -4.651760582549939E1    -8.425150248222302E1     4.957528864906433E1    -1.432360047487325       3.120907988658918E1

 5.525525000000000E7    -4.768819949824064E-1    9.716815940815813E1    -3.053600530225897E1     6.811695308310669E1    -8.616539658134875E1     7.016713440580639E1    -9.587261017253526E1    -9.973652218945216E1
                        -3.060661331970301E1     6.856090308850834E1    -4.463047570087546      -1.575740174502878E2    -6.820309560437509E1    -1.713552028011120E2    -7.572968989014173E1    -2.111463931128333
                        -8.077595180502746E1    -5.482678264512700E1    -6.631060219701671E1    -1.725974362147795E2    -1.407494585189927       2.468828623515496E1    -8.436304088323954E1     9.926006377865407E1
                        -8.336231284551437E1    -7.945837219452798E1    -7.547652034098880E1    -1.821981015595431E1    -8.445256044609661E1    -6.935359944666983E1    -1.433153838125594       3.116843404718120E1

 5.525550000000000E7    -4.758103145119775E-1    9.713792754102632E1    -3.058906050393995E1     6.874490580848104E1    -8.887036741788486E1     2.948178065826341      -8.883646571970479E1    -1.386160882100540E2
