#  HZ   S   DB   R     50.00 
! Rohde & Schwarz Vector Network Analyzer 
! Rohde-Schwarz,ZNB8-4Port,1311601044102961,2.82
! Created: UTC 2/13/2019, 1:57:46 PM
! freq[Hz]                db:S11                  ang:S11                 db:S12                  ang:S12                 db:S13                  ang:S13                 db:S14                  ang:S14
!                         db:S21                  ang:S21                 db:S22                  ang:S22                 db:S23                  ang:S23                 db:S24                  ang:S24
!                         db:S31                  ang:S31                 db:S32                  ang:S32                 db:S33                  ang:S33                 db:S34                  ang:S34
!                         db:S41                  ang:S41                 db:S42                  ang:S42                 db:S43                  ang:S43                 db:S44                  ang:S44
! 
 3.000000000000000E7    -2.781105277771790E-1    9.349335422340275E1    -6.909557245847742E1     7.392981679681433      -8.128354605896510E1    -6.975508413963334E1    -9.337330388715458E1    -5.803929159253136E1
                        -6.920289831335498E1     7.927167788932336      -3.100951563757126E-1    1.004750639812906E2    -9.210602944287925E1     6.202799542727079E1    -8.600931468562722E1     1.087029848825989E2
                        -8.229672695827830E1     8.494939168314620E1    -8.508923340227446E1    -5.035619609524795E1    -9.422997751102193E-1   -1.969428314885914E1    -8.542858525329467E1     1.391986471136362E2
                        -9.016308785757188E1     1.341642626570900E2    -9.915445317766378E1    -1.743938453794318E2    -8.846882926958455E1     1.015493254392395E2    -9.124101182685871E-1   -1.693053596822086E1

 3.002500000000000E7    -2.795644386338110E-1    9.317668714196846E1    -7.136399734624834E1     6.408423616996358      -8.138593204305141E1     1.603908419668829E2    -8.170939944051810E1     4.332360843384698
                        -6.908759844962540E1     1.779221726510350E1    -3.189591264128694E-1    1.001698309349724E2    -7.872426101841501E1    -5.907787805527996E1    -8.438104196596359E1     1.065610295627767E2
                        -9.360995438332071E1    -3.390469594126417E1    -8.468549081166492E1    -9.439059982309988E1    -9.454417225229973E-1   -1.998894438260648E1    -8.105494235750022E1     2.602664636472823E1
                        -8.438222889808205E1     1.750314220868852E2    -9.350399736835477E1     2.677429962718833E1    -8.774748437616994E1     1.451147605329209E2    -9.117265289254516E-1   -1.722306216619100E1

 3.005000000000000E7    -2.792044234295941E-1    9.287894847783643E1    -6.720733211184140E1     1.431729120765029E1    -8.277090794716996E1     1.037602151636455E2    -8.242358674717211E1     1.070169200783339E2
                        -6.964750939615611E1     8.795790625074613      -3.094085856191973E-1    9.988329945614473E1    -8.308268078278842E1    -1.649740688264807E2    -8.700543228620964E1    -1.753139950839028E2
                        -8.505622887522249E1     1.550110729793230E2    -8.372268943506732E1    -3.641781341700905E1    -9.482999973534440E-1   -2.030441179746289E1    -8.156238816446913E1    -1.567026157094545E2
                        -8.688785846850780E1     8.454163657431189E1    -8.632142931528236E1    -1.051518645853658E2    -8.371045985283203E1    -1.790994214175728E2    -9.158455466590730E-1   -1.752331988638449E1

 3.007500000000000E7    -2.727742511069300E-1    9.249413653228037E1    -7.085248788844058E1    -7.462328569179625      -9.545944650808809E1     1.382443932629873E2    -8.291661687516304E1     1.231917779923934E2
                        -7.288692764054562E1     1.037331300531998E1    -3.110465007338295E-1    9.952641775713788E1    -9.201869413013819E1    -8.457719063585419E1    -7.775027595121381E1     1.454499120466961E2
                        -9.489686932123148E1     7.651349738988185E-1   -8.429026126708217E1    -4.820680696513578E1    -9.447013508264455E-1   -2.064858500976012E1    -8.527562475679117E1     8.598550891738620E1
                        -8.797392523226452E1     7.301531373726608E1    -8.281203463111234E1     2.413128857393612E1    -9.269161578163278E1     1.207838489677334E2    -9.177287847173588E-1   -1.782551549704478E1

 3.010000000000000E7    -2.751634767904889E-1    9.216456227496337E1    -6.942826437086397E1     2.110020473666942E1    -9.196287889002036E1    -1.325326012402144E2    -1.125476676314172E2    -2.961273242348719E1
                        -7.016012659579714E1     1.083187760424142E1    -3.145508105450232E-1    9.921730511547725E1    -9.094006215725409E1     4.594050985077756E1    -8.583465150892208E1    -7.171278853354963E1
                        -8.877285364979920E1     8.358950209386295E1    -8.111584225549652E1     1.395967673017157E2    -9.468302534886265E-1   -2.096229730455435E1    -8.024592101510201E1    -2.189186284817379E1
                        -8.967067469601346E1     5.961427703881525E1    -8.703397339362900E1     1.506434774813690E2    -8.143311849748017E1     1.331988403585040E2    -9.131732154195228E-1   -1.814889103438943E1

 3.012500000000000E7    -2.648712682894691E-1    9.184572606510672E1    -6.908075098441211E1     1.911796260587639E1    -8.862257692584686E1    -1.221365921454887E2    -8.665258574024355E1    -3.691166823406035E1
                        -7.068203255120619E1     1.177907713781926E1    -3.112025855024411E-1    9.897138092954761E1    -8.750940452786345E1    -4.746676177842353E1    -9.024544064115965E1     3.229134478523803E1
                        -8.477033430154827E1     1.677241834976121E2    -8.589476245547178E1     5.871323839217157E1    -9.471221770677727E-1   -2.124075604860565E1    -8.967444045817977E1     1.157158728823646E2
                        -8.831773783732001E1    -1.263578675919417E1    -8.059101386599255E1    -9.490188928639554      -8.426415884612290E1    -6.781281941607057E1    -9.140873510633407E-1   -1.846726342195067E1

 3.015000000000000E7    -2.747846302600552E-1    9.154577187056748E1    -6.976887919077481E1     7.605126559075924      -8.900653672494346E1     1.644412251513377E2    -7.906789879773071E1     1.408398344374496E2
                        -6.868288169307652E1     1.470994064438661E1    -3.162400837625585E-1    9.857871339568412E1    -1.021054138267630E2     1.540289687637339E2    -7.961031510621314E1     1.053600443939165E2
                        -9.076904245472289E1     1.659635409289184E2    -8.419335294385229E1    -1.565508159527502E2    -9.506054865234797E-1   -2.153828807253401E1    -8.368847479076891E1    -1.302489513470223E2
                        -8.614693705575262E1     1.637664571725758E2    -9.214191070491341E1    -1.667268463214869E2    -9.865917610040464E1    -1.672959569589973E2    -9.107742710992030E-1   -1.874962157733682E1

 3.017500000000000E7    -2.726272522072961E-1    9.114498897355952E1    -6.917562019008486E1     5.680389087930882      -8.788936172427481E1    -7.689013017448077E1    -9.866152992194037E1     4.925054489594628
                        -6.879201620003261E1     5.170768410583650      -3.109805574974111E-1    9.827926658088610E1    -9.322300250388700E1     1.687169736628543E2    -7.910510807620408E1    -7.612204571422325E1
                        -8.750058048031541E1    -1.718642915964095E2    -8.352439360605735E1     1.643907359161219E2    -9.480460342749475E-1   -2.188825483241912E1    -9.064870471978674E1     6.852161368961627E1
                        -8.742978951100477E1     1.267472851322953      -8.979260716877201E1     1.312157630714470E2    -9.075633189072462E1    -9.552636312097596E1    -9.155601223766606E-1   -1.905395557013937E1

 3.020000000000000E7    -2.653537086709344E-1    9.084795899530799E1    -6.901828273035156E1     6.952759624148328      -8.551325168272358E1    -4.448071418314186E1    -7.795144172718784E1    -8.096646707781066
                        -7.124018923124000E1    -1.957998063961698E1    -3.116461895073174E-1    9.798905616941049E1    -8.353482073626168E1    -7.873882850212723E1    -9.097774142670077E1    -9.462029858091695E1
                        -8.882453484704088E1     8.493467595192095E1    -8.014444400782327E1     7.513964402606122E1    -9.461773632737935E-1   -2.217687752723742E1    -9.259830979537603E1    -1.465648244869920E2
                        -8.935816119239442E1    -1.775869484666756E2    -9.161900148838927E1     2.826262421524591E1    -7.879920297873377E1     1.585822274338366E2    -9.194858240228339E-1   -1.939299392611163E1

 3.022500000000000E7    -2.752768797307723E-1    9.052970836637613E1    -6.940572301625198E1    -6.611658124833386      -9.064378666401984E1    -1.073161706789027E2    -8.970299692477143E1    -9.976717305384763E1
                        -6.938565951099730E1    -6.792150359794507      -3.139779179611818E-1    9.768875121904242E1    -9.002977866577352E1     4.231499764557192E1    -9.029298982681658E1     8.581858219448002E1
                        -8.090924388292538E1     1.418857851195205E2    -8.667241167955112E1     4.867896775455825E1    -9.414215234970085E-1   -2.250265807287946E1    -8.752116506192691E1     5.560084349705152E1
                        -9.411085328100037E1     8.885771799674654E1    -8.806909463398179E1     3.323832070343559E1    -9.818671268664170E1     7.574989219478130E1    -9.138838752136103E-1   -1.968281034524377E1

 3.025000000000000E7    -2.699767003128153E-1    9.015327039915891E1    -6.917274527379941E1     1.269973172195898E1    -8.530258559066047E1    -5.573232779460190E1    -7.961471360063628E1    -4.712988706337709E1
                        -6.986835900960787E1    -1.862147713898595      -3.213574652049583E-1    9.736271145860862E1    -8.727404271203758E1    -1.224041270563468E2    -8.399060651544319E1     7.734926273794265E-1
                        -9.065182731912437E1     1.403266269141407      -8.584178566852251E1    -8.579328723863159E1    -9.485278436225092E-1   -2.283577975496758E1    -8.514688932237915E1     1.097982900054674E2
                        -8.466620413896885E1     1.128995194928229E2    -8.464431391566571E1     1.443427873407711E2    -8.050561459730258E1     8.018013267610296E1    -9.172615187981627E-1   -1.999118010936899E1

 3.027500000000000E7    -2.663497395781395E-1    8.982815443313527E1    -6.919782205557270E1     1.363199038343797E1    -9.231349149952993E1     1.639864036557313E2    -9.120906696726206E1    -3.158617493042582E1
                        -6.857311494590802E1     1.634913626796948E1    -3.069534209195758E-1    9.699710719685098E1    -8.580502449854224E1     6.238008696974392E1    -8.316539381270216E1     1.458231585949085E2
                        -9.276642203062339E1    -1.588518797685019E2    -8.358589560949670E1    -4.495063728100038E1    -9.515310908148618E-1   -2.315538900175839E1    -8.170377393322201E1    -1.732054951864010E2
                        -9.040136097849273E1     1.082665551328878E2    -8.512926494522525E1    -3.104810859513525      -9.070020682743171E1     1.624094812206990E2    -9.144483053431547E-1   -2.029127658270066E1

 3.030000000000000E7    -2.705401178811093E-1    8.951300134471427E1    -6.956152849324718E1     1.350829853685016      -8.016763271159690E1     1.710857884632742E2    -8.307557816596791E1     4.267220014271687E1
                        -6.765364372439380E1    -7.813584646465601      -3.080217458304833E-1    9.671295606376567E1    -8.565473695082544E1     1.315213919216103E2    -8.883867840695183E1    -1.766646029792871E1
                        -9.463009577336570E1    -6.896148966138338E1    -8.991512820412901E1    -1.250759759728935E2    -9.533198656295641E-1   -2.348128315421601E1    -8.918183229350092E1     7.945274493323673E1
                        -8.562851418951583E1     4.550984207612402E1    -8.285398499760098E1     6.759912118876122E1    -8.505996215317794E1     7.050993099082056E1    -9.211076954707957E-1   -2.059210304141860E1

 3.032500000000000E7    -2.702009965970988E-1    8.915303972877958E1    -7.072281799255160E1     6.173089541099433      -8.372572582006322E1    -1.649851914616834E2    -1.043991526422964E2    -1.708610435326667E2
                        -6.856044964823121E1    -3.190674114798659      -3.041955412940169E-1    9.639934513621866E1    -9.328462832502262E1    -1.257802551399349E2    -8.622782350205003E1     5.974647010695845E1
                        -8.273875689660162E1    -2.914456855297669      -1.015630583030347E2    -1.446145827757665E2    -9.475730256877396E-1   -2.378515091787940E1    -8.476852859138469E1     1.726787111537690E2
                        -8.315643201459650E1    -8.471295052489313E1    -9.984164789377680E1    -1.061752560470474E2    -9.941756743790309E1     1.331611796848642E2    -9.162049633785906E-1   -2.087905452680791E1

 3.035000000000000E7    -2.633845099673751E-1    8.880752654408597E1    -6.984105872169553E1     1.574365533721562E1    -9.224967993349699E1     6.586976539638783E1    -8.955293500905094E1     1.305348571489388E2
                        -6.952449676433051E1    -3.352840037600776      -3.098510292407126E-1    9.611339255922471E1    -8.516626618703980E1     1.177889204227280E2    -8.250369605380938E1    -4.070612912558450E1
                        -7.975800849438232E1    -1.184065339445830E2    -8.254475921048825E1    -1.289192430562494E2    -9.489107671453760E-1   -2.413709467924943E1    -8.162379178993939E1    -9.870300113933506E1
                        -8.408809495311269E1     8.843527420650260E1    -8.974475245004975E1    -9.921748537713987E1    -8.512979444262334E1    -9.581374401505578E1    -9.152426367068685E-1   -2.120341625767611E1

 3.037500000000000E7    -2.647039687869480E-1    8.847400930110143E1    -6.880999270211734E1    -4.628632562823484      -8.244985834593180E1     8.225657178767796E1    -8.791346740449410E1    -1.747504303737475E2
                        -6.908153563000654E1     5.451684544171024      -3.138874085390264E-1    9.576735421561419E1    -8.140617063151352E1     7.895376449726143      -8.812251692335310E1    -4.482645325007017E1
                        -8.774537732297731E1     1.169218261750062E2    -8.492983947022756E1     8.645873411734276E1    -9.424184397597435E-1   -2.441224754300842E1    -9.176920734837843E1    -1.559328692057254E2
                        -8.785407590527436E1     1.771813277809223E2    -9.480744331084566E1    -1.217233220469870E2    -8.491215016135905E1    -6.361225548308736E1    -9.120726958707637E-1   -2.149286626719388E1

 3.040000000000000E7    -2.639737206038397E-1    8.811809789659546E1    -7.066326459232269E1     1.631321608903589E1    -8.341462933704990E1    -1.226127025249431E2    -8.895265230866910E1    -1.344614938342116E2
                        -6.894563771737774E1     5.229377105099970E-1   -3.151920908517070E-1    9.549039475185971E1    -8.519634799123388E1     1.613855211087637E2    -8.773060758245769E1    -1.757276357924883E2
                        -9.463827409024704E1     7.208446878856961E1    -9.491556431362149E1    -5.129937886546183E1    -9.487894567843458E-1   -2.469367319027138E1    -9.191582222204340E1    -1.127640867571648E1
                        -9.051494054796841E1    -1.557061471260221E2    -8.878808780840573E1     1.343932093044008E2    -9.697474700755956E1     6.508713097159480E1    -9.135222743343210E-1   -2.179915728896066E1

 3.042500000000000E7    -2.700805083984921E-1    8.780204378420356E1    -6.793179909946016E1     3.457106325073625      -8.455870550589052E1     1.640996069501813E2    -9.538199866815728E1    -6.215898882101173E1
                        -6.846999519527977E1     7.234832554071224      -3.100029334442717E-1    9.516108349416848E1    -9.341985608668531E1     7.189572794755864E1    -8.016911740861303E1    -3.977675756211220E1
                        -8.320797674585471E1    -2.873191055133215      -9.040045720922547E1    -1.567547836279220E2    -9.480656578637647E-1   -2.504910545676881E1    -8.724573001454672E1     9.661730622230135E1
                        -8.405066971916149E1     4.138850685269183E1    -8.879312598202714E1     5.303689298556335E1    -8.518740959674921E1    -7.690759112387543E1    -9.186617057674815E-1   -2.212207719004107E1

 3.045000000000000E7    -2.669006875870473E-1    8.742232419139886E1    -6.772125782591188E1    -3.141395031721817      -9.837356633641848E1    -6.577290219256629      -8.262188784573880E1    -1.305980868455070E2
                        -6.954246296995183E1    -6.336249184628144E-1   -3.125957884639301E-1    9.480504753268326E1    -8.601162892320021E1    -2.481695776440544E1    -8.845985625248611E1    -1.333163329799589E2
                        -9.102043894349039E1    -3.242042032289165E1    -8.261112190333157E1    -8.912458702587769E1    -9.487291722917004E-1   -2.537386161242315E1    -9.617386471813872E1     1.477019869442216E2
                        -8.736856052258659E1    -6.333640577137142E1    -8.391976407511825E1     5.500799021839907E1    -8.969654982298079E1     1.058357834173397E2    -9.108414871421554E-1   -2.243683282951180E1

 3.047500000000000E7    -2.656801900681243E-1    8.709238988549031E1    -6.985924367431662E1     1.661603109665634      -8.818768105048423E1    -1.547981229276652E2    -8.230602553972632E1    -1.513736527705428E1
                        -6.867154529197953E1    -4.121658506659052      -3.106509865475332E-1    9.453507093172681E1    -8.672631464138460E1    -1.087064895257803E1    -8.080349545267652E1     6.843302446153575E1
                        -9.156519518896444E1    -6.568336838476367E1    -8.391388738184872E1    -4.164914418227482E1    -9.474650962128123E-1   -2.571977233265934E1    -8.101951695173298E1     1.449843637788487E2
                        -8.273795765383461E1     4.383494374861403E1    -8.158736192506113E1     3.536593319856551E1    -8.998714502882365E1     1.241489640365876E1    -9.121993193177342E-1   -2.271335355851237E1

 3.050000000000000E7    -2.713890220922101E-1    8.675164700245649E1    -6.897185111011497E1     3.604000705184657      -8.958386389725303E1     2.027666340353533E-1   -8.028805223426747E1    -7.592973765110061E1
                        -6.703338746232961E1    -1.807201944049788      -3.078738547208244E-1    9.423412066961554E1    -9.759257309513205E1    -8.033293695829241E1    -8.317655431309647E1     1.091903129728102E2
                        -8.289837026979436E1    -8.283003620933340E1    -9.279567909163076E1     7.380490744882926E1    -9.465154013585038E-1   -2.600908544517145E1    -8.084004970345097E1     4.880315423185822E1
                        -8.633440105001017E1     6.558774384561433E1    -9.063398033169925E1     1.219443235591036E2    -8.017952728659657E1     1.036950454872142E1    -9.156310603144058E-1   -2.304125650744495E1

 3.052500000000000E7    -2.629666107652381E-1    8.640289858948735E1    -6.784500914427613E1     6.378617662253907      -9.059026530458195E1     1.568923381110558E2    -8.495158525736946E1    -4.453807688425721E1
                        -7.025820760295967E1     6.041515902149036      -3.068695830340026E-1    9.393412904827650E1    -8.271199174085631E1     1.007699521893998E2    -8.682020878910575E1     3.030385966773887E1
                        -8.173594865424577E1     1.246494825983129E2    -1.034198135723593E2    -5.728437918887465E1    -9.477814255302480E-1   -2.632591011563861E1    -8.621052601259578E1     9.266568529369464E1
                        -8.988322577355001E1     1.462997376850651E2    -8.135036490339149E1    -1.295471571670454E2    -8.608016559207060E1    -1.004530372655566E2    -9.166546396738023E-1   -2.337004545263036E1

 3.055000000000000E7    -2.592288146551494E-1    8.605935584696276E1    -6.977488193374059E1     2.029948967026287      -8.475399679959273E1    -4.173325080498401E1    -8.500555286942173E1     1.635006203707460E2
