#  HZ   S   DB   R     50.00 
! Rohde & Schwarz Vector Network Analyzer 
! Rohde-Schwarz,ZNB8-4Port,1311601044102961,2.82
! Created: UTC 2/12/2019, 2:11:07 PM
! freq[Hz]                db:S11                  ang:S11                 db:S12                  ang:S12                 db:S13                  ang:S13                 db:S14                  ang:S14
!                         db:S21                  ang:S21                 db:S22                  ang:S22                 db:S23                  ang:S23                 db:S24                  ang:S24
!                         db:S31                  ang:S31                 db:S32                  ang:S32                 db:S33                  ang:S33                 db:S34                  ang:S34
!                         db:S41                  ang:S41                 db:S42                  ang:S42                 db:S43                  ang:S43                 db:S44                  ang:S44
! 
 5.275000000000000E7    -4.997270697745242E-1    1.527899024249864E2    -2.957487839661292E1     1.312056490203862E2    -8.488342343333095E1    -1.469690956968541E2    -8.537821960717828E1    -1.599344383193488E2
                        -2.947807706092483E1     1.313658193364611E2    -3.297484297518535E-1   -6.870736026952409E1    -9.601077435156074E1     1.636737333465544E2    -6.961346177573317E1    -8.952727431546856E1
                        -1.022625297583500E2    -4.522852085952611E1    -8.610157346428444E1    -1.839552685818889E1    -1.410909079442907       6.223416428732961E1    -1.124304757077165E2     1.427564514877141E2
                        -8.501621510888349E1     1.505993658489327E2    -7.128466430828021E1    -1.026806083915777E2    -8.425323368796146E1    -5.179251069878466E1    -1.436755481981141       6.882109108111395E1

 5.275025000000000E7    -4.970752580102876E-1    1.528035432101580E2    -2.959495003907980E1     1.316685453928913E2    -8.898848812771605E1    -9.179420782356756E1    -8.763234577502846E1     9.927708029104398
                        -2.956491875632224E1     1.315726187814300E2    -3.252601644126977E-1   -6.870723442611288E1    -8.144184169744507E1    -8.206598949630453E1    -6.902369814820023E1    -9.526314872278120E1
                        -8.384921389485457E1     5.225020976212166E1    -9.626620970521304E1    -1.472883793128589E2    -1.415376845794256       6.222874705126028E1    -9.063400217935758E1     5.550587869809104E1
                        -8.955400350400569E1    -4.776898182882122E1    -6.999378847272963E1    -1.025005110522237E2    -8.913495112589503E1    -7.554910163329028E1    -1.433932749382832       6.882534794015939E1

 5.275050000000000E7    -4.919501351911941E-1    1.527746248736832E2    -2.950588600923736E1     1.320044477917791E2    -8.716805244208062E1    -1.062860016890438E2    -8.416318425695951E1     1.109717790690657E2
                        -2.950648798872489E1     1.315873210641057E2    -3.308204847798986E-1   -6.872061635036290E1    -8.804982030564625E1     2.302991036506882E1    -7.080035955887274E1    -8.488998576488368E1
                        -9.116728895914983E1     1.599020810600554E1    -8.084707729372242E1    -8.787871615156314E1    -1.415031043507939       6.222836303786822E1    -8.618731080679231E1     1.476963992841607E2
                        -9.162461911338242E1    -9.215675772273033E1    -6.856383414888762E1    -9.912032661104627E1    -8.873351412022583E1     1.379017569852730E1    -1.430967776859391       6.885790621999193E1

 5.275075000000000E7    -4.975655345606268E-1    1.527589304739428E2    -2.957405370266317E1     1.316391340661169E2    -9.057066887301347E1    -9.398094421919844E1    -8.492707439058796E1     1.141863648226363E2
                        -2.961291807502091E1     1.315005697068708E2    -3.238117281006170E-1   -6.875020938482095E1    -8.163032391809834E1    -1.283975778927216E1    -7.028045123635876E1    -8.754348904360344E1
                        -9.969903631718971E1    -6.171671782257366E1    -8.386635617738763E1    -1.279101770536078E2    -1.415003384100522       6.223341849451266E1    -8.592732806715338E1    -2.391715537408949E1
                        -8.723940119421251E1    -1.217524572641635E2    -7.143729069051400E1    -8.712502301598860E1    -9.348399869472672E1    -9.077389948099561E1    -1.434219534079781       6.883607469216418E1

 5.275100000000000E7    -4.912865040927247E-1    1.527648815568202E2    -2.953259026000927E1     1.320023931480851E2    -9.030943412976066E1     7.747351811380604E1    -8.618629915708110E1     1.430085462174597E2
                        -2.957459711088276E1     1.318910597871100E2    -3.257584947698142E-1   -6.875317675633534E1    -9.389888392945997E1     1.038411270933661E2    -6.879747038758113E1    -9.246626197875993E1
                        -8.327914010767609E1     1.390289356999600E2    -8.323123389010534E1    -7.489951947686602E1    -1.412722705893972       6.222735314708901E1    -8.760408744339684E1    -2.390995022448400E1
                        -8.674547146236456E1     3.110655918871372E1    -7.167776784898096E1    -8.419800362277805E1    -7.945480648618963E1     9.020618188771022E1    -1.432224462677976       6.881170001367690E1

 5.275125000000000E7    -4.962570488438468E-1    1.527426589374330E2    -2.959905955880202E1     1.314982910080906E2    -8.346485461835965E1     1.046128217454480E2    -8.462662511446266E1     1.462355488009422E2
                        -2.949815217343559E1     1.315541602716590E2    -3.299235712567690E-1   -6.877026441610616E1    -7.595722486962526E1    -5.101209852128929      -7.133799206180588E1    -1.020264349392319E2
                        -9.000335508468282E1    -1.069210800886551E2    -9.099854761988451E1    -7.143957373236809E1    -1.410169558522946       6.221423804877467E1    -9.101159623065595E1     5.305427336307984E1
                        -8.858966983151260E1     2.912376931521076E1    -7.057086896847915E1    -9.429373178424594E1    -9.368126183912894E1    -1.464472783348244E2    -1.431996633969661       6.881750960986918E1

 5.275150000000000E7    -4.909674944415851E-1    1.527621775479528E2    -2.957707858560651E1     1.320909511632738E2    -8.156850832560393E1     3.575547704141608E1    -8.534887572439416E1     1.252339824105770E2
                        -2.954634912505565E1     1.317249889806680E2    -3.275746629783888E-1   -6.883047744031589E1    -8.529701317037437E1    -4.282146847584173E1    -7.151173133098693E1    -9.038690469155715E1
                        -8.593001339480649E1     1.613092400623455E2    -9.961227117358254E1    -1.488933910596041E2    -1.411724919294492       6.223155411535795E1    -9.111757282535660E1     6.136979744999124E1
                        -9.620792971348337E1    -2.689546790410416E1    -7.038326451908750E1    -9.523349210951648E1    -8.455350671091189E1     1.176919294680705E2    -1.433562662989008       6.884520579177529E1

 5.275175000000000E7    -4.916331355270788E-1    1.527448389518346E2    -2.952332783143892E1     1.320182854941299E2    -9.178413885203405E1    -1.706641728305360E2    -8.511997145748792E1    -4.927268021465325
                        -2.965485997074416E1     1.315882190658856E2    -3.309149266152666E-1   -6.880928606098328E1    -8.889864393724631E1    -5.359608493015310E1    -7.009317223499447E1    -9.625583322803195E1
                        -8.728816802437130E1     4.274184929643359E1    -7.993773166753131E1    -8.326680766666719E1    -1.411600685065479       6.220952536261285E1    -8.612394703012248E1    -3.817587988037911E1
                        -8.214890131805370E1     2.486044456988870E1    -7.117862351703069E1    -9.803827625565361E1    -8.373405814857036E1    -5.836841316565281E1    -1.435429207235002       6.882982027025784E1

 5.275200000000000E7    -4.990732495350239E-1    1.527253893476180E2    -2.969588884311600E1     1.314693312179758E2    -8.470506531743352E1     1.430174331794566E1    -8.543923710022818E1     3.204221223488596E1
                        -2.955469864076545E1     1.317255203248988E2    -3.262426852720486E-1   -6.883903094878254E1    -8.579551781252343E1     4.189602676096198E1    -7.020960869198602E1    -9.151223518600003E1
                        -8.412655990278577E1     5.329132709894959E1    -1.012974822345227E2    -6.673448274105347E1    -1.409296467508027       6.219271644054727E1    -8.489378223368124E1     6.089114560812486E1
                        -8.797889051962598E1     1.242723990170623E2    -7.208255365808905E1    -8.842919097349932E1    -1.018266190016639E2    -1.419519416132522E2    -1.433719808276108       6.884386721619302E1

 5.275225000000000E7    -4.971797751090397E-1    1.527304120955697E2    -2.958054148221386E1     1.311956285093279E2    -1.026720709245309E2    -1.763003691910729E2    -8.114991468104826E1     7.226700825608735E1
                        -2.959690661990497E1     1.314369696664153E2    -3.321180491231562E-1   -6.882968693595007E1    -7.979502881342627E1     5.571939121954912E1    -6.908473538978277E1    -9.411567988024464E1
                        -8.331283088926362E1    -6.662652370423973      -8.184636843627268E1    -1.292403054787655E2    -1.413555659579892       6.220764259563134E1    -8.442053124701084E1     8.346495355724983E1
                        -8.940413299586822E1     1.355552695204237E2    -7.251859843134203E1    -1.015763931974863E2    -9.432485690817971E1    -1.067419519653393E2    -1.429802506668314       6.882227900769199E1

 5.275250000000000E7    -4.970179020266043E-1    1.527450516468249E2    -2.953138791984794E1     1.314007308031314E2    -9.305923993570276E1    -1.778118878693812E2    -9.017094137664201E1    -8.554321952118356E1
                        -2.952597975353668E1     1.311960458071086E2    -3.300448562277505E-1   -6.885768092173052E1    -8.235875623347697E1     3.983142940532511      -7.210100548688315E1    -9.392282460500181E1
                        -8.509856048433488E1     8.195201222345291E1    -9.237405484055361E1    -8.235689107268025      -1.410688955139471       6.221968264284689E1    -8.878895008087737E1    -1.652441633267026E2
                        -8.309083928449152E1    -3.612516394511698      -7.032140448723581E1    -9.494049087714255E1    -9.140442140328412E1     8.483908245641271E1    -1.429769188308441       6.882203108662995E1

 5.275275000000000E7    -4.940936838156256E-1    1.527342237329477E2    -2.955080226053850E1     1.315560934685498E2    -9.011218757884944E1     8.822661576315683E1    -8.247741771454487E1    -1.398392326828810E2
                        -2.961757583645107E1     1.314046988483230E2    -3.301303353680723E-1   -6.889339281573254E1    -8.664797376362387E1    -7.167848285305085E1    -6.984353116877951E1    -8.181779234996982E1
                        -9.148498504492331E1    -7.510787017247372E1    -8.896504666171664E1    -3.298048906614213E1    -1.415916789057337       6.219665323279681E1    -9.131996589910962E1     7.993577395049344E1
                        -1.012775693291635E2     6.305113737317347E1    -7.062176620108355E1    -8.835875097222437E1    -8.632532894031786E1    -8.276407825213438E1    -1.429517388364587       6.881234061857848E1

 5.275300000000000E7    -4.933272445562292E-1    1.526953248117613E2    -2.964633089270169E1     1.314204160582542E2    -8.315752748265726E1    -1.075297436860615E2    -8.055505700978864E1     4.310625477927980E1
                        -2.958793940930040E1     1.312504341162810E2    -3.272056319045819E-1   -6.890546549715954E1    -8.591597181477022E1    -8.521116298530490E1    -7.222044219585636E1    -8.823248456840774E1
                        -8.114026981972037E1     5.841566494239815E1    -9.963890983759113E1    -3.951599786553383E1    -1.409535762692777       6.218916546586704E1    -9.448400779679798E1     1.642027151417840E2
                        -8.013566842109438E1     6.729347717249956E1    -7.168654188170633E1    -8.735891344776898E1    -9.753318314805566E1     1.548236387500855E1    -1.434014098464943       6.880335427475781E1

 5.275325000000000E7    -4.936836892613811E-1    1.527299588955457E2    -2.958635658562200E1     1.319442196265731E2    -9.151463498228213E1    -1.387558577504277E2    -8.370841247158366E1    -3.288915327791769E1
                        -2.953898572694936E1     1.314240058949589E2    -3.310493204804356E-1   -6.890919451768478E1    -8.418793221680561E1    -8.946528145360864E1    -6.783058146649184E1    -1.043937056863605E2
                        -8.695553798717924E1     7.550195808159100E1    -8.932147691669465E1    -1.313198744960592E2    -1.410542063320978       6.219600097840944E1    -9.707235047483849E1     9.976537011696100E1
                        -1.022094569367944E2    -4.046689601933515E1    -6.984066409738929E1    -9.890913025375672E1    -8.533644451785010E1     1.300633618125615E2    -1.430260535793250       6.880237167392586E1

 5.275350000000000E7    -4.946229765353710E-1    1.527179086689553E2    -2.953836862533163E1     1.313725725829604E2    -8.300831771688914E1    -2.282630146795789E1    -8.180970712763926E1     1.475335340746737E2
                        -2.960759053234947E1     1.309669272603210E2    -3.232920021613579E-1   -6.894938859683457E1    -9.288144034793776E1    -1.091417655930503E2    -7.337720198023347E1    -9.943014119890481E1
                        -9.976600615628991E1    -9.673151014075665E1    -9.153518669333761E1     6.476388081571942E1    -1.413218921739906       6.218119735936001E1    -8.573706184393393E1    -1.281039892352469E2
                        -8.913800705624938E1    -2.249433958562951E1    -7.076706122989008E1    -9.251930579563255E1    -8.673087525191508E1     5.209465893438762E1    -1.433413368218397       6.878783890608217E1

 5.275375000000000E7    -4.937001243970598E-1    1.527188778039652E2    -2.956628550124703E1     1.312844507830016E2    -8.726366541847054E1    -2.302437761936969E1    -9.170293000773746E1    -1.472353792851400E2
                        -2.957034285078547E1     1.313948846320253E2    -3.302464546673182E-1   -6.897303634929682E1    -8.614599242181144E1     6.518651085608212E1    -7.171987924963132E1    -8.375936157688525E1
                        -1.052903721208142E2     3.941983913011028E1    -9.126863134350565E1    -3.228713304622598E1    -1.411888737018772       6.217320677121083E1    -9.053808024089575E1    -2.521181848827214E1
                        -8.497641990285942E1     1.278749378691211E2    -7.050310032616812E1    -8.720866888604517E1    -8.596015000300508E1     1.268833753704836E2    -1.426893700549752       6.879928836166069E1

 5.275400000000000E7    -4.972036378883539E-1    1.527233994333620E2    -2.961775940215809E1     1.307520950643652E2    -8.397695472407986E1    -7.272507623319969E1    -9.190553541036879E1     1.252331217950651E2
                        -2.954715671450286E1     1.315032852875911E2    -3.243394802785914E-1   -6.899928727299796E1    -8.269121658516097E1     8.661073509463652      -7.061695934111432E1    -9.817465660590554E1
                        -8.793987825427683E1    -7.059479596959243E1    -8.680847668884938E1    -9.258524438292351E1    -1.413287511490987       6.216615198937401E1    -8.413179333222651E1    -1.709890524283665E2
                        -8.007484196925228E1     4.195419141289263E1    -7.161423353076455E1    -9.277502241319743E1    -8.810283692668916E1    -1.044376486596490E2    -1.429119293508847       6.878338068956622E1

 5.275425000000000E7    -4.975061122101511E-1    1.526902193608358E2    -2.952916975273577E1     1.312549789123433E2    -8.250006798965394E1     5.418488947469214E1    -1.004846337345830E2     6.397045236470625E1
                        -2.959562701237980E1     1.309919114635200E2    -3.306146991058290E-1   -6.900790381961119E1    -8.588972184516209E1    -1.165127095202336E2    -6.963349415013090E1    -9.167903237430103E1
                        -8.901022024417131E1    -4.691640514823595E1    -8.156034335111252E1    -3.380157122503074E1    -1.412006973997837       6.219327545013579E1    -9.358944667338676E1     1.140237156946262E2
                        -1.038091032954614E2    -1.235406115233372E2    -7.139744069792656E1    -9.079515193649010E1    -9.591467928886783E1    -5.008778937706133E1    -1.432066166302930       6.879868154990298E1

 5.275450000000000E7    -4.965323931040937E-1    1.526916678807489E2    -2.963635313984037E1     1.315083946879250E2    -9.404707380446587E1     4.098424863849007E1    -8.431311371419471E1    -8.732400392269748
                        -2.970662608247767E1     1.313190274032654E2    -3.295505937504955E-1   -6.904405436037629E1    -8.190652383169505E1    -3.464137471141503E1    -7.111170736691054E1    -8.379856636521097E1
                        -8.828024843919478E1     8.432290761981392E1    -8.444655192646601E1     2.456998469323224E1    -1.409747933885579       6.215965551644707E1    -8.944436905824520E1     4.125750570180042E1
                        -1.082093569561415E2     1.406894080994751E2    -6.877802282183723E1    -8.509713323687356E1    -8.655722588571703E1     8.738932259123845E1    -1.431885564398234       6.879946701779542E1

 5.275475000000000E7    -4.944187894384791E-1    1.526525977858183E2    -2.963387310944542E1     1.313323021923538E2    -1.091532522353689E2    -1.690334857140289E2    -8.445231701169240E1    -3.748257871733433E1
                        -2.951696954859326E1     1.315584392037561E2    -3.226903600454634E-1   -6.906746282453381E1    -9.468052791099635E1    -6.375022506627347E1    -7.104889782682190E1    -8.485304179350122E1
                        -1.035799513915547E2    -9.582491587521888E1    -8.532586702616618E1    -3.013902542498659E1    -1.410416995930995       6.217112013299423E1    -8.619251899904927E1    -7.911071056393026E1
                        -8.436244432772719E1    -2.911471725886237E1    -7.278754366259379E1    -8.475590529874455E1    -8.614868394719181E1    -1.459745781993963E2    -1.430402466229495       6.879217111272858E1

 5.275500000000000E7    -4.929366543513336E-1    1.526563669583202E2    -2.959596666883244E1     1.310525222575688E2    -8.944030760087280E1    -3.511264808620199E1    -1.232921100770091E2     3.508457662487555
                        -2.949285347430931E1     1.313182644575942E2    -3.304584509047793E-1   -6.909919020648320E1    -8.113762816412064E1    -4.264314754899745E1    -6.952647789577563E1    -8.694599412002420E1
                        -9.873068052416826E1    -5.134484742762415E1    -8.520627669836577E1    -1.124272007896312E2    -1.408937564780520       6.216621271650934E1    -7.989419333394349E1    -2.481523448002584E1
                        -8.726812272230605E1     4.759899221308844E1    -7.110702700234185E1    -7.911730205986083E1    -8.696826037493972E1    -1.279115776150052E2    -1.429189318681087       6.878277953457300E1

 5.275525000000000E7    -4.931326182677983E-1    1.526672789631237E2    -2.957443596306803E1     1.317371083317636E2    -8.271140027409206E1    -1.117878786773911E2    -8.255359751164602E1     1.697739545208913E2
                        -2.957697723009720E1     1.312386866909752E2    -3.337005483005178E-1   -6.907734887838817E1    -8.805011888669137E1     4.643649635962276      -7.008018150504670E1    -9.699989591127284E1
                        -8.870166877808890E1     1.332090783797502E2    -8.092203308771369E1    -4.992439827743050E1    -1.408645701712350       6.217124187683171E1    -9.739434252935183E1    -9.437911761803643E1
                        -9.053335395008679E1     1.106502395082240E2    -6.936301851708181E1    -8.688922578714409E1    -8.286250666135273E1    -6.044562893987977E1    -1.430629678972858       6.877257929577993E1

 5.275550000000000E7    -4.945321164381384E-1    1.526881306602204E2    -2.956252997375060E1     1.307949976488569E2    -8.332913868070745E1    -1.327789361099458E1    -7.964078428218056E1    -1.271255396881348E2
