#  HZ   S   DB   R     50.00 
! Rohde & Schwarz Vector Network Analyzer 
! Rohde-Schwarz,ZNB8-4Port,1311601044102961,2.82
! Created: UTC 2/13/2019, 11:45:10 AM
! freq[Hz]                db:S11                  ang:S11                 db:S12                  ang:S12                 db:S13                  ang:S13                 db:S14                  ang:S14
!                         db:S21                  ang:S21                 db:S22                  ang:S22                 db:S23                  ang:S23                 db:S24                  ang:S24
!                         db:S31                  ang:S31                 db:S32                  ang:S32                 db:S33                  ang:S33                 db:S34                  ang:S34
!                         db:S41                  ang:S41                 db:S42                  ang:S42                 db:S43                  ang:S43                 db:S44                  ang:S44
! 
 5.525000000000000E7    -4.763439515042822E-1    9.739170434167835E1    -3.172166699854084E1     7.472636607705248E1    -8.095619529474503E1     4.478892327479380E1    -8.387756199518304E1     2.804067150235221E1
                        -3.189171232322213E1     7.487813149931569E1    -7.808035665294676      -1.689076807535937E2    -6.858458028487240E1     1.797827214338000E2    -7.196433610793255E1    -3.208513214617825E1
                        -8.922923763722284E1    -6.937480131820034E1    -6.731484132621202E1     1.761188112057862E2    -1.409391370130630       2.474653713978486E1    -9.454678711273340E1     2.951754250854252E1
                        -7.944923129948757E1    -1.727740034247883E2    -7.503985560953200E1    -1.334576167972126E1    -8.521526416272243E1     9.036665089405419E1    -1.432762972517428       3.124108752086202E1

 5.525025000000000E7    -4.737133297868402E-1    9.740237765185242E1    -3.168013752254047E1     7.496074374754710E1    -8.598745407303709E1    -2.712201326429383E1    -8.174052421219498E1     1.626395958483190E2
                        -3.172860357095729E1     7.445013570570436E1    -7.815905212055256      -1.689071693824822E2    -6.834457965532511E1     1.733214599566957E2    -7.193887807985927E1    -3.775808469887036E1
                        -9.124682047209365E1    -2.853343626062887E1    -6.866143433461706E1    -1.735316037216455E2    -1.405397650540443       2.474456012021974E1    -1.039015583578318E2    -1.247973323886909E2
                        -9.141777789569005E1    -8.674254664454956E1    -7.100822165590758E1    -3.602157917321635E1    -8.398462143545508E1    -5.010203878425522E1    -1.433906112437989       3.123169358169159E1

 5.525050000000000E7    -4.756486861249100E-1    9.738536952545313E1    -3.170086396356098E1     7.481805625551566E1    -8.817095217495314E1     7.611803617887442E1    -8.664170909037061E1     1.592354603781876E2
                        -3.179896374494163E1     7.433811384129372E1    -7.820607049846985      -1.689478608959488E2    -6.689775487147237E1     1.779987326673379E2    -7.355575334527759E1    -1.794845983330981E1
                        -9.002418285447769E1    -3.828429243137524E1    -6.815186787944150E1    -1.757502395753377E2    -1.409794824637496       2.474105287324064E1    -8.486317815207815E1    -7.592315071615299E1
                        -8.381270683318924E1     9.690236831227725E1    -7.689016839145145E1    -3.122433458678447E1    -9.890735282397836E1     2.430258902183591E1    -1.429435506194951       3.123858536896254E1

 5.525075000000000E7    -4.772803364522397E-1    9.734965930233369E1    -3.172529475909501E1     7.443650539414097E1    -9.252198768462718E1     2.236201663005479E1    -8.251997177229364E1    -1.524643828036624E2
                        -3.186111343932975E1     7.466810443780237E1    -7.834483148212139      -1.690524715812467E2    -6.877834015599743E1     1.799587726166476E2    -7.647985696802380E1    -5.268209077162513E1
                        -9.373451148069810E1     1.681695986457670E2    -6.851009455764435E1     1.770698812627436E2    -1.408175147752542       2.472232202905211E1    -9.471577396847539E1    -5.753369749442663E-1
                        -8.246902460372365E1     7.139729498604821E1    -7.287825263224453E1    -2.291014894453618E1    -8.711880819477842E1    -2.059277500408559E1    -1.427590530935386       3.123191714696923E1

 5.525100000000000E7    -4.731970219117629E-1    9.737520151086481E1    -3.173970986060317E1     7.421134155980805E1    -8.428429847493662E1     1.789715015390731E2    -9.148290337677057E1     1.191102437266013E2
                        -3.184068427563762E1     7.462077848904833E1    -7.838801435874975      -1.690401630810215E2    -6.891113512478790E1    -1.794700169609787E2    -7.477045565189424E1    -3.477662187084585E1
                        -1.068507651169677E2    -1.442633033141050E2    -6.803232391579287E1    -1.767665394836667E2    -1.411451652869799       2.472091045636929E1    -8.501047556677483E1    -6.535883401533393E1
                        -8.885557310006645E1    -4.030579259627564E1    -7.342015350158700E1    -5.242983614779631E1    -9.510896676761023E1     1.588253206516170E2    -1.429187635547321       3.124360714341005E1

 5.525125000000000E7    -4.754708651820241E-1    9.737696095835791E1    -3.174888968782667E1     7.509000409775122E1    -9.019066533833899E1     4.258220918245132E1    -8.888031463856362E1     5.714844289603791E1
                        -3.177309887693710E1     7.417764933959288E1    -7.836258682972722      -1.690799294265706E2    -6.842765658582495E1     1.768602637774498E2    -7.287188783242689E1    -3.925590143576685E1
                        -8.521991478435497E1     1.199084832259735E-1   -6.685045988967113E1     1.796814598507436E2    -1.410370508793962       2.476357168927771E1    -8.518390239023759E1    -1.453752616402983E2
                        -8.116555257357847E1    -1.483516315711787E2    -7.255333946364358E1    -3.958236396929502E1    -1.007933686854410E2     1.667920544822941E2    -1.432485477278956       3.127132309563977E1

 5.525150000000000E7    -4.769213795899150E-1    9.737186546108617E1    -3.182718443472242E1     7.507006969915943E1    -8.718253805389948E1     1.367313931857225E2    -8.119974683912916E1    -6.853972730173548E1
                        -3.171398935268068E1     7.455805597707796E1    -7.852390438983585      -1.691150379440945E2    -6.789507570567349E1     1.737442541526011E2    -7.262882198640911E1    -4.119909953724878E1
                        -8.563191591598481E1    -6.418654930702577E1    -6.800509006887897E1     1.773297308155624E2    -1.407204532360305       2.469998614388967E1    -9.588177897195492E1     9.486831820961783E1
                        -9.085414068062877E1    -1.021271987629470E2    -7.295449110561820E1    -4.392032212823320E1    -9.208091196097695E1    -1.040794002761290E2    -1.429913733546233       3.123201184745643E1

 5.525175000000000E7    -4.746037335438672E-1    9.735278045063372E1    -3.179705889592592E1     7.498119443728190E1    -8.186704643038718E1     1.352943802264614E2    -8.165521239462419E1    -5.552163886860954E1
                        -3.176309871897585E1     7.500744049339909E1    -7.855835417578476      -1.691556486698281E2    -6.766623507711223E1     1.770932297108432E2    -7.299778595172944E1    -4.509733928443298E1
                        -8.992743503541297E1     5.866632058800855E1    -6.876135212890112E1     1.784901511380721E2    -1.408995123986657       2.476059647881516E1    -8.352197370098153E1    -1.167558762829506E1
                        -8.779581539899523E1     1.349315147959011E2    -7.402360804234326E1    -4.084839854565747E1    -8.626957319834183E1     4.725100009820541E1    -1.427714788019902       3.122699503005131E1

 5.525200000000000E7    -4.756763004958852E-1    9.736160927102266E1    -3.176423087968556E1     7.424754983213059E1    -8.904456309419146E1     2.086766130253476E1    -8.636158719064318E1     1.022267155494714E2
                        -3.179520229425469E1     7.491361309170956E1    -7.866460977648790      -1.691669084986056E2    -6.820982835048748E1    -1.780343762881443E2    -7.324290203454711E1    -3.349837475384464E1
                        -8.805166637260064E1    -9.676830113436975E1    -6.824271901869042E1    -1.726090016231501E2    -1.409009704878666       2.472433425833589E1    -9.059352027871283E1     7.686918275477869E1
                        -9.358247093627949E1     7.395754722480555E1    -7.343685785340479E1    -4.462230458068930E1    -8.960332368290793E1     1.709227373656007E2    -1.435712446095312       3.120181769255722E1

 5.525225000000000E7    -4.783615391835406E-1    9.734282703468750E1    -3.180657243170157E1     7.524868778638150E1    -8.640580013906181E1     1.301362115273715E2    -8.271355161121242E1     3.154507271435874E1
                        -3.190022447166395E1     7.534823624031239E1    -7.869524520825758      -1.692441080091032E2    -6.714561305954804E1    -1.770168896455814E2    -7.153961328771968E1    -2.529296493359265E1
                        -8.562316953774599E1     1.205767147471532E2    -6.761874741622223E1    -1.753962882469223E2    -1.409363648387993       2.472386121601836E1    -8.977090849982147E1     1.227144876345113E2
                        -8.803255067565715E1     7.489036312997405E1    -7.382420748047349E1    -1.770210994815166E1    -8.356088218521377E1    -1.689419936172293E2    -1.429209029670454       3.123116152123010E1

 5.525250000000000E7    -4.729356723812564E-1    9.731108689348338E1    -3.171582733550809E1     7.574507641032719E1    -7.789585780504788E1    -7.979028586865978E1    -9.324471384010495E1    -1.606789498027220E2
                        -3.181645555304871E1     7.454100233932961E1    -7.888495721925894      -1.692780549902315E2    -6.669951970157781E1     1.750291722656442E2    -7.394939368100231E1    -4.700953147828238E1
                        -8.947579685582892E1     1.640780108630838E2    -6.860751786175223E1    -1.756117113377357E2    -1.410473295832827       2.473147514003075E1    -9.095146037515697E1    -1.018324959045952E2
                        -8.827314408058869E1    -1.794533330577496E2    -7.192138290890142E1    -4.243790821543716E1    -8.410005900849006E1     2.246020820566485E1    -1.427160693048630       3.119657278914088E1

 5.525275000000000E7    -4.747453220395417E-1    9.734417167963713E1    -3.173984953808963E1     7.490666693551469E1    -8.807867681312897E1    -6.000955985647458E1    -8.748549297570756E1     1.011542761846690E2
                        -3.188438597431243E1     7.463453474350770E1    -7.892526277095389      -1.693401736957782E2    -6.968721904506376E1     1.770479478732383E2    -7.329744036358204E1    -1.838058648371233E1
                        -8.681224535761407E1    -1.997619122513320E1    -6.876403652675207E1     1.761392024383233E2    -1.411537380430403       2.473078991473437E1    -8.946220215931021E1    -9.495197259915037E1
                        -8.796005358841836E1    -4.125304165790180E1    -7.279866297452776E1    -3.389092041218435E1    -8.179396307206316E1    -5.214423064321916E1    -1.431077404226089       3.121159540953979E1

 5.525300000000000E7    -4.758734205645167E-1    9.733913028117220E1    -3.175045909837780E1     7.466807909033122E1    -8.741215677121188E1    -5.173580583846862E1    -8.918955926326231E1    -1.398887017746687E2
                        -3.171088172513046E1     7.429449344724510E1    -7.896161139321053      -1.693519835259590E2    -6.771676565849147E1     1.680746920679436E2    -7.245202032250209E1    -3.284399889052573E1
                        -8.406773822946350E1     7.845763156528079E1    -6.720731801951816E1     1.746700239171455E2    -1.407270917365391       2.472692915514332E1    -9.327315736422503E1    -1.184202651422808E2
                        -9.998236179995645E1     1.599460052628475E2    -7.757891080508006E1    -4.233554673020210E1    -8.928900693506719E1    -1.378986004551012E2    -1.431210640231077       3.120100762772818E1

 5.525325000000000E7    -4.773034383197150E-1    9.736083591309119E1    -3.178383474243635E1     7.464277590764110E1    -8.810194471670201E1    -4.157032311566683E1    -8.209713205391799E1     1.172096713315491E2
                        -3.175976374386126E1     7.548973985666494E1    -7.900247803082370      -1.693929947749555E2    -6.764274481784769E1     1.796436990123032E2    -7.317746397249348E1    -3.011883675292293E1
                        -8.743358202670224E1    -1.755166256255144E2    -6.832391629485056E1     1.787112744039486E2    -1.406822839029393       2.470331324006683E1    -8.586944794784172E1    -8.072944510240924E1
                        -9.014134642445316E1     1.127636260123579E2    -7.085548539880692E1    -3.261329655740079E1    -1.093008367502296E2    -8.611512176449618E1    -1.425434553333777       3.121404258014632E1

 5.525350000000000E7    -4.773848246406820E-1    9.733650610729970E1    -3.188425197537103E1     7.418124445985039E1    -9.590002070511625E1     6.434105693245337E1    -8.306235770553539E1    -7.176171415161271E1
                        -3.173811954345990E1     7.396614870267050E1    -7.906596236816958      -1.693690445181452E2    -6.860807082997462E1     1.775980240396345E2    -7.250100053228906E1    -4.325039010492721E1
                        -8.336010723753915E1    -6.108006750461565      -6.791051097608715E1    -1.781821798432263E2    -1.407627346529303       2.468150944428552E1    -9.625308455017017E1    -2.855844831323152
                        -8.982418474970969E1    -9.255057246625867E1    -7.097909505538374E1    -2.378859413683447E1    -7.956122061660406E1    -1.697868278012131E2    -1.428142253747295       3.120685802063421E1

 5.525375000000000E7    -4.743595535874231E-1    9.730003293802511E1    -3.177659125700370E1     7.493933756017778E1    -8.791536514045502E1     1.757329721923826E2    -8.672321971312172E1     6.780375751386289E1
                        -3.172611043795967E1     7.434187640840445E1    -7.915366248774949      -1.694762353080242E2    -6.773290396111239E1    -1.798349211496468E2    -7.376289659390187E1    -2.724915763292365E1
                        -9.638401059528007E1     1.698347162925390      -6.686629611819475E1     1.691973271409000E2    -1.413630009359909       2.470548717066789E1    -9.815765447974926E1    -1.794126151578630E2
                        -8.455343025568885E1     7.069046312935653E1    -7.551389014413937E1    -3.284516790356920E1    -9.460325520357431E1    -5.340700609285919E1    -1.428090542107410       3.119655753216209E1

 5.525400000000000E7    -4.773642673893686E-1    9.730619631447770E1    -3.177402441919055E1     7.456158609816870E1    -8.049637872736737E1    -1.027752703250075E2    -8.353708483015724E1    -1.060837382190030E2
                        -3.177710690315252E1     7.493629481576393E1    -7.932483233794867      -1.695249051120532E2    -6.745834906800160E1     1.686904079521993E2    -7.274054860230886E1    -2.111162786101933E1
                        -8.935184517029879E1    -2.554213014273448E1    -6.850257870746087E1     1.775116123214790E2    -1.410788763663913       2.468540090028484E1    -9.260314696817885E1    -5.472834934861292E1
                        -8.514844645350325E1     1.713534970871905E2    -7.253712486453959E1    -3.913700169741656E1    -8.842932620889427E1     1.573789898918222E2    -1.431798266160704       3.121456129299923E1

 5.525425000000000E7    -4.712344140279104E-1    9.731506364882600E1    -3.177914901987692E1     7.440146556392934E1    -8.411212099297978E1    -2.355221127016340E1    -8.213456502106494E1    -3.044908123673003E1
                        -3.180402854852212E1     7.402991700780206E1    -7.932884871500573      -1.695663408677276E2    -6.784561008661349E1     1.782065426064936E2    -7.345731746477948E1    -3.016873565052703E1
                        -9.665906708868322E1     1.393958507402853E1    -6.948632649453248E1     1.644830348386143E2    -1.407011971277986       2.472433372220388E1    -8.699732653797750E1    -3.578861501849667E1
                        -8.336090761723193E1     1.578353268779516E2    -7.376617833653103E1    -3.435361797693516E1    -9.718640098528026E1    -1.096390202685907E2    -1.428783213946051       3.118294507888713E1

 5.525450000000000E7    -4.736631414587136E-1    9.730144140686964E1    -3.177328939694018E1     7.455583469614045E1    -9.375919439656039E1     8.873902451761919E1    -9.113250147550794E1     6.619634695102326
                        -3.175858733639324E1     7.477392287925369E1    -7.937084995117534      -1.696010845062589E2    -6.847478198599713E1    -1.760487046586757E2    -7.287855293971131E1    -1.915077332937556E1
                        -8.429396032700281E1    -7.211526483351747E1    -6.856033559570048E1    -1.721601098944118E2    -1.409463837576419       2.467806802496425E1    -8.206785374403822E1     1.190615385314824E2
                        -8.701121011377859E1     1.659122428031471E2    -7.278133867676795E1    -3.264855907235699E1    -8.314403781379731E1    -1.425557204126905E2    -1.429550143937857       3.118150811459325E1

 5.525475000000000E7    -4.808719094774369E-1    9.731005580817795E1    -3.169421253875525E1     7.478777533035820E1    -7.946566442285517E1     1.603406908235754E2    -8.745922565900001E1    -4.091336578417094E1
                        -3.181231228953110E1     7.423243206076560E1    -7.944394355651507      -1.696273145310896E2    -6.804776346564722E1    -1.779968045958597E2    -7.210056546258046E1    -2.516110357618891E1
                        -8.550768557270555E1     6.271735663847819E1    -6.930023722430607E1    -1.758860544104105E2    -1.410848803920605       2.468541139938010E1    -9.788277449712042E1     9.773295936271738E1
                        -8.287429908725804E1    -5.415457567484218E1    -7.105227294448065E1    -4.055058949279344E1    -9.233779830906131E1     1.395449359590844E2    -1.426986443838422       3.119718987273234E1

 5.525500000000000E7    -4.756594470073324E-1    9.731508468571849E1    -3.175270439643816E1     7.493974190375197E1    -8.382840769222793E1    -1.734091298967179E1    -8.390820500226317E1    -9.273687567985868E1
                        -3.176409484235083E1     7.492672166587225E1    -7.956144580582870      -1.696820939201197E2    -6.884432824318672E1     1.725472005165776E2    -7.347951142615538E1    -2.856672275506924E1
                        -9.378658006151569E1    -4.955857759865732E1    -6.706231512650481E1    -1.761640996121841E2    -1.411231691628909       2.469462965630233E1    -8.344388622719747E1     1.093642517332781E2
                        -8.576900762122334E1     1.514718841228556E2    -7.184295199793698E1    -3.485777109778582E1    -8.987604220381533E1     1.761822867274062E2    -1.428613890222649       3.121385087395107E1

 5.525525000000000E7    -4.744595907374417E-1    9.730383827743607E1    -3.185657042559212E1     7.466801607834087E1    -8.339936359240106E1    -5.007919885851055E1    -8.212146700763030E1     1.026007005953311E2
                        -3.177777539047352E1     7.433973490152522E1    -7.951933384915837      -1.697132994206298E2    -6.928534659510935E1    -1.754587123697517E2    -7.251254896880096E1    -3.064890124629400E1
                        -8.357315153873000E1     1.267904491785643E2    -6.752535286898048E1     1.719883458340579E2    -1.408426352330503       2.470782600101741E1    -8.357666809105567E1     2.726977670153367E1
                        -9.122027761756650E1    -1.206688142491272E2    -7.196879838323477E1    -2.047211228740662E1    -8.810336272381208E1     5.800843746225674E1    -1.430181795544371       3.119359846313265E1

 5.525550000000000E7    -4.741724468146276E-1    9.730259716476114E1    -3.184524200264420E1     7.553518620384887E1    -7.990778707684147E1     3.291304946361944E1    -9.072677138285113E1    -7.738633153593901E1
