#  HZ   S   DB   R     50.00 
! Rohde & Schwarz Vector Network Analyzer 
! Rohde-Schwarz,ZNB8-4Port,1311601044102961,2.82
! Created: UTC 2/13/2019, 1:51:25 PM
! freq[Hz]                db:S11                  ang:S11                 db:S12                  ang:S12                 db:S13                  ang:S13                 db:S14                  ang:S14
!                         db:S21                  ang:S21                 db:S22                  ang:S22                 db:S23                  ang:S23                 db:S24                  ang:S24
!                         db:S31                  ang:S31                 db:S32                  ang:S32                 db:S33                  ang:S33                 db:S34                  ang:S34
!                         db:S41                  ang:S41                 db:S42                  ang:S42                 db:S43                  ang:S43                 db:S44                  ang:S44
! 
 5.525000000000000E7    -4.229192273608160E-1    9.749626065505480E1    -2.948995047887642E1     7.179679517891142E1    -8.968153079307513E1     8.501344853146152E1    -8.066169830411656E1    -8.815187463009841E1
                        -2.948858204540370E1     7.217918738005865E1    -1.770911586999475      -1.372204208824615E2    -6.673652292881349E1    -1.555933587448994E2    -7.781503319180760E1     2.097198159151246E1
                        -8.837323298956025E1     2.623636646157085E1    -6.672730841638143E1    -1.559920165697168E2    -1.413034723476769       2.469813363033181E1    -8.865494896349638E1     1.130579587909827E2
                        -9.553547832460554E1     1.070232780275059E2    -7.773425710070738E1    -2.860452213208095E1    -8.037008881355533E1    -7.433566476078789E1    -1.432005929641239       3.119724454993842E1

 5.525025000000000E7    -4.210033534571857E-1    9.747956577165236E1    -2.945813229289498E1     7.187250872148634E1    -9.751850070327834E1     7.953853985640669E1    -8.890424872078577E1     1.753377204701204E2
                        -2.945176360329447E1     7.169020260742498E1    -1.777874380915328      -1.372671602890200E2    -6.750253780980329E1    -1.505205650059209E2    -7.719746998498115E1    -5.858679081797424
                        -8.600633471272406E1     1.343645291034952E2    -6.616757895536009E1    -1.470886759256950E2    -1.409932565416566       2.471615207578333E1    -8.790442094028491E1     1.110860857539477E2
                        -8.286370183485366E1     3.074366449973374E1    -8.123668128477932E1    -7.900560255316496      -8.615482484376096E1    -9.330961815416703E1    -1.433657745714293       3.117681399935447E1

 5.525050000000000E7    -4.215529040538963E-1    9.746908937708446E1    -2.952451511564979E1     7.221232387362014E1    -8.064116320219704E1     1.487757076309397E2    -8.106770487193083E1    -1.114822543465723E2
                        -2.947536107678121E1     7.171654243379341E1    -1.776246837292511      -1.372725485643791E2    -6.658705594815366E1    -1.506030379618980E2    -7.961163307634750E1     1.034049815816497E1
                        -9.275634705874515E1    -4.410685251340419E1    -6.664690504243299E1    -1.585298623521061E2    -1.417350143323935       2.468179279712840E1    -9.580412420342006E1     6.866142827515461E1
                        -8.462620332466130E1     1.006889346250913E2    -7.830580672032784E1    -1.576950462113569E1    -1.104274584480144E2     1.438430292799982E1    -1.434759719621417       3.119874037805563E1

 5.525075000000000E7    -4.227593596267624E-1    9.745910574706367E1    -2.945973674189194E1     7.156048643371008E1    -8.634756783418484E1    -1.665707962068241E2    -8.484868439844072E1     9.656301675322200E1
                        -2.942948838554272E1     7.211349194327539E1    -1.779690161384716      -1.373364891456712E2    -6.593899204632650E1    -1.494648223138617E2    -7.700594543515207E1     6.992700153602909
                        -9.517205262246021E1    -1.023487127934229E2    -6.730958986225504E1    -1.561454426472355E2    -1.412435255839961       2.468787107658887E1    -8.594311664318802E1     1.194798156661824E2
                        -8.191143972932582E1     1.604741156949720E2    -7.707109571742990E1     7.439645910356448      -8.848305473137545E1    -1.794451722719317E2    -1.438933281509390       3.121760042753849E1

 5.525100000000000E7    -4.179432755592644E-1    9.746483798091474E1    -2.950389546867118E1     7.237687284584855E1    -7.829660308232630E1    -2.279301432928624E1    -8.548133406454889E1    -8.544262478134306E1
                        -2.943458237561600E1     7.139054349571342E1    -1.779374693062005      -1.373313591139362E2    -6.601189924717268E1    -1.641416745061264E2    -7.780226378752755E1     1.928775654839279E1
                        -8.387512754449423E1     2.885683961732890E1    -6.591903219778521E1    -1.526926745027407E2    -1.411761644426264       2.471605321915767E1    -9.521777951878663E1    -1.247550557390016E1
                        -9.888482145873041E1     3.539163263372268E1    -7.686240867859985E1     4.699297528049179      -9.507370386595068E1    -6.223499188673902      -1.430035519011588       3.117683803327374E1

 5.525125000000000E7    -4.223014706398002E-1    9.746401348155887E1    -2.947472632422476E1     7.197467075838893E1    -8.732054787738252E1    -1.589306485707377E2    -8.686638899797774E1    -1.744224112695756E2
                        -2.950077923159947E1     7.183472553328205E1    -1.784510999652149      -1.374148647322914E2    -6.726370884987895E1    -1.496982090473012E2    -7.640395663123971E1    -1.560509323086350E1
                        -9.160064598178053E1     1.413474611960573E2    -6.732321887209496E1    -1.513866206525731E2    -1.411862688356960       2.465247037391174E1    -8.117175812604660E1    -1.719265331849040E2
                        -8.659431631488046E1     1.314927245880275E2    -7.631793197240265E1     5.684106903240968      -8.243778714731236E1     7.576149206601926E1    -1.433669533976745       3.118876244237168E1

 5.525150000000000E7    -4.203979017678063E-1    9.748192137337968E1    -2.951678416326237E1     7.137820042913997E1    -8.029847843379228E1    -1.528228388945305      -8.837052862061373E1     3.045420164421244E1
                        -2.955904097237895E1     7.277239537868344E1    -1.785901459567786      -1.374302414283862E2    -6.693249435080176E1    -1.470476470253654E2    -8.202925444771671E1     1.117516436065132E1
                        -9.184043326096540E1     6.383122012058811E1    -6.724609139780506E1    -1.528757853797596E2    -1.413483376194488       2.471942738751532E1    -8.337432572885369E1    -3.114566905807096E1
                        -8.123556309566014E1    -9.613865686688692E1    -7.617013748826365E1     9.299256205785918      -8.638089642230523E1    -1.418158698558251E2    -1.433713418446691       3.119266511468798E1

 5.525175000000000E7    -4.152880193030089E-1    9.746692908277821E1    -2.946117692214224E1     7.192300576336916E1    -8.664119254150201E1     1.084086944946523E2    -8.522974445787510E1    -1.603355536796933E2
                        -2.943862485474595E1     7.222805475063029E1    -1.784605031761540      -1.374723927515829E2    -6.693863117204083E1    -1.500234157294313E2    -7.811360846723241E1     3.465358688246894E1
                        -8.280924909440964E1     6.563955092234404E1    -6.625545195666311E1    -1.513493044713829E2    -1.413831992992396       2.468787871924897E1    -8.868516045820597E1     5.551334560877385
                        -9.670778437568467E1     1.325162607681091E2    -7.400969424465123E1    -6.925371727283695      -9.592078738813979E1     3.206445626059189E1    -1.427778459607639       3.118213145525966E1

 5.525200000000000E7    -4.157478912457588E-1    9.745864525919674E1    -2.951922769645197E1     7.216418384613687E1    -8.127090729429250E1     8.621464859231723E1    -9.227325445048477E1     1.288894401876416E2
                        -2.961595839734492E1     7.154398370761356E1    -1.793366964186638      -1.375620551123991E2    -6.566641474371700E1    -1.561516311551905E2    -7.704508925728439E1    -6.697857908653533
                        -9.607677030120556E1    -2.773167599144453E1    -6.733338697690958E1    -1.540947375458389E2    -1.407975298638795       2.469524052876333E1    -8.706950850273441E1    -1.757726328021636E2
                        -9.159347550205555E1     2.601542476427882E1    -7.741113979624957E1    -1.862242502990981E1    -8.514497932945747E1    -1.726493299751529E2    -1.429892699127227       3.118326082093324E1

 5.525225000000000E7    -4.199538664263383E-1    9.744485609718758E1    -2.943546559191027E1     7.228669825615873E1    -8.534074305739506E1     5.086753951835745E1    -9.197866577880444E1     1.513029430725771E2
                        -2.948677312615519E1     7.138043247852843E1    -1.791465926174157      -1.375477591961952E2    -6.694965028822297E1    -1.487353433917367E2    -7.699817378129694E1     7.409083736959325
                        -9.044206521560996E1     4.561793630421447E1    -6.659542770037353E1    -1.471156899454163E2    -1.411330190406423       2.465336365989610E1    -8.436985008872571E1     7.557915041520391E1
                        -8.568318103188952E1     8.325680143629195E1    -7.849736139674046E1    -5.293696162732395      -9.216394910707372E1    -1.278302299181942E2    -1.427913591974836       3.116796712712235E1

 5.525250000000000E7    -4.179064380081693E-1    9.742691964370748E1    -2.941928739306762E1     7.131114299062732E1    -8.091515355518148E1    -4.338161306734190E1    -8.884651591758117E1     1.026567540596528E2
                        -2.944749003292205E1     7.187817124300656E1    -1.796558454565996      -1.376102854937043E2    -6.674087587781895E1    -1.467566946979339E2    -8.002100201399821E1     2.303011584479470E1
                        -1.029985702586049E2     1.358977621223299E2    -6.661232317624096E1    -1.587785214283429E2    -1.413730511574662       2.469468274801974E1    -8.341994979004980E1    -1.088139476973579E2
                        -9.005145619191998E1     1.254826526451615E2    -7.593217261849988E1     1.518629270718257      -1.021590397538193E2     1.126605733192323E2    -1.428186320761749       3.114660190250170E1

 5.525275000000000E7    -4.188564520900039E-1    9.744528545431565E1    -2.941686152882154E1     7.240169170461094E1    -8.602469463437541E1    -4.000284337931413E1    -9.421924828801785E1    -1.213105047485178E2
                        -2.955839197468021E1     7.219586323773386E1    -1.791198906850420      -1.376499831957314E2    -6.588110224069071E1    -1.573159610299738E2    -7.588519138949576E1    -1.789381729130308E1
                        -8.662997760398707E1     1.113843246605235E2    -6.814270580010307E1    -1.535484673845893E2    -1.409480207710333       2.465612274685923E1    -8.174482741920500E1    -5.973044898799996E1
                        -9.667610224609240E1    -3.707901603891765      -7.868891379319456E1     3.137132178576299      -8.833341003954799E1     6.647472390394313E1    -1.432855441373367       3.115124838880326E1

 5.525300000000000E7    -4.206197662476224E-1    9.744805548157848E1    -2.946068717921257E1     7.173979668446714E1    -8.394930496741554E1     3.782914839327185      -9.068277655238421E1     4.621342645838428E1
                        -2.942441801652022E1     7.210585692325560E1    -1.797419873626686      -1.376362356679947E2    -6.687204245160358E1    -1.595168598168670E2    -8.158770424629404E1     5.556461312047584
                        -9.331874746562059E1     1.454661884769115E2    -6.645589262117727E1    -1.521867286827282E2    -1.413335941223277       2.467976445825412E1    -9.283058325161764E1    -1.634135305410490E1
                        -8.408853708785290E1    -1.984031482595180E1    -7.711518347224720E1    -3.431517631183166      -8.839875684968378E1    -4.283839009312818E1    -1.429016323136982       3.118812257290264E1

 5.525325000000000E7    -4.195813789361219E-1    9.742696514962807E1    -2.953658269547978E1     7.205766438256167E1    -9.943852510373661E1     1.541505545342982E2    -9.110812258924366E1     3.448493766223212E1
                        -2.962943262022760E1     7.205829570766711E1    -1.801453891315556      -1.377294711146638E2    -6.712116917146604E1    -1.514816862143831E2    -7.575742643042050E1    -4.280214133613717
                        -9.585269313636894E1     1.310564464131310E2    -6.624723318628728E1    -1.582260348996707E2    -1.410312695253153       2.469060413633466E1    -9.393981335383826E1     9.048125075415250E1
                        -8.473443898291754E1    -1.738484644078919E1    -7.893904105990715E1    -7.766663534419992      -1.064408599894150E2     1.755623449981227E2    -1.432597663044548       3.117074016348891E1

 5.525350000000000E7    -4.189495250633119E-1    9.741624074344807E1    -2.941434702154495E1     7.200169152083673E1    -8.469542473594100E1    -5.287203274543010E1    -8.995446896744164E1     6.921638837359718E1
                        -2.954684173033470E1     7.160438059730014E1    -1.804051125593320      -1.377363443143546E2    -6.652995440904454E1    -1.610610988197576E2    -7.459524753382001E1    -1.125065713942051
                        -8.550474490160796E1     1.720798803904971E2    -6.674304283456598E1    -1.503700720097638E2    -1.412898179277811       2.465911463448255E1    -9.291928232090726E1    -8.816635261278429E1
                        -9.732399209959498E1     1.665098804286092E1    -7.711511875428975E1     9.319832472611655      -9.036216001840081E1    -1.159108207355244E2    -1.432944503394043       3.118271004080386E1

 5.525375000000000E7    -4.127537074296040E-1    9.742807192101473E1    -2.940977144191770E1     7.168962990412769E1    -1.098143638973247E2    -9.169331433422968      -8.607205434672694E1     6.466213744698385E1
                        -2.949470931926229E1     7.183123448217658E1    -1.802833242106653      -1.377844840879051E2    -6.635855618864247E1    -1.636777831178582E2    -7.779965265339828E1    -5.404707881718830
                        -8.334506986648073E1     1.614520347030155E1    -6.795952896063989E1    -1.581824289622446E2    -1.411269101827944       2.466749319517180E1    -1.069476444627740E2    -1.541241900558505E2
                        -8.189626233246344E1     1.421281309390121E2    -7.797225763196614E1    -1.049367302521943E1    -8.388392389742361E1     5.234697519360636      -1.430216032227841       3.114690256505278E1

 5.525400000000000E7    -4.202750764171628E-1    9.740835830490538E1    -2.953274399400200E1     7.125503864169215E1    -8.904162071051047E1     1.619646272347293E2    -9.948742973021999E1    -3.719875001905789E1
                        -2.947724905387647E1     7.212414755296653E1    -1.803068876473316      -1.378770387575528E2    -6.685535332172026E1    -1.449732748709047E2    -7.454966217797740E1     4.291812250523878
                        -8.724584193972783E1     3.097059700952428      -6.659676715778500E1    -1.511993269843499E2    -1.408261891568553       2.462257472277114E1    -9.222900770787931E1    -2.385570584475814
                        -9.175909028674420E1    -1.706156389638129E2    -8.015439469027143E1    -4.573613194338918      -9.377212222541635E1    -1.224263073634975E2    -1.435234561389774       3.113093817243798E1

 5.525425000000000E7    -4.196072764750288E-1    9.741292420396142E1    -2.949808380160882E1     7.181588765674384E1    -8.450897751291711E1     9.087148342448018E1    -8.698119905338689E1    -1.555187634232462E2
                        -2.946381294730597E1     7.195243899705271E1    -1.808668367652442      -1.379019045713993E2    -6.670695436015882E1    -1.561809484819904E2    -7.797900316659832E1    -5.840462266038444
                        -8.867204138318969E1    -1.048264877315593E2    -6.696874434725854E1    -1.535281747444228E2    -1.412516998296434       2.464361598343435E1    -8.665615599301370E1    -5.559829900624907E1
                        -8.382200640240686E1    -4.783983724038608E1    -8.081700211506613E1     7.926520126745181      -8.286282413554991E1     6.728096501504416E1    -1.428704481571420       3.119389599502098E1

 5.525450000000000E7    -4.200834272974688E-1    9.739159500122490E1    -2.948656918631325E1     7.209082098242649E1    -9.536340085440985E1     1.245042431728047E2    -9.882225870808935E1     1.418269346544753E2
                        -2.948297661842543E1     7.157476891193792E1    -1.813036390607198      -1.379108252275420E2    -6.712488178644209E1    -1.567230845103864E2    -7.462072927531943E1     4.471187700476595
                        -9.664375139493258E1     1.328900744957947E2    -6.684761788435370E1    -1.456323717167697E2    -1.412485277634256       2.466797589199999E1    -8.355751625477758E1    -1.340524065110575E2
                        -8.220942983082408E1    -5.731827226962792E1    -7.977048957897387E1     9.430899081726320      -9.840881742496407E1    -1.577186125948274E2    -1.429791908695743       3.114930388845234E1

 5.525475000000000E7    -4.155973712480603E-1    9.740644445791794E1    -2.947157492160014E1     7.234508285933323E1    -8.349550387447670E1    -9.876734324863952E1    -9.264114339020794E1    -4.606752400404958E1
                        -2.949975506782391E1     7.153677735068325E1    -1.811109406332035      -1.379703747453994E2    -6.621174191873676E1    -1.651825168678792E2    -8.326819907366173E1     2.707978045209268
                        -9.007993178942678E1     8.732974112503692E1    -6.679256727197659E1    -1.536313785687571E2    -1.411060702094198       2.467503256243733E1    -8.269994816293951E1     1.703049999556448E2
                        -9.218245221915441E1    -6.144514091515435E1    -7.821829300462456E1    -1.950831140102158E1    -8.386570124102795E1     1.202033761864512E2    -1.427922677800084       3.117243185328742E1

 5.525500000000000E7    -4.203401747912055E-1    9.739511603087541E1    -2.943070759490885E1     7.151873121909335E1    -9.729273548272231E1     6.005671371384966      -8.466779571065351E1     6.445524181578242E1
                        -2.952383306143140E1     7.184612349819771E1    -1.818523827076733      -1.379816012977721E2    -6.703340073000007E1    -1.537703798780902E2    -7.683681939111386E1     7.242580760649282
                        -9.321830278229471E1    -4.351608661488789E1    -6.665407243705442E1    -1.620489472141382E2    -1.410272101861497       2.463293866292806E1    -8.875594268376518E1    -8.994476910871421E1
                        -8.516313931460344E1     1.104853201996995E2    -7.454757795528519E1     5.981211832279375      -8.585102100698178E1     8.010357801995976E1    -1.430386899400485       3.112564191581289E1

 5.525525000000000E7    -4.153604177700959E-1    9.740692478167904E1    -2.940596173719182E1     7.164054289159400E1    -8.647609811946430E1    -9.749724764488354E1    -8.340723770104020E1     7.349239878442018E1
                        -2.952089581379855E1     7.171708096608290E1    -1.812871241206411      -1.380540861942501E2    -6.639748669864765E1    -1.512432086897235E2    -7.518138992874172E1    -3.028475686634432E1
                        -8.831589098503395E1    -1.208761076236197E2    -6.683366266342435E1    -1.508255451696859E2    -1.411955001570895       2.462823505613404E1    -9.221430923306743E1    -1.454536029408858E2
                        -8.110686477466973E1    -1.640399521554504E2    -7.368170716685087E1    -5.190915126804941      -8.430050518994651E1    -5.121404117202403E1    -1.430303765268273       3.114989572272563E1

 5.525550000000000E7    -4.177682290650658E-1    9.738282701702512E1    -2.940537520019971E1     7.166971109483623E1    -9.472396221929992E1     1.152484220335963E2    -8.961428121609222E1     1.188237650865409E2
