#  HZ   S   DB   R     50.00 
! Rohde & Schwarz Vector Network Analyzer 
! Rohde-Schwarz,ZNB8-4Port,1311601044102961,2.82
! Created: UTC 2/13/2019, 12:05:53 PM
! freq[Hz]                db:S11                  ang:S11                 db:S12                  ang:S12                 db:S13                  ang:S13                 db:S14                  ang:S14
!                         db:S21                  ang:S21                 db:S22                  ang:S22                 db:S23                  ang:S23                 db:S24                  ang:S24
!                         db:S31                  ang:S31                 db:S32                  ang:S32                 db:S33                  ang:S33                 db:S34                  ang:S34
!                         db:S41                  ang:S41                 db:S42                  ang:S42                 db:S43                  ang:S43                 db:S44                  ang:S44
! 
 5.525000000000000E7    -4.612565826886084E-1    9.736529822039817E1    -3.206169744277339E1     7.128255339685768E1    -9.066461143932958E1     1.540457206435022E1    -8.380954163111176E1    -1.729081016477358E2
                        -3.207240543012122E1     7.173279872997492E1    -4.513271029442428      -1.556238271401163E2    -7.714302720161419E1    -2.780514317969421E1    -6.944170858550258E1    -1.686593855638866E2
                        -8.652495572557753E1    -1.604442354107709E2    -7.403434633120472E1    -5.445335011378250      -1.410307395823485       2.476403999148417E1    -9.046865756185044E1     5.783223840149382E1
                        -8.396784334192978E1    -4.671716208470102E1    -6.776651165704163E1    -1.710334909728409E2    -9.031965929630630E1     4.150696417380235E1    -1.433025476616503       3.125011730278711E1

 5.525025000000000E7    -4.659259654839659E-1    9.737076308790191E1    -3.196979199121524E1     7.120301380741519E1    -8.912404623039370E1     1.531181997187632E2    -1.013889191464614E2    -1.790023956938623E2
                        -3.206236926625989E1     7.168916441648436E1    -4.513796146226597      -1.556506108791450E2    -7.471423266030116E1    -1.935146719186399      -6.674069529045023E1    -1.663061585025124E2
                        -9.310118010387284E1     1.382532917380638E2    -7.354606391704346E1    -2.949849563697359E1    -1.409215393070951       2.477396445853020E1    -9.519693549259955E1     7.379234454195787E1
                        -8.439330168746284E1    -1.021508585886697E2    -6.760002295648502E1    -1.653216125960533E2    -8.707762124990786E1    -1.358389398544938E2    -1.434816084394072       3.121767450097663E1

 5.525050000000000E7    -4.663603438355836E-1    9.733076842920019E1    -3.195545894093250E1     7.111008862462555E1    -8.560951659891033E1     5.961982654116205E1    -9.470399936486342E1     6.917350263152865E1
                        -3.202104106592775E1     7.150140747386259E1    -4.518255792693566      -1.557257117946146E2    -7.770932502874575E1    -4.677826889971525      -6.738349913807950E1    -1.713915227161115E2
                        -9.030812232486126E1    -1.181234751222726E2    -7.326641417838833E1    -3.595538651138953E1    -1.412538262889757       2.474991641771916E1    -9.271278283421236E1     1.068124629069685E1
                        -9.589664714560469E1     7.455765839389743E1    -6.666725770213473E1    -1.691773139081895E2    -8.391517956619080E1    -7.137400500956440E1    -1.436515251528004       3.124993433138628E1

 5.525075000000000E7    -4.625714822569261E-1    9.735293536842583E1    -3.201271413660902E1     7.146322394276388E1    -9.031760912521860E1    -1.628734453230210E2    -8.868183935647677E1     9.694660807291753E1
                        -3.208295427608273E1     7.143925650675236E1    -4.523735318634303      -1.557333199961428E2    -7.512395849838383E1    -2.307403543707603E1    -6.711408384020473E1    -1.741109861086791E2
                        -9.356602649829513E1    -1.348156284763039E2    -7.144445746008331E1    -1.792428200302153E1    -1.408723355542127       2.477757999545323E1    -9.193523626255070E1    -6.225215918989181E1
                        -8.790123494761292E1    -1.382595322618663E1    -6.619299994531055E1    -1.717799108505484E2    -9.965988832096892E1    -7.368306594067718E-1   -1.432566198663869       3.123611070908056E1

 5.525100000000000E7    -4.623511345293868E-1    9.732395683146443E1    -3.200300814393869E1     7.176005871998474E1    -8.317105353046622E1    -1.375363956737266E2    -9.144484753835411E1     8.948044920482087E1
                        -3.196732551030271E1     7.140133042404248E1    -4.520883905268295      -1.557994287746554E2    -7.556623643878785E1    -3.895968249974621      -6.662450934618020E1    -1.694309412435778E2
                        -9.298665722524225E1     1.192318765600946E2    -7.479332592855889E1    -1.033208245182272E1    -1.409400964480458       2.474511517163162E1    -7.966244107126775E1     3.349680509280267E1
                        -8.408373816592825E1    -8.915582258122331      -6.728953463944428E1    -1.572532373203577E2    -8.586790348159011E1     1.263677233497674E2    -1.430825945205479       3.124906837842021E1

 5.525125000000000E7    -4.645760891103374E-1    9.735683352185924E1    -3.193259934720006E1     7.076000022112034E1    -8.398623898929480E1     1.684525476670794E2    -7.962000508411161E1    -3.826645833604534E1
                        -3.204027540218549E1     7.122165619159487E1    -4.540891086311968      -1.558580242900755E2    -7.558433303483055E1    -1.301832220870103E1    -6.816672246590416E1    -1.697044352144273E2
                        -9.175013353931394E1     9.147089827591442E1    -7.527073689283552E1    -7.628840200126662      -1.408870306307684       2.473931070197314E1    -8.398565252063114E1     1.561124673063047E2
                        -8.455958048816737E1     2.297011409212123E1    -6.865610385966127E1    -1.677536057229329E2    -8.539549609035673E1     1.300491113279548E2    -1.431847906410346       3.123649776408833E1

 5.525150000000000E7    -4.579861642940907E-1    9.731862471367114E1    -3.198010400245019E1     7.216666895988536E1    -8.245710625021907E1     1.445937926635133E2    -9.613454974770102E1    -1.844944387017009E1
                        -3.205455706106623E1     7.124167189883362E1    -4.536782207426188      -1.558736717951913E2    -7.581360197357127E1    -6.984684368946487      -6.734215051795839E1    -1.608486169831294E2
                        -8.885850393824894E1    -9.443389919756562E1    -7.393834115455661E1    -2.336429456950542E1    -1.412561771278727       2.473061889873025E1    -8.649251889825968E1    -1.280443455755340E2
                        -8.568067120987629E1     9.826165445430104E1    -6.737024015202667E1    -1.682910659526815E2    -8.624149172082072E1    -1.534291179400903E2    -1.432755287392979       3.122562301434267E1

 5.525175000000000E7    -4.619335721661392E-1    9.733283807242721E1    -3.193848332339841E1     7.161828902560197E1    -8.101205725364653E1    -1.616503800677756E2    -8.225640543055798E1    -1.552699066948666E1
                        -3.213271976642163E1     7.063096663725528E1    -4.548682213358112      -1.559547935297706E2    -7.191400142002239E1    -3.339796072419899E1    -6.623364829842794E1    -1.679094163223886E2
                        -8.712290996191699E1     1.891518885095288E1    -7.214626977120719E1    -1.358335133980341E1    -1.410766508448381       2.472549597711535E1    -9.735020989923584E1     1.788667940069067E2
                        -8.305297924460760E1     2.185454014514718E1    -6.718500424141971E1    -1.659174036392005E2    -8.785577356213908E1    -3.001860778830139E1    -1.431140836899878       3.123169564814144E1

 5.525200000000000E7    -4.614385768320738E-1    9.731896262834498E1    -3.207571947066356E1     7.184752616394854E1    -8.528993111337974E1    -6.002799544393081E1    -8.105656768676452E1     1.041804258314834E2
                        -3.205547414728365E1     7.155492931007642E1    -4.547547408918305      -1.559701513791790E2    -7.746650951719718E1    -2.173711423285971E1    -6.782115403971783E1    -1.601179096166258E2
                        -8.274292469687730E1     1.682909205241151E2    -7.467911478335651E1    -3.250953660136156      -1.410385211493079       2.472401893989649E1    -9.213160411584460E1    -1.703448546131191E2
                        -7.905942653556718E1    -5.913251252366709E1    -6.697740474917895E1    -1.655831402058637E2    -8.360805649319414E1     1.063147284884688E2    -1.433152062305145       3.122942696382070E1

 5.525225000000000E7    -4.632746639921993E-1    9.732569634099407E1    -3.193876871236830E1     7.245209865849633E1    -8.868051742027234E1     1.119766677264394E2    -8.716154571683802E1     8.727179286819980E1
                        -3.206651479572082E1     7.126260837808515E1    -4.550750880122423      -1.559776476597681E2    -7.678614370890193E1    -2.692227049399166E1    -6.645127512557355E1    -1.681522683051962E2
                        -9.191857122699557E1     1.977267185354759E1    -7.359700392311426E1    -1.809515013546918E1    -1.406794495027207       2.472678251558203E1    -8.320260783995998E1    -2.275747677420918E-1
                        -8.477425676844240E1     5.960206137319060E1    -6.629074814101595E1    -1.617866417186758E2    -8.709926397302317E1    -6.124490301478628      -1.430922827250608       3.121033937508861E1

 5.525250000000000E7    -4.673219138470741E-1    9.734095197608015E1    -3.203237784340850E1     7.189393526226552E1    -8.037007006885312E1    -2.323692895392979E1    -8.268882784866017E1     1.501274750458424E2
                        -3.200286203696846E1     7.138420998062831E1    -4.564099833038462      -1.560509883252484E2    -7.483875084798748E1    -2.081429058905656E1    -6.740957245981322E1    -1.656737233622803E2
                        -8.627160439670205E1     4.468741819563690E1    -7.183061345275792E1    -2.467772153487881E1    -1.412710744329563       2.473122332674664E1    -8.979263856672567E1     8.242700817707325E1
                        -8.419946120970266E1     1.658225071923846E1    -6.637349575196295E1    -1.796963447912469E2    -8.559231780973792E1     1.157945643338196E2    -1.432041423264848       3.120922697976206E1

 5.525275000000000E7    -4.623191845337750E-1    9.733845453941662E1    -3.211441058845855E1     7.139528993991185E1    -8.159331906313702E1     1.532179160854938E2    -8.112379884391456E1    -5.864093150555807E1
                        -3.202318053066168E1     7.158209941445057E1    -4.558992459759258      -1.560815653224690E2    -7.574930883291736E1    -3.515290908325660E1    -6.729803647333060E1    -1.663611919288836E2
                        -1.181535411887196E2     8.590747718140221E1    -7.208089759646921E1    -1.966424954563400E1    -1.412640468608755       2.472235338820084E1    -8.927759130199868E1     2.674848322258959E1
                        -8.450087221714269E1    -9.710934174912221E1    -6.613215467546395E1    -1.705296474942450E2    -8.924506930437174E1     1.521702859798213E2    -1.431267790841155       3.120142270419011E1

 5.525300000000000E7    -4.613188426130333E-1    9.731092238268325E1    -3.201898371222741E1     7.099654683027349E1    -8.354480794766860E1     1.489476094829780E2    -9.180970118091145E1    -9.284921682507103E1
                        -3.203402994299082E1     7.067592417821572E1    -4.571718352160328      -1.561278035278027E2    -7.472425914409237E1    -2.537865194809143E1    -6.686170164995497E1    -1.671401798136629E2
                        -8.723484506080931E1    -1.207604957561534E2    -7.312812851032027E1    -2.083527095873795E1    -1.407774111560730       2.469304615990636E1    -7.673365533491247E1     1.077459301988420E2
                        -8.458784579137642E1    -8.436935396146249E1    -6.667827142432546E1    -1.658924333544675E2    -8.503872610380627E1    -1.463970739264958E2    -1.430520348192360       3.120685155930410E1

 5.525325000000000E7    -4.572538962508158E-1    9.728012902127364E1    -3.205870748547007E1     7.140299904324890E1    -8.203925890514114E1    -1.267208250548369E2    -9.176149251764787E1    -4.567495494878857E1
                        -3.203612623098372E1     7.155878672519188E1    -4.581201779600327      -1.562036729197650E2    -7.417173416852371E1    -3.145405509234344E1    -6.563283869633327E1    -1.696334424392667E2
                        -8.673839315039254E1    -9.991202279329858E1    -7.273943027428220E1    -2.758317901395590E1    -1.410254552983872       2.469677881501905E1    -9.343074953110504E1    -4.995712021951621E1
                        -9.310678805395088E1    -2.762437329177793E1    -6.884334045023013E1    -1.724684642412576E2    -8.640685873361711E1    -4.433063435254245E1    -1.427357868581684       3.121164614530913E1

 5.525350000000000E7    -4.633135640849058E-1    9.730002392389925E1    -3.210767137136141E1     7.138670214978794E1    -8.347183545122650E1     2.745652323370502      -8.659208361640421E1     9.886884372259988E1
                        -3.198611009524564E1     7.094796170313967E1    -4.581757758988189      -1.562488020172255E2    -7.707208612188779E1    -1.857038427743398E1    -6.725408506333034E1    -1.697649179579470E2
                        -8.089534182563669E1     9.282773166960720E1    -7.379294222319649E1    -1.589593985076342E1    -1.408751591697742       2.471964625010540E1    -8.393608454960516E1    -2.705459845853858E1
                        -1.019599987032142E2     1.423339939896699E2    -6.763981035725222E1    -1.698606853551565E2    -9.270321767833300E1     9.188929987614911E1    -1.429082901989162       3.118907091039158E1

 5.525375000000000E7    -4.633217813763716E-1    9.729491645962207E1    -3.201101777537679E1     7.116600023862615E1    -8.938110784602088E1    -6.957501462476459E1    -9.985192313101969E1    -1.408479967920643E2
                        -3.209007440487509E1     7.109667703857738E1    -4.582008496814702      -1.562587050890020E2    -7.287140743576460E1    -1.952974048479802E1    -6.805447722841747E1    -1.658225486575197E2
                        -8.716786343189409E1     2.110695423528714E1    -7.491782395337529E1    -2.359297253738934E1    -1.408707524685945       2.473422828803094E1    -9.239012801565320E1    -1.712704091518006E2
                        -8.843050372643677E1    -5.517361893407330E1    -6.704735914775162E1    -1.624583007239156E2    -9.277059366843703E1    -7.123577568472844E1    -1.431484224902336       3.120206375635555E1

 5.525400000000000E7    -4.626950922633058E-1    9.730230463490921E1    -3.204164779130438E1     7.103707842157695E1    -8.349352415124369E1     5.492592285348072E1    -8.076019428410525E1    -1.483438277617134E2
                        -3.203896891875581E1     7.117682648802095E1    -4.590034714368404      -1.562746851454233E2    -7.363385013221165E1    -1.829002596284843E1    -6.702797752574755E1    -1.710583116028598E2
                        -8.682776010754979E1    -8.158032044811445E1    -7.297272159922807E1    -2.459160361884369E1    -1.411216541814393       2.469427040699665E1    -8.851411803832775E1    -1.785154305444449E2
                        -8.933354826088353E1    -1.525908955029845E2    -6.737808204701308E1    -1.641329185585552E2    -9.744924026917587E1    -8.051687338532931E1    -1.430913563374018       3.119720267019376E1

 5.525425000000000E7    -4.624952590383097E-1    9.728399715722627E1    -3.200048480231602E1     7.122917563690021E1    -9.645004188659138E1     2.324573682990972E1    -9.463221248459340E1     1.084314907485839E2
                        -3.209030007544055E1     7.176863117554322E1    -4.592410548214845      -1.563551830432930E2    -7.627389761025933E1    -9.386837224606648      -6.829870196232577E1    -1.788249032496692E2
                        -8.684662449063552E1     1.528311669335311E2    -7.492540147728627E1    -2.845644777369516E1    -1.411737391059524       2.469490654982041E1    -8.842975768774599E1     3.364759452729525E1
                        -9.330295083843610E1     4.948493313311963E1    -6.684009899539295E1    -1.740536921741600E2    -8.949153953978851E1     9.259515998170129E1    -1.428157238369327       3.120540213550655E1

 5.525450000000000E7    -4.629153366057875E-1    9.730645805170887E1    -3.197934787945231E1     7.144417504970683E1    -8.420082104346612E1     1.358885550729816E2    -8.947145907029307E1    -1.179744588986583E2
                        -3.198218459767882E1     7.080329141384232E1    -4.598939577370083      -1.563650831166384E2    -7.198280847708230E1    -1.743155189065132E1    -6.589781525168162E1    -1.705842302642168E2
                        -8.256846059463726E1     1.157764234310257E2    -7.287968178017246E1    -2.891409984258273E1    -1.408640829178306       2.469521344164587E1    -9.449422142893347E1     1.562929912628219E2
                        -8.550072870267067E1     6.526388781885386E1    -6.703067057468290E1    -1.717043881882194E2    -9.117786302991223E1     1.038392623105192E2    -1.428090587157951       3.119676117483435E1

 5.525475000000000E7    -4.626904783034916E-1    9.728376905775779E1    -3.206339387586841E1     7.154093191908370E1    -9.118635839600991E1    -1.749317205996829E2    -8.189595440999158E1     1.108566607825695E2
                        -3.208055190959646E1     7.091814891239937E1    -4.606480646602357      -1.564494416409488E2    -7.622233662952623E1    -3.711428213536703E1    -6.723020784257051E1    -1.668469303458676E2
                        -8.616828164834429E1    -1.066821880178422E2    -7.576688080098091E1    -2.365341269230233E1    -1.411025881475282       2.467178937336914E1    -9.193073545644896E1     1.722093472290382E1
                        -8.570720828033680E1    -1.774194606598965E2    -6.684895349040487E1    -1.709851141491162E2    -8.593879690109549E1     9.804243142064787E1    -1.433262313356292       3.117977371909134E1

 5.525500000000000E7    -4.578616458233519E-1    9.726205221590361E1    -3.198556669325987E1     7.131894291185145E1    -8.942134132183352E1    -1.339220236196185E2    -8.383000614171429E1    -7.797493441626294E1
                        -3.205346496642520E1     7.096914311499344E1    -4.610195847808284      -1.564916760473066E2    -7.568677667271190E1    -2.608534936368961E1    -6.686028259623799E1    -1.722505225232802E2
                        -9.432439932348309E1     3.147358347975702E1    -7.267596172773023E1    -2.690207870890459E1    -1.413349631268179       2.465396521714682E1    -8.061988190531515E1    -4.039150371549192E1
                        -9.542570750795305E1    -9.132688523732520E1    -6.659546396441409E1    -1.612214940369779E2    -9.311057748709489E1    -3.513259635860198E1    -1.431138945522735       3.115786193575284E1

 5.525525000000000E7    -4.594092264335421E-1    9.730478641760158E1    -3.206933454830470E1     7.175447851693374E1    -8.333974282195933E1     4.786322858785778E1    -8.935396083261141E1    -1.187579795944095E2
                        -3.213378292177589E1     7.185823224417457E1    -4.615332039303613      -1.565323440679856E2    -7.251959608648799E1    -2.392138891937356E1    -6.622555497473391E1    -1.626390219014983E2
                        -1.003609939626861E2    -8.977445670392601E1    -7.322189816287091E1    -3.858693797914749E1    -1.408349665462825       2.469306847231334E1    -8.694063503298179E1    -8.534089069793284E1
                        -8.826392198631041E1     1.773818606089467E2    -6.685635546453553E1    -1.692538595640783E2    -9.083542509687166E1     2.621610363405553E1    -1.433002061295148       3.116951799538363E1

 5.525550000000000E7    -4.636667301528171E-1    9.727604901983423E1    -3.191165907778872E1     7.129552051682681E1    -9.129191429901107E1    -5.622804680428980E1    -8.476037489195130E1    -9.229943138790677E1
