#  HZ   S   DB   R     50.00 
! Rohde & Schwarz Vector Network Analyzer 
! Rohde-Schwarz,ZNB8-4Port,1311601044102961,2.82
! Created: UTC 2/12/2019, 1:58:18 PM
! freq[Hz]                db:S11                  ang:S11                 db:S12                  ang:S12                 db:S13                  ang:S13                 db:S14                  ang:S14
!                         db:S21                  ang:S21                 db:S22                  ang:S22                 db:S23                  ang:S23                 db:S24                  ang:S24
!                         db:S31                  ang:S31                 db:S32                  ang:S32                 db:S33                  ang:S33                 db:S34                  ang:S34
!                         db:S41                  ang:S41                 db:S42                  ang:S42                 db:S43                  ang:S43                 db:S44                  ang:S44
! 
 4.775000000000000E7    -3.181506354830746E-1   -1.002378627000133E2    -2.992605771940732E1    -1.400281702164780E2    -8.454460991830385E1    -1.437817852290021E2    -8.402249876979207E1     2.680765320090884E1
                        -2.986839425301746E1    -1.393307394112374E2    -2.522265071071541E-1    1.657862953682360      -8.162266691604214E1    -1.324818094982360E2    -7.522375304074451E1    -2.907906534721792E1
                        -8.709059891587280E1     3.352966746254248E1    -8.246500864007061E1    -1.818054434570847E1    -1.404797419776875       1.229290488400055E2    -8.719762372484985E1    -7.265032825019952E1
                        -9.206242988173621E1    -1.323087499734319E2    -7.422202896632203E1    -2.229904756320094E1    -9.829454801207223E1     1.019676990915130E2    -1.411712742882773       1.304114394822794E2

 4.775025000000000E7    -3.146955095597373E-1   -1.002094865838357E2    -2.985529324506953E1    -1.400751537437979E2    -9.270989988568104E1     1.748887627497288E2    -8.409515895914251E1    -1.312526472886221E2
                        -2.984241586678660E1    -1.395699912763383E2    -2.489501771599186E-1    1.615032329259920      -8.124672211566028E1     1.236406857927307E2    -7.232299577365021E1    -2.550611523955887E1
                        -8.804843726413813E1     1.191651794048561E2    -9.072191546680020E1     1.082179338358764E2    -1.402130381085527       1.229414970384054E2    -9.343341606017161E1     9.881814764182477E1
                        -9.337021919611487E1    -5.703265134514553E1    -7.114625474442457E1    -3.593981915410055E1    -8.194062829061488E1    -1.550618458545929E2    -1.407607528468130       1.304254578838969E2

 4.775050000000000E7    -3.163957778838050E-1   -1.002328250221770E2    -2.996783232491798E1    -1.399900589217797E2    -9.530378921260244E1     1.478846441751013E2    -8.350184483969119E1     1.342070457552019E2
                        -2.987863549130621E1    -1.397742847916024E2    -2.599227190729369E-1    1.624335427455133      -8.085848796951071E1     2.479124087608638E1    -7.469074045741132E1    -1.817214541522261E1
                        -8.819619331420171E1     6.446504869788587      -8.064348501474788E1     8.798914509577298E1    -1.400000306720015       1.229042398104235E2    -8.212584737492179E1     6.368689723580083E1
                        -9.551178456524886E1     7.883842200115775E1    -7.296752808762039E1    -2.963976422091577E1    -8.849219892875780E1     6.194052337647886E1    -1.409753068064240       1.304381797794835E2

 4.775075000000000E7    -3.153228630014289E-1   -1.002406096081860E2    -2.998646696780131E1    -1.398506909259158E2    -1.227499558082517E2     2.083853789508460E1    -8.868416192873268E1    -1.469254105000736E2
                        -2.987242993957831E1    -1.393948942749138E2    -2.612386159044425E-1    1.645506662029494      -8.369176854969938E1     7.131570653318697E1    -7.502852422753955E1    -4.808596229361157E1
                        -9.017155043162273E1    -1.122693468640138E2    -8.725705690631665E1    -3.337946459139982E1    -1.402283610307451       1.229139272196769E2    -7.955157371416091E1    -1.413464732398603E2
                        -8.108952651256709E1     5.049240468644623E1    -7.337502379845786E1    -2.146277371816950E1    -8.145423004753556E1     5.612559069826569E1    -1.407143047650874       1.304472942740021E2

 4.775100000000000E7    -3.173310066743738E-1   -1.002473650286475E2    -2.986594631164774E1    -1.397746179640199E2    -8.735307584358171E1     1.224730438498933E1    -8.420956668452112E1     1.194889555330017E2
                        -3.002529555337713E1    -1.393263687857430E2    -2.566192481366740E-1    1.642250851115366      -8.760929029359090E1     1.439512603164695E2    -7.544626826402012E1    -1.128524539654016E1
                        -9.737779537858599E1     9.558140783520315E1    -8.410432222477199E1     9.540939493298056E1    -1.407770947837617       1.229097535912906E2    -9.548109012249675E1    -1.563833204967396E2
                        -8.664061458542270E1    -1.782686983846075E2    -7.247202495228922E1    -3.405237772040580E1    -9.411786339945812E1    -1.045441500377883E2    -1.414326574717908       1.304488625128129E2

 4.775125000000000E7    -3.183940048505871E-1   -1.002442348777611E2    -2.996676226521362E1    -1.394216907253674E2    -8.674912344123337E1    -1.698036672718547E1    -8.729766837470407E1    -5.533156130362885E-1
                        -2.989929635700097E1    -1.398271233001992E2    -2.543091467608423E-1    1.545162815410303      -9.112978789232190E1     6.087120106405190E1    -7.240120380129855E1    -3.620415295018186E1
                        -9.638690919830475E1    -9.297672924007345E1    -8.390700315031785E1    -7.024755833439434E1    -1.403577743216271       1.228854310869917E2    -8.723242320798447E1    -1.065388562967642E2
                        -9.191715245525288E1     3.164730507045998E1    -7.345195829655621E1    -2.733938710182709E1    -8.988440055775521E1     1.961062907546517E1    -1.413250970472021       1.304324851706561E2

 4.775150000000000E7    -3.250045714520646E-1   -1.002547582504178E2    -2.988268868879615E1    -1.400178835285319E2    -8.169237873670626E1    -9.860993837369745E1    -9.456009144638715E1     1.451750457507646E2
                        -2.987333589750400E1    -1.397321025824133E2    -2.547845121024718E-1    1.566154985081465      -8.692037520230559E1     4.493879014359980E1    -7.184326492790004E1    -4.243948920124063E1
                        -8.699087805552506E1     1.254412658003671E2    -8.839999326528346E1    -5.228826216769033E1    -1.399907641403257       1.228987727962598E2    -9.523435958458711E1    -5.333484500535271E1
                        -7.852460363070959E1    -8.538284580390878E1    -7.077299014976271E1    -2.265912575866386E1    -8.330400315630911E1     7.132496323223319      -1.410910049392051       1.304268557581926E2

 4.775175000000000E7    -3.183954707118659E-1   -1.002355964787905E2    -2.985750957766723E1    -1.394678687654506E2    -8.533376367079443E1     1.646793356184254E2    -9.673259568210055E1     5.258378956038640E1
                        -2.999740291718478E1    -1.399949526589408E2    -2.569609507585842E-1    1.594093903649402      -1.104489527650390E2     8.273473442154976E1    -7.224848540226914E1    -3.255121045193162E1
                        -8.867357394888916E1    -9.714778283372915      -9.105378491814588E1    -1.110736577746123E2    -1.400231383505778       1.229015236922851E2    -8.730634430086820E1    -6.510875392078798E1
                        -8.761420789040312E1    -6.275855972482531E1    -7.180994287805034E1    -2.488945113764643E1    -8.985007798015069E1    -2.095951110618579E1    -1.410342621584253       1.304262717172481E2

 4.775200000000000E7    -3.188084582054129E-1   -1.002569471653654E2    -2.993448990383600E1    -1.402864338133132E2    -8.550957316585163E1    -1.688286801185878E2    -8.616079453558926E1     7.562488074064854
                        -2.993335436156174E1    -1.404207364748428E2    -2.594370998488737E-1    1.531441089878307      -9.413188761231466E1    -3.388155794265541E1    -7.278242414258611E1    -2.335548892955210E1
                        -8.144955739975977E1    -9.074020943406322E1    -8.541870987709498E1     1.474912896835734E2    -1.405952446997262       1.228551114027363E2    -7.942838599562339E1    -5.088170452422225E1
                        -8.898299558960950E1     8.678521285417222E1    -7.148362416261180E1    -2.574475890289556E1    -8.817699562553381E1    -3.902980209438679E1    -1.409565423699251       1.304051140366094E2

 4.775225000000000E7    -3.158852192969889E-1   -1.002505879689488E2    -2.990588075054330E1    -1.397080550655735E2    -8.412528480695164E1     8.636860859161541      -9.028043319656544E1     4.583230959940176E1
                        -2.988578843635700E1    -1.396143373037672E2    -2.578902099442897E-1    1.513790284255725      -8.548593240607033E1    -8.703358148281656E1    -7.089711411628986E1    -3.030621280553716E1
                        -9.917709876592880E1    -1.701699927641355E2    -8.353862916604426E1     3.528786190400363E1    -1.405662259081265       1.229003633401398E2    -8.251150163423392E1     1.633990032767512E2
                        -8.192249054137247E1    -1.614160210469923E2    -7.322014713089607E1    -2.270227906430277E1    -8.852765132262553E1     1.693676852103478E2    -1.409781113703262       1.304295906944765E2

 4.775250000000000E7    -3.171165232660924E-1   -1.003025404359099E2    -2.989011973484359E1    -1.394385829945359E2    -9.734504402407750E1    -4.579568825621631E1    -9.266379455248205E1    -1.280684395130301E2
                        -3.004535631705678E1    -1.399050959796123E2    -2.633199811350441E-1    1.484212519686119      -9.843694949891982E1    -4.766050474661143E1    -7.110187049719335E1    -1.812735205899130E1
                        -8.004779197262110E1     4.734160772424991E1    -7.943637985978761E1     1.725666769245298E1    -1.407128412704219       1.228641859659240E2    -8.458392768444996E1     7.675821312880413E1
                        -8.520558612076542E1    -4.468767317139542E1    -7.088099998297568E1    -3.263281648630012E1    -9.351578477466420E1     1.749345613234782E2    -1.407578255567590       1.303995118762159E2

 4.775275000000000E7    -3.185399045997556E-1   -1.003196933806382E2    -2.988526693303533E1    -1.403271097484284E2    -8.488424883320720E1     1.344387595843619E2    -8.142550829272543E1     1.652540271696040E2
                        -2.992959550175034E1    -1.391582222292783E2    -2.562086526422661E-1    1.490870158467232      -8.547546971782673E1    -2.574980492324307E1    -7.048634438699131E1    -2.875365235357091E1
                        -8.595398987307887E1    -1.531245060981852E2    -8.678305471538791E1    -8.525752924615136E1    -1.405001907256044       1.229069721476996E2    -8.022276319351150E1     1.181614767760117E1
                        -9.179231553982166E1     8.671006458067487E1    -7.614659352862431E1    -1.836692291337620E1    -9.109554678498060E1    -2.425030049876843E1    -1.403395778492480       1.303916211768793E2

 4.775300000000000E7    -3.184719565093108E-1   -1.002950236397403E2    -2.990420684827090E1    -1.395581599273605E2    -8.504681858661388E1    -2.187152607665619E1    -8.756049371384384E1     1.502101232832859E2
                        -2.987720430970297E1    -1.398158760916137E2    -2.598375708784055E-1    1.457903274313529      -8.485630692932949E1     4.152928390858236E1    -7.161061902521580E1    -2.866449705109229E1
                        -9.405684359509296E1     1.483996331937843E2    -8.574930851347807E1    -1.593419742408314E2    -1.404629608880793       1.228676267543212E2    -8.307185754027044E1    -2.627238427254620E1
                        -8.986081652012075E1     6.778900285796939E1    -7.067633681846031E1    -2.541336506810571E1    -8.498047827152286E1    -8.145337723355816E1    -1.408180722598608       1.303796990187890E2

 4.775325000000000E7    -3.156936016637417E-1   -1.003051125620787E2    -2.986372945936975E1    -1.400394772432763E2    -8.444078297911901E1    -1.618937756603980E2    -8.679808417134353E1     1.769029286357568E2
                        -2.989578761420504E1    -1.405294351875071E2    -2.590566273477757E-1    1.440307381568503      -7.750538375764232E1    -1.148352318475976E2    -7.322021854838911E1    -3.142986811671240E1
                        -8.579636271438352E1     7.863926728862283E1    -8.481905084071686E1    -7.237972682768870      -1.403111664589217       1.228919353713563E2    -8.985708211079196E1    -1.073936732207495E2
                        -8.167049975071906E1    -1.057143802144149E2    -7.156926704560625E1    -2.851346294589884E1    -8.946478032214328E1     9.393995652243926E1    -1.405736688937110       1.303827100493000E2

 4.775350000000000E7    -3.143980117690701E-1   -1.003189013717667E2    -2.990110704919739E1    -1.401452442659655E2    -8.720509723633420E1    -1.507480252747803E1    -9.303792127752746E1     1.638735465367001E2
                        -2.991837019681266E1    -1.397933486614553E2    -2.584722383159432E-1    1.445744498405941      -9.005711112289166E1    -4.353818205564273E1    -7.293249935705629E1    -3.371711072806063E1
                        -8.970947077441343E1     3.623624178071313E1    -8.873831210585263E1     9.702630078791475E1    -1.400855636084108       1.228421381341794E2    -8.724070453821086E1    -1.404450903792794E2
                        -8.665981209347351E1     1.206138658184915E2    -7.642228813845571E1    -2.984770856498712E1    -8.495074683072761E1    -7.777234980361519E1    -1.412344778134887       1.303618178593983E2

 4.775375000000000E7    -3.155325569344809E-1   -1.003331178434848E2    -2.988150572734755E1    -1.393273622781947E2    -1.077505909058340E2     4.402276276560051E1    -9.957246238778313E1     1.648473458807490E2
                        -2.982138960653979E1    -1.399311387575544E2    -2.557807585143436E-1    1.405286604915026      -8.218819758701451E1    -1.420045244902747E2    -7.230905925857493E1    -2.763660201644696E1
                        -8.884444165089356E1    -4.676960032450984      -1.174811308866844E2    -1.024388366286599E2    -1.401809411792121       1.229001420862221E2    -8.845652349306991E1     9.527621483060948E1
                        -9.314360057381485E1    -9.054242831967731E1    -7.146788967117081E1    -2.609090258662972E1    -9.423156120133199E1     1.723191528313943E2    -1.410654388564508       1.304125367290074E2

 4.775400000000000E7    -3.205042884539819E-1   -1.003420228488939E2    -2.993352075131229E1    -1.401462111431173E2    -8.424072204065489E1    -1.444211314729672E2    -8.872106173521746E1     7.033885063971685E1
                        -2.984228841254604E1    -1.399253147786241E2    -2.589044779729897E-1    1.388946807803247      -8.782291441930020E1     1.753004791306482E2    -7.144721615954919E1    -3.482888969750550E1
                        -8.480591686343311E1    -1.766362591446716E2    -8.312500293448821E1    -1.334245631712498E2    -1.408177756759652       1.228580642727852E2    -8.316104338587935E1     1.542837781830105E2
                        -8.440896280210522E1     5.284782856170973E1    -7.081498996731187E1    -2.459616501499973E1    -9.575039760553449E1    -1.481896755926138E2    -1.409051073282413       1.303777888897804E2

 4.775425000000000E7    -3.187672310024836E-1   -1.002912472873186E2    -2.996358758988937E1    -1.402023660949232E2    -8.568821037482357E1    -7.744830920237368E1    -8.626840363342177E1    -3.704768690817108E1
                        -3.007374692621434E1    -1.396041105051824E2    -2.510935245040168E-1    1.389202070767645      -8.121384537803851E1     1.491893978575963E2    -7.376863317973466E1    -2.635292146793382E1
                        -8.170805531455153E1     1.510769220873831E2    -7.977563248966075E1     3.472557209330700E1    -1.402556219121878       1.228687126811561E2    -8.896702436512334E1    -8.748165908512274
                        -8.373248810487853E1     1.188965015950198E2    -7.398915715134723E1    -3.056279040484450E1    -1.083175447747339E2     1.181623254772870E2    -1.405680580133529       1.303965022378017E2

 4.775450000000000E7    -3.150893976606352E-1   -1.003257376594459E2    -2.991235290086028E1    -1.400840867505464E2    -8.163405370591448E1    -1.242341250885698E2    -8.544503687317265E1    -1.323906992926698E2
                        -2.999133679557582E1    -1.397524816910103E2    -2.592273731317931E-1    1.344888031255958      -8.020906205303521E1    -7.023316410589840E1    -7.228133089073526E1    -2.424432520155598E1
                        -8.555869192002203E1    -7.410406777670079E1    -8.219440229373497E1     1.431482394594807E2    -1.399573158981460       1.228595111724977E2    -9.337478668606619E1    -8.119119895530963E1
                        -9.254457776468009E1    -5.270900542577555E1    -7.403869584539015E1    -3.498253299571341E1    -8.190121865417038E1    -3.572320166658206E1    -1.409240908434495       1.303902185201347E2

 4.775475000000000E7    -3.174985706189821E-1   -1.003023705918578E2    -2.989334390048671E1    -1.396120134159222E2    -8.797696602720353E1    -1.064598691711482E1    -8.623482508337618E1     1.115178625461850E2
                        -2.995145280948165E1    -1.406121826432671E2    -2.597530292020681E-1    1.395182322035619      -8.317116400481982E1     1.323062186217724E2    -7.459540519625210E1    -2.849460714832501E1
                        -8.229108883175042E1     1.607246366793343E2    -8.715950318950227E1    -7.225335070736108E1    -1.402866842443012       1.228848167536260E2    -8.423702557875274E1    -1.433729763944686E2
                        -8.400524050884943E1     1.355315955668539E2    -7.789379096367831E1    -4.669691566066623      -8.854896088612719E1     1.555961303624788E2    -1.408440850673729       1.303797174358383E2

 4.775500000000000E7    -3.148939754266134E-1   -1.003586725732294E2    -2.996958567699990E1    -1.394654091878658E2    -8.034255092466493E1     1.725599668647234E2    -8.542589756112687E1     1.682119833395439E2
                        -3.004027984929201E1    -1.397071670545249E2    -2.588690640698326E-1    1.321902030752239      -8.074031417066429E1    -7.805962440205346E1    -7.242463723172531E1    -2.391440284266365E1
                        -8.721603458960854E1    -4.067708020931710E1    -8.329856214809352E1     1.030233475365049E1    -1.398821356303535       1.228606956397341E2    -1.047010764889972E2     1.629316718226307E1
                        -8.462384064498785E1     4.690715052014372      -7.088884838933790E1    -2.569131322975706E1    -8.008739355550330E1     1.664374702296846E2    -1.403352460978574       1.303727988700899E2

 4.775525000000000E7    -3.136625804653110E-1   -1.003252572523724E2    -2.995959849428159E1    -1.401183128660823E2    -8.801214645590133E1    -4.543126428168731E1    -8.492683330300866E1    -6.278486900807402E1
                        -2.992961558106458E1    -1.402200293902758E2    -2.590980132404366E-1    1.264811039192173      -8.478650770482490E1     3.067095951128056E1    -7.514386203514995E1    -2.903961611470955E1
                        -8.960986337602071E1     1.621087346739962E2    -8.604237892782146E1    -1.344331562967655E2    -1.401119826295265       1.228623850160375E2    -9.089806346277059E1    -1.728784143396526E2
                        -8.923049072208406E1     1.419082358612551E2    -7.313377234193163E1    -2.438606348239925E1    -8.413937435882775E1    -7.391637532618362      -1.408069377077690       1.303729359174194E2

 4.775550000000000E7    -3.129274607141798E-1   -1.003379938248599E2    -2.997446851609574E1    -1.401562669484423E2    -9.284916565338236E1    -9.208490678234976E1    -8.125789566104460E1    -1.275503763226798E2
