#  HZ   S   DB   R     50.00 
! Rohde & Schwarz Vector Network Analyzer 
! Rohde-Schwarz,ZNB8-4Port,1311601044102961,2.82
! Created: UTC 2/13/2019, 2:00:56 PM
! freq[Hz]                db:S11                  ang:S11                 db:S12                  ang:S12                 db:S13                  ang:S13                 db:S14                  ang:S14
!                         db:S21                  ang:S21                 db:S22                  ang:S22                 db:S23                  ang:S23                 db:S24                  ang:S24
!                         db:S31                  ang:S31                 db:S32                  ang:S32                 db:S33                  ang:S33                 db:S34                  ang:S34
!                         db:S41                  ang:S41                 db:S42                  ang:S42                 db:S43                  ang:S43                 db:S44                  ang:S44
! 
 5.525000000000000E7    -4.155898678891423E-1    9.751018251875891E1    -2.931399829562828E1     7.342017931142554E1    -8.756550154775381E1    -2.822250953841187E1    -1.041599904753804E2     1.750045773480985E2
                        -2.931374879160406E1     7.341899715930563E1    -1.479270619296941      -1.334353453159506E2    -6.774280740732058E1    -1.526531645488159E2    -8.452638583505961E1    -1.002620098307332E1
                        -9.291606467152027E1     1.302990158632860E2    -6.665480516369526E1    -1.479486225558635E2    -1.412766052013050       2.468596473082345E1    -8.750717378336037E1    -1.499631756190119E2
                        -8.817275258483281E1    -2.722214863407442E1    -7.622265292642193E1     8.295641061656841      -9.854172705850068E1     9.852466862857632E1    -1.433156802675862       3.120622050110741E1

 5.525025000000000E7    -4.090152648127344E-1    9.751657360781093E1    -2.933782277238839E1     7.350204455932281E1    -8.131671477701602E1     8.195050893343968E1    -1.069422166137196E2    -9.264266014378713E1
                        -2.934770459373219E1     7.338803593652042E1    -1.476912494022698      -1.335048634686242E2    -6.726517812310698E1    -1.500978467883114E2    -8.068702070293318E1     4.805911522108211E1
                        -8.678032728726443E1    -2.396702208789962E1    -6.698480866116005E1    -1.526397066756662E2    -1.413594827013945       2.471748393527211E1    -8.347587262545376E1    -1.224386917152589E2
                        -8.510879027952925E1    -1.581780538939851E2    -7.464452285351044E1     1.754252662124353E1    -9.467897338744946E1    -1.083679508342530E1    -1.433657041645740       3.120828119869596E1

 5.525050000000000E7    -4.139003468821853E-1    9.749070481436125E1    -2.931112319084519E1     7.342597880045682E1    -9.065469338778676E1     3.734921845769953E1    -8.000896548014013E1    -3.751400202975788E1
                        -2.939507583750769E1     7.372540198003910E1    -1.479576232566224      -1.335192415402220E2    -6.746537454822214E1    -1.455930066685056E2    -7.701876728713006E1    -3.735366323320685E1
                        -8.886789892510534E1    -4.612682820106073E1    -6.719767066497380E1    -1.479313265492817E2    -1.409061177538111       2.468783086430633E1    -9.345185365614643E1     1.051432917482234E2
                        -9.289288460792071E1     4.959434907078048E1    -7.560924761475407E1     9.374694497570076      -8.541707418678732E1     1.539795364489561E2    -1.434990359566386       3.123658723685257E1

 5.525075000000000E7    -4.160288638409632E-1    9.749952276923725E1    -2.933802562323913E1     7.340044139439374E1    -9.171832914408059E1     2.596600193676611      -8.662123090634918E1    -7.223371571569234E1
                        -2.936826212066852E1     7.345445876215999E1    -1.481191399887266      -1.335766305228846E2    -6.673659885389250E1    -1.629164393810866E2    -8.158351501268194E1    -2.017155386305316
                        -8.996277049472562E1     1.657625367661888E2    -6.589885864805105E1    -1.486406712111763E2    -1.412862979379276       2.469396614242469E1    -8.196933820418791E1     7.119532480973207E1
                        -9.297515336849853E1    -1.865487292352487E1    -7.470421820984502E1    -1.817279181099431      -8.033832406720026E1     1.386727123697121E2    -1.434647554877420       3.121321396595563E1

 5.525100000000000E7    -4.168022165137496E-1    9.747973757518446E1    -2.931869992590077E1     7.318590975981398E1    -8.476112940108507E1    -6.517440882800692E1    -9.199178654739355E1    -2.517122130627836E1
                        -2.945252142887127E1     7.289996984605510E1    -1.485996286310217      -1.335953215115234E2    -6.565610468217480E1    -1.592229618105730E2    -7.928672931709922E1    -2.462204679543677
                        -8.495836367382304E1    -1.247087512132936E2    -6.731796556042983E1    -1.611057045262974E2    -1.416065720580028       2.466564034331027E1    -9.640828864024564E1    -1.724163472842694E2
                        -9.051372350236926E1    -1.208707439948202E2    -7.812006221448038E1    -6.043221733609346      -8.914209370847988E1     1.053697682788806E2    -1.429637877010084       3.116445747648421E1

 5.525125000000000E7    -4.160670812197481E-1    9.748350245391568E1    -2.940235008774133E1     7.372761669950629E1    -8.369488085378102E1     3.003040151331675E1    -8.896761351054332E1     5.054279351815858E1
                        -2.933813449469874E1     7.321248067912707E1    -1.484857141826331      -1.336361274010336E2    -6.648800135418226E1    -1.497583425031465E2    -7.689745645215911E1     2.076086783653851E1
                        -7.955463247886640E1     6.601637360222861E1    -6.648093811194042E1    -1.555679031956825E2    -1.412137828939412       2.469428136781862E1    -8.911502254848475E1    -1.063118380326338E2
                        -9.024485369829898E1     6.805991464953273E1    -7.948074866458575E1     2.480909305804147E1    -8.856090656370300E1    -1.846685668213875E1    -1.432644967101534       3.121821707307143E1

 5.525150000000000E7    -4.145220181541373E-1    9.748720369638151E1    -2.926156752826317E1     7.344404590618966E1    -8.404398380354448E1    -1.695763569408496E1    -9.658036532222815E1     1.096643901265919E2
                        -2.938616019603609E1     7.321534306247311E1    -1.487727804758231      -1.336594143000337E2    -6.707863291084058E1    -1.562113415483785E2    -7.498752696296087E1    -7.250162394240595
                        -8.349065218108368E1     1.503697656529894E2    -6.686728136841816E1    -1.521599024857400E2    -1.411096171224291       2.468562921876516E1    -8.321247344774461E1    -1.697102237814258E2
                        -8.788785411068329E1    -2.959360772414072E1    -7.936768699198355E1    -7.322223803746653      -8.793222059597721E1     1.067775223859614E2    -1.429997215111920       3.120133706060725E1

 5.525175000000000E7    -4.136131425956787E-1    9.747305972261418E1    -2.941057108112101E1     7.318478489717961E1    -8.553501604180445E1     2.251504552809739E1    -8.968500469540579E1    -1.517908641064665E2
                        -2.940573640924085E1     7.350805272412033E1    -1.493745819049109      -1.337187776564082E2    -6.672323009546535E1    -1.440995652727305E2    -7.875844844461464E1     8.763892202056676
                        -8.734342763038831E1    -1.087432221961620E2    -6.767641650081939E1    -1.497131963907084E2    -1.410424963798802       2.467255556002742E1    -8.649422672695056E1    -8.786933596164700E1
                        -8.406197659497653E1    -2.147483167304521E1    -7.537729663735645E1     9.392273020092716      -8.582551119491590E1     1.463154092468255E2    -1.432263857827031       3.118495123769252E1

 5.525200000000000E7    -4.153149212066317E-1    9.747118666880381E1    -2.931893228659428E1     7.322519281498617E1    -8.126227991694836E1     5.237191919630097E1    -9.055524864120270E1    -9.025062130445002E1
                        -2.930668224704818E1     7.306667514033542E1    -1.493262545182331      -1.337530257464017E2    -6.867555991510004E1    -1.619909071302010E2    -7.836392534628465E1    -2.145276445668125E1
                        -9.063105659525897E1     2.455864167817799E1    -6.743943801192805E1    -1.478340550128009E2    -1.410308715083944       2.467416811547901E1    -9.261058026461680E1    -8.972804376809232E1
                        -8.861724631064485E1    -3.990944787392039E1    -7.993361109705917E1    -3.313070725716464E1    -8.873533024927228E1     1.392123951935701E1    -1.430962052638500       3.117487269474858E1

 5.525225000000000E7    -4.135482337649011E-1    9.748342027775499E1    -2.935899513903795E1     7.314166890397635E1    -9.077686403113488E1     1.115271069707756E2    -8.930820291044148E1     9.990929080455238
                        -2.936268636559443E1     7.295284999562499E1    -1.491483604793086      -1.337653936759961E2    -6.629835127653075E1    -1.545650754748146E2    -7.903782254952722E1    -1.278328214322746E1
                        -8.373953565260010E1     1.349442520766218      -6.651999073900336E1    -1.564039287551131E2    -1.409337648742938       2.466525462947227E1    -9.754162169149728E1     4.569801628821462E1
                        -8.289056598398182E1     5.756922646328571      -7.871977458529702E1     2.449467714989273      -9.372226454468625E1    -1.267926826273340E2    -1.429735830208447       3.116513353898486E1

 5.525250000000000E7    -4.157544075728742E-1    9.750117477157471E1    -2.933677994757002E1     7.370104354200289E1    -8.435045292493382E1     1.203487770992439E2    -8.198123147779121E1    -1.657378705615841E2
                        -2.940899047259556E1     7.399823994244221E1    -1.499386532380140      -1.338059766654462E2    -6.838740094722668E1    -1.494695456605743E2    -7.542668484666427E1     3.383699868326000E1
                        -8.340434695334707E1    -1.285300491489294E2    -6.741450640878387E1    -1.517093162199413E2    -1.417529346027692       2.466962871849023E1    -8.546470401674532E1    -6.063268869990724E1
                        -8.819240039097180E1     2.917925315705666E1    -7.369956808778211E1     1.513351774431654      -8.503910763742877E1    -4.186008042171695      -1.430522696346506       3.115560408728333E1

 5.525275000000000E7    -4.102929811804602E-1    9.745649902471861E1    -2.937964487258376E1     7.281797675565056E1    -7.981988832865773E1     9.359824994317627E1    -8.778017426119712E1    -7.587092585523507E1
                        -2.930026310624135E1     7.321428426365519E1    -1.496276303348247      -1.338554053746913E2    -6.676401381350452E1    -1.603595816590195E2    -7.573996627837890E1    -1.303542970524135E1
                        -8.728176280635593E1     9.167528578352821      -6.698177575376670E1    -1.594166757990617E2    -1.409564582730591       2.464544737531217E1    -8.694371942144848E1     2.185415823288466E1
                        -9.188673928353735E1     2.958956018003338E1    -7.824977917865215E1    -3.192141842577843E1    -1.051966864943622E2    -1.643585694156510E1    -1.431897492709099       3.114350420528042E1

 5.525300000000000E7    -4.131003204648421E-1    9.746529763954587E1    -2.939456710990333E1     7.310727400983575E1    -8.115432894858421E1    -7.798631582718936E1    -9.128707672777478E1     8.364850767551418E1
                        -2.942616464784762E1     7.311578628286172E1    -1.501521984179648      -1.338853015653993E2    -6.781700512236061E1    -1.551877675170769E2    -7.746431289433437E1     2.736812081974988E1
                        -8.899457237742308E1     1.120241351966053E2    -6.762386907545616E1    -1.527707359729092E2    -1.415647241398183       2.466676732781059E1    -8.921450309508481E1     1.836056483840112E1
                        -8.401738148770559E1     7.740894144756896E1    -7.604057863062309E1     1.117927653076828E1    -8.987718892684420E1     2.715197405782876E1    -1.429553111585505       3.119993551347688E1

 5.525325000000000E7    -4.138797605943299E-1    9.742459355833292E1    -2.930809157723686E1     7.338553499388523E1    -9.385229211858695E1    -1.410241921209047E2    -8.215373000456474E1    -1.018836196596035E2
                        -2.934174983167913E1     7.310501259816888E1    -1.505731846808462      -1.339112675723413E2    -6.624246810722245E1    -1.464910572886212E2    -7.483236910146532E1     1.234184491190279E1
                        -8.958951767924091E1    -6.953207295853734E1    -6.711367481969158E1    -1.465273454169656E2    -1.408322757817754       2.462823862076061E1    -8.224135948461687E1     7.154449045740627E1
                        -8.355287550482535E1    -8.870835818575425E1    -7.785129185650375E1     1.976256825047932      -9.008520723854502E1    -1.191707134338398E2    -1.432593645983786       3.118317747996081E1

 5.525350000000000E7    -4.118631854512811E-1    9.744213834658228E1    -2.932516059702244E1     7.291045306727399E1    -1.023099032530085E2     1.633376930004485E2    -8.737275094710027E1    -1.700079469494965E2
                        -2.946623141391840E1     7.292081224696989E1    -1.500486016157673      -1.339528718427743E2    -6.662306444088888E1    -1.525724087297242E2    -7.561738141090626E1     2.103412859954748E1
                        -9.059435228472582E1    -1.287437592517297E2    -6.639512086035630E1    -1.505352231685292E2    -1.411809682729119       2.466200315786321E1    -8.600911069350426E1    -5.097267137579265E1
                        -8.583332986741814E1     2.964077325383008      -7.735543418453239E1    -2.077895601094668E1    -8.478494677428202E1     5.536873709620366E1    -1.434433366549829       3.116425133646312E1

 5.525375000000000E7    -4.124306966415625E-1    9.744053248928364E1    -2.934382287787248E1     7.319157830570407E1    -7.968979521988456E1     1.738200401104048E2    -8.466286741311353E1     1.662533747703021E2
                        -2.926036362643226E1     7.317783743392074E1    -1.504339179913159      -1.339812618613443E2    -6.608562095293956E1    -1.583293126706371E2    -7.915566224113417E1    -8.165429927359473E-1
                        -9.339125563742441E1    -2.495856190018474E1    -6.717273382141015E1    -1.550623828043952E2    -1.408763440437781       2.463595756588579E1    -8.885353327226808E1    -9.756309240490884E1
                        -8.966493935895210E1     1.094637842411879E2    -8.069628716927555E1    -6.069551275127520E1    -9.557431877928818E1     2.241852987368538      -1.431419051398281       3.116503611233347E1

 5.525400000000000E7    -4.124637291639943E-1    9.742774963372028E1    -2.938243317972902E1     7.321265057437839E1    -9.152467151902656E1     1.712618242198296E2    -8.293706208999133E1    -3.198158901087504E1
                        -2.939971236659579E1     7.262959175755080E1    -1.506479555626831      -1.340356711673296E2    -6.616359127141210E1    -1.498357836018526E2    -8.200263516247888E1     8.408855579249254
                        -8.240979686563182E1     9.588570321294129E1    -6.646706291707149E1    -1.519677941960262E2    -1.413820050106069       2.467056560836185E1    -8.181294755239080E1     1.560093092233041E2
                        -1.024409290258777E2    -9.209314098262978E1    -7.955988267268796E1     2.709860568269809      -9.338175616252843E1     7.643573776912730E1    -1.433878256908405       3.115377786766366E1

 5.525425000000000E7    -4.080982274320769E-1    9.742418656734087E1    -2.944493267209716E1     7.327753318716955E1    -8.830095948238702E1     2.376755450390612E1    -8.483668972393485E1     1.683056388266953E1
                        -2.939658773162562E1     7.306305587617827E1    -1.509143720405939      -1.340732977406530E2    -6.622014322162397E1    -1.590607587235600E2    -8.361210490856999E1    -7.612153656456061
                        -1.047584197629605E2     2.889546703587858E1    -6.741021199950870E1    -1.545305439584392E2    -1.416063827125462       2.466658827364784E1    -8.590684435241782E1     1.308443128273669E2
                        -1.072702422013175E2     8.738610637120955E1    -7.377975823201166E1     1.304702982712810E1    -8.288248231799616E1    -7.841678536214195E1    -1.431140480395361       3.115293569075963E1

 5.525450000000000E7    -4.107588619015098E-1    9.742100435803475E1    -2.937196135537293E1     7.291966622936219E1    -8.564193719257699E1     1.949692585973034E1    -8.223069904108857E1    -7.573385203245941E1
                        -2.942228241464955E1     7.301613480274973E1    -1.509674676410732      -1.341086232739648E2    -6.581368611977480E1    -1.527099172060528E2    -7.933463849780914E1    -7.144796465116636
                        -7.946229079404617E1     5.210053750128483E1    -6.650131876021237E1    -1.561577100980961E2    -1.409627049852366       2.462552384900658E1    -8.397458439274310E1    -1.747418221761329E2
                        -8.427284430243719E1     1.472393477333924E2    -7.996089483306258E1     3.197787187500347E1    -8.796407859706704E1     1.669740252631649E2    -1.430139892801262       3.113999925792313E1

 5.525475000000000E7    -4.138613515627247E-1    9.740441153124100E1    -2.933128217824351E1     7.346427677211479E1    -8.839118315631829E1     5.580666190237243E1    -8.280871855977176E1     3.095672930672785E1
                        -2.938890330580408E1     7.294130988595393E1    -1.504708059445164      -1.341520293088122E2    -6.699498449724857E1    -1.542054546706875E2    -7.544540990937769E1    -1.809170084128797E1
                        -9.594060043503298E1     1.646222483681853E2    -6.780536501200409E1    -1.583758343702250E2    -1.413848633189361       2.463465797266643E1    -8.868424451181795E1    -1.577715714554653E2
                        -8.706113173422526E1     1.388423209049052E2    -7.786869886681595E1     2.639937125467202E-1   -9.660749614489140E1    -6.372443233136369E1    -1.436227502510592       3.115910541507873E1

 5.525500000000000E7    -4.073096488588868E-1    9.741183787619343E1    -2.935777503508067E1     7.249249226501392E1    -8.843434072506773E1     8.203874060069732E1    -8.605042940625927E1     1.013732729403879E2
                        -2.936394760672992E1     7.324975558907430E1    -1.513147105054803      -1.341920404561062E2    -6.716144290079465E1    -1.465919672489113E2    -7.755252577942017E1    -6.826338160774690
                        -1.024731158938809E2     1.279920864760951E2    -6.666930076753519E1    -1.609415485387955E2    -1.407488625811548       2.460872043131228E1    -8.521975861455168E1     9.735726880083522E1
                        -8.764011468328550E1    -1.384709172548844E2    -7.420832192250123E1    -1.289176969391963E1    -8.552074547508198E1     1.120986092594901E2    -1.433616385847296       3.117966058750529E1

 5.525525000000000E7    -4.086664792650734E-1    9.740205871200034E1    -2.933803068861426E1     7.264424988328935E1    -1.055905861451880E2     1.615106680671296E2    -8.748028481950109E1     8.923729621790847E1
                        -2.943631849457009E1     7.282289688758502E1    -1.517706243800120      -1.342354705506466E2    -6.676831119163738E1    -1.566924640428400E2    -7.847270658100155E1     1.485684610090891E1
                        -9.392658233021078E1     3.837157444046341E1    -6.873778625719693E1    -1.580641091823348E2    -1.413885215980980       2.465506792978857E1    -8.618394651945283E1     2.043188370054789E1
                        -9.386445767523404E1     1.377147191471265E2    -7.653189841281170E1    -1.079949900172942E1    -8.166871205810608E1     6.435387601125004E1    -1.431758268945987       3.112968693224364E1

 5.525550000000000E7    -4.120401865919610E-1    9.741108552488939E1    -2.930477813005020E1     7.243801929893495E1    -8.146692836610932E1    -1.646966868545211E2    -8.325764012864167E1     1.245472897865053E2
