#  HZ   S   DB   R     50.00 
! Rohde & Schwarz Vector Network Analyzer 
! Rohde-Schwarz,ZNB8-4Port,1311601044102961,2.82
! Created: UTC 2/13/2019, 1:54:39 PM
! freq[Hz]                db:S11                  ang:S11                 db:S12                  ang:S12                 db:S13                  ang:S13                 db:S14                  ang:S14
!                         db:S21                  ang:S21                 db:S22                  ang:S22                 db:S23                  ang:S23                 db:S24                  ang:S24
!                         db:S31                  ang:S31                 db:S32                  ang:S32                 db:S33                  ang:S33                 db:S34                  ang:S34
!                         db:S41                  ang:S41                 db:S42                  ang:S42                 db:S43                  ang:S43                 db:S44                  ang:S44
! 
 3.000000000000000E7    -2.780491267918103E-1    9.350865838552696E1    -6.902614753786574E1     4.945482078952426      -8.354575806131507E1     2.845812873804948E1    -8.284456479668549E1     1.248658200866926E1
                        -6.792509635892988E1     6.679086561293498      -3.222592655570119E-1    1.003572422388127E2    -8.835250205050770E1    -6.614010192985334E1    -8.334816302375502E1    -1.493658487018183E2
                        -1.045754822091576E2     2.253915238888244E1    -8.448051045507184E1    -7.954962416443793E1    -9.483890423496231E-1   -1.967196649162429E1    -8.501521544424008E1     5.852314864208874E1
                        -9.056246576476760E1    -1.689211703544216E2    -8.618398044372098E1     4.482942017253958      -8.718578310680164E1     9.725608691695886E1    -9.145131664716756E-1   -1.690233461365506E1

 3.002500000000000E7    -2.815960352643602E-1    9.315382081012892E1    -6.807762583705527E1     4.774052064981147      -8.395993581044272E1    -5.913487499089484E1    -8.776928969506697E1     1.511571980521071E2
                        -7.051904116693436E1    -3.056435189664291E-1   -3.244347763528956E-1    1.000608503653997E2    -8.157719414889314E1    -1.048423528766519E2    -8.817389120024041E1     1.159315360292498E2
                        -9.436252275750100E1     1.068501097145156E2    -9.273446739418941E1     1.392639968059625E2    -9.449735489513620E-1   -1.995616170898272E1    -8.822939771764882E1    -8.379982164523581E1
                        -9.199042269206416E1     1.062757559029926E1    -8.842934696128333E1     1.454825369504535E2    -9.100689764939430E1     9.374678679219433E1    -9.165128901094022E-1   -1.721631330847784E1

 3.005000000000000E7    -2.835175393675966E-1    9.285064738538290E1    -6.975944866653634E1     1.205132396921218E1    -9.613771080777069E1     1.355222138722625E2    -8.262328062906869E1     1.763247934709605E2
                        -6.992996760460316E1     7.683560348608431E-1   -3.269899649364174E-1    9.980191687535714E1    -9.335380110509277E1    -1.008316721458846E2    -7.943211275475314E1    -1.397814512706787E2
                        -8.748303121055714E1     6.536336573999029E1    -8.325102999150694E1     9.867636434804934      -9.453434012020805E-1   -2.032127812835966E1    -9.193530422493819E1    -1.329365276220710E2
                        -8.721310730924063E1     1.490790128492786E2    -8.139440500925514E1     1.277565653961062E2    -7.839018905047087E1    -8.860571832832576E1    -9.209427849124723E-1   -1.757215044947352E1

 3.007500000000000E7    -2.779573035884965E-1    9.247434827064922E1    -6.958024180328775E1    -8.720062465032632E-1   -8.397970932546511E1    -3.915510352723639E1    -8.377197042336569E1     1.436574404572521E2
                        -6.855355478156680E1     1.028263578425430E1    -3.196583597464997E-1    9.940875927729492E1    -9.271183482007348E1     1.313520896636191E2    -9.352553023276634E1     1.726576150215954E2
                        -8.776170928759514E1     1.608381713204645E1    -8.308513292357874E1    -1.617892562063557E2    -9.446874753841668E-1   -2.059259104835171E1    -8.811845579453654E1    -9.231350700341297E1
                        -8.884322967022933E1    -1.736435244138824E2    -8.786911148960064E1     1.783469736215289E2    -1.056453085598200E2     1.331872156365920E2    -9.167488150914076E-1   -1.786542085753414E1

 3.010000000000000E7    -2.737490574948417E-1    9.216017871189629E1    -6.929247106350648E1     9.894475935422452      -9.437965110906634E1     3.311765724920953E1    -9.313644189019711E1    -4.943372627282635E1
                        -7.128052255709412E1     1.617527635336460      -3.215446907670310E-1    9.908775802704960E1    -8.587384635420264E1    -1.014231130954964E2    -9.002202851451494E1    -1.315044771983835E2
                        -7.829650782002133E1    -1.161450473631673E2    -8.921194571497266E1     1.673783596004256E2    -9.503882684485883E-1   -2.093927318461380E1    -8.711940218001479E1    -1.084338846669650E2
                        -8.684922305663318E1     4.116043797842701E1    -9.026309978287438E1     9.212529093433513E1    -8.474594441034270E1    -3.635681764525065E1    -9.135864674343435E-1   -1.820303525801033E1

 3.012500000000000E7    -2.698766544000305E-1    9.183460163103388E1    -6.971639311077253E1    -1.956317181184884E-1   -8.112633999993332E1     6.482340485237812E1    -1.002190676519397E2    -1.498345681812261E2
                        -6.885211530838640E1     5.243525547215734      -3.257912226198862E-1    9.886184858257020E1    -8.515877975387815E1    -3.198781121638100E1    -9.967697244346981E1     7.547435951462022
                        -9.003488528769823E1     1.030417579574043E2    -8.539214902146158E1    -1.364881643248627E2    -9.479335342424933E-1   -2.127191362921777E1    -8.356746508072087E1     2.090253179940046E1
                        -8.605546988579833E1     1.680439991300469E2    -9.366389180272292E1     2.498965122940103E1    -9.814432176281117E1     1.587972069540671E2    -9.127168847612409E-1   -1.845805156746254E1

 3.015000000000000E7    -2.697616869657294E-1    9.149476913814505E1    -7.037744158185890E1     1.201072378914526E1    -8.601632993524389E1    -4.585169383448454E1    -1.000832397473809E2    -1.721718667972441E2
                        -6.973195810827485E1     1.116956172670820E1    -3.228366823574851E-1    9.846557702496408E1    -8.503461479410416E1     1.024106852184379E2    -7.942648783131526E1    -7.065614488872529E1
                        -8.815815228052207E1     1.585604714150735E2    -8.771529770049959E1     1.056869760313500E2    -9.531416293614634E-1   -2.156448273219619E1    -8.676983842258085E1     6.709254499753827E1
                        -8.858804113357657E1    -1.042849851750204E2    -1.003005419705896E2    -1.328404578068416E2    -8.675820789229547E1    -1.683236336052655E2    -9.138894927709054E-1   -1.875116102859492E1

 3.017500000000000E7    -2.697965783846493E-1    9.115569609486967E1    -6.970500179194863E1     6.534330011265636      -8.335499599149161E1     5.358796411182981E1    -8.159964540833884E1     1.674128476748455E1
                        -6.944754041885203E1     6.776249256918662      -3.227134310256620E-1    9.816695485887983E1    -9.023185096705979E1    -4.303939338871068E1    -7.836891750377708E1    -3.903723522631181E1
                        -8.099786824209430E1     1.540368775957146E2    -9.127096788257505E1    -5.292354451756653E1    -9.479590159578908E-1   -2.189032809874082E1    -9.731604849515250E1     4.835446732728182E1
                        -8.712327194133822E1    -1.202766983657139E2    -9.533854282678666E1     1.106522284943389E2    -8.207790324202679E1    -9.444884650940087E-1   -9.156759932950664E-1   -1.909031186775956E1

 3.020000000000000E7    -2.668584667905599E-1    9.080434855304576E1    -7.185402726177890E1     7.042602492757009      -8.028078443042709E1     3.691048996299670E1    -8.124613983566350E1    -9.689323121213452E1
                        -6.996311855368231E1     2.369148176259450E-1   -3.274619722575359E-1    9.786806773040068E1    -9.042860089078501E1    -1.506895416559055E1    -8.568467492794679E1     1.225101882558423E2
                        -8.397520642029980E1    -4.017571388046528E1    -1.005527598836111E2     1.244139666504102E2    -9.501051371342437E-1   -2.222217929716827E1    -9.051874084793694E1    -1.190949422140668E2
                        -8.789607034320505E1     4.332422504575492E1    -9.111029016463368E1     9.599820666013558E1    -9.246365199113879E1    -3.185976712182482E1    -9.113881504759914E-1   -1.941127666934554E1

 3.022500000000000E7    -2.759471808001490E-1    9.049505482469597E1    -6.883569183817539E1     6.491183561553233      -9.520077898447244E1    -1.717729871991155E2    -8.940031466900884E1     6.753127137923633E1
                        -6.797819534538861E1     1.097028151603058E1    -3.246232647961142E-1    9.760420055240792E1    -9.396231746532222E1    -1.439745974263340E2    -8.527042264161251E1    -3.434560762126100E1
                        -8.951536699209514E1    -8.246370521902733E1    -8.667860733038265E1    -1.314268111019951E1    -9.449454171858460E-1   -2.250709410177391E1    -9.023151437293609E1     2.319173520708665E1
                        -8.689193759606489E1     1.718301281251574E2    -8.863825050087259E1     8.758940722695154      -8.701914448133992E1     1.364929684265789E2    -9.157454396161303E-1   -1.973119187409344E1

 3.025000000000000E7    -2.746361455071588E-1    9.015327968065499E1    -6.989323783706359E1     1.485702077915068E1    -8.613307243215058E1     7.948916211451756E1    -9.303566386667973E1    -1.054318358530274E2
                        -6.875551446535530E1     1.044889538168113E1    -3.316978103761409E-1    9.725735475099762E1    -8.788054967493997E1     1.260431719565730E2    -8.092903806258786E1     1.175374908329894E2
                        -9.349719966423660E1     1.352787041591922E2    -9.309605747555332E1     8.977133807819341E1    -9.429161039204144E-1   -2.284524777665893E1    -8.904096659222618E1     7.595280877143968E1
                        -8.527884616012074E1     7.075087680582900E1    -9.456373311395763E1    -1.391463550528440E2    -8.716342699302857E1    -5.653574766714655E1    -9.111022957131727E-1   -2.000100899155421E1

 3.027500000000000E7    -2.712309201914316E-1    8.978059757007335E1    -6.982103118145804E1     6.386050163272786      -8.727508082391276E1    -2.002429886084591E1    -8.528501077035270E1     6.702943920246837E1
                        -7.134659840295178E1     9.337269213821198      -3.169374905651187E-1    9.694523268135917E1    -7.989054721011289E1     7.334552576875052E1    -8.920846888559140E1    -7.828080356033068E1
                        -8.281465350499153E1    -1.088433473023685E2    -9.270217246456511E1     1.211426331482534E2    -9.515937913093707E-1   -2.317197804094576E1    -8.944881920244353E1    -1.352357310831957E2
                        -9.384769909979328E1    -3.803535662565068E1    -9.091343394386416E1     5.569882444892477E1    -9.424863053154513E1     1.286513577450714E2    -9.163690112739467E-1   -2.026989158177340E1

 3.030000000000000E7    -2.693142521534678E-1    8.950956815227150E1    -6.910870753412544E1     3.924814066600884      -8.901548438466698E1    -1.247637310438898E2    -8.395107631723994E1    -1.281539343509630E2
                        -7.132332991676263E1    -3.757887325405533      -3.212096886266100E-1    9.662891972562748E1    -8.513484733311815E1     9.317244322994240E1    -8.629104833583185E1     1.461615155103045E2
                        -8.415391340442008E1    -7.322028781668271E1    -8.791638988079795E1    -5.440934776020201E1    -9.542232397889818E-1   -2.348523577566860E1    -9.573033110564111E1    -1.492839511337137E2
                        -9.553672326326239E1    -9.966973312390645E1    -9.186499996516788E1    -2.504651358108005E1    -8.875944273358179E1     1.377794933366201E2    -9.144709238008030E-1   -2.060475242807322E1

 3.032500000000000E7    -2.753484992374764E-1    8.913829716722115E1    -6.809653950852825E1     4.483320983698310      -8.666153442426867E1    -1.575693724179400E2    -8.385269051914727E1    -1.055497159497278E2
                        -6.751632569973955E1     1.013721996687420      -3.168344424250267E-1    9.628891588450506E1    -8.028813531954600E1     1.752505990612158E2    -8.079050625269119E1    -1.460909102189978E1
                        -8.751773931579638E1    -8.214010042526073      -8.400748684699936E1    -7.681242428948509E1    -9.518976310700307E-1   -2.382206167074964E1    -9.145413689043373E1     1.251733451895005E2
                        -8.104519174948875E1     8.636131915743876E1    -9.781164683016174E1    -1.796709587409262E2    -8.116312916218605E1     2.590190080707324E1    -9.113806522529689E-1   -2.089716052603234E1

 3.035000000000000E7    -2.662380422377427E-1    8.882448834001777E1    -6.880276337098869E1    -6.778778446754403E-1   -8.919204586225115E1    -6.225595998137300E1    -8.177729319823895E1     2.605293494161002E1
                        -6.797897568417436E1    -6.421222117263416E-2   -3.207687790289152E-1    9.604436662116562E1    -8.781132264200289E1     4.093803591966932E1    -8.903408375001871E1    -1.616550386437344E2
                        -9.192865542707494E1     1.571959843127885E2    -8.629061046012728E1    -4.607297741814339E1    -9.421629775025855E-1   -2.410863464916848E1    -9.287536722677849E1    -6.735316454834616E1
                        -8.363380474820377E1    -1.030344377323359E2    -8.335342232986406E1     1.734280350386431E2    -9.752609058540202E1    -8.270285542527455      -9.165130798562936E-1   -2.120102243120137E1

 3.037500000000000E7    -2.671818419397780E-1    8.846833013774013E1    -7.120506120910268E1    -3.228271207833366      -9.893980935135247E1     1.698812198982082E2    -8.367091206350652E1    -1.547878289913065E2
                        -6.924085481242312E1    -1.308421127227195      -3.248356642096376E-1    9.565780160824380E1    -8.204405833619424E1    -1.035330083897536E2    -8.952794339126101E1     1.581168944765869E2
                        -9.328721646372104E1     1.325768930124172E2    -8.534994124527646E1    -6.135498431147797E1    -9.473601346570802E-1   -2.435069006907825E1    -9.779997998461553E1     1.626390060395118E2
                        -9.186289369166026E1     1.271933623551172E2    -9.818111185625001E1    -1.785281696847556E2    -9.198985257566562E1     1.002909705834637E2    -9.177463345802667E-1   -2.150679652808711E1

 3.040000000000000E7    -2.651019756040823E-1    8.811833382585262E1    -6.956220150447392E1     1.053201075491064      -8.757501343295456E1    -3.344864111101133E1    -8.766028884720478E1    -2.703438981106177E1
                        -6.801354801191175E1     1.549830749509417E1    -3.214822064641620E-1    9.539942444374290E1    -8.610311513359748E1    -7.439832548642595E1    -8.101584555530820E1    -8.983661486400395E1
                        -8.613209002923259E1     1.216458553810071E2    -8.044736806362378E1    -8.632396460980412E1    -9.459852200557872E-1   -2.477192201943218E1    -8.843000722990696E1    -1.454010130815962E2
                        -8.455116580565581E1    -1.497055267273750E2    -8.669553640333264E1    -8.273915014835878E1    -1.012159764102019E2    -1.092236692497091E2    -9.132907466266805E-1   -2.178089636635214E1

 3.042500000000000E7    -2.681846345409871E-1    8.778994241657625E1    -6.726580725397903E1     2.584807333739412      -8.779609636408905E1     8.401464757866483      -7.989015220505263E1    -7.210690905964759E1
                        -6.775838841329106E1    -8.356180149057737      -3.218911106855633E-1    9.508702353211899E1    -8.516777726230302E1     4.590814993484319E1    -8.564674273737047E1     1.739036784622864E1
                        -9.070542875156355E1     1.432551167642550E2    -8.862374840923525E1     4.729638802766365E1    -9.522191200881318E-1   -2.502144400986541E1    -8.871075293140851E1    -1.795621734763699E2
                        -9.101566239813828E1     1.574676788811492E2    -9.208068971197866E1     2.265585195423185E1    -8.796091473606464E1     8.022032573648404E1    -9.090814908998903E-1   -2.215582424790831E1

 3.045000000000000E7    -2.676868628410296E-1    8.739279167582566E1    -6.843229076155268E1     1.461927014354638      -1.020794246597271E2    -1.621007175032945E2    -9.270089356882480E1     1.550678277082467E2
                        -6.812013898191242E1     1.044446647208531E1    -3.180911806898606E-1    9.473365000009174E1    -9.270723289367773E1    -5.215543520790899E1    -9.798524444067181E1     2.977733747915049E1
                        -8.026805317082116E1    -5.505125229620141E1    -9.818062048785428E1    -1.081573334300535E2    -9.438427440250194E-1   -2.535784742809617E1    -9.352425004627810E1    -1.096729168111099E2
                        -8.740663003563755E1    -7.492152242443699E1    -8.724580953579329E1    -6.836637236601274E1    -8.851081461799090E1    -1.684494490551918E2    -9.112086797238373E-1   -2.241439704278775E1

 3.047500000000000E7    -2.668634411335117E-1    8.708992956715520E1    -6.786399343747009E1     9.501780088352497      -8.612366321525188E1    -1.479741358392771E1    -8.500989152708961E1    -1.765501029225532E2
                        -6.927174678776669E1    -6.926836461322864      -3.228580988104557E-1    9.445257459369513E1    -8.647234763333532E1    -1.214555977414689E2    -9.209150512466722E1     1.657724202761206E2
                        -8.956608910810941E1    -1.566766033833965E2    -9.412045274893364E1     5.801978642644905E1    -9.452890532947251E-1   -2.571483174202756E1    -9.219389904885928E1     9.869249084243604E1
                        -1.007699235820102E2    -1.817726363845745E1    -9.000774438309529E1     2.407475029448253E1    -8.872796826195788E1    -4.222267125490590E1    -9.167041489256949E-1   -2.272802718036677E1

 3.050000000000000E7    -2.660529307807728E-1    8.678883396246287E1    -6.962084729870782E1     3.029745786539195      -8.769300159741687E1    -8.519570743166111E1    -8.526417155577258E1    -1.476382778480640E2
                        -6.834407343608817E1     3.590490900571052      -3.210938910859106E-1    9.414454302459892E1    -8.263503273109889E1     9.184200931506044E1    -8.988349239391459E1    -1.418439219872901E2
                        -9.081013778068495E1    -3.730944524812169E1    -8.441666728710864E1    -1.267472362705801E2    -9.495985312938980E-1   -2.597490152903170E1    -8.528676132895841E1     1.422213577377574E2
                        -8.826090455943167E1     1.344632288135410E1    -8.333080298068295E1     1.572679143752096E1    -8.951249671812397E1     3.926692108135754E1    -9.140943770968607E-1   -2.305414018588829E1

 3.052500000000000E7    -2.664085183935269E-1    8.641635368945008E1    -6.815113700034193E1     6.562834654948244      -9.398143004917435E1     1.004168225538822E1    -8.858378925774747E1     7.551862491292133E1
                        -6.919205282730002E1    -1.802923815420118      -3.250046032707776E-1    9.384553354956260E1    -9.693938030835426E1    -9.609834742100274E1    -8.343145753993588E1     1.242680192310119E1
                        -8.038839686706005E1    -4.969075330033221      -9.224026780279077E1     1.632086239595650E2    -9.472033436814049E-1   -2.629468330524594E1    -8.580133190404314E1    -8.029790458285066E1
                        -8.559247045818024E1    -1.571602781684699E2    -1.063362964659839E2     1.892447447802196E1    -9.310102190145216E1    -1.008569447321794E2    -9.137237814138811E-1   -2.332154164526245E1

 3.055000000000000E7    -2.584494249638104E-1    8.604130331904031E1    -6.846327384942487E1     3.860494867150150      -9.255224894854968E1    -1.481326509009740E2    -1.000749639190651E2     1.609800832973627E2
