#  HZ   S   DB   R     50.00 
! Rohde & Schwarz Vector Network Analyzer 
! Rohde-Schwarz,ZNB8-4Port,1311601044102961,2.82
! Created: UTC 2/13/2019, 11:45:40 AM
! freq[Hz]                db:S11                  ang:S11                 db:S12                  ang:S12                 db:S13                  ang:S13                 db:S14                  ang:S14
!                         db:S21                  ang:S21                 db:S22                  ang:S22                 db:S23                  ang:S23                 db:S24                  ang:S24
!                         db:S31                  ang:S31                 db:S32                  ang:S32                 db:S33                  ang:S33                 db:S34                  ang:S34
!                         db:S41                  ang:S41                 db:S42                  ang:S42                 db:S43                  ang:S43                 db:S44                  ang:S44
! 
 3.000000000000000E7    -2.796734506618719E-1    9.346982365623445E1    -6.878525582512150E1     2.685944741992759E1    -8.504208768536005E1    -2.213489131010612      -8.756621795589976E1    -3.326023962415588E1
                        -7.015664406880185E1     1.379052890764344E1    -2.650317573745241E-1    1.007326039340581E2    -7.970907199832107E1    -8.304538943106577E1    -9.197279144489498E1    -1.454136447517986E2
                        -9.336818088095528E1     7.014032066920235E1    -8.949665965938594E1     1.151847098508137E2    -9.382372026936452E-1   -1.965498965854060E1    -8.988488055594556E1    -1.672284303697130E2
                        -9.738500943203961E1     4.619585369276868E1    -9.119942209829276E1     5.392126314641900E1    -8.051468494544866E1    -6.299786519650016E1    -9.133123420082472E-1   -1.689964357977794E1

 3.002500000000000E7    -2.794327405128529E-1    9.308254444465597E1    -6.945380610386533E1     1.622459844712016E1    -8.740063606784716E1     1.739398916749705E2    -8.677369641835065E1    -1.374598260484551E1
                        -6.903459397194838E1     1.517153742026997E1    -2.713553676311284E-1    1.004342528340660E2    -8.598589805313686E1     3.590848444608741E1    -8.155267428253035E1     5.442692912104525E1
                        -8.622900815043133E1    -7.299356876548934E1    -9.179295521492836E1    -1.147613921665006E2    -9.441095748874030E-1   -1.997554745229055E1    -8.732124993961247E1     7.470756387904693E1
                        -8.424172065708247E1     7.018030663485071E1    -8.883408832688758E1    -8.973702473069757E1    -8.313678902468146E1    -2.149902761018448E1    -9.097955927642475E-1   -1.723608210548517E1

 3.005000000000000E7    -2.863010330541025E-1    9.281856868896482E1    -7.047138528720315E1     1.802379265937554E1    -8.543563910865456E1     1.181649046447725E2    -8.620945379078691E1     2.912841724407430E1
                        -6.986767800529799E1     1.569906519320941E1    -2.657314219387615E-1    1.001659562654514E2    -9.297744691720978E1    -9.364112166719195E1    -9.512470771371454E1     1.727444619840773E1
                        -8.659939376555933E1    -7.433696580267419E1    -9.240411664304097E1     1.324087819674436E2    -9.441289277120655E-1   -2.026955869759281E1    -8.817885977084146E1    -4.095186825701623E1
                        -8.565051600995291E1     1.069115837894185E2    -8.442774458120040E1     7.512552153185538E1    -8.219610135644930E1    -4.206543649327560E1    -9.102258050168699E-1   -1.749571985852328E1

 3.007500000000000E7    -2.777261159778489E-1    9.244506014554874E1    -7.008918764017247E1     1.150562586351130E1    -8.749038246589075E1    -1.147147035664963E2    -9.022339279657528E1     1.050827581183926E2
                        -7.102607432393705E1     2.176707172399822E1    -2.592540117834749E-1    9.981800858781445E1    -8.168658735983492E1    -7.123768727760132E1    -9.093480045460572E1     5.980234904314851E1
                        -8.371764052881701E1     1.564017050050221E2    -8.701401463864592E1    -1.494481641556982E2    -9.444953378139258E-1   -2.061863326493061E1    -9.066954787668622E1     3.764805844544861E1
                        -8.866614815610080E1    -6.022564684620129E1    -9.802340135697719E1     3.433357738570971E1    -8.914176881799399E1    -1.798302263520570E2    -9.129840466202009E-1   -1.780168815187432E1

 3.010000000000000E7    -2.797507976252568E-1    9.214557127183399E1    -7.039558064615908E1     1.200459396382490E1    -8.678537168256115E1    -3.819986446147310      -8.493197067689907E1    -3.518110720421781E1
                        -6.998589470013609E1     1.413246944783183E1    -2.762130728321748E-1    9.950470037860036E1    -8.363916578557897E1     9.472906358001710E1    -8.801017245982804E1     4.063708224440391E1
                        -8.853035606132919E1     1.495497669319691E2    -8.707181011808032E1     1.404237874211118E2    -9.358916507368860E-1   -2.092618534799887E1    -8.821323540126137E1    -7.419664067765125E1
                        -8.379147496869558E1     4.901734340732392E1    -8.357004056220900E1    -1.421799162627971E2    -8.901052983014138E1     1.439461602110730E2    -9.153642825163180E-1   -1.813921218719260E1

 3.012500000000000E7    -2.790284991234572E-1    9.181048822674480E1    -6.925321251627304E1     1.561509715454180E1    -8.876843366868198E1     1.105851239292557E2    -9.300331547884170E1    -2.602409319440170E1
                        -7.026346312966558E1    -8.882153076449171      -2.603606858313877E-1    9.921576117699560E1    -9.261713281107122E1     1.610805697350638E2    -8.637789626108577E1    -1.572204592114695E2
                        -8.417867880522211E1    -1.264946062742661E2    -8.879254558349551E1    -1.648272097099992E2    -9.485126042831007E-1   -2.121223824063929E1    -9.069111703847291E1     1.672574759944110E2
                        -8.699669377353050E1     1.687444988159850E2    -9.213841016259011E1     1.320110947170024E2    -8.534645456842897E1     4.488817516211135E1    -9.130428743033507E-1   -1.847885195558073E1

 3.015000000000000E7    -2.754666234734023E-1    9.143944660004139E1    -7.009286292416205E1     9.749988424639716      -9.001958199020868E1    -8.818072079951999E1    -8.561512525239505E1     2.193381758410274E1
                        -6.810203027195239E1     1.706822167864960E1    -2.607201200235886E-1    9.884660063717577E1    -8.709531382664750E1     3.410463434886314E1    -8.689039038684237E1     7.883301234811528E1
                        -7.643340825927633E1    -9.307083856388560E1    -8.246825923122999E1     5.859350128649632E1    -9.451757691395042E-1   -2.152353994195682E1    -9.840365471242058E1     1.530608589817779E2
                        -9.679176371591451E1     6.398033989084621E1    -9.838299933648203E1    -1.037675854733195E2    -8.559488120352074E1     4.616683671810920E1    -9.109754086383717E-1   -1.870170520482242E1

 3.017500000000000E7    -2.712467924023261E-1    9.110804313747453E1    -6.848813317706542E1     7.060037809579778      -9.035783816305863E1    -5.393001393430459E1    -8.231624717645452E1     6.454448396083073E1
                        -7.108425382089823E1     1.099842361446407E1    -2.655223461046264E-1    9.858819030346156E1    -8.105070031582473E1     1.743852806112722      -8.821990030652331E1     1.562777307403962E2
                        -7.971810192456174E1     5.658423906128619E1    -9.401311277303589E1     8.960018178954732E1    -9.431210223788867E-1   -2.187588151457256E1    -9.121906228644163E1     8.161632585332113E1
                        -8.492515475638683E1    -4.823317500118818E1    -8.121038559292680E1     7.874949489415582E1    -8.482417813237296E1    -4.507799363374616E1    -9.096677051435486E-1   -1.903781906454811E1

 3.020000000000000E7    -2.745336221002569E-1    9.076284813528095E1    -6.985559921400949E1     3.874512651164886      -9.291077672851125E1     6.447324306412548E1    -8.740467332682533E1     1.343517610264537E2
                        -7.067571573039731E1     9.432555212056061      -2.590123600972487E-1    9.826459748086118E1    -8.177921340673771E1    -2.391763367384202E1    -8.196790756160812E1    -1.606904377968779E2
                        -8.468840799619343E1     1.277107010662449E2    -8.650033905825538E1    -1.171339287054442E2    -9.432543166596703E-1   -2.218402450059513E1    -8.117406736189751E1    -1.841500212857897E1
                        -8.443971093039254E1    -2.346564063887634E1    -9.819197658895939E1    -3.038423240970553E1    -9.178776838629331E1     4.980998899003232E1    -9.131707898836932E-1   -1.937388709396076E1

 3.022500000000000E7    -2.767385492680897E-1    9.043398500534083E1    -7.020691114580517E1    -2.970405673316999      -8.718993965085879E1    -3.629232709077443E1    -8.412801261756543E1     1.406515330842188E2
                        -7.077290236286173E1     8.866442440710937      -2.642818909521121E-1    9.798803567368827E1    -8.348628840502565E1     1.624112225428079E2    -8.550076268700838E1    -1.297393253237330E1
                        -8.996660209597336E1     1.230367595250288E2    -8.911988547743090E1     7.250760915631322E1    -9.488683006045146E-1   -2.248536992247443E1    -8.083927418432316E1     7.515111783962172E1
                        -8.245210395516126E1     9.659145403958478E1    -8.835475308894219E1     3.821276726899834E1    -8.429106310219716E1    -3.308626079598505E1    -9.149550162780569E-1   -1.964719686446503E1

 3.025000000000000E7    -2.756844717555056E-1    9.008877943215343E1    -7.061623809120786E1     1.626660024192235E1    -8.850729823285022E1     1.458900075012836E2    -8.223800527198854E1     1.464862827636097E2
                        -6.887628969624483E1     5.166475573342837      -2.758404164660879E-1    9.766183155080438E1    -8.750450902367746E1    -2.333017103526941E1    -8.592241971770483E1    -9.480153330966093E1
                        -9.400120517247002E1     9.184637494357448E1    -8.392104769971228E1    -1.009100152448818E2    -9.410538886879596E-1   -2.281713998687706E1    -8.966146727172644E1     5.064993404087534E1
                        -9.097426924059981E1    -3.547870645390498E1    -8.160431453850191E1    -1.563455317175083E2    -8.640579382079530E1    -3.572822547077654E1    -9.134922802376312E-1   -1.994676114731980E1

 3.027500000000000E7    -2.743742599992822E-1    8.974077769390415E1    -6.758592868188094E1     2.732434135646765      -1.017486919089393E2    -1.732742700114972E2    -7.944559546297666E1     1.620443897825293E2
                        -6.787039959064720E1     1.026092121961543E1    -2.527473027562194E-1    9.729372668621645E1    -9.038803288693048E1    -1.136050489186362E2    -8.307242785009287E1    -1.373400545627278E2
                        -8.526305995591953E1     1.645876464916014E2    -8.011365528093668E1     5.235879337029569E1    -9.397190854062534E-1   -2.313251925950220E1    -8.787334713984183E1     3.883365579131066E1
                        -8.362268919348482E1    -1.035138104404449E2    -8.639037481659551E1     2.302048218355920E1    -8.394261727864580E1    -7.237780041910816E1    -9.125352494818534E-1   -2.024874143181822E1

 3.030000000000000E7    -2.720864361270071E-1    8.945253740714669E1    -7.031409024380199E1     3.772989068231057      -8.462002870092577E1    -1.677663665221989E2    -8.283662443678571E1    -2.353171640683752E1
                        -6.900691611805249E1     1.094288144598545E1    -2.673600781070004E-1    9.702398865283313E1    -8.740650201508323E1    -8.528303043210539E1    -9.913201105406469E1    -7.790810009858461E1
                        -1.046346081233278E2     1.538700753417799E2    -8.867690832404988E1    -1.354501146115673E2    -9.485326660047477E-1   -2.345672243165960E1    -1.036929021790257E2    -2.432574192390024E1
                        -8.749276704446146E1     1.696477696401283E2    -8.578984445488831E1     1.661179419684897E2    -8.582699496908876E1     7.141305820052644E1    -9.121609785986283E-1   -2.057657932410992E1

 3.032500000000000E7    -2.788411775288320E-1    8.908162673998554E1    -6.847963829674576E1     1.367274322765187      -8.932892166786020E1     8.835487905732450E1    -8.524251043733906E1     1.116288160357522E2
                        -6.900233578241253E1     8.366910397640137      -2.584897900225963E-1    9.671175998896281E1    -8.846773555382302E1    -8.728487715687608E1    -8.789087408662972E1     3.998953456592518E1
                        -8.393870265816490E1    -1.793420287852348E2    -8.405835941190804E1    -6.960329393334152E1    -9.458059008746756E-1   -2.381044658644054E1    -8.629942545068266E1     6.001707495590389E1
                        -8.747979174476869E1    -3.366987654429584E1    -8.996794275681233E1    -1.449887029321653E2    -8.610884669009613E1    -1.243844457814678E2    -9.089930251203231E-1   -2.082466686136475E1

 3.035000000000000E7    -2.707051296517928E-1    8.875596682671022E1    -6.977461355468668E1     4.020294108516733      -8.244846222820382E1    -1.777237650519772E2    -8.481853800974838E1    -5.551867757601166E1
                        -7.054692110599970E1     1.973881569411171E1    -2.596116003863614E-1    9.639586144788518E1    -8.803294000073944E1    -1.516845752860065E2    -8.755489588765272E1     7.447705750407198E1
                        -8.077419523690794E1    -4.439610919695074E1    -8.318545559860679E1    -2.472811011389129E1    -9.476780537544038E-1   -2.412250128979096E1    -9.677607385204466E1     1.472078672968493E2
                        -8.595238855535244E1     8.512863584453164E1    -8.082678382933085E1    -2.991519550744394E1    -9.692361677062308E1    -1.233067367487078E2    -9.109011162427115E-1   -2.116517407389745E1

 3.037500000000000E7    -2.706921154076728E-1    8.839981391879846E1    -7.026353627407615E1     1.070349609368102E1    -1.045849534426318E2     4.290375656219264E1    -9.138194871877792E1    -9.559785277105873E1
                        -7.017416100945331E1     1.008602158732691E1    -2.625401592105830E-1    9.606398972252012E1    -7.946854572095916E1    -1.118587409855268E2    -8.950463440841892E1    -5.234765036658421E1
                        -8.327036617165389E1    -1.204739810122203E2    -8.723897000938146E1     1.502500477936681E2    -9.426360894240589E-1   -2.437791640039561E1    -8.697029760073797E1    -1.410981865894698E2
                        -8.157315353722359E1    -3.406654975387227E1    -8.892926691769142E1    -1.747125381627097E1    -9.009090661348407E1    -3.521693895782379E1    -9.085290465213978E-1   -2.149487792331422E1

 3.040000000000000E7    -2.700738163492671E-1    8.805883905566836E1    -6.892363231630939E1     1.017342917724784      -8.930000865362680E1    -6.568085797712760E1    -8.686935869255126E1    -3.515126435010700E1
                        -6.858164136923980E1     3.733340999023498      -2.653610507533913E-1    9.579088996732055E1    -8.239919042264006E1    -1.319646458001398E2    -9.114990925913574E1    -1.229608587668909E2
                        -8.296502109775437E1    -1.304200833324321E2    -8.691213567185484E1    -5.757566134803029E1    -9.402854896140946E-1   -2.468260873305382E1    -8.810468878355010E1     7.834748587811444E1
                        -9.688931857125597E1     3.245466557631384E1    -8.396198440312909E1    -5.931000454825280E1    -9.321418481159732E1     9.731278181672563E1    -9.116942244107760E-1   -2.177068063771915E1

 3.042500000000000E7    -2.667727935714608E-1    8.770768930677767E1    -6.933206752593385E1     1.765990989830283      -8.559679000019159E1    -3.537791355190889E1    -8.154509652722042E1     9.999903437284067E1
                        -6.912125874218965E1     1.670394753560620      -2.611903191207236E-1    9.550633420171737E1    -8.565308409670837E1    -1.427665854111029E2    -8.505306202178979E1     1.059870784496911E2
                        -1.012547540155862E2     1.775169294920039E2    -8.382404941102793E1    -1.958755526439394E1    -9.494771288802718E-1   -2.501555852447804E1    -8.943253698441811E1     6.266044235136103E1
                        -8.643583647711301E1    -1.432273449270748E2    -8.065181996436330E1    -1.194140846988620E1    -9.143559250620628E1    -7.189122733210117E1    -9.133333343013259E-1   -2.210142987502682E1

 3.045000000000000E7    -2.686411566702316E-1    8.737827180914751E1    -6.879592153378597E1     4.904246018946252      -8.178143163969514E1    -4.384659238102888E1    -8.577580201373885E1    -1.751179772700615E2
                        -6.772560084454726E1     1.026420776767832E1    -2.551454453267354E-1    9.513505325204118E1    -8.493754551712166E1     4.750849019167487      -8.375828732565820E1    -1.763322409189052E2
                        -9.212010632410981E1     7.595919246307821E1    -9.112711079597671E1    -1.021763525886927E2    -9.455680706246534E-1   -2.534618785416792E1    -8.028033404921332E1     1.455626265307677E2
                        -9.853917009263330E1    -5.813996036242899E1    -9.391565424872613E1    -8.024894950836483E1    -8.039108722366343E1     4.140883822109835E1    -9.109110930117661E-1   -2.238391526881541E1

 3.047500000000000E7    -2.698969234876895E-1    8.701990570108832E1    -6.831647718845618E1     8.031099947354491      -9.045331499538987E1    -1.576113392798133E2    -1.114981004746562E2     1.560010533462956E2
                        -6.973304060185539E1     8.158974105739869      -2.611207726659413E-1    9.485501935030085E1    -8.969111206456539E1     1.534740332765381E2    -9.127503124418153E1     4.341674628471758E1
                        -8.546856027370498E1    -9.968002939836951E1    -1.101902143597839E2    -1.190290428794326E2    -9.417004923734622E-1   -2.567173921845896E1    -8.514625310362204E1    -5.348905308538207E1
                        -8.479358344982731E1     1.571035626144283E2    -9.113993041416778E1     7.770384968739415      -8.472360245522076E1     1.363477609403277E2    -9.085771858566284E-1   -2.273038660289977E1

 3.050000000000000E7    -2.742524014176691E-1    8.666970982632051E1    -6.838863254536396E1     7.098751876045871      -9.243489571836825E1    -8.049788180253711E1    -8.280640706519053E1    -3.513659086551872
                        -6.902409940194774E1     1.489500565179741E1    -2.590479192247731E-1    9.455467365171538E1    -8.240615862687884E1    -1.413981783354867E2    -1.047094845430041E2    -1.782129314532897E2
                        -8.905389421345446E1     9.005446746000052E1    -8.638239710651951E1    -1.091718924904294E2    -9.431488011305272E-1   -2.597560043855826E1    -9.927465730369198E1    -1.569732457395057E2
                        -8.626912568300151E1     7.375042981114517E1    -9.058371054321131E1     1.416902371430313E2    -8.762079749442833E1     9.365390264268183E1    -9.151460050992097E-1   -2.302258026897373E1

 3.052500000000000E7    -2.664269118488543E-1    8.637841312776179E1    -6.760242969095850E1     5.949714565239834      -9.138829331542956E1    -1.434357175389658E2    -8.690024198724754E1    -1.300073126891020E2
                        -6.731951381891186E1     8.662615714397646E-1   -2.577574817975880E-1    9.423390276804651E1    -8.764113555766619E1     1.443222043438266E1    -9.083040745116931E1     7.310474202736769E1
                        -8.805262609225368E1    -1.858364978604651E1    -8.747700976514264E1    -1.141797541994775E2    -9.488957371387357E-1   -2.626792084525961E1    -8.365847934278875E1    -9.786077702184443E-1
                        -9.941864644700604E1    -5.749636003805408      -9.672051785025136E1    -2.020811743983937E1    -8.346409683902400E1     5.276996693657517E1    -9.098777307281583E-1   -2.334043940908678E1

 3.055000000000000E7    -2.705871459818168E-1    8.602347430499688E1    -6.736883652382795E1     2.294272160821186      -1.001088408261922E2    -7.028795456968355E1    -8.219741958863733E1    -1.669878152922852E2
