#  HZ   S   DB   R     50.00 
! Rohde & Schwarz Vector Network Analyzer 
! Rohde-Schwarz,ZNB8-4Port,1311601044102961,2.82
! Created: UTC 2/12/2019, 2:11:29 PM
! freq[Hz]                db:S11                  ang:S11                 db:S12                  ang:S12                 db:S13                  ang:S13                 db:S14                  ang:S14
!                         db:S21                  ang:S21                 db:S22                  ang:S22                 db:S23                  ang:S23                 db:S24                  ang:S24
!                         db:S31                  ang:S31                 db:S32                  ang:S32                 db:S33                  ang:S33                 db:S34                  ang:S34
!                         db:S41                  ang:S41                 db:S42                  ang:S42                 db:S43                  ang:S43                 db:S44                  ang:S44
! 
 3.000000000000000E7    -2.845531186921861E-1    9.704907337654487E1    -6.790802788375461E1     1.850827461717025E1    -8.217412069536630E1     1.575324686828277E2    -8.022729105850699E1     1.200821708882051E2
                        -6.882647831159902E1     1.026597081298558E1    -2.311539973152703E-1    1.041653728782039E2    -8.365584014935537E1    -1.365183530693965E2    -8.459911523390609E1     1.716134481995036E2
                        -8.896973447464440E1    -4.345413612649276E1    -7.918827506403960E1    -1.290533906705942E2    -9.319558164974239E-1   -1.576851701608421E1    -8.603727089476021E1    -3.210002805928436E1
                        -9.041339541160704E1     9.145853875482088E1    -8.734600829915543E1    -5.882533403672086      -8.340896621011166E1     1.364348844952945E1    -9.000758316272277E-1   -1.303691986758846E1

 3.002500000000000E7    -2.858972501053742E-1    9.670808929025706E1    -6.747610598565322E1     1.103427231042163E1    -8.222874211160048E1     1.652109097961991E2    -8.666846713192609E1     4.173040451511169E1
                        -6.846157734874599E1     7.485963521061531      -2.426376194809099E-1    1.038511357468202E2    -8.296731672613547E1    -7.334378151440809E1    -8.244366122401281E1    -1.371557071583841E2
                        -8.379532401188848E1     1.787511275044257E2    -8.335493860281632E1    -1.022775851034455E2    -9.331611697630476E-1   -1.599262913592232E1    -9.026922629782207E1    -8.660027164509621
                        -8.407934489803705E1     7.895354221000973      -8.128523217368132E1     8.391337804227018E1    -8.332830359724133E1     1.676137911266067E2    -9.056875853784924E-1   -1.333061471219794E1

 3.005000000000000E7    -2.807810132832914E-1    9.639936310398804E1    -6.868136807185221E1     1.631494389348294E1    -8.302393848263657E1     1.249970584525939E2    -9.532786152782430E1    -1.607491196352752E2
                        -6.802920991936185E1    -8.534396195601263E-1   -2.342776497884205E-1    1.036000388148570E2    -8.843100780599463E1    -1.702665590052492E2    -8.161559875627775E1     9.491515486741466E1
                        -8.706001128091374E1    -6.543163963729300E1    -8.951969600217076E1     1.694584804639045E1    -9.329312062964458E-1   -1.633790653181585E1    -8.076831349130117E1    -1.517196529282580E1
                        -9.621041308573928E1    -1.345768670949751E2    -9.066526206456467E1     1.781711566766669E2    -9.338671820946003E1     7.086944143491478E1    -9.026087204777983E-1   -1.364151027722487E1

 3.007500000000000E7    -2.821916657951620E-1    9.600773352469489E1    -6.762365387169680E1     1.321221926368319E1    -9.211721021810335E1    -1.179471915832275E2    -7.988837276385729E1    -8.114424296092146E1
                        -6.827842870540641E1     1.424200300900167E1    -2.298493626868786E-1    1.032557148176453E2    -8.817833259940346E1    -3.194768744732219E1    -1.064490028641293E2    -1.005252507442699E2
                        -8.587286770191568E1    -8.799973069973585E1    -8.777828772255619E1    -5.372104837424085E1    -9.334460133389327E-1   -1.668654709517471E1    -8.389916609869064E1    -6.748902097690132E1
                        -9.143775260430689E1    -1.512679050034732E2    -8.775339035177996E1    -1.743456792567099E2    -9.133257404235232E1    -9.423867232400312E1    -9.045478621050525E-1   -1.391257154831482E1

 3.010000000000000E7    -2.817966617058620E-1    9.574524709575984E1    -6.841620117792405E1     1.941956978565552E1    -8.968032543220272E1     1.126079347195357E2    -8.406534372958099E1     1.242238208483934E2
                        -6.792324145249839E1     8.123462031962303      -2.368096508584027E-1    1.029140597734847E2    -8.613940716821794E1    -6.799535951249057E1    -8.582424237838359E1     1.368988900174711E2
                        -8.613572294509007E1    -1.774047029264881E2    -8.845387384668265E1    -6.954181177681484E1    -9.298943002956726E-1   -1.697974027141972E1    -8.787422561380210E1     4.129141906016132E1
                        -9.060090525613049E1    -7.523086653321683E1    -9.531872698202636E1    -3.596288596015075E1    -8.327389603792909E1     1.242991946891526E2    -8.957965300241395E-1   -1.423096166869459E1

 3.012500000000000E7    -2.771319029619700E-1    9.535825913906589E1    -6.876378653943606E1     1.235183743253118E1    -8.316588201229860E1     2.609037271399683E1    -8.536707294449434E1     1.466109556350413E2
                        -6.901166448944096E1     1.569145329644440      -2.310675790966872E-1    1.026352791316366E2    -8.601013516764897E1    -8.691939693707336E1    -8.105194045545922E1    -1.121540606394113E2
                        -8.443026801369302E1     2.291864406893517E1    -9.678871407465174E1    -9.491921978879235E1    -9.348681916836386E-1   -1.729745736226259E1    -8.799579438895732E1    -7.735466549486235E1
                        -8.221239494506115E1    -2.511736101194183E1    -8.390298158896189E1    -4.543757173746793E1    -8.653309822676692E1    -3.999931803388017E1    -8.984417964765059E-1   -1.454691201531903E1

 3.015000000000000E7    -2.790541291294488E-1    9.501298770977537E1    -6.931901646108814E1     1.824930547553930      -8.962634184331093E1     1.444770566874328E2    -8.454626897968893E1    -1.337849176161090E2
                        -6.911561866652417E1     1.607048497176721E1    -2.389559600737911E-1    1.023015444667619E2    -8.447171303962341E1     3.766113906237514E1    -9.399976291393726E1     4.204084626763547E1
                        -9.213460781277763E1     5.490756462961389E1    -8.421614051714022E1     3.662570300491943E1    -9.354677331338801E-1   -1.763119896951165E1    -9.066951245652564E1    -1.862392641182059E1
                        -8.494128482379692E1    -1.310442336533052E2    -7.956615068923979E1     1.368338300527761E2    -7.978125148345362E1     1.183429984817405E1    -8.983251993831145E-1   -1.479648637932794E1

 3.017500000000000E7    -2.731251761439547E-1    9.468721535165352E1    -6.762093872683668E1     3.294978123120816      -8.287085801467507E1    -1.199826640885713E2    -9.273378533183211E1    -2.445986749753786E1
                        -6.672170951312485E1     1.092787743417095E1    -2.329125605660873E-1    1.019618823455314E2    -8.076323036671012E1    -1.064293856875736E2    -8.321198147002066E1    -5.448612534096355E1
                        -8.366466077515372E1    -1.742042816262782E2    -8.523135988080254E1    -1.400450006139708E2    -9.319557567217461E-1   -1.790286765275486E1    -8.237421360922545E1     1.023386684264078E2
                        -8.701528712121066E1     1.003614980653886E2    -8.678775531958158E1    -1.348781173849140E1    -8.463720628412318E1    -1.948508751715829E1    -9.029496668490190E-1   -1.513048681997903E1

 3.020000000000000E7    -2.734916910955924E-1    9.436082705009331E1    -6.793096003486345E1     8.516667271573100      -8.611007429494315E1     9.751573778555940E1    -8.738439105615257E1     5.254204354032370E1
                        -6.725609226431389E1     9.810408657877115      -2.288593334919247E-1    1.017540085900869E2    -8.900615681200564E1    -3.207564503570313E1    -9.132531995439709E1    -5.860987906018856E1
                        -9.159257501969826E1    -3.261642741794894E1    -8.790788522165602E1     1.782701439495465E2    -9.394605323268037E-1   -1.824402881468665E1    -8.233879512316730E1    -1.556015593851315E2
                        -9.149177742289021E1     1.537070093811809E2    -8.373960646659594E1    -6.104151477897483E1    -8.420310086672427E1     6.372944799421461E1    -9.032531469267268E-1   -1.546264978031994E1

 3.022500000000000E7    -2.777055381268158E-1    9.401406428527729E1    -6.972105521944479E1     8.041556508399214      -9.107127909899312E1    -4.594107056138009E1    -9.136135347188821E1    -2.459858960262055
                        -6.846622614738908E1     1.006705723310844E1    -2.346396078914598E-1    1.013961255466867E2    -8.243491026772108E1     5.517513370997450E1    -8.708677071094705E1     1.343887465200228E2
                        -8.998177560176239E1     2.526233954283084E1    -9.739726902527087E1     6.755465721650994E1    -9.320279703851304E-1   -1.849188267867779E1    -9.186923077163426E1     4.421408383711708E1
                        -8.664270665871128E1    -1.750976433624671E2    -9.209566039782544E1     1.208151516630244E1    -8.172597129705540E1     1.682030420414624E2    -8.926635018396844E-1   -1.570914300854060E1

 3.025000000000000E7    -2.852250286064691E-1    9.367730810177550E1    -6.823386554216636E1     7.117729858939655      -8.974703204465362E1    -1.752925602929050E2    -9.518017826067018E1    -1.179252127378991E2
                        -6.728637087289658E1    -6.652773073068753      -2.441563853751964E-1    1.010680219382326E2    -9.604922792303043E1     1.732916088570327E2    -8.226205878666863E1     7.837109648531899E1
                        -8.394663679282046E1     1.026875622679279E2    -9.064744391406688E1    -2.159348749768780      -9.287168120378846E-1   -1.883773241282093E1    -9.861133778657275E1     1.423790253714273E2
                        -1.024846269414256E2    -2.371481459958148E1    -9.190238298611241E1    -2.956828928273974E1    -8.238093423221346E1     2.677951587463357E1    -9.065291954166553E-1   -1.600139401870825E1

 3.027500000000000E7    -2.710002252573831E-1    9.334394782708573E1    -6.861130869568483E1     1.593879846403671E1    -8.385443701443835E1     6.883536497128296E1    -9.344428548803251E1     6.704029376701168E1
                        -6.887692449114694E1     3.708831665096632      -2.202569058942013E-1    1.007764939652218E2    -8.717851077392118E1    -8.415111110604958E1    -9.377772772208198E1    -8.168022917883879E1
                        -8.900661862190034E1    -6.975599608844969E1    -8.978442496928635E1     9.680051294168182E1    -9.303944666118780E-1   -1.914441694300429E1    -8.097850161730301E1     1.589533785391809E2
                        -1.017197916775896E2     9.963165088545000E1    -1.113463769114747E2    -6.848189668660390E1    -8.215079324418812E1    -9.821343062119782E1    -8.919754182895721E-1   -1.631372751864042E1

 3.030000000000000E7    -2.784489729276403E-1    9.307738045701521E1    -6.700297667376967E1     1.505596734241381E1    -9.007201005940514E1    -6.401992373270181E1    -8.492462853082444E1    -6.918104418844013E1
                        -6.733173051563685E1     9.597527893524642      -2.372364826214868E-1    1.004497831627199E2    -7.985732181363213E1     9.317543835627490E1    -8.151603735740085E1     1.664695433357608E2
                        -8.714201620308175E1    -6.409336146513301      -8.953450916263762E1     7.409600278437534E1    -9.386446815984019E-1   -1.946690991617553E1    -9.641742737939124E1    -5.403691671852852E1
                        -9.248462458821595E1     1.248510804536920E2    -8.462413066415999E1    -1.048855124593848E2    -8.394816929298736E1    -1.040298971759853E2    -9.006493744367078E-1   -1.661610101567750E1

 3.032500000000000E7    -2.800346058694935E-1    9.269805813310022E1    -6.739518745903372E1     4.209610118132836      -9.253518553454414E1    -1.477596471114663E2    -9.111358655758444E1    -2.125423588958467E1
                        -6.717771915261164E1     3.257657666359187      -2.239782493021532E-1    1.001029698505234E2    -8.048624388620829E1    -6.245138899267275E1    -9.749786053592666E1     7.866671852470189E1
                        -8.311482957545131E1     2.234331838917765E1    -9.255445454098521E1     1.577445989951218E2    -9.373353163561459E-1   -1.980825927497518E1    -8.624107869826875E1    -1.198668936398513E2
                        -9.775754878501884E1    -4.292744025312264E1    -8.471300624820049E1     1.156035407833264E2    -8.096113779886565E1    -1.316072619057063E2    -8.958278750740549E-1   -1.690177355730917E1

 3.035000000000000E7    -2.708534454914431E-1    9.237117828223329E1    -6.772176125070789E1     1.203752296613939E1    -9.173524415796038E1     1.110891893346127E2    -8.882609433260987E1     4.419563718708888E1
                        -6.834744858740518E1    -3.156403995612005      -2.298856466879629E-1    9.981503487838069E1    -8.961561237096633E1     9.544290915088756E1    -9.398791363245354E1    -1.548878087752508E2
                        -8.690448270748146E1     1.240192112293306E2    -8.524041905959820E1     5.499430202384890E1    -9.299437814832006E-1   -2.012251524805093E1    -8.201695575620082E1     1.362410478499186E2
                        -8.718570556662638E1    -6.679445069498622E1    -9.099393572960824E1    -1.212383106881592E2    -1.002712025672345E2     2.441084535201033E1    -9.006323565480868E-1   -1.721685880067386E1

 3.037500000000000E7    -2.696929688037855E-1    9.201708295876580E1    -6.839344775964021E1     5.650369730958527      -8.385445624849260E1     1.457211843159678E2    -9.061016898475839E1     1.088122151745934E2
                        -6.795993746935645E1     1.313264050424988E1    -2.327393801317243E-1    9.953275286596256E1    -7.929600270008031E1    -1.296239432016782E2    -8.063148322025845E1    -1.057323674751709E2
                        -9.277685484185646E1    -1.627049688376581E2    -9.168108665109429E1     1.004857987095144E2    -9.332041936461731E-1   -2.046610689560681E1    -9.555305271633792E1     1.071587703829169E1
                        -8.295866946736967E1    -1.060503991824609E1    -8.678401490611788E1    -7.643541441909881      -8.772484856100999E1    -1.741710903708790E1    -8.953778361751148E-1   -1.749974914007103E1

 3.040000000000000E7    -2.691072179281836E-1    9.167743759448226E1    -6.702167744401500E1     6.295288880271587      -7.667034437407708E1     1.331380722651739E2    -8.392312672167749E1    -4.583891538728234E1
                        -6.635158670847082E1    -2.172025139259058      -2.325470608868110E-1    9.926226619022677E1    -8.356972770045969E1    -4.758104950492916E1    -8.987997857777225E1    -5.359993765986186
                        -8.170303567701360E1     6.545720138845283E1    -8.352395109420280E1    -1.568115992834570E2    -9.252234728812846E-1   -2.069152180732435E1    -8.464893989165245E1    -3.719432617076653E1
                        -9.035695922785936E1    -1.048730806777502E2    -8.564494147717694E1    -1.290572781285580E2    -8.240934420895022E1     1.793426754388411E2    -8.944640534863857E-1   -1.780168058215208E1

 3.042500000000000E7    -2.719581923776848E-1    9.135238382876969E1    -6.879310776341293E1    -4.951538020428762      -9.064439380814554E1    -8.323840574961551E1    -8.546689579562599E1     1.230298720382826E2
                        -6.727146924474863E1     7.579164627816100      -2.295417071002310E-1    9.889239552724510E1    -9.435384539800042E1     9.339119302437065E1    -9.552369883570606E1    -1.078990403990224E2
                        -9.469224843079431E1     1.183790775091578E2    -8.860489943503147E1     1.572071454625977E2    -9.355468303807042E-1   -2.106318148715753E1    -8.917234669434450E1     2.773714805857931
                        -8.137342579331268E1     1.069218073087969E1    -9.345015703147536E1     1.772414142368464E2    -8.320798927463304E1    -2.486425278914769E1    -8.976063382797183E-1   -1.812831946932302E1

 3.045000000000000E7    -2.755172580018448E-1    9.099703062362485E1    -6.818176791236841E1     6.083767765290868      -8.360689475843209E1     1.183920870220867E2    -8.344606463688621E1    -1.393714310825090E2
                        -6.729873366918109E1     2.824072490037282      -2.331802554299227E-1    9.858673500903913E1    -8.421843406247172E1    -3.545765388129935E1    -8.704671396211622E1    -1.394129204374426E2
                        -8.441341404517218E1    -8.743526735129321E1    -8.541736973654166E1    -1.367008806403979E2    -9.393945663853219E-1   -2.134165908825583E1    -8.399096018175740E1     1.679461378455592E2
                        -8.574599220483533E1    -5.172330530036388E1    -8.227063962053705E1    -1.769631942676384E1    -8.746819290317120E1    -6.399351969194802E1    -8.956756847640333E-1   -1.839612447837292E1

 3.047500000000000E7    -2.697507009959925E-1    9.065758180352134E1    -6.741825472915980E1     7.522244833702374      -8.469567583031504E1     4.295816370658795E1    -8.939530611103677E1     7.258532039595099E-1
                        -6.894480054251224E1    -6.520496344833954      -2.271600040753538E-1    9.832275573963401E1    -9.065504189841199E1     2.787271190524287E1    -9.747843278405910E1    -1.233845788596981E2
                        -8.674545102146766E1    -1.789523859794583E2    -9.437484141270600E1    -1.168177498189606E2    -9.272511575288401E-1   -2.162815069971413E1    -8.323445929129024E1    -1.119469303972593E2
                        -8.375354125518464E1    -1.655021108218112E2    -9.096997949198124E1     3.124383508694853E1    -8.363878275990047E1     7.540859347653020E1    -9.015484324840134E-1   -1.872552660527781E1

 3.050000000000000E7    -2.716407321147722E-1    9.033568865949297E1    -6.858088805785374E1     6.654851585340091      -8.953458074247406E1     1.293385166875262E1    -9.516191809766985E1     1.786756545283172E2
                        -6.622778935716036E1     1.247254573880631E1    -2.216642567042830E-1    9.795797605840852E1    -8.622688489491236E1    -4.321193651282249E1    -9.731929517810556E1    -1.507621190182949E2
                        -8.528141888441999E1    -1.052021653595133E2    -8.934172699898760E1    -1.376739158681549E2    -9.336137148089916E-1   -2.193701057125828E1    -8.775209887270438E1    -7.506036074470501E1
                        -9.477141140328357E1     1.257599375229207E2    -8.764415992200358E1    -1.073203630724034E1    -8.701532942544023E1    -1.736585055496046E2    -9.019030536651294E-1   -1.903355351963092E1

 3.052500000000000E7    -2.663413074657099E-1    9.000732961261157E1    -6.731758928702351E1     9.766735796375199E-2   -8.277812557408541E1     1.593378125559643      -8.730279493381821E1     2.381121807587613E1
                        -6.804637568940144E1    -6.601055503102605E-1   -2.272192376723406E-1    9.771967127105125E1    -8.683609677904036E1     1.229555738502212E2    -8.983267688957049E1     1.330487349980512E2
                        -8.488853530747517E1    -9.220420480963537E1    -8.206663594293117E1     1.252130835332791E2    -9.318236338818976E-1   -2.224439860391689E1    -8.426510270361908E1     1.381642073779873E2
                        -8.267946058994768E1    -1.182503840537189E2    -9.587828368524917E1     2.961888892490548E1    -1.016958745185563E2     1.118426909326569E2    -9.057336778936633E-1   -1.931434390820313E1

 3.055000000000000E7    -2.676336648404067E-1    8.966522488650165E1    -6.805617049400229E1    -8.792654117046917      -9.046766332246408E1    -1.603710490963218E2    -8.715454275285427E1    -1.599717583625879E2
