#  HZ   S   DB   R     50.00 
! Rohde & Schwarz Vector Network Analyzer 
! Rohde-Schwarz,ZNB8-4Port,1311601044102961,2.82
! Created: UTC 2/13/2019, 11:49:20 AM
! freq[Hz]                db:S11                  ang:S11                 db:S12                  ang:S12                 db:S13                  ang:S13                 db:S14                  ang:S14
!                         db:S21                  ang:S21                 db:S22                  ang:S22                 db:S23                  ang:S23                 db:S24                  ang:S24
!                         db:S31                  ang:S31                 db:S32                  ang:S32                 db:S33                  ang:S33                 db:S34                  ang:S34
!                         db:S41                  ang:S41                 db:S42                  ang:S42                 db:S43                  ang:S43                 db:S44                  ang:S44
! 
 3.000000000000000E7    -2.782852834064893E-1    9.345045165778829E1    -6.855817707802575E1     6.044607498929499      -8.732077739426345E1     1.222457810078327E1    -8.856071417447504E1    -2.337247927845582E1
                        -6.975463452490762E1     2.151534101530769E1    -2.604551652321259E-1    1.007853597141044E2    -8.279992971922026E1    -2.355346918490042E1    -8.281397837855947E1    -1.188568136813614E2
                        -9.505608046514189E1    -4.238738217281141      -8.088613740695892E1    -1.588686241660253E2    -9.436485064017696E-1   -1.960643729585273E1    -8.707295346350043E1     8.153862251266203E1
                        -8.930848540676243E1     1.325872184067108E2    -8.208460880668343E1     1.650656973947872E2    -9.443194224667295E1    -1.728322741275273E1    -9.124788694637581E-1   -1.689867481854711E1

 3.002500000000000E7    -2.762129000574368E-1    9.317210037441770E1    -7.013948526399079E1     1.229196894221364E1    -8.722157177538918E1    -6.065459713551064E1    -8.580056492062369E1     1.100824206670861E2
                        -7.143426126990504E1     1.319233057893037E1    -2.684070985295251E-1    1.004512999624079E2    -9.967283436483386E1    -4.729513273661090E1    -8.560067563166184E1     1.987544707713662E1
                        -8.447480362968906E1    -3.299371363655454E1    -8.841198512666482E1    -8.911383801152368E1    -9.400024086130048E-1   -1.996204360587096E1    -9.029284541185801E1    -1.584427699358159E2
                        -9.668575242020638E1    -1.202421614066918E2    -9.295337819689151E1     8.739856423220442E1    -9.046339761051542E1     1.455254798508489E2    -9.087763230220802E-1   -1.721286337125977E1

 3.005000000000000E7    -2.832271858177980E-1    9.283620464277917E1    -6.829841072060687E1     5.293766006739601      -9.845236123863587E1    -7.908906269411783E1    -9.702482848322588E1     3.074958046346015E1
                        -6.992101276889501E1     1.209216965139508E1    -2.591654484898491E-1    1.001393862702221E2    -9.204801068534360E1    -6.328852426816101E1    -9.433491527450215E1     1.657302830818848E2
                        -8.979250827016509E1    -1.481100300259517E1    -8.255282977648689E1    -1.235211092277297E1    -9.451221511025276E-1   -2.028181175272524E1    -8.058858069187505E1     1.008266106385060E2
                        -9.035079393071447E1     8.926794992318492E1    -8.074748891346290E1     3.706536255092962E1    -8.773868923105235E1    -1.609381297292349E2    -9.135997427017318E-1   -1.751103965953006E1

 3.007500000000000E7    -2.794777374044276E-1    9.246080392705956E1    -7.077896897930131E1     1.356983389283180E1    -8.169271972517031E1    -7.664319605790253E1    -9.156713052823405E1    -1.467284579685676E2
                        -7.136646428161897E1     1.300836956228320      -2.609648312938705E-1    9.982042256195257E1    -8.661474625489360E1     2.583122559838556E1    -8.752441921027514E1    -7.645211762957904E1
                        -8.307777632237099E1    -1.272896467327257E2    -8.591204719938781E1    -8.750954603584471E1    -9.449797818616917E-1   -2.058273200796602E1    -8.477732925476475E1     4.190196773438741E1
                        -9.886871918531263E1    -1.756459668210718E2    -8.266604713185674E1    -5.656664254729893E1    -9.343756799002472E1    -1.125313458447772E2    -9.196521033158790E-1   -1.782816717132544E1

 3.010000000000000E7    -2.723389510040424E-1    9.213647506135911E1    -7.121390068063155E1    -1.660892814573897      -9.385157736328550E1    -2.994514863652286E1    -8.995409123639502E1     1.738680137436226E2
                        -6.834164919915605E1     1.630481583553317E1    -2.627964915739104E-1    9.951427139709274E1    -8.264995715442828E1    -5.424453476279918E1    -8.689655261300885E1     1.021675365099137E2
                        -8.843181567633857E1     6.508427977087814E1    -8.348601350590559E1     1.582444260272559E2    -9.416215752556432E-1   -2.095471976479496E1    -8.753671658578054E1     1.056161016598209E2
                        -8.735300000871101E1    -4.016001802575993E1    -9.137878922917392E1    -1.715146158892451E2    -8.358672509152491E1     1.239404537819462E2    -9.132353562068916E-1   -1.812673105031953E1

 3.012500000000000E7    -2.696321580234891E-1    9.179076990565804E1    -6.800130499766530E1     1.010766509372845E1    -8.094674445873079E1    -3.441865423112397E1    -8.851859171390275E1     1.520574961219018E2
                        -6.989513307815514E1     3.001174386030609      -2.676587011650820E-1    9.926859101429409E1    -7.806211658788259E1    -1.740683131181582E2    -9.152394629125580E1     1.602972331158206E2
                        -9.004679164988326E1    -6.170806530809868E1    -9.339522803004326E1    -1.196205793829610E2    -9.431367616709963E-1   -2.127220446971356E1    -9.076263712483654E1    -1.076459733208301E2
                        -8.953379237645225E1    -1.725181432254776E2    -8.342395937527451E1    -2.434821898952672E1    -8.499067365135359E1    -9.362803767418203E1    -9.142075627438767E-1   -1.844817796702435E1

 3.015000000000000E7    -2.715433407173586E-1    9.147153517592216E1    -6.821559592701479E1     1.615312734968157E1    -8.619866933082511E1    -1.568119347891982E2    -8.230623043682633E1     1.685008761414294E2
                        -6.967513919598109E1     2.236070116923982E1    -2.628286989439447E-1    9.889760804918136E1    -8.024129593498938E1     1.241515591459603E1    -8.416233774290674E1    -6.121169716518810E1
                        -8.429552297867338E1    -7.686488831523174E1    -9.311527714887490E1     8.983874577913464E1    -9.449511060615592E-1   -2.152248961355425E1    -9.584952619265599E1     3.313456967216182E1
                        -8.894376494507947E1    -1.636651900304298E2    -8.527007334242235E1     6.668923552010422E1    -9.168852839397277E1    -1.127368815953620E2    -9.142192313519532E-1   -1.871349625210918E1

 3.017500000000000E7    -2.713481592347449E-1    9.108538858305512E1    -7.048458497011323E1     1.086863784109512E1    -8.506896184788579E1     3.872106090682349E1    -8.927144738884911E1    -1.543437419553114E1
                        -6.981809632607899E1     1.984972548598299E1    -2.633179883673132E-1    9.858995662170224E1    -8.268554832658791E1     6.985179363541879E1    -8.719720550736514E1     1.439261948887653E2
                        -8.830513785596705E1    -2.994060159390925      -9.380960554738039E1    -6.664303583312822E1    -9.443685793569766E-1   -2.181747821420374E1    -9.802698722128888E1     1.852111087185906
                        -8.800631257699793E1     8.241945862749788E1    -8.983616740179257E1    -8.876806483490670E1    -8.300632403919401E1    -4.452026412368564E1    -9.118214292887341E-1   -1.903239576786001E1

 3.020000000000000E7    -2.741623265709388E-1    9.078295134972096E1    -6.835554929609012E1     9.980482219113094      -8.752730722102336E1     1.390405449116512E1    -8.441687197844357E1    -9.895842955226367E1
                        -6.973053901897963E1     2.443686030227642E1    -2.545937704155388E-1    9.831768526647061E1    -8.899024764590060E1     6.084910106335203      -8.700866210948773E1    -1.016660107802077E2
                        -8.797870794340609E1     1.169847226176291E2    -8.411953937810426E1     1.093580579176818E2    -9.500739731406239E-1   -2.214703443793042E1    -8.548566252232365E1    -4.578561821441728E1
                        -9.663840217898698E1     1.418982647131342E2    -8.851504105285855E1    -1.430594018256386E2    -9.560276217881253E1     1.235161436137294E2    -9.131980986683821E-1   -1.936102903665020E1

 3.022500000000000E7    -2.788676894955746E-1    9.042356131567989E1    -6.987820904688388E1     6.416363143810713      -9.818386913899231E1     1.387978454818793E1    -8.931550683313870E1     3.141792989006001E1
                        -6.901581213025017E1     9.087097256602025      -2.597212879021958E-1    9.795581745331469E1    -8.056696288757890E1    -7.850871525230016E1    -8.449708225159682E1    -2.910948136539265E1
                        -8.449464564451439E1     8.427040637678766E1    -8.961584690196814E1    -1.502798021549837E2    -9.429028968566329E-1   -2.248640782963442E1    -8.708088928068622E1     1.514930790714572E1
                        -8.417707679349617E1     6.653586514183945E1    -8.541788701005972E1     1.616719268900856E2    -8.487694294758576E1     7.106683193459563E1    -9.151829578159932E-1   -1.965889561073772E1

 3.025000000000000E7    -2.745463439301244E-1    9.013516151758877E1    -6.872834949870855E1     6.202959435923362      -8.311200338332156E1    -1.130394327057383E2    -8.309292121779416E1    -3.755230751939491E1
                        -6.910838794690739E1     1.159442627592719E1    -2.657912798664048E-1    9.765256538332064E1    -8.828482841716149E1     4.332806809559718E1    -8.444533736231551E1     1.500215111390028E2
                        -8.739025594218445E1     3.302076538302516E1    -8.289090611426227E1     1.730522587712735E2    -9.405351509708784E-1   -2.279548416527506E1    -9.593783155852320E1    -2.749081388197893
                        -9.284115781164687E1    -9.816478549016509E1    -9.791667381544411E1    -5.956591218496721E1    -8.147796669606015E1     1.319001647045188E2    -9.144556695922710E-1   -1.993897992626684E1

 3.027500000000000E7    -2.717781740476796E-1    8.974749066784180E1    -6.833976246669135E1     1.144076042082790E1    -8.571552679611835E1     5.897933091249866E1    -7.867310197610240E1    -4.566086757921127E1
                        -6.724060359604744E1     5.290103005823995      -2.509249913773735E-1    9.733521569467419E1    -9.545199544762446E1     1.268103710797540E2    -8.727713237142000E1    -1.420378968567410E2
                        -9.280684589320549E1    -1.293683429528961E2    -8.261204876719994E1    -1.379499554548052E2    -9.417910509436261E-1   -2.314916451083046E1    -9.274620447744468E1    -9.608240926115742E1
                        -8.957369494254324E1    -7.130732541666778E1    -8.675753923212120E1    -7.020552074948188E1    -9.233592220492410E1    -1.737296647465515E2    -9.160062896815142E-1   -2.022836452289739E1

 3.030000000000000E7    -2.705885430890211E-1    8.946146486097692E1    -6.727143094216396E1     5.895363210912874      -9.743745906349631E1     1.392217775133188E2    -8.947895545525233E1     1.722497789322142E2
                        -7.102048118767871E1     8.048070891670271      -2.580464612875009E-1    9.703493145918442E1    -7.919665623168632E1     6.858872632704170E1    -9.780331994244182E1     6.370705051892348E1
                        -7.889745329277210E1    -1.192826828267387E2    -8.593622282807641E1     2.706150741331232E1    -9.455985612507476E-1   -2.344122776467522E1    -8.037459269384576E1     1.789080129265023E2
                        -8.963710580398983E1    -3.446102866076733E1    -9.731973227982776E1    -7.052271242884422E1    -9.046132831236935E1     4.056504712229958E1    -9.079111532187312E-1   -2.059458901018870E1

 3.032500000000000E7    -2.700097874727886E-1    8.910885882747961E1    -6.834294756701436E1     1.072439591676394      -7.874625697404565E1     1.428392749315115E2    -8.857241387598808E1    -1.379482238361055E2
                        -6.983540433642500E1     7.666763733982096      -2.584051070229625E-1    9.669825681975489E1    -8.676505981012491E1    -1.531650931076470E2    -7.909919608867725E1     1.588098209752076E1
                        -8.645720336607924E1     6.311794786985207E1    -8.315727909584281E1    -1.583219305635797E2    -9.449780549912381E-1   -2.377199753838528E1    -1.123455879826477E2     8.106609619761659E1
                        -8.221314186908813E1     1.519656814406359E2    -8.204752724999516E1    -1.637308894303541E2    -8.841235574786153E1    -1.465434083807395E2    -9.056987688322106E-1   -2.087077542702029E1

 3.035000000000000E7    -2.696203243887768E-1    8.879954440475437E1    -6.774177287578304E1     1.445664348360370      -9.599676719598512E1     9.840196534685724E1    -8.053134145782340E1    -1.231866177153802E2
                        -6.998823272980511E1    -4.046934330862285      -2.550904257776015E-1    9.636584217521418E1    -8.331668919866564E1     9.649425088365757E1    -8.501091047010077E1     1.138567732485362E2
                        -8.561385477240519E1    -3.740872592098400E1    -8.333773677262707E1     6.217464334792297E1    -9.415088537418161E-1   -2.410143543157529E1    -8.004026408825820E1     1.669751983763785E2
                        -8.182229546708727E1     1.143723750154724E1    -8.396018657850848E1     1.207021344499702E2    -8.218937887358021E1     3.876209509066862E1    -9.147087831735841E-1   -2.117768787707820E1

 3.037500000000000E7    -2.698139439303129E-1    8.843044378150157E1    -6.974375033866564E1    -8.757422087162198E-1   -8.821614352170558E1    -1.307604964042454E2    -8.318225326399129E1    -2.658786888255711E1
                        -6.822596577734232E1     8.150043393868311      -2.600580430162426E-1    9.606264656001622E1    -9.545380577772478E1    -1.725721568292639E2    -8.275782951538295E1    -3.955192204060784E1
                        -8.007394313308795E1    -1.003424566233423E2    -7.933469215651127E1    -8.290121588766245E1    -9.385763484953626E-1   -2.439424424674569E1    -9.496527829634547E1     1.260450512541609E2
                        -7.919636123374343E1     6.240114521038831E1    -8.718172977513135E1    -7.785259524324498E1    -9.397920640706710E1    -3.630295226872229E1    -9.116978441340888E-1   -2.148013371029742E1

 3.040000000000000E7    -2.625544651665485E-1    8.808898010645359E1    -6.952140741748818E1     5.140372249253209      -1.031356178168016E2     1.750375217119016E2    -8.294618922245218E1    -1.274741942967736E2
                        -6.984380263931696E1     5.390283079950240      -2.603500524402014E-1    9.576260865460031E1    -7.994620051630621E1    -4.522281960920086E1    -8.265143065384970E1    -1.235662945009118E2
                        -9.239453803084187E1     2.566977249347902E1    -8.023776275429761E1    -1.300090036200329E2    -9.436419272969060E-1   -2.471559141931890E1    -9.063380303592928E1     5.358709932564953E1
                        -8.785793555464832E1     4.173126151074851E1    -8.367089153068774E1     1.986245078994281E1    -8.576582756261283E1     7.570058796557410E1    -9.135446044254280E-1   -2.178898620799301E1

 3.042500000000000E7    -2.686316992096064E-1    8.775503328478558E1    -6.862989537043004E1     1.157830512047674E1    -9.006156404609968E1    -2.230949581502626E1    -8.584309222849907E1    -1.363384218074812E2
                        -6.820364899955818E1     1.210222072003682E1    -2.564330357332175E-1    9.554545210942921E1    -9.235629303052710E1     5.746374711957822E1    -8.337257126532337E1     9.175794504216103E1
                        -8.718292661960660E1    -1.349555271427247E2    -9.955646225485791E1     4.882393147165863E1    -9.477647177958369E-1   -2.501198702345265E1    -8.946577297722664E1     4.692575320727524E1
                        -9.005175301202615E1    -1.342337699442583E2    -8.513371649247974E1    -9.621136311768636      -8.695787393467656E1     1.316364418337020E2    -9.124076907521673E-1   -2.212060199660863E1

 3.045000000000000E7    -2.638407568077137E-1    8.739693092236261E1    -6.702263396789124E1     1.976780429037581E1    -8.435835673293667E1    -6.512188834344038E1    -8.528839859147730E1    -1.382548188742647E2
                        -7.011931707003826E1     2.510653056137593      -2.611861918562889E-1    9.516749896023565E1    -9.428255377575525E1     6.569715935223880E1    -8.340606474087140E1     2.309556161106984E1
                        -9.104046928076839E1     1.434638266828339E2    -9.161685372854106E1     3.215316099158144E1    -9.433127910408358E-1   -2.531254534710642E1    -8.965604479926384E1    -1.463804922690959E2
                        -9.129471088653699E1     4.611428778756711E1    -9.004604040126429E1    -8.231087148948340E1    -9.105121860499763E1     1.548309988935838E2    -9.150695592394866E-1   -2.237069201900052E1

 3.047500000000000E7    -2.695572440875118E-1    8.709381861745226E1    -6.928993257442043E1     2.248022902701243E1    -8.174912178248796E1    -6.573819077309405E1    -8.183403308987977E1    -4.699702412688971E1
                        -6.780661323890553E1     8.417019880235221      -2.557613197415026E-1    9.489778172064881E1    -8.539277732614804E1     6.744545714741848      -8.377832651483553E1     1.619535215048706E2
                        -8.729975721684889E1     1.429495284471001E2    -9.321418221623121E1    -8.841662025853601E1    -9.497113153387066E-1   -2.561291446838472E1    -8.754543616690839E1     1.398819124899786E2
                        -8.685514145642333E1     1.136766122182883E2    -8.024090036056211E1    -1.247465953822058E2    -8.783994579797920E1    -4.551405332827022E1    -9.131975632609369E-1   -2.272466991462403E1

 3.050000000000000E7    -2.642213906968562E-1    8.672132548619014E1    -6.760156504168799E1     4.402303083315348      -8.498022784553950E1     6.156697625148642E1    -8.663529049370652E1     4.857517647029788E1
                        -6.923705480911670E1     1.438534885431275E1    -2.509656019458341E-1    9.456208580661814E1    -8.451087307538147E1     7.387984483172828E1    -8.883559597053227E1     1.777387820589105E2
                        -8.744087992857257E1     1.391056695009612E2    -8.451547838852021E1     1.270988082360095E2    -9.445837348003384E-1   -2.598849878004463E1    -7.886560722725926E1     9.672395352459757
                        -8.555004033284567E1     1.122816062692426E2    -8.476001720057531E1     4.975037691746493E1    -8.030325575138092E1     1.418173386976858E2    -9.108063523154455E-1   -2.301333180915836E1

 3.052500000000000E7    -2.593739420024041E-1    8.639465490751319E1    -6.920193290334427E1     4.225678365755015      -8.952580922578760E1    -1.604567990883831E2    -9.057952951096391E1     2.417240355897291E1
                        -6.899330705038479E1     6.452115557575586      -2.558234479697331E-1    9.428284215625121E1    -8.280986093392227E1     6.036288746597844E1    -8.813023329605551E1     4.555537738396814E1
                        -8.773508686744351E1    -8.793294154309764E1    -8.229205083304008E1    -6.531433167554695E1    -9.465177676082792E-1   -2.632577903324023E1    -9.021843629287766E1    -1.590401385191667E2
                        -8.394272065251586E1     1.370464451819978E2    -8.761708199339104E1    -4.224351307279861E1    -8.497471639615311E1     1.024011458582571E2    -9.161895566766621E-1   -2.333455672926047E1

 3.055000000000000E7    -2.632528492007964E-1    8.602802724332369E1    -6.739489168014990E1     6.194724529957558      -8.038836830999495E1     7.344010245762665E1    -8.375608369858944E1     9.851865746767646E1
