#  HZ   S   DB   R     50.00 
! Rohde & Schwarz Vector Network Analyzer 
! Rohde-Schwarz,ZNB8-4Port,1311601044102961,2.82
! Created: UTC 2/13/2019, 1:44:17 PM
! freq[Hz]                db:S11                  ang:S11                 db:S12                  ang:S12                 db:S13                  ang:S13                 db:S14                  ang:S14
!                         db:S21                  ang:S21                 db:S22                  ang:S22                 db:S23                  ang:S23                 db:S24                  ang:S24
!                         db:S31                  ang:S31                 db:S32                  ang:S32                 db:S33                  ang:S33                 db:S34                  ang:S34
!                         db:S41                  ang:S41                 db:S42                  ang:S42                 db:S43                  ang:S43                 db:S44                  ang:S44
! 
 3.000000000000000E7    -2.871469054568268E-1    9.345765979318396E1    -6.950431293829672E1     8.789621602852229      -8.689491741238678E1     1.491012638044127E2    -8.555343104765012E1    -1.584151603493422E2
                        -6.826936794385446E1     3.311721419825117      -2.840273013134074E-1    1.006040209908804E2    -8.362900038616978E1     1.508693956527928E2    -8.849932958636015E1    -8.608638647578964E1
                        -8.792965026261648E1    -1.538818281435200E2    -8.609272993752967E1    -1.336344833782673E1    -9.388716356298971E-1   -1.970443863393496E1    -9.374455172562685E1     1.037887267437994E2
                        -8.951539472882880E1    -4.067202087096361      -9.166190944004558E1     7.619151755313698E1    -8.513703420665435E1    -9.813911826115479E1    -9.148683915880052E-1   -1.689740748760281E1

 3.002500000000000E7    -2.849592862956449E-1    9.314629359427829E1    -7.175625271800971E1     2.477387439297900E1    -8.344126354869843E1     1.341150646195393E2    -8.698474452302088E1     9.633135567847650E1
                        -6.819828987336254E1     2.390815477762367E1    -2.878470583335330E-1    1.002819502262207E2    -9.104975297348575E1     1.597620911165792E2    -7.972851274032662E1     2.230851179480125E1
                        -8.726172051967637E1    -9.908041900642187      -9.604888448161474E1    -1.269284358644233E2    -9.431373143520488E-1   -1.998588385499103E1    -9.758112354811510E1     2.457801895183173E1
                        -9.637661021846448E1    -7.505369756341494E1    -8.496295518413049E1     1.706224804825829E2    -9.328042172424098E1    -1.352512547644764E2    -9.112986007748131E-1   -1.723838797638178E1

 3.005000000000000E7    -2.890107966851606E-1    9.279971853471182E1    -6.994255124896661E1    -5.396552534514458      -8.428372137408347E1     5.395222863557468E1    -8.364488901963642E1    -1.753236935180724E2
                        -7.057847148374661E1     1.009724904941138E1    -2.851090522966986E-1    1.000011223592563E2    -8.519800322548815E1    -1.026148942877264E2    -8.354918561277910E1    -1.618740126728062E2
                        -9.448532865767973E1    -1.332871764992744E2    -8.591080795613704E1    -7.940809240614667E1    -9.463748206356957E-1   -2.026797690380344E1    -8.842625128548960E1    -1.063656978303983E2
                        -8.274898103503780E1     4.958984201093811E1    -9.209895789049696E1    -2.561026379812047E1    -7.943245796582490E1     1.313224821659009E2    -9.165779462862664E-1   -1.753267122440284E1

 3.007500000000000E7    -2.866163993205337E-1    9.244445597675157E1    -7.104407789372696E1    -3.295276927629310      -1.038075265149748E2     1.589980049810135E2    -8.069843026451373E1    -1.440192944258640E2
                        -7.103195298276658E1     2.555422885917630E1    -2.788229978450310E-1    9.969311182007382E1    -9.031842315614156E1     5.029924109418111E1    -8.501662089238835E1     1.644068518941490E2
                        -8.920369853870837E1     1.685861060294924E2    -8.826244617724885E1     6.771742320098737E1    -9.450016738185595E-1   -2.065520708053101E1    -8.457121791754477E1    -1.169201246944947E2
                        -9.011136345385209E1    -1.721932064236432E2    -8.253200707922068E1    -1.568409122910765E2    -8.521983390842831E1    -1.772659587238042E2    -9.148689566743684E-1   -1.782877893103790E1

 3.010000000000000E7    -2.851482280120768E-1    9.211536852076230E1    -6.991345482612968E1     1.395129594188619E1    -8.825076517909483E1     1.625763972568335E2    -9.522640835371432E1    -5.679766840884171E-1
                        -7.139319607624485E1    -7.027058430866547      -2.885356280364026E-1    9.936368692300231E1    -8.723665910119519E1     9.290860239524666E1    -1.019170081799415E2    -5.382474637870556E1
                        -8.820169150052942E1    -1.692038202349158E2    -8.366085927506830E1     5.900475058067161E1    -9.407138359827671E-1   -2.095536894331728E1    -8.934083894858003E1     1.367343767759487E2
                        -8.371845084609134E1    -1.283366408562305E2    -8.880414243450089E1     1.773633855616864E2    -9.237537020215839E1    -1.326943185121122E2    -9.136988055154182E-1   -1.814165000051848E1

 3.012500000000000E7    -2.798315513560333E-1    9.176856004249403E1    -6.931615571336505E1    -9.127241393553776E-1   -1.015652645342803E2    -3.410916348444830E1    -8.610877995622792E1     4.737771387221719E1
                        -6.937617305787686E1     1.624878242456248E1    -2.827678484571398E-1    9.904379017859250E1    -9.172810209125727E1    -1.298475501934937E2    -9.095583184408858E1    -1.045959127570189E2
                        -8.175788981557096E1     4.268015987591033E1    -9.033641671580809E1     7.181024017696183E1    -9.441362950336261E-1   -2.123819607297260E1    -8.474056015098148E1     8.500012109667429E1
                        -9.607345559533123E1     8.690485244412777E1    -8.985230141852334E1     1.667135932620905E2    -8.697820985306083E1     9.762905820091224E1    -9.151059521606049E-1   -1.845728687962018E1

 3.015000000000000E7    -2.826557463901807E-1    9.143895741742776E1    -6.939970688092207E1     4.572100661753500      -8.499147751258565E1     1.474083227019359E2    -8.489623253385518E1     9.571210236948987E1
                        -7.006466621609883E1     1.360490225761727E1    -2.759982953922708E-1    9.874746045779891E1    -9.851030821140051E1     1.198450376647419E2    -8.907016128287687E1    -6.030971500899403E1
                        -8.351904810120716E1     1.768952898533141E2    -1.027305207596475E2     2.919761628963640E1    -9.479463479328609E-1   -2.156248809484992E1    -9.184177829358586E1     5.668230696895377E1
                        -8.363513235107591E1     7.670713972301159E1    -8.751851384076205E1    -6.381625412371088E1    -8.387565219115112E1    -1.078755786684452E2    -9.137260776775515E-1   -1.876061632654126E1

 3.017500000000000E7    -2.813895639627858E-1    9.109727326005940E1    -6.844059366993932E1     3.336022114652359      -9.426694888324045E1    -4.977602973757883E1    -8.802175048393700E1    -2.401421653575757E1
                        -7.020008965318958E1    -3.175340403295675      -2.781154611068753E-1    9.841004801955620E1    -8.231987922472654E1    -1.418959461965634E2    -8.463078331391486E1     9.094836843933805E1
                        -8.596555662941324E1    -1.204163733652374E2    -8.313523065830977E1    -1.102335341844965      -9.396060457922837E-1   -2.187424669746686E1    -1.074938473415795E2    -1.741132606785883E2
                        -9.468769287386691E1    -1.752535625290429E2    -8.896695123272630E1    -5.485990371298798E1    -8.996738859737255E1    -1.356104766980753E2    -9.147523803699710E-1   -1.907274696762752E1

 3.020000000000000E7    -2.807516200103839E-1    9.075866317637488E1    -6.899005159702469E1     7.220095127588773      -8.440550205041680E1    -1.651810840807499E2    -8.250933319866839E1     1.618764086952988E2
                        -7.014165553079883E1     1.061560278687675E1    -2.809143751175960E-1    9.813829296771964E1    -8.590090338894440E1     7.793040151125985E1    -8.537096329916552E1     1.414731378862392E1
                        -9.234022974735538E1     7.325705708571027E1    -8.733467891276791E1    -1.672891241882248E2    -9.492431155314796E-1   -2.220050186888038E1    -9.079921446053567E1    -2.327577999514037E1
                        -8.853826181079765E1    -4.325941147305541E1    -1.005908071535947E2    -5.293053304155700E1    -8.796209597605267E1    -1.778285306036426E1    -9.204586729482442E-1   -1.940143259972735E1

 3.022500000000000E7    -2.845178187860663E-1    9.045151420157140E1    -6.903704960265094E1     8.475670041068423      -9.019396964137800E1    -1.149449644913045E2    -7.910581886635188E1     1.170203328235988E2
                        -7.258751133473008E1     1.222036813499912E1    -2.806561514251436E-1    9.784539575234308E1    -9.089828855222186E1     8.070691701919928E1    -9.116760974120177E1     6.897683579012120E1
                        -8.607231946413745E1    -8.201983933786909      -8.762239168500739E1     1.747243199798026E2    -9.461582818498410E-1   -2.255111948173699E1    -8.502806145889073E1    -2.723300095501302E1
                        -9.312719759972271E1     8.060612801302230E1    -9.338670942547540E1    -1.292496223395802E2    -8.383200329135400E1    -1.210465287013532E2    -9.156218443816848E-1   -1.966281775882457E1

 3.025000000000000E7    -2.857136321284275E-1    9.011037434226802E1    -7.073304742755717E1     1.308219024766456E1    -7.951766978663896E1    -4.039513243557251E1    -8.782707626859497E1    -3.497172404241771E1
                        -7.088466022577352E1     9.474957037181609      -2.893496775438100E-1    9.746071341877260E1    -8.195667569414715E1     5.337465554566951E1    -8.707319469881490E1     1.129754287044197E1
                        -8.824311372435918E1     6.863889755331283E1    -9.735042343897558E1     1.270882712376690E2    -9.355808347205551E-1   -2.281519596955973E1    -9.268839068534118E1     2.326664997877611E1
                        -9.246379340616039E1     1.794995880250021E2    -9.755168938287092E1     5.899672274617845E-1   -8.235771264491075E1     2.215772585971224E1    -9.135421398927311E-1   -1.996785572323541E1

 3.027500000000000E7    -2.831361258323990E-1    8.977090758053564E1    -7.154249718589205E1     1.844047824863185E1    -9.000094667808480E1     8.948538359167777E1    -7.767423096082284E1    -8.612408309687370E1
                        -6.735266308365523E1     1.832259806180412E-1   -2.744871090085143E-1    9.716527944853954E1    -8.630064331745177E1    -9.273548715162843E1    -8.721771681145880E1    -6.504842570300200E1
                        -8.604642159772612E1    -1.982976266063487E1    -8.771269290283613E1    -6.379072482887282E1    -9.408468229784592E-1   -2.311782924618446E1    -8.093866877897726E1     1.526195104771452E2
                        -9.239076851282016E1     8.501655747365106E1    -9.044000076247706E1    -5.797480961438637E1    -9.342782277306870E1    -1.715740548218659E1    -9.108114136280799E-1   -2.031202432658374E1

 3.030000000000000E7    -2.809721557129586E-1    8.943433095445501E1    -6.818401345088479E1     3.839746276035713      -9.072214641639272E1    -1.566170793916695E2    -7.803426486017901E1     2.630912009424505E1
                        -6.798377614907595E1     9.678196230885853      -2.830997880305615E-1    9.689443590607705E1    -8.350091503535701E1     1.178037171007824E2    -8.321509350733514E1    -1.770073518158435E2
                        -8.811659299729237E1    -1.603526568713962E2    -8.411954662768702E1    -1.523055618675998E2    -9.503144119969160E-1   -2.345958063738797E1    -9.143589209322732E1    -1.167699135409712E2
                        -8.091393145400504E1     1.774666976516586E2    -7.925189197543759E1     8.965158861550472E1    -8.403259172911049E1     2.846848470832474E1    -9.145998722756457E-1   -2.060595988257180E1

 3.032500000000000E7    -2.841007957055341E-1    8.906693133439978E1    -6.880175269358901E1     3.383427011415118      -8.985784013011286E1    -1.103631031140570E2    -8.369135982668568E1     1.285024695083851E2
                        -6.913296470445643E1    -4.769144985083782      -2.775084113765569E-1    9.655602583032510E1    -9.193510966682220E1    -1.522720529688307E2    -8.557460868092034E1     1.706943275018285E2
                        -8.717441271379919E1     1.495018757111670E1    -8.466707793855002E1    -3.307833004854719E1    -9.401907930838052E-1   -2.375605657445171E1    -8.351843993461083E1    -1.107803372736010E2
                        -8.370803653220732E1     1.750216929892378E2    -8.860910473077925E1    -2.115898124744070E1    -9.069093399335280E1    -1.197700240383258E2    -9.142217416797321E-1   -2.087197811893228E1

 3.035000000000000E7    -2.726829012772911E-1    8.878493163444136E1    -6.970838357669889E1    -2.582000418176565E-1   -9.010445444053687E1    -1.704400791487237E2    -9.479736338107399E1    -1.475212817658984E2
                        -6.740268756767912E1     9.504003842701049      -2.759153097644818E-1    9.623660417719418E1    -8.005110555256253E1     1.389184531746600E2    -9.628008843440375E1    -5.299887219417959E1
                        -9.539867373959592E1    -1.175357868507331E2    -8.555815062917552E1    -1.216731836657621E2    -9.412447189397222E-1   -2.412915895183414E1    -8.960783021562523E1     7.909946735864945E1
                        -7.843766898778239E1     1.353536348096857E2    -8.933508559434166E1     1.276210756048024E2    -8.448040207253824E1     5.467654917703149E1    -9.177720758399617E-1   -2.118412250078054E1

 3.037500000000000E7    -2.785399630425862E-1    8.841777883024481E1    -6.977732920745117E1     4.802005814778613      -8.436996046937355E1     1.164976179581155E2    -8.977054141253746E1    -1.351671249992627E2
                        -6.921306204938215E1     8.668436674724346      -2.823648653016215E-1    9.594172242456497E1    -8.293530597612666E1    -1.707770377110361E2    -8.538246031029036E1     1.536174680874514E2
                        -9.017334748211496E1    -2.288038184513490E1    -9.169342034984331E1    -1.417928734780179E1    -9.380040974683640E-1   -2.443094080320970E1    -8.223338753867364E1     1.165443082652781E2
                        -8.410505839762278E1     6.681996369290638E1    -8.592777957021768E1     1.271441599809388E2    -8.995958333367248E1    -4.994414854510222E1    -9.105395696587795E-1   -2.151281301755086E1

 3.040000000000000E7    -2.776537714105783E-1    8.807908963896225E1    -6.917140241426188E1     2.276528538467703E-2   -9.017470882457101E1     1.313503020294122E2    -8.450618700235033E1    -1.174471787513654E2
                        -6.849752528653079E1     1.252373632101403E1    -2.843115019118602E-1    9.561119982598618E1    -8.216837135037457E1    -1.165893916981710E2    -8.396071363829593E1    -1.678821890494689E2
                        -9.306708355096241E1     5.311816192206645E1    -8.121102738387813E1     6.811936523343901E1    -9.456708123717040E-1   -2.472639093760916E1    -8.219490371220951E1     8.221530325574697E1
                        -8.842784747735831E1     1.408054879406564E2    -8.312079278660676E1     1.402007783739591E2    -8.131597055815192E1     1.526227295909789E2    -9.168270550663371E-1   -2.182104696589451E1

 3.042500000000000E7    -2.729805793607576E-1    8.770832165045144E1    -6.967752716598083E1     8.581860669158006E-2   -8.209983603944762E1     1.518899776535622E2    -8.849840330162429E1    -3.208247487110062E1
                        -6.891127261726037E1     4.040167407564209      -2.762182459976179E-1    9.535359415519143E1    -9.152418032657594E1    -1.435032560152831E2    -8.467597978304130E1     4.934047273255688E1
                        -8.979709316274251E1    -1.594088630074266E2    -9.728117729962726E1    -1.563542826516276E1    -9.501025706938772E-1   -2.508216526117075E1    -9.121141908227381E1    -4.930634375089706E1
                        -9.984177703125755E1     1.763996359745222E2    -8.375166401454410E1     2.656624539555434E1    -8.531133878215415E1     1.526818437323095E2    -9.116141213868821E-1   -2.212461991844921E1

 3.045000000000000E7    -2.747255468101123E-1    8.734703560053765E1    -6.830999262748078E1    -4.656785417260887      -8.244054320569160E1    -1.599972808718632E2    -8.887473109347610E1    -9.016152653555861E1
                        -6.713249114773086E1     4.866854976700546E-1   -2.742954546448339E-1    9.498382701755747E1    -8.226320067118606E1    -9.424153478203766E1    -9.186598957369736E1    -1.132638979153354E2
                        -8.333904159191599E1    -7.859100943253510E1    -8.127068478413932E1    -1.540927776217305E2    -9.440450898903275E-1   -2.530317383297332E1    -9.388144368593281E1    -1.190509484320334E2
                        -8.587645624977819E1    -1.469819780927123E1    -1.055046175996320E2    -6.081423830530087E1    -8.305379210609456E1     1.483656999340369E2    -9.042627315741141E-1   -2.240471585626906E1

 3.047500000000000E7    -2.816289620471996E-1    8.701806188220819E1    -6.920278220384354E1    -8.569806184635265E-1   -8.458387290063459E1    -1.116969754892097E2    -8.540078983030350E1     1.656737039014423E2
                        -6.842191286330703E1    -3.990613506006383      -2.806391543459934E-1    9.471335080382684E1    -8.601016469564458E1     1.108214320053235E2    -8.493209868028033E1    -1.143412012880661E2
                        -8.781623694069971E1    -7.482348374728356E1    -8.065832671451483E1    -7.748124531744880E1    -9.463869230093105E-1   -2.571239559496842E1    -8.791196842049168E1     7.647139421314772E1
                        -8.831225912170473E1     5.405901960535921E1    -8.554366297499227E1    -1.300237374310271E2    -8.498602547426526E1     8.903697401224936E1    -9.131716837655366E-1   -2.270748892812508E1

 3.050000000000000E7    -2.824753614648051E-1    8.670093993755302E1    -6.914029984501485E1     7.094247947464542      -8.327132165127284E1    -2.341552140257391E1    -8.713026833708375E1     4.252088644960316E1
                        -6.942457225448428E1     2.874453755948416      -2.767631212606161E-1    9.436104342092644E1    -9.209168890246278E1    -5.008974876737103E1    -8.435435127295135E1     1.126860287993013E2
                        -8.965949396966914E1     1.535044752365768E2    -9.069236974722132E1    -4.220198311467265E1    -9.456794521973773E-1   -2.598717401150704E1    -8.040284526062754E1     1.416018120158587E2
                        -8.588002584127425E1    -4.734068922219208E1    -9.463124666770177E1     1.406192043689431E2    -8.366238450444634E1     3.574156494205782E-1   -9.123469932215257E-1   -2.302678128475223E1

 3.052500000000000E7    -2.698572205278936E-1    8.637451426192818E1    -6.987327011152460E1     1.725699373349521E-2   -8.460334413515926E1     1.738804312496629E2    -8.427786792428256E1    -1.620331937207490E2
                        -6.948055318392213E1     3.736242782337310E-1   -2.731022325847207E-1    9.410584093907912E1    -8.008777846635985E1    -5.454621676126642      -8.253689311831225E1     1.291315129929181E2
                        -9.551035073602465E1    -7.129282209300139E1    -8.683580040951007E1     1.303837409267088E2    -9.516525597601917E-1   -2.632671386041887E1    -9.561228354862033E1    -4.846412265924074E1
                        -8.664985940930157E1     7.316123873638753E1    -8.398638740301850E1    -1.216222745499174E2    -8.185163674781784E1    -6.409529537315983E1    -9.146833086262320E-1   -2.332184721069834E1

 3.055000000000000E7    -2.714141741953978E-1    8.601556138865202E1    -6.878303530822406E1     5.873373227740184      -1.056812577808396E2    -5.543534078525332E1    -8.472817786182196E1    -1.010858929444651
