#  HZ   S   DB   R     50.00 
! Rohde & Schwarz Vector Network Analyzer 
! Rohde-Schwarz,ZNB8-4Port,1311601044102961,2.82
! Created: UTC 2/12/2019, 2:32:30 PM
! freq[Hz]                db:S11                  ang:S11                 db:S12                  ang:S12                 db:S13                  ang:S13                 db:S14                  ang:S14
!                         db:S21                  ang:S21                 db:S22                  ang:S22                 db:S23                  ang:S23                 db:S24                  ang:S24
!                         db:S31                  ang:S31                 db:S32                  ang:S32                 db:S33                  ang:S33                 db:S34                  ang:S34
!                         db:S41                  ang:S41                 db:S42                  ang:S42                 db:S43                  ang:S43                 db:S44                  ang:S44
! 
 3.000000000000000E7    -2.657608225602607E-1    9.713473370326206E1    -7.180789485324272E1     3.592842101812801      -8.439660510850274E1     5.022804897982232E1    -8.498347903075367E1    -1.724569022460571E2
                        -7.138988280569458E1    -1.053763655080917E1    -2.275196254277107E-1    1.049417451540605E2    -9.224462705787295E1     1.233891737609329E2    -8.634252194042979E1     2.738437644759649E1
                        -9.369963775437542E1    -9.970940512932198E1    -8.228547508444200E1     4.761662597355682E1    -9.297059249678190E-1   -1.576820102161967E1    -8.720667770164872E1     7.070378234386996E1
                        -8.144360169111140E1    -3.632312959324517E1    -9.230154080019466E1    -4.609467774456599E1    -8.850343739815044E1     1.173234201248610E2    -9.033988609338818E-1   -1.304969365771290E1

 3.002500000000000E7    -2.708467683096281E-1    9.681440991235847E1    -6.966169947567155E1     8.458653804842539      -8.694397123096800E1     5.990030657349956E1    -8.592923635316738E1     2.241249269303951E1
                        -7.138362196839779E1     2.986617062436640      -2.250256144172184E-1    1.046492997431688E2    -8.964272928628860E1    -1.272314740876126E2    -8.029301693347519E1    -5.186797774432282E1
                        -8.757155603085099E1     1.093284610337081E2    -8.397965830931499E1    -8.643663428286250E1    -9.418457453999697E-1   -1.607156966403094E1    -9.381147484198850E1    -1.650410896382807E2
                        -9.207753416234442E1     1.461463308585348E2    -8.732495561796875E1    -3.701429783514378E1    -9.304088017717503E1     6.080592770530188E1    -9.019165213805146E-1   -1.332826607857223E1

 3.005000000000000E7    -2.748785149015057E-1    9.650271276026018E1    -7.169367746165398E1     6.244723392610716E-1   -8.189157707838027E1     1.158542370567660E2    -8.659435545112460E1     1.370469111098670E2
                        -7.178336273779108E1     1.671788932910884E1    -2.237818844308673E-1    1.043847204405840E2    -8.066855958075196E1     1.397261864713028E2    -8.928745646185014E1    -1.383276977916904E2
                        -9.079777927838688E1    -7.919521164093909E1    -8.879473446264433E1     2.137102639970091E1    -9.296113297772496E-1   -1.638099794108414E1    -8.512443436742922E1     1.561006021160353E2
                        -9.443869812426983E1    -7.848508279532967E1    -7.952995593848870E1     1.113186413571573E2    -8.904787375023469E1     5.580706092549173E1    -8.994744774148464E-1   -1.361653733715777E1

 3.007500000000000E7    -2.731340047445072E-1    9.613439140760093E1    -7.091933883970273E1     4.168149272618168      -8.231523195784953E1    -7.881604129197737E1    -8.867026130076680E1    -1.535455509588709E2
                        -7.292268504296567E1     2.394824739104077E1    -2.235687655192543E-1    1.040250379972532E2    -8.682337802533365E1    -3.228762677856187E1    -8.353166679652244E1     1.094573622562105E2
                        -9.472316469631133E1     6.882704767931627E1    -8.893848215002922E1    -9.556488342431281E1    -9.373798747130584E-1   -1.668627488421723E1    -8.677831154379548E1     1.763633427950811E2
                        -9.826134447664717E1    -1.162078763334521E2    -8.275893407205203E1     1.126208187542258E1    -8.973411535565099E1    -2.818742919683134E1    -9.041919966977891E-1   -1.392479104670124E1

 3.010000000000000E7    -2.678298267188375E-1    9.580999260510687E1    -7.154343733856084E1     9.451977435588287      -8.348782514702609E1    -1.219590276009921E2    -8.701133491062109E1     7.806624736489560E1
                        -7.133240937847691E1     4.877379439696229      -2.253027227641742E-1    1.037552619593382E2    -8.137800432861710E1    -2.018420578288851      -8.263527380521651E1     1.107560991104106E2
                        -8.409002675804624E1    -4.143412228924633E1    -9.732334787059094E1     7.924113274747612E1    -9.403218219452507E-1   -1.700399904034124E1    -9.684109588250908E1    -1.526659465999882E2
                        -9.109307875784610E1     7.370434522878129E1    -8.711690289607903E1    -1.961376449004429E1    -8.797977938469080E1    -3.834781323747962E1    -8.995649838218536E-1   -1.423184877584705E1

 3.012500000000000E7    -2.654877195131550E-1    9.545257655568999E1    -7.158418569207177E1     1.378924020220674E1    -7.827898600859010E1    -1.779393645976242E2    -8.746749115453997E1     1.612340186955306E2
                        -7.085866566559460E1     1.882356116664753E1    -2.156561856470940E-1    1.034746536572378E2    -8.578156418189448E1    -6.278528734357690E1    -8.743615654505221E1     2.501940521577849
                        -9.015602644373884E1     1.371332577067801E2    -8.301054243216952E1    -1.299123193891948E1    -9.407753405246701E-1   -1.732335173830601E1    -8.561716493725685E1     4.633955712153310E1
                        -8.075118870287504E1     1.308992832142720E2    -8.358773198124092E1     1.091999520611855E2    -8.483595855159328E1    -1.442984068775533E2    -8.967809573498453E-1   -1.454429838824050E1

 3.015000000000000E7    -2.694315164143929E-1    9.512385778375068E1    -7.164521740214002E1     1.773392372996865E1    -8.680093796189722E1     1.334602118230420E2    -8.314638614255337E1     4.655719124046654E1
                        -7.121576590226671E1     7.374971746617669      -2.261272685433393E-1    1.031462241441417E2    -9.587088690094070E1     1.238188769794348E2    -8.300412747509979E1     4.354927008193962E1
                        -8.324550020925983E1    -3.704101360296061E1    -8.339948418599384E1     1.274410742687924E2    -9.404323923807894E-1   -1.756986877241016E1    -8.216147805391717E1    -4.167171931176993E1
                        -9.366724658703193E1    -1.722906458869522E2    -8.916524971872303E1    -1.375166778112170E1    -8.166235321883303E1     1.579564722045033E2    -9.027137909621984E-1   -1.478316487151723E1

 3.017500000000000E7    -2.604881157281438E-1    9.479794258963025E1    -7.133185224930321E1    -5.150144426546545E-2   -8.240602199068755E1     9.605140211332100E1    -9.607250040863029E1     1.145645301599264E2
                        -6.795266025619472E1     1.153656735435569E1    -2.180333977113606E-1    1.028349411106467E2    -1.027801203888738E2     1.730642503629914E2    -8.342798380925009E1    -2.003398778980389E1
                        -8.510141981701122E1    -1.082619518386707E2    -7.826842506830546E1    -2.351935209323546E1    -9.379609318440235E-1   -1.792972456846388E1    -8.496066913900690E1    -5.057416281284623E1
                        -8.298476099699690E1    -6.200212560640124E1    -9.501299424802167E1    -5.126843941174899E1    -8.847399645930041E1     1.178004568084504E1    -9.014224240932206E-1   -1.514279702133865E1

 3.020000000000000E7    -2.611948176732102E-1    9.448297765511994E1    -7.216776905014578E1     3.186673157021716      -8.912489099972214E1    -1.362520895687653E1    -8.789345078847818E1    -1.753687469405367E1
                        -7.007779671740435E1     4.707851464579679      -2.206231291305900E-1    1.025441335265842E2    -7.760448753118175E1    -6.416100178438065E1    -9.132934798217008E1     1.510963627080025E2
                        -8.548409187525058E1    -4.169638458915556E1    -8.673521461289282E1     8.964806502854326E1    -9.335199002210753E-1   -1.822721040051776E1    -9.682187453436022E1    -1.704740155984051E1
                        -9.222909189147902E1    -4.053903354244393E1    -8.677784706601378E1     5.580020435395303E1    -8.749288347646299E1     1.235406840719182E2    -8.991116750769245E-1   -1.545576474603006E1

 3.022500000000000E7    -2.661691032493061E-1    9.416641163377872E1    -7.164145276694060E1     6.933368441119479      -8.618326535179243E1     1.069377220297694E2    -8.279939826850560E1    -4.774806186911481E1
                        -7.097189727687639E1     2.253684365637981      -2.307129167132487E-1    1.022440457771966E2    -7.989328192569045E1    -3.280957749056107E1    -8.757088836895267E1    -1.359868890070642E2
                        -7.992742464224789E1    -3.702312362572008E1    -9.243696759380434E1     1.043521568210870E1    -9.351551338021054E-1   -1.856430902751102E1    -8.586533986429258E1     1.602090771168910E2
                        -8.401208972349762E1    -1.575777255351929E2    -8.845778363788371E1    -7.099352595786900E1    -9.014053349374615E1    -1.216614391005970E2    -8.974350970266981E-1   -1.570797873850674E1

 3.025000000000000E7    -2.690072542689143E-1    9.383095233249492E1    -6.990918915227954E1     9.330254068230595      -8.273611210800219E1    -1.127089554764573E2    -9.024246035649171E1    -1.291733751463960E2
                        -6.994796615608449E1     1.056869761010752E1    -2.300412512540922E-1    1.018995671170998E2    -7.962824139761406E1     1.245494491802251E2    -1.011853761678326E2    -1.596331289124210E2
                        -8.202614144199816E1    -1.323460062849485E2    -8.836274222346060E1    -4.511772471398214E1    -9.288836885394001E-1   -1.886940686180149E1    -8.091012701000651E1    -8.029354625512656E1
                        -9.867387672243450E1    -8.036248322389046      -8.487609935573134E1    -8.596970427377974E1    -7.990743175073605E1     1.217954179397045E2    -9.062075082535035E-1   -1.599085316931500E1

 3.027500000000000E7    -2.705067669142864E-1    9.346636291754166E1    -7.114973933738506E1     7.440488851591405      -8.333040451854302E1    -4.304246706065543E1    -8.281395419331517E1     8.148184323339382E1
                        -6.944455166820882E1     7.490454626817383      -2.114824868385285E-1    1.016068451446294E2    -8.868156897712920E1    -1.172069546695917E2    -8.324282250926154E1    -2.851535046436090E1
                        -8.906476392644927E1     1.294615256594622E2    -7.818333740832155E1     4.112749573670198      -9.334988601630668E-1   -1.920046835288256E1    -9.425322643368412E1     6.977064657390604E1
                        -8.532303349502141E1     1.725954469238676E2    -7.990969525252861E1    -1.239481535376634E2    -8.293893821205222E1    -8.646760715661544E1    -8.985884012071224E-1   -1.632135514880943E1

 3.030000000000000E7    -2.620052435364906E-1    9.313421404755491E1    -6.864779830158747E1     1.187740717765457E1    -9.252376840747827E1    -9.162306217614254E1    -8.751453957618458E1     6.142595746255500E1
                        -6.887879261971605E1     1.145989536263901E1    -2.256620995323517E-1    1.012911092533208E2    -8.591038291528500E1    -1.378430172627984E2    -8.365783638721027E1     1.890062900530759E1
                        -9.191796009471642E1     2.113742237834925E1    -9.558514805507777E1     1.118921128970664E1    -9.412119459156270E-1   -1.947422744041118E1    -9.398713545424030E1     1.753560835171200E2
                        -8.590925275684197E1     1.594556637729408E1    -8.622891151754885E1    -6.768680220211518E1    -8.286777397808368E1    -5.163105284299344E1    -9.000523318540855E-1   -1.662328178853452E1

 3.032500000000000E7    -2.660211432226058E-1    9.280497983595053E1    -6.947163539079756E1    -5.841819669638238      -9.154487860410200E1    -8.376009469652782E1    -9.029439166347254E1     1.720971692616184E1
                        -6.876296044535680E1     8.468634654987245      -2.139700318771950E-1    1.009566614922608E2    -8.391853300421380E1     7.146556138201207      -8.034349650043845E1     6.752558920607690E1
                        -9.048986608484140E1    -1.319159860914246E2    -8.825088899013738E1    -1.143160720308024E2    -9.387324981203580E-1   -1.982259358398720E1    -8.739847852739632E1     1.680196934512177E2
                        -9.765072183494780E1     7.911133878976437      -8.552812050686170E1     1.430827464063717E2    -8.722384465414379E1    -2.085052914020337E1    -8.997685805194738E-1   -1.691264214971243E1

 3.035000000000000E7    -2.559409099507893E-1    9.248323387583777E1    -6.946624495858583E1     1.138574391753677E1    -8.856050765132449E1     4.696195291936673E1    -8.240987974787110E1    -1.195875767643348E2
                        -6.988055810248129E1     5.524778953283166      -2.200114905266449E-1    1.006931942383868E2    -8.230756420802860E1     1.657120029559774E2    -8.117439771518244E1    -4.447312879026395E1
                        -8.663527673543962E1     1.533883456533503E2    -9.009768361626431E1    -2.545459203113387E1    -9.370452280929467E-1   -2.007904165974822E1    -8.666587753892353E1    -1.575347135916853E2
                        -9.312388308214491E1     7.751465024511582E1    -8.939848242747969E1     1.607957458822996E2    -9.261414523630675E1     1.363429776753401E2    -8.990997108167933E-1   -1.720470921221601E1

 3.037500000000000E7    -2.581214823089941E-1    9.214977987129311E1    -6.809532805017113E1     4.561509069051401      -8.387969261351867E1    -8.726387627608564E1    -8.231482526584867E1     1.478457215326303E2
                        -7.013312756100176E1    -6.320886280680387      -2.200227582856156E-1    1.003344227899458E2    -8.617014700425943E1    -5.851047936356645E1    -8.249605981714828E1     1.008097338950555E2
                        -8.975277593790972E1    -1.459108492120475E2    -8.336768713657617E1    -7.371600741285914E1    -9.390280815904911E-1   -2.039703898590955E1    -9.376860315915566E1    -4.739041181034900E1
                        -8.780632757217586E1     4.545537431917789E1    -9.382664627946319E1     1.088527288595388      -8.674811937241924E1     9.108453280959145E1    -8.952908833284665E-1   -1.750634232050713E1

 3.040000000000000E7    -2.509100062588995E-1    9.179827521088899E1    -7.162926983704325E1     1.455299337806474E1    -8.690029567458686E1     1.504656869148529E2    -8.531911142973669E1     1.104780225848725E2
                        -6.957669281205520E1     2.179824672627637      -2.212600804452898E-1    1.000704680595517E2    -9.092962098441680E1    -8.039816714203455E1    -9.136471595180466E1     1.769182945387412E2
                        -8.631751378311992E1     1.321909580381685E2    -8.178843488264238E1     1.635356669640596E2    -9.301392168309984E-1   -2.072559103023660E1    -8.676993219672201E1     1.149161938349430E1
                        -7.968893289162357E1    -6.236396965112959E1    -8.636408193411498E1     8.464039711248645E1    -8.682230071623302E1    -4.773453414965050E1    -8.999579089158807E-1   -1.785800462645560E1

 3.042500000000000E7    -2.556751713028314E-1    9.146608004127019E1    -7.105748892965794E1    -2.457374140954431      -1.011711316990945E2    -7.919785018081169E1    -8.623718109890569E1    -2.351864619984364E1
                        -6.880670103980285E1     7.206599325156367      -2.199396321025892E-1    9.981084750248961E1    -8.473100885515726E1    -1.462756471937265E2    -9.653756494166642E1     5.389214007051916E1
                        -8.586330830935695E1     9.951648740182894E1    -9.643496514117905E1     1.382396643636798E2    -9.331928926411576E-1   -2.104796338628302E1    -8.498354809936431E1     6.944344959770918E1
                        -8.102025926292804E1     1.257017441136189E2    -9.353572791683709E1     1.358670194921079E2    -9.258061012586209E1     1.490444913146685E2    -8.948938260503493E-1   -1.812987629685784E1

 3.045000000000000E7    -2.606031217371863E-1    9.110842229334811E1    -7.065212024049292E1     4.604480036162797      -8.998869667272467E1     1.558562348304635E2    -8.720953209412839E1    -4.476248118212813E1
                        -6.941923211664624E1     7.924186980473797E-1   -2.148094571801598E-1    9.941751369709621E1    -8.379445694754055E1     7.183537959583573E1    -8.450212169819767E1     1.645014666572607E1
                        -8.919639101690703E1    -2.758694876589616E1    -8.844617873046812E1     1.258851597205150E2    -9.356265753901156E-1   -2.130545191216049E1    -1.004567115328847E2     1.481145069077870E2
                        -8.314139528259078E1    -1.721713566363519E2    -8.563116123247538E1    -1.556985006588122E2    -8.183364035519452E1    -9.544588389972186E1    -8.955474178796714E-1   -1.839188116779480E1

 3.047500000000000E7    -2.600291532967528E-1    9.080800974867259E1    -7.059056787865107E1     3.821804683251881      -8.559672767997482E1     3.204826818791496E1    -8.220701829960839E1     1.612314973962463E2
                        -7.020703782503594E1     1.252682563792129E1    -2.187690913430971E-1    9.918912518180882E1    -8.375511467577908E1     1.784747367531647E2    -8.877134090646567E1     6.530336101456663E1
                        -9.121207685559276E1    -1.662095894881675E2    -1.073123135747484E2    -4.144411552833118E1    -9.293651287754378E-1   -2.167321333937955E1    -8.748097303646587E1     3.644245021826908E1
                        -8.375557882659689E1    -1.496069903861494E2    -8.951607061012570E1     1.562917183347561E1    -8.812306926957390E1     5.571981514185164E1    -8.993060928712022E-1   -1.871484938286367E1

 3.050000000000000E7    -2.612788276355644E-1    9.043842352539063E1    -7.015790523096254E1     1.393713728263383E1    -8.727936824411125E1     4.639208054473290E1    -9.120371642511339E1    -1.670510860100137E2
                        -6.841932116700602E1     4.353059896457666      -2.134652800913469E-1    9.886793989115951E1    -8.436427290774591E1    -9.474229339166466E1    -8.698705770880201E1    -4.863462310835244
                        -9.215029453528813E1     8.730085641824562E1    -8.736676594209615E1    -5.671782627737648E1    -9.358567624500742E-1   -2.197408067658288E1    -8.100450729932403E1    -1.376021474391805E2
                        -8.811877311997174E1     1.646440758116075E2    -8.231156683486326E1    -1.301973852990430E2    -8.633279300420151E1     1.434546942861224E2    -9.013503378000737E-1   -1.904059839511274E1

 3.052500000000000E7    -2.541156535854166E-1    9.012212688951637E1    -6.853164979301894E1     1.294030921707953E1    -9.866014462533403E1    -1.763425788572209E2    -8.712666015557127E1     5.682331020082227E1
                        -6.904267856416158E1     1.807761873146367E1    -2.165095880532116E-1    9.857676431730231E1    -9.281854999605992E1    -1.978407758314883      -8.602741861349142E1     7.650886428285303E1
                        -8.775554734733123E1    -4.037866322344380E1    -9.313085906747128E1     1.376899075928311E2    -9.355078904947510E-1   -2.227427397927931E1    -8.716891709236656E1     9.804492840503578E1
                        -9.835068476722610E1    -8.007203975529997E1    -9.000344460725550E1     4.506180137594991E1    -9.161138934738330E1    -1.124440114159373E2    -9.009500227296186E-1   -1.936832282877179E1

 3.055000000000000E7    -2.507450398943806E-1    8.977058080200270E1    -7.110956991030017E1     4.078899962538938E-1   -9.842714201543075E1    -1.240523842927788E2    -8.988314238191418E1     1.686300153462191E2
