#  HZ   S   DB   R     50.00 
! Rohde & Schwarz Vector Network Analyzer 
! Rohde-Schwarz,ZNB8-4Port,1311601044102961,2.82
! Created: UTC 2/13/2019, 2:09:46 PM
! freq[Hz]                db:S11                  ang:S11                 db:S12                  ang:S12                 db:S13                  ang:S13                 db:S14                  ang:S14
!                         db:S21                  ang:S21                 db:S22                  ang:S22                 db:S23                  ang:S23                 db:S24                  ang:S24
!                         db:S31                  ang:S31                 db:S32                  ang:S32                 db:S33                  ang:S33                 db:S34                  ang:S34
!                         db:S41                  ang:S41                 db:S42                  ang:S42                 db:S43                  ang:S43                 db:S44                  ang:S44
! 
 3.000000000000000E7    -2.705482451410359E-1    9.356248433362707E1    -6.804686101536061E1    -5.677855630920752      -8.354618592597956E1     3.119226727482636E1    -9.554944313299134E1    -1.598216689350944E2
                        -7.076248008450472E1     1.109847159119270E1    -3.035371456511329E-1    1.004752020846182E2    -8.607810992777451E1     1.202548250964966E2    -7.993738643443260E1    -1.354995437418975E2
                        -9.086618599076542E1     5.802963207884655E1    -9.014319993403255E1     4.768273603604738E1    -9.441765486806113E-1   -1.966426986002187E1    -9.267010169074965E1     1.500255165556812E2
                        -8.651916562763586E1     6.957782811336205E1    -8.407810589375475E1    -3.524060205244520E1    -8.813397061372918E1    -8.871122332903660E1    -9.171316365026907E-1   -1.694680576815537E1

 3.002500000000000E7    -2.726507366122248E-1    9.321410545861326E1    -7.013339086150718E1     6.325200232832687      -8.371350074524713E1     1.330019940142450E2    -8.355299953953892E1     7.201009210745028E1
                        -6.962507377885326E1    -3.934303913541032      -3.056087117895566E-1    1.001411923331272E2    -8.693368841442636E1     2.856175461547517E1    -9.744867783170740E1     6.547459752253953E1
                        -8.828378138982313E1    -2.510326815942593E1    -8.166318765291783E1     1.412156638352789E2    -9.446446447489993E-1   -2.002077100839787E1    -8.053731066157873E1     1.037014253910906E2
                        -8.115898692977089E1    -1.634856975555049E2    -8.592482084537741E1    -8.800288198847175      -8.721628119795496E1     4.510173510358759E1    -9.166258809693707E-1   -1.720567932796325E1

 3.005000000000000E7    -2.800739473765373E-1    9.289356679169666E1    -7.056851642120748E1     8.123487665535993      -8.928518616691693E1    -1.272113049991840E2    -8.341442498058331E1    -1.284102617559743E2
                        -6.981945272793435E1     5.309617273852132      -2.991053800918738E-1    9.990038804681701E1    -8.767488616369329E1    -8.858327990557307E1    -8.789989514414964E1    -1.871337155071473E1
                        -9.700063666927053E1    -1.039941286281540E2    -8.342518034179955E1    -2.037497840382638E1    -9.468411850362358E-1   -2.026359715420185E1    -8.311641351950611E1     2.739140375593828E1
                        -8.847774757059013E1    -1.291433052302128E1    -8.552913075254003E1     1.698499524292611E2    -8.313187025518572E1     1.493457863305902E1    -9.161378544399312E-1   -1.753920230537122E1

 3.007500000000000E7    -2.721646231841753E-1    9.250717342240169E1    -7.004024806429531E1     9.132474041274449      -9.177665185537259E1     1.683812034474820E2    -8.562849022703730E1     8.120983126329176E1
                        -6.942089755526726E1     1.023508490428929E1    -2.951522649583318E-1    9.950109200219971E1    -8.291515516757072E1     4.260860559958091      -8.555010428620300E1     1.686646035891602E2
                        -9.732691564279124E1    -1.571875775603348E2    -8.643486899861991E1     1.640602092603488E2    -9.505738723990094E-1   -2.067891964442488E1    -8.864918539521143E1     1.192068279915009E2
                        -9.092815544009227E1     1.435752109936431E2    -9.233258472383996E1    -1.606040520300525E1    -8.268639933346476E1     1.603924541995924E2    -9.157344414196476E-1   -1.783979640041182E1

 3.010000000000000E7    -2.713510906637581E-1    9.224406444333108E1    -6.918401564410027E1     1.343689438603103E1    -8.562666348717582E1     6.148001630666906E1    -8.387846143053935E1     1.526750877612017E2
                        -6.996112603393011E1     5.249590449743011      -3.048493359593369E-1    9.916859180630489E1    -9.262217905418952E1     1.233810307554801E2    -8.895221754770074E1    -1.328165034558687E2
                        -8.531882781128358E1     1.124385008589303E2    -8.671651041303228E1     7.832869792168999E1    -9.479770069707296E-1   -2.095403560773777E1    -8.654765463984063E1    -1.166056135000796E2
                        -8.437005452792889E1     1.683724044547947E2    -9.344536733448965E1     1.708991568482138E1    -8.470354669679327E1     6.502918052232600E1    -9.185577790492515E-1   -1.814887331267368E1

 3.012500000000000E7    -2.599756253998508E-1    9.185662199169815E1    -6.941340268177999E1    -3.367938008757365      -8.801933516360138E1     4.239402568162881E1    -8.212513189341402E1     3.086122613631693E1
                        -6.943209390546072E1    -2.742207972244934      -3.065905942995041E-1    9.891524135508062E1    -8.548527665063557E1     1.578416063755958E2    -9.319282287006686E1    -6.997765640394451E1
                        -8.832422326878836E1    -1.181061328469458E2    -9.363345515015938E1     1.474376145621087E2    -9.503812592539358E-1   -2.123229990098145E1    -9.974628312327013E1     8.987262924838740E1
                        -9.273583036931544E1    -1.588044026395252E2    -8.645915474492688E1     1.791598956069155E2    -1.026645584911208E2     7.720296320398786E1    -9.136044280842706E-1   -1.846310321277973E1

 3.015000000000000E7    -2.684729995674899E-1    9.155034043495066E1    -6.928642296698675E1    -1.305021899980937      -8.266362126257454E1     2.928537263745747E1    -8.377498483006559E1     1.428067921580597E2
                        -7.051405295252154E1     3.312665350501474      -2.985792424523250E-1    9.858062054808325E1    -8.594982322665713E1     1.778343750329416E2    -8.718765767373085E1    -5.833837994692601E1
                        -8.516058251570149E1    -3.085237195610841E1    -8.792730625953928E1    -6.260144073882431E1    -9.484868688020182E-1   -2.157743075227547E1    -8.365467111646709E1     6.569928515693441E1
                        -9.020575896076468E1     4.954164360872269E1    -8.627007353570437E1    -1.347150392922799E2    -8.341135077131776E1     1.436021038770451E2    -9.140771180736889E-1   -1.870906825043981E1

 3.017500000000000E7    -2.641484148436593E-1    9.119663202891077E1    -6.974713458004574E1     4.512203468511976      -9.284402626577298E1    -1.471770899390902E2    -9.221871170473989E1     1.254073234226482E2
                        -7.029481966105355E1     1.230016360978224E1    -3.051895985368328E-1    9.821788086409717E1    -8.023632608748302E1     3.147594458006011E1    -8.347728475427527E1    -4.596108793975260E1
                        -9.670734520682746E1    -1.445625253624226E2    -8.678793901205607E1    -4.344004419890510E1    -9.452253231267539E-1   -2.189208323717887E1    -8.445930325616004E1    -5.913259887598148E1
                        -8.546673031720891E1     3.439927578956771E1    -8.757801286405815E1    -5.228514168772494E1    -8.870791445727717E1    -1.553663344844547E2    -9.136359037224509E-1   -1.907088092476198E1

 3.020000000000000E7    -2.596048474987459E-1    9.084266271308346E1    -7.027503703485792E1     6.120176966785363      -8.537055258638434E1    -9.901632226906405E1    -9.358656519412955E1     9.693957142679673E1
                        -7.033537012186780E1    -3.090001712881267      -2.986216014213829E-1    9.798604110117333E1    -8.944548456272558E1    -6.580439838641368E1    -8.612382605221107E1    -1.102069943334307E2
                        -8.650381742969708E1    -8.757411241926150      -1.038803888004781E2    -2.161964829560927E1    -9.502565748468923E-1   -2.222216607231638E1    -8.289328638317812E1     5.569824051477085E1
                        -8.299983773463644E1     5.039756867909387E1    -8.584906850228757E1     9.833024517317143E1    -9.259339512174532E1     1.516849663257936E2    -9.154284378619343E-1   -1.939359495615782E1

 3.022500000000000E7    -2.741183318930399E-1    9.050322693214454E1    -6.955866476770724E1     1.587735059055187E1    -8.720225424040125E1     9.494358407812266E1    -8.650225488267581E1     1.165472827718677E2
                        -6.980334571530560E1     5.738643621480166      -2.980939611392806E-1    9.765395559775097E1    -1.005970819899750E2    -7.736405135767886E1    -7.894405614114962E1     4.105653420825110E1
                        -9.342640168095460E1     8.500498952912352E1    -9.099939716201013E1    -1.104409616529850E2    -9.497585592334435E-1   -2.252738897552872E1    -9.481826990728565E1     8.949144015360636E1
                        -8.682058106108727E1     1.281681296364127E1    -8.160236256143962E1    -7.600034638658136E1    -9.449672300321721E1     1.387880293257326E2    -9.129917309044748E-1   -1.968064032209380E1

 3.025000000000000E7    -2.637970332811763E-1    9.020218849440262E1    -7.017737488652577E1     8.954727454883459      -9.353659521390998E1     1.047013283312752E2    -8.411349757295579E1    -4.742657721653522E1
                        -6.916394220616098E1    -3.621965917954610      -3.135075284512151E-1    9.737969310649569E1    -9.935540323997769E1    -1.652056942407332E2    -8.498954802166628E1     6.038599718215746E1
                        -9.294051003129313E1     1.024995208968603E2    -9.138599683461777E1    -1.732271534039764E2    -9.473159902517274E-1   -2.284440642158313E1    -8.407442857089430E1     6.078428073403266E1
                        -9.201794232274594E1     3.758145509912878E1    -8.442752791307487E1    -1.720797753068240E2    -8.055574651290564E1     1.780691962129305E2    -9.164199021172690E-1   -1.996668720614656E1

 3.027500000000000E7    -2.632950674825871E-1    8.987571750095337E1    -6.757330682286346E1     5.100646911613832      -9.026408039065508E1    -6.490498523256361      -9.436727643014996E1     4.933326545455957E1
                        -7.011030261163231E1     1.687350992880386      -2.917378321898562E-1    9.700237413110467E1    -9.898753778401786E1    -3.600298706234727E1    -8.253001607205499E1     3.544511848657389E1
                        -9.683826215797537E1    -1.150297010705578E2    -8.337989274051866E1    -4.339564868622799E1    -9.475392697000353E-1   -2.315344299144950E1    -8.466065994401596E1     2.989779000172357E1
                        -8.970944666696616E1     1.760155974263340E2    -8.417154703143127E1    -4.837287526662219E1    -9.363175623139426E1    -6.838082020435374E1    -9.124692534825596E-1   -2.029626665534031E1

 3.030000000000000E7    -2.734584566150409E-1    8.950995428762968E1    -6.946844237262947E1     9.380824252978348      -8.942988746847362E1    -9.731588380985230E1    -8.084431919185876E1    -5.546813736935339E1
                        -7.050414765607864E1     7.182173589209078      -3.032573641347047E-1    9.672858409855201E1    -8.362544740293112E1    -1.223575245685013E2    -9.085966236890585E1     4.953739007590146E1
                        -8.106864338188296E1    -3.887767842209705E1    -8.661979693309318E1    -8.771516938582791E1    -9.471998814099990E-1   -2.351579471358129E1    -8.679949880985430E1    -2.067164895838195E1
                        -9.348422371196449E1    -8.172692018143114E1    -8.339427742544699E1    -1.185683231590852E2    -8.238751041163140E1    -8.310460454058000E1    -9.101147440806436E-1   -2.061264880715255E1

 3.032500000000000E7    -2.670474660184012E-1    8.915596008991302E1    -7.053756909384634E1     9.999343642885641E-1   -8.624889271034797E1     3.411939095300265E1    -8.084128075161600E1    -3.798678830703663E1
                        -6.912124033952421E1     6.835102836009304      -2.923010704261048E-1    9.641164454286758E1    -9.590066269224975E1    -8.619599884537571E1    -8.680237138781841E1     7.199195243373876E1
                        -8.602434011024563E1    -2.328647017792171E1    -9.532196941359968E1     4.336706761093519      -9.552214057907876E-1   -2.382127848559525E1    -8.411731287305685E1     6.347784117027011E1
                        -9.024940074262220E1     1.369756177154962E2    -8.462965496800865E1    -1.745264438648200E2    -8.245554740691580E1    -1.402933053476382E2    -9.128939392548331E-1   -2.091533846585309E1

 3.035000000000000E7    -2.622903043236886E-1    8.886287758792037E1    -6.919251442783191E1     8.299285751318283E-2   -8.554564541007079E1     1.102293274988256E2    -9.939627976150572E1     7.445695422451480E1
                        -6.887170783330829E1    -1.507769017248883E1    -2.942202747177849E-1    9.611967929007871E1    -8.522143846215386E1     4.837895375979469E1    -9.437545186821387E1     1.492953562708538E2
                        -8.973625843587178E1     1.520086022052087E2    -8.388677869263208E1    -1.090553374982212E2    -9.438160831723707E-1   -2.413003698184340E1    -9.046918313345019E1     5.315023475963636E1
                        -9.133724077462560E1    -9.480778537504425E1    -9.173503204457765E1    -1.298445238163577E2    -8.656957818740564E1     1.953877178324226E1    -9.147240670632704E-1   -2.123547489723170E1

 3.037500000000000E7    -2.576963761450004E-1    8.847257651903287E1    -7.146592322762699E1     3.444948876571112      -8.561273507437299E1     8.766988376097517E1    -8.038947113307930E1    -1.195222333475405E2
                        -6.844061002607531E1     1.545150744577479E1    -3.057249027438839E-1    9.579037913249142E1    -9.441592583454866E1    -3.835748309628458E1    -8.686409276620935E1     5.584626277242140E1
                        -9.605389147461806E1    -1.367540619320808E2    -9.251318364686894E1    -1.515931397089838E2    -9.478527614227551E-1   -2.440194059007879E1    -8.603429383423475E1     3.092351503780936E1
                        -9.165149599324089E1     3.331867875399610E1    -8.885064379471217E1     8.086492503508815E1    -8.067818309666762E1     6.846379752815089E1    -9.128678390726462E-1   -2.151852310375757E1

 3.040000000000000E7    -2.620337002957531E-1    8.818300921773960E1    -6.958402627592561E1    -1.368210247006914      -8.546832978102556E1    -1.334378430931834E2    -8.987377155645777E1    -2.736242388969951E1
                        -6.732632184701080E1     9.027078074151481      -3.026181888569046E-1    9.544925906510184E1    -7.822251773237481E1     2.414845487076518E1    -8.953661775021161E1     6.721403364539611E1
                        -1.010674624308346E2     1.133467143534444E1    -8.900070779066479E1     4.215041969060787E1    -9.454025204168763E-1   -2.473044758352361E1    -8.295561379564126E1    -1.055310391313783E2
                        -8.215889918994469E1    -3.663353614430603E1    -8.905027132085854E1     1.533696718351411E2    -9.198590662504024E1     1.034649036678421E2    -9.116049051677276E-1   -2.178826221198817E1

 3.042500000000000E7    -2.595591958857522E-1    8.780079323065718E1    -6.938050236870730E1     2.082171093764165E1    -8.750459553271594E1    -8.483863490727801      -8.281539768094038E1     1.037194799333576E2
                        -6.897955664764920E1    -4.566514303692844E-1   -2.997151114114683E-1    9.518146242035685E1    -8.331122540249842E1     1.063582963082157E2    -8.957641487644790E1     4.596263598348345E1
                        -8.038294704633134E1     9.300791786479955E1    -8.420824293393895E1    -6.744380199796710E1    -9.482199394081399E-1   -2.508470360467128E1    -8.740175688007062E1     1.611070396021297E2
                        -9.136505530131703E1    -5.469909599382747      -1.000664386833025E2     1.035095869972636E1    -9.077389222779011E1     1.667467768188884E2    -9.139709663056407E-1   -2.212900385396538E1

 3.045000000000000E7    -2.587745642598457E-1    8.744876581645558E1    -6.865103489425930E1    -1.028174765767086E1    -8.797181975039642E1    -1.299735679185010E2    -8.941464242446068E1    -1.337634683880738E2
                        -6.831060146487781E1     8.060201111796365      -2.993803956853540E-1    9.481301470781926E1    -9.255156530213355E1    -1.560989848812308E2    -9.880313610211664E1    -1.071075305881560E2
                        -8.373640045917091E1    -1.129805391503355E2    -8.495532272621091E1    -5.739858929565745E1    -9.518940467685180E-1   -2.532791495203204E1    -8.719325073936942E1    -7.587550572821786E1
                        -8.329187781253978E1    -1.176640174989949E2    -8.362329397077372E1    -5.616038280412065E1    -9.147437265687684E1     1.002016764615208E1    -9.139026770499327E-1   -2.244539252954349E1

 3.047500000000000E7    -2.627405018921349E-1    8.716250415440801E1    -6.978669998058703E1     1.377303040689367      -8.735702236250334E1    -1.641531180503003E2    -8.640711359414240E1     1.768411572035894E2
                        -7.081484110887691E1    -1.394564626925837E1    -2.944741516828475E-1    9.457427826897262E1    -9.174091980163232E1     9.081802890228147      -8.687907166789549E1     2.304309411656898E1
                        -8.529893669426710E1     1.709832478479625E2    -8.662018079007950E1    -1.265841893848611E2    -9.510850638591124E-1   -2.568357204822015E1    -9.726351632310029E1    -4.969454550304974E1
                        -7.772433819701752E1    -1.204236303974763E2    -8.377621562948514E1     1.031599756103503E2    -8.560190102564307E1    -2.845345504862355E1    -9.172644348417459E-1   -2.272321121996689E1

 3.050000000000000E7    -2.654068077383334E-1    8.678623085453256E1    -6.903554211420239E1    -2.602502283788573      -8.877517412636200E1    -8.160295110254035E1    -8.450042508966716E1     1.754988671175073E2
                        -7.064136516925851E1     3.942755429885843      -2.948283631294033E-1    9.420468405929579E1    -9.098766730733310E1     9.548384188992540E1    -8.135051685630828E1     1.482185770482515E2
                        -8.224051338255029E1    -4.211561539608854      -8.362694479401324E1    -5.644993175607956E1    -9.507794491972901E-1   -2.601551455400193E1    -8.197831878029376E1    -5.342230372050349E1
                        -9.516743979866824E1     1.276176831741678E2    -8.583175853918350E1    -2.275680319854749E1    -9.130546997314875E1    -1.783882138616443E2    -9.086871223324966E-1   -2.302437612298533E1

 3.052500000000000E7    -2.611491909815971E-1    8.645101882725443E1    -6.859181069998488E1     2.504541070955252      -8.418855906110366E1    -5.864033162654035E1    -8.967047636752702E1    -7.342921322887953E1
                        -6.781191337379472E1    -2.050274966086055      -2.959294432975659E-1    9.396653042295050E1    -8.558066899622671E1     1.483543881420002E2    -8.152138678176853E1    -1.497308102334447E2
                        -8.744376886520990E1    -5.186247616469480E1    -8.775099551836212E1    -6.388009572267362E1    -9.535695314003679E-1   -2.632918457136397E1    -8.451635777640354E1     1.192916644952804E2
                        -8.121965076338994E1     2.985392353811697E1    -8.461255499496505E1     8.997238944557704E1    -8.745990271984262E1     1.227565981598417E2    -9.182546131953819E-1   -2.336172981050591E1

 3.055000000000000E7    -2.581005658648850E-1    8.612218084083425E1    -7.033026884155903E1    -3.611655595713827      -8.091579999738545E1     7.694149987493165E1    -8.807695677760053E1    -5.801366666565279E1
