#  HZ   S   DB   R     50.00 
! Rohde & Schwarz Vector Network Analyzer 
! Rohde-Schwarz,ZNB8-4Port,1311601044102961,2.82
! Created: UTC 2/13/2019, 2:01:11 PM
! freq[Hz]                db:S11                  ang:S11                 db:S12                  ang:S12                 db:S13                  ang:S13                 db:S14                  ang:S14
!                         db:S21                  ang:S21                 db:S22                  ang:S22                 db:S23                  ang:S23                 db:S24                  ang:S24
!                         db:S31                  ang:S31                 db:S32                  ang:S32                 db:S33                  ang:S33                 db:S34                  ang:S34
!                         db:S41                  ang:S41                 db:S42                  ang:S42                 db:S43                  ang:S43                 db:S44                  ang:S44
! 
 3.000000000000000E7    -2.800419825040394E-1    9.348373106179909E1    -7.108680511430603E1     1.577818857540626E1    -9.709061318010619E1    -1.448035910638326E2    -9.428942242551237E1     4.953166264312783E1
                        -6.881133024559573E1     6.707862829555367      -2.931500683536921E-1    1.006036896856421E2    -8.840833771614211E1     1.044075323324239E2    -8.969639827694550E1     1.712194528039725E2
                        -8.902011658418120E1    -7.554918473614329E1    -8.608158213612752E1    -1.288224970357549E2    -9.429788647296242E-1   -1.967109700175730E1    -8.722601967387752E1     1.079478645898478E2
                        -8.465842029105930E1    -1.163426119043340E2    -8.380880284888761E1    -1.292684831463762E2    -8.752672173957242E1     5.189687361980679E1    -9.156125957233309E-1   -1.689232567525654E1

 3.002500000000000E7    -2.750090245284607E-1    9.319594344126236E1    -6.843247600703981E1     1.301522455926782E1    -8.414410621053334E1     1.792337974854132E2    -8.379445135559841E1     1.440597525533581E2
                        -7.070046255171702E1     8.693564228727986      -2.961649132591293E-1    1.002585455025344E2    -8.188228099623561E1     1.769729036862398E1    -9.483177370967022E1     8.903157799262083E1
                        -8.455146205551684E1    -2.031736918974015E1    -9.029692419765111E1     1.547384835403272E2    -9.435519767544995E-1   -1.997922795992687E1    -8.864254941670696E1    -2.730900075845034E1
                        -8.428216638637275E1    -1.069594633694541E2    -9.342406626869226E1     3.443885850595588E1    -9.088865733365239E1     1.685076567207874E2    -9.128306366619241E-1   -1.725724862096269E1

 3.005000000000000E7    -2.805353755299346E-1    9.286390592520449E1    -7.245644893177142E1     4.184495952214109      -8.785489607290356E1    -3.504011531542276E1    -9.136314768288374E1     4.992344297904045E1
                        -6.956486177119848E1     4.791634515234915      -2.902877389271045E-1    9.996890362465088E1    -8.234540333572704E1    -1.521321908880555E2    -9.120288278274906E1     6.284337713566055E1
                        -8.629543494916089E1    -1.693999412230361E2    -8.401975980226440E1    -5.231741702652764E1    -9.441624129941391E-1   -2.025860558563610E1    -8.623335001110007E1     6.573273605403914E1
                        -8.290590022758308E1     1.563241392802916E2    -8.592098565806579E1    -1.113450323824777E2    -8.536532690299649E1    -1.712125015333115E2    -9.106506121639184E-1   -1.755372987013479E1

 3.007500000000000E7    -2.740704968748039E-1    9.249516792083738E1    -7.032269622324921E1     6.704196278104406      -9.286669951716405E1    -1.068410175484360E2    -9.353582749878912E1     1.294457174542444E2
                        -6.943706070686179E1     1.395385040332790E1    -2.963387020149929E-1    9.960762366234738E1    -8.322376891083584E1     1.004712355461659E2    -8.588660870024947E1    -1.642601820023976E2
                        -8.828562577129563E1    -7.600000121007460E1    -9.174852522689031E1     1.792841590266809E2    -9.479768406381459E-1   -2.060987100588795E1    -8.894460738168463E1     1.443114450746118E2
                        -8.589968427807622E1    -1.083369566621767E2    -9.298976241798330E1    -1.079366553591643E2    -8.353595936437812E1     1.607029861975362E2    -9.216126730303662E-1   -1.782469684525477E1

 3.010000000000000E7    -2.726370493094854E-1    9.217666347312448E1    -6.925464959899507E1    -4.245786869437143      -9.147428675934708E1    -7.402068669277534E1    -8.386481210887440E1    -3.682754139851814E1
                        -6.864204425819609E1    -1.789331880060658      -2.908580271234171E-1    9.934134185569921E1    -9.500897310492830E1     2.236989064054030E1    -8.737399840183119E1    -5.470626166332512E1
                        -9.382185728894170E1     1.220244591119819E2    -8.260587071896326E1    -1.059605975870531E2    -9.456595193981204E-1   -2.095559097039599E1    -8.196584687908000E1    -1.187993841401642E1
                        -8.621905076693693E1     1.713670835505764E2    -8.570250961077882E1     9.476738307157918E1    -8.974148861641844E1    -5.585660575422410E1    -9.133060315543433E-1   -1.812834495628240E1

 3.012500000000000E7    -2.702871901324715E-1    9.184391039710911E1    -7.011795840806745E1     8.998628625938462      -8.321127722769050E1     8.047550297946279E1    -8.703671595926883E1    -7.827945015892045E1
                        -6.976353833257232E1     1.082601685208960E1    -2.910107529236368E-1    9.907152990100816E1    -8.327155619863939E1     4.417417624445351E1    -8.452213777361303E1    -1.085477461633797E2
                        -8.323642520777906E1    -5.798867244403345E1    -9.673209282177722E1    -5.652687914656599E1    -9.496620416601549E-1   -2.126650799905693E1    -9.266999879418404E1    -1.017694512103590E2
                        -9.590851396800738E1    -8.739767679324633E1    -8.752741851323465E1    -5.097278671855877E1    -8.792288554721934E1     1.283466131459911E2    -9.154362431920451E-1   -1.847142216520838E1

 3.015000000000000E7    -2.672766982419090E-1    9.149610095592371E1    -7.071809987520543E1    -6.571863901291898      -8.570530639471420E1     5.587855629532134E1    -8.504570537311923E1    -7.006751743077135E1
                        -6.980553846945026E1    -1.977127872466684      -2.975650161735107E-1    9.870815037396577E1    -8.208983435461130E1    -1.865572092625548E1    -8.219589374496536E1    -6.101079447680683E1
                        -9.394317668668826E1    -4.610393520857800E1    -8.454326455687259E1    -7.118484986337845E1    -9.470663513925435E-1   -2.156426973550970E1    -9.520986698546635E1    -5.923379368933967E1
                        -8.649240631585820E1    -1.383873052582752E2    -8.697603722524585E1    -4.003577459245572E1    -8.813054536646629E1     1.127565471108410E2    -9.120990351434434E-1   -1.873929620284386E1

 3.017500000000000E7    -2.670327592256651E-1    9.117975480238154E1    -6.822017136310707E1     3.553474714025533      -9.850827625742305E1    -4.960770556403816E1    -9.973366087593966E1    -3.145844965383719E1
                        -6.934174161342492E1     7.972877287833769      -2.883232275045621E-1    9.837568709745904E1    -8.598879478557930E1    -6.525356437672177E1    -9.515547582513912E1    -3.438602754710378E1
                        -8.256963745134343E1     2.916737575860118E1    -8.370238015010122E1     1.040482173587077E2    -9.454985550978791E-1   -2.186810237387295E1    -9.262480850460064E1     6.166362542658793E1
                        -8.626871546380548E1     1.775587071187633E2    -9.384980706361486E1     1.771950334811960E2    -9.180556964495227E1     3.224979908689981E-1   -9.181133312936591E-1   -1.904120657308445E1

 3.020000000000000E7    -2.626524823889369E-1    9.082717408145055E1    -6.874797483245698E1     1.382579750686964      -8.881334585229882E1     5.619466127203290      -8.395568571200622E1     5.816646817638808E1
                        -6.854644324371782E1     2.554233217383937      -2.956487994219121E-1    9.807085458547009E1    -9.818059831384321E1    -1.096720927523936E2    -9.367144338451885E1    -1.727356427795835E1
                        -9.274028558802554E1     4.013796287535489E1    -8.274618058107564E1     2.752744430863268E1    -9.533698079036126E-1   -2.223071915345794E1    -8.704427741507844E1     1.197873816654140E2
                        -8.609953414135852E1    -1.421767078192568E2    -8.914652245933604E1     6.273367889001807E1    -9.012562508472401E1    -1.767222894893606E2    -9.188494130185025E-1   -1.939014980440071E1

 3.022500000000000E7    -2.756450273911084E-1    9.053108900342208E1    -7.085929522403434E1     9.070155371845386      -8.095077689969739E1    -6.573016257783297E1    -9.393007832748531E1     1.195579981620963E2
                        -6.883777438413146E1     6.488171274000073      -2.886048443578967E-1    9.776220904639533E1    -9.051945991008289E1    -7.159799070286879E1    -8.007882362838345E1     1.211046943710272E2
                        -9.651588934003306E1    -7.981777174498012E1    -8.723610949823643E1     1.595775086249172E2    -9.496792196546551E-1   -2.252251919833124E1    -8.617901005618404E1     1.608144582411438E2
                        -9.842602123610008E1     2.718378150105903E1    -9.818749658684594E1     1.248175209377740E2    -8.616663632144952E1     8.935537912950665E1    -9.160022051170674E-1   -1.964397587638973E1

 3.025000000000000E7    -2.694845205380330E-1    9.016003605008970E1    -7.047921695413668E1     1.082622140259726E1    -9.072898989278170E1     2.765972175626513E1    -9.237413944935632E1    -5.300506883148045
                        -7.099556636535924E1     1.335170354350703E1    -3.005079459702665E-1    9.747892377727447E1    -8.682813012830576E1    -9.620544634318088E1    -9.023792136093704E1    -1.352854262728027E2
                        -8.249183768672516E1     4.767089852970776E1    -8.701180024609371E1     8.144453952117770E1    -9.509673578939242E-1   -2.282651088529756E1    -8.243504282378483E1    -1.441379837305159E2
                        -8.793133836069532E1    -6.444132208548921E1    -8.748579630907487E1    -1.342206314752148E2    -8.797389870140079E1    -1.687129278549134E2    -9.163530189986382E-1   -1.997845635145853E1

 3.027500000000000E7    -2.664753453563558E-1    8.983812707466018E1    -6.928905573819098E1    -7.281685282379673      -8.469857199421139E1    -9.085884512909843E1    -8.294169085009654E1     1.986409911044424E1
                        -6.845444999513609E1     8.485430330657444      -2.829966875781091E-1    9.712263407783485E1    -8.630000907838841E1     3.338236512206522E1    -9.088924371865409E1     1.409555417368537E2
                        -9.287484687235910E1    -3.668990275137265E1    -8.692859726306880E1     1.460940891248969E1    -9.455851962928407E-1   -2.316904776002515E1    -1.029008564553721E2    -1.939529003897572E1
                        -8.673636984678431E1     7.172602177651784E1    -9.834787217925293E1    -6.515151611463200E1    -7.986427351424631E1     4.763002237239007E1    -9.161803249726543E-1   -2.027582868361016E1

 3.030000000000000E7    -2.673104098678106E-1    8.949460736969137E1    -6.956558674195992E1     5.242887297695289      -8.649654287273344E1     6.428734906825111      -8.903867273376507E1    -1.590854743579453E2
                        -7.094319951340684E1     8.288747969296850      -2.951585282231807E-1    9.683617423023367E1    -9.074182434332313E1     1.536717504359186E2    -8.676258224702667E1    -2.587282961699950E1
                        -8.897989339903860E1     1.607180930092792E2    -8.838478165498144E1     6.458075079698575E1    -9.515022119157082E-1   -2.349885915895517E1    -9.887591319271579E1     1.437022843333222E2
                        -9.159775695234583E1    -9.315687306628439      -8.777996034773551E1     1.626931898776735E1    -8.817242701545177E1     7.384546292989715E1    -9.147693043441953E-1   -2.061068918346312E1

 3.032500000000000E7    -2.659765248107852E-1    8.916805629556946E1    -6.912944517754879E1    -7.258170961624958      -7.865389554163684E1     9.225723894315692E1    -8.835811869826711E1    -1.669231350702387E2
                        -6.965737106931114E1    -8.258038944200708      -2.858161571661301E-1    9.652070851464814E1    -8.742158911209769E1     1.164391038590744E2    -8.739698322045641E1     7.521101013376637E1
                        -8.639044210040196E1     1.589374928547500E2    -9.008989869386156E1     1.060108859224945E2    -9.515197937257727E-1   -2.382873693952069E1    -9.829659533784712E1     1.004299357931906E1
                        -9.120927670808302E1    -1.245130383522219E1    -9.512109728995534E1     2.921181341893394E1    -8.787516508884519E1    -3.543878402822016E1    -9.098707473921561E-1   -2.089260989715783E1

 3.035000000000000E7    -2.617225261427349E-1    8.881036610037147E1    -7.044625634506149E1     1.609462009267121      -9.149336935281995E1    -1.673304868708638E2    -8.502794424530924E1    -1.158122017064101E2
                        -6.828996235382326E1    -1.325583371373147      -2.913437715407190E-1    9.619057440455261E1    -8.048536790945376E1     5.656834276477082E1    -9.085959245287344E1     4.474000444695094E1
                        -1.077756593401023E2    -9.834156217392744E1    -8.970397652416510E1     9.021229752432622E1    -9.453698965132358E-1   -2.410812784576229E1    -9.489538492573857E1     1.418941223318397E2
                        -9.092910198403951E1     5.095925695583159E1    -8.522611972628528E1     3.115582527973545E1    -8.666888010986259E1    -3.307317999017282E1    -9.181599982349729E-1   -2.118815306199288E1

 3.037500000000000E7    -2.607587489017576E-1    8.845481049155055E1    -6.868755800300872E1    -9.793816199178552      -8.348040579178920E1     1.130812683997264E2    -9.026782558364124E1    -1.530875900592759
                        -6.930889308675563E1     6.082900978397022      -2.943138059375546E-1    9.586541316079568E1    -8.407783825536535E1    -4.185578154353043E1    -8.320090466993497E1    -8.798256726432111E1
                        -9.185837747803964E1    -1.684522092465325E2    -8.508949213921994E1    -1.233149026279330E2    -9.481761660831534E-1   -2.442925689554125E1    -8.944562355011074E1    -1.506265466439094E2
                        -9.747741547287305E1     3.958674318670096E1    -8.466283941313436E1    -6.793567331496492E1    -9.618049243909005E1     1.142603862063939E2    -9.082424172065466E-1   -2.151289309601713E1

 3.040000000000000E7    -2.600964493563499E-1    8.815096742566863E1    -6.969391566879759E1     2.528338841741258      -9.915453012762667E1    -1.344919573306864E2    -9.428477223413013E1    -5.548435855180046E1
                        -7.007394063282885E1     3.074197094365626      -3.010867458348302E-1    9.560711525835440E1    -8.812570636144193E1    -1.928173003995162E1    -8.621149694829899E1    -1.715897006042986E2
                        -8.376128994034433E1     6.237985255040930E1    -8.260317218440540E1    -6.036101226311760E-1   -9.512534966793764E-1   -2.475220973251624E1    -9.513885942656884E1    -1.854271961915233E1
                        -8.959701914802857E1     1.588021245706874E2    -9.773352654536436E1    -9.923810878031665E1    -9.048795269138806E1    -1.211568510988387E2    -9.140100807088926E-1   -2.182494857533898E1

 3.042500000000000E7    -2.642469038032862E-1    8.777372504117248E1    -6.918267137751236E1     4.988550103048383E-1   -8.950477509850940E1     1.849934454284597E1    -9.417763432003054E1     6.623545000228887E1
                        -6.918700375863334E1     7.322144273524084      -2.917822530852221E-1    9.533926329004183E1    -9.008227579228952E1    -1.408162036423792E2    -8.792006985065940E1    -1.495172343923931E2
                        -1.011075458678561E2     3.457966125559008E1    -8.702510250345060E1    -4.545970501835331E-2   -9.578690928241950E-1   -2.504518354614483E1    -8.694214629353583E1     1.209587862575567E2
                        -8.362945579135678E1     9.713722277096382E1    -8.604818114847730E1     1.165129872650281E2    -9.176321705779280E1     5.199402990279014      -9.154701303071462E-1   -2.212959318243277E1

 3.045000000000000E7    -2.643863493285647E-1    8.739518697423056E1    -6.815372899955031E1     2.739900293820293      -8.252899247666309E1    -1.636548582765778E2    -8.118613973993917E1    -9.119851827648606E1
                        -6.925443522766254E1    -3.544876348905047      -2.895577701070369E-1    9.495841900836717E1    -8.276248859378862E1     1.169183103253700      -8.986138175126273E1    -1.172004103864434E2
                        -9.580318806602186E1     1.202077443430761E1    -8.275590076865940E1     5.993948309398585E1    -9.480732021980787E-1   -2.537604798624755E1    -8.760120535388731E1     1.075262994131396E1
                        -8.471469410709540E1     7.102772776857978E1    -1.082272111461406E2    -1.474699459780016E2    -8.700881504838422E1     1.712920006133740E1    -9.112369450996065E-1   -2.241867704782066E1

 3.047500000000000E7    -2.640669299467677E-1    8.709629552898871E1    -6.735164918282256E1     1.391529162379712E1    -8.442991713015888E1     7.969443884214030E1    -8.824326259660043E1     1.063696859969248E2
                        -6.924644112698266E1    -6.128358796367309      -2.812917536124403E-1    9.473531060654742E1    -9.053257341612539E1    -1.154531640211217E2    -9.655083384289340E1    -1.222327847634655E2
                        -8.676711616457394E1     7.758442223896464E1    -9.001786663044101E1    -8.333929919340207E1    -9.469203250942373E-1   -2.565274120472995E1    -9.516057000429228E1    -7.233738946290220E1
                        -8.633946999415815E1    -1.447917035122381E2    -8.658371587313698E1     4.727633372573166E1    -8.794373838193310E1    -1.619479338035156E2    -9.144564424386195E-1   -2.273821582353954E1

 3.050000000000000E7    -2.632400446471617E-1    8.676597829760434E1    -6.867232584059728E1     9.535251905563868      -8.390728457251983E1     2.887286797548498E1    -9.002596683013323E1    -1.053582417762868E2
                        -6.849439753655908E1     6.616218288733307      -2.910940736250334E-1    9.439429428328813E1    -7.906199576690690E1     2.348384357437157E1    -8.091516858755666E1    -1.580780480730918E2
                        -8.811565582803006E1    -1.245432554477370E2    -8.077955489567478E1     1.463506728859601E2    -9.482250164216983E-1   -2.603170612701443E1    -9.356998348071421E1     1.127350900349854E2
                        -8.531250432709348E1    -5.067349077436522E1    -9.310759269532908E1     1.496784633504490E2    -8.457923157109157E1     1.089079604375111E2    -9.117414085392696E-1   -2.300727105272565E1

 3.052500000000000E7    -2.628783485540460E-1    8.643256277747192E1    -6.878767982691410E1     1.207043864551318      -8.416569656875365E1    -1.609115962579439E2    -9.722292090249968E1     9.287008665511688E1
                        -7.019046377862344E1     6.322114212638266      -2.894081174216907E-1    9.408834435057979E1    -8.789980800232642E1     1.340518089850826E2    -8.352811197647249E1     6.059467272205051E1
                        -8.436656368762411E1    -4.397135328152197      -8.602015630069295E1    -2.487664781408414E1    -9.462213838678163E-1   -2.636765299702228E1    -9.557687495444996E1    -6.902003322819364E1
                        -9.218148059217361E1     1.211735284055225E2    -8.679777412241364E1    -1.412625044866947E2    -8.270458762286951E1    -1.739766369338532E2    -9.176349332725102E-1   -2.334347671336849E1

 3.055000000000000E7    -2.589173798854556E-1    8.604608916906436E1    -6.899270439065911E1    -2.868588061032530E-1   -9.150840886892794E1     1.707241160126776E2    -8.506966103461274E1     9.617963102510583E1
