#  HZ   S   DB   R     50.00 
! Rohde & Schwarz Vector Network Analyzer 
! Rohde-Schwarz,ZNB8-4Port,1311601044102961,2.82
! Created: UTC 2/13/2019, 2:05:19 PM
! freq[Hz]                db:S11                  ang:S11                 db:S12                  ang:S12                 db:S13                  ang:S13                 db:S14                  ang:S14
!                         db:S21                  ang:S21                 db:S22                  ang:S22                 db:S23                  ang:S23                 db:S24                  ang:S24
!                         db:S31                  ang:S31                 db:S32                  ang:S32                 db:S33                  ang:S33                 db:S34                  ang:S34
!                         db:S41                  ang:S41                 db:S42                  ang:S42                 db:S43                  ang:S43                 db:S44                  ang:S44
! 
 3.000000000000000E7    -2.708479616821075E-1    9.355450309435044E1    -6.876826875080725E1     5.531139107865798      -8.315264651178835E1     5.313832488422518E1    -8.781935787181914E1     2.909988704103761
                        -7.049119732897913E1     5.360295338138601      -2.861040202937502E-1    1.006577519763808E2    -8.915082310979111E1     8.984322839674111E1    -8.866545847973534E1    -1.188622499238266E2
                        -9.091897015827553E1    -2.259852861115131E1    -9.466573586374264E1     1.768745876521721E2    -9.423670676911271E-1   -1.969994159378909E1    -8.363121044698671E1    -1.257519936257010E2
                        -9.104919179356205E1    -1.387183528882111E2    -8.390318930543529E1     1.967204728719921E1    -8.164232462745709E1    -7.615074864713898E1    -9.149111695515799E-1   -1.696515911187980E1

 3.002500000000000E7    -2.758556266283758E-1    9.320384665512931E1    -6.848352741171490E1     5.454087636404887      -8.495478129606747E1    -5.392237334923440E1    -1.130289083645449E2    -6.914870875160689E1
                        -6.977191686295913E1     1.312977542818266E1    -2.914285544855765E-1    1.003360134448997E2    -8.637852481599899E1    -9.081803820456902E1    -9.273443192698133E1    -8.855958765948373E1
                        -8.909560781468005E1     5.710834554057666E1    -9.054598703561403E1    -1.238602343923811E2    -9.432432483167179E-1   -1.997013878258250E1    -9.102458621349231E1     1.168075069673012E2
                        -8.897007200894457E1    -1.466126403707805E2    -8.553621014116020E1    -5.808918571126837E1    -8.551789935955958E1     1.287401200056505E1    -9.133267163997373E-1   -1.722064679199273E1

 3.005000000000000E7    -2.818633192712621E-1    9.285740462038075E1    -7.114523770948573E1     1.675247899218651      -8.702295984575706E1    -1.631496116510469E2    -8.315782412474221E1    -1.487755139770554E1
                        -6.914017061825177E1     1.663859839084250E1    -2.808546228321663E-1    1.000326593664309E2    -8.766173341177661E1     6.220441527478664E1    -8.962973533114723E1     9.472506428981913E1
                        -8.420019987018961E1    -4.253720016170418      -9.728860628605167E1    -1.284009656934424E2    -9.489149780485662E-1   -2.025709865679852E1    -8.435578906161000E1    -1.310668790692558E2
                        -8.630430320669574E1    -2.428920857108074E1    -9.197187556810293E1     1.368110463255682E2    -8.612595548080891E1     1.555500595819982E2    -9.071904319119567E-1   -1.751304370933816E1

 3.007500000000000E7    -2.739924560287669E-1    9.253576830957829E1    -7.057224733855338E1     4.003160535121992      -8.273258694971622E1    -1.762092105802898E2    -8.002326887082765E1    -4.637494061575440E1
                        -6.844427684781454E1     8.927885941386071      -2.917759781381275E-1    9.970742325305476E1    -8.302036579983192E1     1.232966276940694E2    -8.659534828465363E1    -8.916318660596609E1
                        -9.105468775029792E1     1.167607170541880E2    -9.861891488601998E1     9.801313479203127      -9.466628211740596E-1   -2.063990831038664E1    -8.050827487476630E1     6.538956165472506E1
                        -8.180971797989218E1     4.724564338690730E1    -8.201959552118936E1     5.016423931391510E1    -9.103586968367307E1    -1.015646497120597E2    -9.219607304077759E-1   -1.785075516463739E1

 3.010000000000000E7    -2.700187984897292E-1    9.216380681574626E1    -6.907380283134613E1     8.652732642692371      -8.703802285870199E1     1.469811049456087E2    -7.949972819862552E1     1.141009637968786E2
                        -6.875171007129593E1     1.255655484307371      -2.857580675007263E-1    9.938360568113016E1    -8.095843130575433E1     1.579723684561524E2    -9.246377658648169E1     1.799613825840281E1
                        -8.708573765545154E1    -1.661145178168244E2    -8.817173037141740E1    -1.342451820242307E2    -9.464276468637618E-1   -2.097785351785883E1    -8.425121773135670E1    -1.123382655929735E2
                        -9.760294832191975E1    -1.239579442494985E2    -9.306858510218481E1    -1.284733879719244E1    -9.618621497296999E1     2.977587795812699E1    -9.166663032180471E-1   -1.812433349852475E1

 3.012500000000000E7    -2.674582135616737E-1    9.184806045708584E1    -6.942484649580386E1     1.224289686736592      -1.153113561169063E2     1.099453517350809E2    -9.137517388420859E1    -9.713098185271205E1
                        -7.014802052127696E1     3.988099614487995E-1   -2.844168251225369E-1    9.910530479067454E1    -8.365014570156895E1    -4.481146695731051E1    -8.497263720691235E1    -7.833374449857148E1
                        -9.578139091925320E1    -1.376333335018688E2    -9.371358334863233E1     1.585171811700730E2    -9.534580604367692E-1   -2.125669887372344E1    -8.423397085732914E1     2.146905786419538E1
                        -8.864998760186980E1    -1.459371740029963E2    -8.177438102100409E1    -4.749434582952517E1    -8.809054427732603E1    -1.175685788094514E2    -9.149024311946968E-1   -1.846463346513421E1

 3.015000000000000E7    -2.682024864470177E-1    9.152193558685475E1    -6.834632610825476E1    -3.821547225182940      -8.822252889052490E1    -2.944405682393970E1    -9.073697311808439E1    -1.155172229270924E2
                        -7.055503151155895E1     3.762285488641070      -2.892739830224574E-1    9.870733820015610E1    -8.833536061845979E1     7.797578269195638E1    -9.168094924655728E1    -1.259940353657808E2
                        -8.536038229287985E1     1.294763897413075E2    -8.321878189328692E1     9.915029418253596E1    -9.492768085768421E-1   -2.155772579001898E1    -8.043602734492490E1     5.851169347254712E1
                        -8.959210849570846E1     1.027528608222444E2    -8.821306542606713E1     1.593783737096825E2    -8.234211757282859E1     1.351626792066537E1    -9.104205778863641E-1   -1.873487864694054E1

 3.017500000000000E7    -2.675622841158624E-1    9.116684515157219E1    -6.781417856763424E1     8.556041968273517      -8.196478178370995E1     4.595396431097642E1    -9.701544441480326E1     8.854213188359141E1
                        -7.015628912537757E1     4.214699321968533      -2.763147843116414E-1    9.843242453073563E1    -9.744174058808937E1     1.019487168960483E2    -7.788299933252584E1    -4.037921663317301E1
                        -9.571518550603926E1     8.603804932868570E1    -8.605194539618408E1    -9.785951006635015E1    -9.464371547825037E-1   -2.186632857343508E1    -9.771787305612099E1     1.065521727193073E1
                        -9.002754708924094E1     8.423438229285049      -8.562875592583151E1    -1.630182251170813E2    -8.643261659868144E1    -1.098336724157985E2    -9.113506735422268E-1   -1.905991671913953E1

 3.020000000000000E7    -2.653611398135681E-1    9.082635433433461E1    -6.934191029632061E1     4.615560712769636      -9.342071501546697E1    -1.402041626401035E2    -8.148628702322924E1    -1.296400535518894E2
                        -6.989108875919709E1     6.596058939731991      -2.793764058209952E-1    9.812231283249560E1    -8.426959911489948E1    -3.248762282551654E1    -9.372527988631278E1     6.026025941985594E1
                        -8.804235119392644E1     1.574202450734070E2    -8.589891040804173E1    -1.050382856222534E2    -9.493986604366033E-1   -2.219924418002603E1    -8.722741090232952E1    -2.382960745616608E1
                        -8.569354660344517E1     1.509472347262479E2    -9.278916057721358E1    -4.622340532407809      -9.224736806997510E1     1.154744759177096E2    -9.188618764601131E-1   -1.937936250177729E1

 3.022500000000000E7    -2.708808356520835E-1    9.052887366905274E1    -6.902359750442632E1     1.860653652938719      -8.845644927908350E1    -3.559085820913371E1    -8.706227054958060E1     1.116024661033358E2
                        -7.062272216188265E1    -5.737879348849216      -2.856140180024325E-1    9.786458165263814E1    -8.323595923103562E1    -9.636504610168787E1    -8.947941570340066E1     8.142021655851768E1
                        -9.399814099039980E1    -3.792537693380658E1    -8.809543897304752E1     1.771666610644913E2    -9.442842839314586E-1   -2.250001173992892E1    -9.935316528872052E1     6.512597328077241E1
                        -9.355181862756933E1     5.027324509790728E1    -8.855305254235796E1    -1.095573152008846E2    -8.474080112985078E1     1.347680487878694E2    -9.142622722934553E-1   -1.966836699566423E1

 3.025000000000000E7    -2.717988692711657E-1    9.018629343224276E1    -6.875502195764518E1     4.994168367285120      -9.493280351745399E1    -8.186912412932955E1    -8.212065137916855E1    -1.772465396459124E2
                        -6.862271244845579E1     9.074213770225065      -2.978861604128679E-1    9.747766111846455E1    -8.170462091187932E1    -1.107599752956580E2    -9.118430299367171E1    -1.655601289073889E2
                        -8.169382183986267E1    -2.371381365637241E1    -9.041756125055834E1     2.288296803023599E1    -9.435381914696456E-1   -2.280936732039686E1    -8.160071766725720E1    -1.588616696260211E2
                        -8.721757819018534E1     1.491481667008043E2    -7.909468972368535E1     9.940632677296854E1    -8.297403787000938E1    -1.210612846128874E2    -9.136888961517831E-1   -1.996746757712613E1

 3.027500000000000E7    -2.664243909449434E-1    8.981194877588587E1    -6.949302623363838E1     1.048844707388587E1    -7.839221344180385E1    -5.929353479234981E1    -8.356189169345086E1     1.457122773823838E2
                        -6.764963475178814E1    -1.645250353387120E-1   -2.822268305792728E-1    9.719087473549743E1    -8.820495953317759E1    -8.902435335864990E1    -9.059690750334693E1     4.351454901530116E1
                        -8.363621945963070E1    -5.615952301061824E1    -8.589997784312988E1    -5.939421868103876E1    -9.405075413441565E-1   -2.315254716207078E1    -9.372437196247810E1     1.004232533467599E2
                        -8.184315806430085E1    -4.690703427130099E1    -8.844926447882600E1     1.694706845745049E2    -8.424696996769917E1     1.364901012614752E2    -9.133169601429153E-1   -2.031894560486546E1

 3.030000000000000E7    -2.749437107712970E-1    8.952076811738067E1    -6.923468756230250E1     1.888624597265458      -8.085236289859957E1    -3.297014043918231E1    -8.827316839632418E1    -1.285366386389325E2
                        -6.974696940367906E1     5.279281776249500      -2.880859270704731E-1    9.688343127840047E1    -9.355726537263101E1    -5.682982075560990E1    -8.526056760377676E1    -8.376574538589253E1
                        -8.173754780039488E1     1.629917502594305E2    -8.620808588564948E1     4.952986816392009E1    -9.501048497399021E-1   -2.349621656148313E1    -1.067619810742468E2    -1.780036843242194E2
                        -8.345283725107201E1     1.230010076448014E2    -9.280112564031184E1     6.151182685984323E1    -9.148429626295858E1     6.911027950490067E1    -9.177776079492319E-1   -2.060529298657036E1

 3.032500000000000E7    -2.678323808921081E-1    8.917435664469498E1    -6.904572409134207E1    -1.121096557681499E1    -8.388483221530755E1    -4.195711284970953E1    -8.057579932282557E1    -1.448496816212723E2
                        -7.026994702436338E1     2.920253872963593      -2.750243230378207E-1    9.657565701447487E1    -8.102835597897692E1     1.709738826939879E2    -9.536261235070349E1     5.906303000034674E1
                        -8.447541208003587E1     1.706864621939741E2    -8.407523276593794E1    -1.391468672751441E2    -9.521774121331906E-1   -2.378560111374323E1    -8.567674628693304E1     1.052036555619479E2
                        -9.351709979890171E1     1.678080360308552E2    -8.588204666943200E1     1.825826380752438E1    -8.636634239479085E1    -8.756674385605969E1    -9.167982437098693E-1   -2.089602365330758E1

 3.035000000000000E7    -2.597471062040246E-1    8.883246786470734E1    -7.064015500948577E1     1.474500341349190      -7.939624148151589E1     1.444910539702012E2    -8.960786739580715E1    -2.239300722988531E1
                        -7.195089940135661E1    -1.264036410446194      -2.798208896981882E-1    9.625965086072458E1    -8.881769115230334E1    -9.059597075203475E1    -8.626249038976462E1     5.640431836074110E1
                        -8.574796806108776E1    -2.427089771102815E1    -8.469687103413818E1    -3.123084990210321      -9.486453021508717E-1   -2.413291917406195E1    -8.318597513278603E1    -8.854882916807799E1
                        -8.325458133713958E1    -4.029750148256630E1    -8.553866021027604E1     1.016227490652049E2    -8.457397389311305E1    -1.104145613831113E1    -9.167327519942972E-1   -2.117870456993591E1

 3.037500000000000E7    -2.621282471109957E-1    8.850835987521261E1    -6.811080595775907E1     1.744568252062887E1    -7.889650654933465E1    -7.532097533980191E1    -8.636005285803442E1    -1.284645778842498E2
                        -6.818485591807989E1     7.365337798145121      -2.835897376160579E-1    9.599130147349524E1    -8.175565080977093E1    -1.025109642448083E2    -8.534954276629057E1     1.191721617738413E2
                        -8.275132954385278E1     7.993852126028297E1    -8.218354721196977E1    -1.785250398590564E2    -9.530348756740593E-1   -2.439846148824396E1    -9.021844639838696E1    -3.373319950773116E1
                        -8.410166103603073E1     9.473589548574284E1    -9.376106459320903E1    -1.730755840481496E2    -8.631509478191488E1    -5.409296261201871E1    -9.158185100831520E-1   -2.152016963688419E1

 3.040000000000000E7    -2.612779080751042E-1    8.812383342968121E1    -6.885800974521968E1     1.281335178018879E1    -8.937146084043494E1    -1.591431032885300E2    -1.011750435812816E2    -4.858033971365985E1
                        -6.806822866245321E1     8.679455041360061      -2.865056291640742E-1    9.563903929774965E1    -8.617529384739235E1    -1.548714865635281E2    -9.220581160578105E1     1.442998969526924E2
                        -8.808454648915020E1    -5.138023961186817      -8.431835925004381E1     2.222896833061499E1    -9.507138700319805E-1   -2.474249081549096E1    -8.170464546096460E1     1.339378293048953E2
                        -9.043995786570604E1     1.566142094596055E2    -7.833945932981507E1    -1.733470153104600E2    -9.384748588670698E1     1.304340574700286E2    -9.182960518749793E-1   -2.182528830689913E1

 3.042500000000000E7    -2.608379236816377E-1    8.784156327900877E1    -6.948241706815702E1    -4.939542789163258      -9.412110629036887E1    -1.371982542971953E2    -8.174029304543296E1     6.060901777907820
                        -6.835055301773865E1     8.060634906317056E-1   -2.836860762840562E-1    9.540972081061175E1    -9.250839827420526E1    -1.120342251060052      -9.887827192923666E1     6.399807807105359E1
                        -8.795667581628861E1     1.499676894551782E2    -9.055949936458454E1    -1.238474289274906E2    -9.484717653744745E-1   -2.510176340203119E1    -8.418074916314161E1    -5.168524130908726E1
                        -8.502414220853152E1     1.225959870571213E2    -8.792218958742268E1     3.109425534719079E1    -9.582203160583094E1     2.167910424262743E1    -9.107644211624815E-1   -2.214522256222931E1

 3.045000000000000E7    -2.649294440411595E-1    8.742355586518984E1    -6.852896411818298E1    -5.541010267268010      -8.570548890775984E1    -5.384130659906322E1    -9.247184557310365E1    -1.093998989362944E1
                        -6.836242355747963E1     4.933333651696755      -2.864502664787576E-1    9.502282358082570E1    -9.384229538339660E1    -1.057543073574776E2    -8.745146708257325E1    -5.120434867731479E1
                        -9.926777222709383E1    -1.501666465966924E2    -9.037178053120792E1    -9.387157676402781E1    -9.475090062186542E-1   -2.538646671006644E1    -9.000975848107092E1     1.364549203718290E2
                        -9.385801046329462E1     1.075752206931468E2    -8.486784126611778E1    -1.662016798172885E2    -8.989143754068306E1     2.011304290012804E1    -9.127065202903850E-1   -2.241281084586111E1

 3.047500000000000E7    -2.708216622062748E-1    8.713938528021006E1    -6.860232011895437E1     2.051242847474283      -8.606205565813750E1     1.076958439761329E2    -8.805621835682048E1    -1.057161788823969E2
                        -6.896212083459811E1     7.136443793426121      -2.808153766596812E-1    9.472891159968064E1    -8.448688768859027E1     1.538557802255643E2    -8.295276990825711E1     1.206952319857417E2
                        -8.590786091982345E1    -5.997852956587359E1    -8.772607473287147E1    -2.747658209842688E1    -9.437051806384387E-1   -2.565604391864987E1    -9.276316678107165E1     1.824364163076456E1
                        -9.316234656225575E1     7.107705895628129E1    -9.971273281309037E1    -5.827892767143964E1    -8.514979838682494E1     6.505157511196164E1    -9.162791240998830E-1   -2.273434212965325E1

 3.050000000000000E7    -2.670543013651355E-1    8.679353829995348E1    -6.892242631708059E1    -5.171068592791835      -8.354868374521945E1     1.532393425912927E2    -8.227241305020581E1    -3.257547395979577E1
                        -6.917175721010605E1     8.430256860706798      -2.795064934330841E-1    9.440472167092675E1    -8.912337871884270E1     2.551751918494964      -8.503676363105581E1    -4.110800973436963E1
                        -8.734972443628088E1    -1.094637279926447E2    -8.799796846869899E1     1.676066922553364E2    -9.507502975127430E-1   -2.601258285254757E1    -8.744206839288013E1     5.497525239779816E1
                        -8.700013904413255E1     3.054004407407447E1    -9.222605950756187E1    -7.452042716095297      -8.266790327192112E1    -1.570442648165937E2    -9.136949296067136E-1   -2.304948976398223E1

 3.052500000000000E7    -2.603375340214441E-1    8.644614162828295E1    -6.894406864402482E1    -2.854657129456903      -9.136887997405285E1    -3.873148884479939E1    -9.634038150485516E1    -7.000882611135128E1
                        -6.919171809755105E1    -8.386457320471273      -2.791847087209467E-1    9.414412442622529E1    -1.003525608563337E2     1.160222542092026E2    -8.170107435715975E1     7.109869561976811E1
                        -8.477844807026473E1     4.057627388377023E1    -8.810247236555510E1     2.289800396343562E1    -9.498703405917144E-1   -2.631214529577689E1    -8.795979843926210E1     1.334675015858244E2
                        -9.129354484469843E1    -1.373773814236341E2    -8.331209340304356E1    -1.226066482470530E2    -8.285962719943026E1     3.304188112849934E1    -9.139927448401075E-1   -2.334144196483588E1

 3.055000000000000E7    -2.573369098857186E-1    8.603656373929519E1    -6.920370750740709E1    -3.944828029044524E-1   -8.543627268872524E1     1.053955340217736E2    -8.085132391434037E1     1.738867972123607E2
