#  HZ   S   DB   R     50.00 
! Rohde & Schwarz Vector Network Analyzer 
! Rohde-Schwarz,ZNB8-4Port,1311601044102961,2.82
! Created: UTC 2/13/2019, 11:53:38 AM
! freq[Hz]                db:S11                  ang:S11                 db:S12                  ang:S12                 db:S13                  ang:S13                 db:S14                  ang:S14
!                         db:S21                  ang:S21                 db:S22                  ang:S22                 db:S23                  ang:S23                 db:S24                  ang:S24
!                         db:S31                  ang:S31                 db:S32                  ang:S32                 db:S33                  ang:S33                 db:S34                  ang:S34
!                         db:S41                  ang:S41                 db:S42                  ang:S42                 db:S43                  ang:S43                 db:S44                  ang:S44
! 
 3.000000000000000E7    -2.734843046906315E-1    9.347256619093473E1    -6.916187830998781E1     2.025322925574884E1    -9.029444209236566E1    -1.604197855421656E2    -9.011489960372222E1     5.482347860083751E1
                        -6.934259610226773E1     1.108414727316412E1    -2.859764244396818E-1    1.006393044113680E2    -8.235633801784468E1     8.866412466705063E1    -9.644893170416411E1     3.248477856010378E1
                        -9.232581800339031E1    -7.772652431141422E1    -9.056990301899022E1     1.257856049053706E2    -9.451477208484709E-1   -1.964989464589882E1    -8.673304454440115E1     1.503867210051952E2
                        -8.851284963848326E1    -1.988494062775890E1    -8.339490059131416E1    -1.484387820343828E2    -8.073450845096548E1    -2.601084306715065      -9.131962841871445E-1   -1.692365611922289E1

 3.002500000000000E7    -2.730531353082225E-1    9.319468208479707E1    -7.162820390468481E1     2.381077803326175E1    -1.061303043522693E2     1.142339972194664E2    -8.954663788950271E1     1.364830046992993E2
                        -7.064092564355593E1     1.041323429865343E1    -2.961752563563475E-1    1.002689580742513E2    -8.068020690546638E1    -3.187866353190917E1    -8.389294207923975E1    -5.177082722186604E1
                        -9.105132848570734E1    -3.097183574347450E1    -8.580972486344719E1     1.110311115658753E2    -9.442764514768061E-1   -1.996054302655738E1    -9.441115099538655E1    -2.918181526785282E1
                        -8.500457106714379E1     3.556470988129988E1    -9.450218257141508E1    -6.943300789354181E1    -8.409041925802143E1    -4.662799251188845E1    -9.133984795236945E-1   -1.719581907868365E1

 3.005000000000000E7    -2.830761747361810E-1    9.283004791007539E1    -7.149043900900057E1     1.025515823927155E1    -8.277235737341496E1     1.459833577117595E1    -7.922676053185442E1    -1.368938748743664E2
                        -6.950204958421092E1     1.809925621620154E1    -2.860053195101017E-1    1.000280758981395E2    -8.400122220161018E1     1.787684971635846E1    -9.228139274477331E1    -6.161094726763248E1
                        -9.609819382865294E1     1.490108342972525E2    -8.615470816918993E1     8.248621652443920E1    -9.419174699859058E-1   -2.027375762196793E1    -8.822595138311911E1     1.016899745603823E2
                        -8.913334108101766E1    -3.414678792382462E1    -8.319585672500766E1     1.003127455659027E2    -7.941043182899264E1    -8.331580332758175E1    -9.096234544369813E-1   -1.751580119977674E1

 3.007500000000000E7    -2.652935487500073E-1    9.246943406144969E1    -7.016833480897051E1     7.254285126626580      -8.604523651625101E1    -3.940736313710024E1    -9.312867612899160E1    -1.434456200823445E2
                        -7.024273442663574E1     1.857282730326909E1    -2.854216412693652E-1    9.964611372852438E1    -7.970896136477913E1    -1.136063091781958E2    -7.972622291296469E1     1.642989195308584E1
                        -8.538978395111614E1     1.592725315896231E2    -8.524402331337350E1     1.613033285373612E2    -9.451213138203389E-1   -2.059509176689195E1    -7.863358958429642E1     1.126563982566834E2
                        -8.921642447079390E1    -2.473417736957640E1    -9.548246465147209E1    -1.065629869403879E2    -9.694070213671958E1     7.265055661088808      -9.139070971462210E-1   -1.779063943551329E1

 3.010000000000000E7    -2.695265906948624E-1    9.217798696772044E1    -6.907016228493824E1     7.429357447071125      -9.604800485361247E1     8.599696592204469E1    -8.226657828748324E1    -1.898085011467903E1
                        -6.993381052113521E1     7.609572573412925E-1   -2.931653048676279E-1    9.936210235681446E1    -8.307925689831338E1     9.009998152480775E1    -9.345794179210546E1     4.003932303936441E1
                        -8.312502213250872E1    -3.941443140627924E1    -8.386539144861243E1     5.670308958506866E1    -9.439393780929967E-1   -2.093106269030348E1    -8.432398666071586E1     1.117294905129835E2
                        -8.860163002974576E1    -2.350443582930373E1    -8.291440075679562E1    -1.777911119521087E2    -8.757223623025277E1    -1.057455199979990E2    -9.102987348106729E-1   -1.813015372518717E1

 3.012500000000000E7    -2.673018262229078E-1    9.177895411880685E1    -7.126203325068248E1    -2.166407102327627      -7.569482925136791E1     7.703929636346526E1    -8.523281893193321E1    -1.362816625338600E1
                        -6.878618232391544E1     1.985363464017724E1    -2.824778337745673E-1    9.907087673863543E1    -8.044396989476239E1    -1.293585352483106E2    -9.093242148055965E1     1.032230871454757E2
                        -8.390919554552434E1    -6.169450110833957      -8.412852808532622E1    -2.811387456957969E1    -9.518289214561468E-1   -2.124152823417798E1    -9.648496412456299E1     5.886101770017847E1
                        -9.545306442039241E1     1.202738448558242E2    -1.151209048588685E2    -2.460638773755639E1    -9.931217474470796E1    -2.393629614681590      -9.172590504659262E-1   -1.843024808474489E1

 3.015000000000000E7    -2.694148747828110E-1    9.151793149669774E1    -7.122161197362451E1     1.598102395342619E1    -8.388180677603252E1    -3.977319815331600E1    -9.300505198735149E1    -1.007843168697384E2
                        -7.224050607540301E1     1.493379903669301E1    -2.893500987754998E-1    9.873436354469959E1    -8.265334959412675E1     2.542722816027236      -9.122362406080625E1    -3.711057047507195E1
                        -8.584354885766656E1     1.180579052750225E2    -8.601838309083028E1     1.058812502305533E2    -9.457099428193623E-1   -2.150324007343458E1    -8.823027941276592E1    -6.652944466118106E1
                        -9.578757739516212E1     1.759578823998535E2    -8.979022569894950E1     2.502545009560969E1    -8.747223241308063E1     5.964503807246133E1    -9.122942888267217E-1   -1.872508760710430E1

 3.017500000000000E7    -2.632069415862633E-1    9.112091217616097E1    -7.173214785267484E1     1.221724520543124E1    -8.712898886477473E1    -9.436891679306534E1    -8.794541539132075E1    -7.431469993038282E1
                        -7.008488249560371E1     1.712568969165742E1    -2.868131694107515E-1    9.839933132888487E1    -8.969167804216772E1     9.902043281495456E1    -8.833695825089434E1     1.352376302038045
                        -9.162977100697263E1    -1.397826150152374E2    -8.456580972756518E1     1.661913535027943E2    -9.396591209457550E-1   -2.183695714635719E1    -8.228354597366516E1     1.273387561438578E1
                        -8.464546804533130E1     2.741074526754840E1    -8.196357709637313E1     9.374796801653327      -8.886528796556087E1     1.079076411098894E2    -9.082928697583964E-1   -1.903305715133093E1

 3.020000000000000E7    -2.659709329797689E-1    9.083850520901854E1    -6.962832827901841E1     9.754764548131437      -8.855217735906315E1     4.327995115535101E1    -9.694703607025147E1    -1.266943855948788E2
                        -6.850288232294464E1     4.388386117517950      -2.848695817571078E-1    9.810651144378650E1    -8.245725734042573E1     6.246342295297039E1    -8.522332567394457E1    -8.530530071276104E1
                        -8.865731966359293E1     1.255600316589822E1    -8.911301247416409E1     1.366845286559669E2    -9.498340279405537E-1   -2.214922677584119E1    -8.914408653172498E1     2.580147249312663E1
                        -1.015269241964624E2    -7.338232530533091E1    -9.411014600058080E1    -9.602679317404622E1    -8.081893644056471E1    -1.216794903370109E2    -9.182147978775601E-1   -1.936983182756297E1

 3.022500000000000E7    -2.722558432688097E-1    9.047527876695040E1    -7.027119339001111E1     5.109408729761818      -8.294027846483884E1     4.866613637650352E1    -8.919939606756402E1     8.247984050624541E1
                        -6.839462228807386E1     1.194769376657341E1    -2.941410878178272E-1    9.779291253592476E1    -8.399226346477499E1    -9.520796649277732E1    -8.316222463581967E1    -1.039800991361345E2
                        -9.290070171881621E1     1.759447663998610E2    -8.178636886296243E1    -1.046890616429316E2    -9.396231474810001E-1   -2.247883028019474E1    -8.280040865856221E1    -6.011079445413317E1
                        -8.791017575974007E1    -8.520205258603039E1    -8.869440848412114E1    -9.818652432204610E1    -9.182305044658355E1    -1.056718859734070E2    -9.136841798009974E-1   -1.967163910040278E1

 3.025000000000000E7    -2.648017717302720E-1    9.012920834354937E1    -7.048244063829455E1     6.548055175043218      -8.781919333908958E1    -7.996930590218073      -9.170376568973276E1     6.755462695639739E1
                        -6.992211404181305E1     1.571453224939724E1    -2.936131855524886E-1    9.748442966505481E1    -8.706373837740729E1     1.612530502605926E2    -9.896629848664480E1     1.319022956090018E2
                        -9.822191565483790E1     8.037806631207381E1    -9.678532522016818E1    -5.682302619036481E1    -9.423317619198401E-1   -2.287942670846236E1    -8.149571454540956E1    -3.626965253810752E1
                        -9.629190735696221E1     4.266840990050450E1    -8.755532869864251E1     4.302086965426460E1    -8.483181904805824E1    -9.233479608131792E1    -9.154667065169541E-1   -1.995560837834573E1

 3.027500000000000E7    -2.657715709686824E-1    8.980904978240085E1    -6.947018953083872E1    -1.665540222242991      -8.543861908731115E1    -5.884941496243047E1    -8.230972454988805E1    -1.695181231354659E2
                        -7.103865084397748E1    -7.191309238547158      -2.801608833033256E-1    9.714052055519431E1    -8.230460958403066E1     1.180023030172009E2    -7.945719436795555E1     2.314656160455424E1
                        -9.582928416966948E1    -1.276389836738673E2    -7.914100451378528E1     6.206965408321688E1    -9.363743292008375E-1   -2.311320698930627E1    -8.565701311902026E1     3.286755585305567E1
                        -8.122830898619378E1     8.725598667619764E1    -8.838308599689056E1    -1.565144366049961E2    -9.530818567198503E1     4.937539655774017E1    -9.139258161473963E-1   -2.026377737684457E1

 3.030000000000000E7    -2.716915461554576E-1    8.947671270620920E1    -7.228512918503300E1     7.108384134029976      -8.564135279801525E1     7.781820252571613E1    -8.853107808618429E1     1.600690727896481E1
                        -7.069437676905694E1     2.408546906920906E1    -2.882413866107205E-1    9.688410074872175E1    -9.641552041250284E1    -6.702823621932107E1    -8.936102080602711E1    -1.341786574917283E2
                        -9.414333472284149E1     1.690670953986199E2    -1.045327920276800E2     1.010192326920877E2    -9.461868170808758E-1   -2.341023511034917E1    -8.462914059591560E1    -1.288337934309822E2
                        -8.530126075534599E1     1.673032178791855E2    -9.449568487223631E1     1.751942038595296E2    -8.348522089143589E1    -1.789267520122569E1    -9.134034860121285E-1   -2.057378407604762E1

 3.032500000000000E7    -2.696360324901911E-1    8.914714473023099E1    -6.799057883963366E1     1.090877197260866E1    -8.786497056286576E1     1.307883607563921E2    -8.741199853158820E1     2.393088726764720E1
                        -6.769306672997328E1     3.397709611922708      -2.785654463872422E-1    9.651030849347357E1    -9.086156283335026E1     1.867079849309526E1    -8.654979137210476E1     1.625927171054889E2
                        -8.855499220240361E1     4.598319938890967E1    -8.694218061394315E1    -1.358849661690803E2    -9.407966742669209E-1   -2.377689543300463E1    -8.677768802005414E1    -3.009964558543900E1
                        -8.810870687559091E1     1.442548411501631E2    -8.552665940291995E1    -1.427264133509104E2    -8.333286799011759E1    -3.965573837550088      -9.129142862333208E-1   -2.084882298933120E1

 3.035000000000000E7    -2.622280498257587E-1    8.878693149320252E1    -7.034692422973197E1     5.174014515812740      -8.489997773841381E1    -1.472039375609253E2    -8.907219167732136E1     4.263632600432965E1
                        -6.860172910545496E1     1.480225137909693E1    -2.842809571345398E-1    9.622242407697499E1    -1.020607071093243E2    -1.136696852172338E2    -8.465126844767367E1     1.451444339120681E2
                        -1.081827644461741E2    -1.513941516941875E2    -8.460835470924955E1    -3.668237020637689E1    -9.480138064848116E-1   -2.407972620063857E1    -8.720905101853623E1    -6.245868110788306E1
                        -8.491376118179670E1     4.861151042119090E1    -8.487541714974083E1     4.688061191520524E1    -9.615928942558021E1    -1.405457319805061E2    -9.125837046474492E-1   -2.119975253947732E1

 3.037500000000000E7    -2.604576705467172E-1    8.846388585229796E1    -6.914406811312691E1     2.245550421737938      -9.316836468255667E1    -7.296319719154869E1    -9.232344223376236E1    -1.336429259901072E2
                        -6.905242546121139E1    -7.215266013551646      -2.811648545362041E-1    9.592392711709377E1    -9.050454692838359E1    -3.945045182435310E1    -8.867812484416264E1     6.745134928106339E1
                        -8.342077086748701E1    -1.505828048272993E2    -9.722168094432610E1    -1.024643020614006E2    -9.480080359197745E-1   -2.437481883957624E1    -8.223293910460538E1    -7.357345480176009E1
                        -8.254370737941493E1     1.720077385950258E2    -8.410912395193418E1     9.332742163978733E1    -9.459120911259282E1    -9.555176097712888E1    -9.137350375143680E-1   -2.149209874008458E1

 3.040000000000000E7    -2.633683568525025E-1    8.812044628967057E1    -7.023118516498323E1    -2.087682412752936      -8.290769333525724E1    -1.510787225348532E2    -8.149619983944922E1    -1.239409059477876E2
                        -6.903978066572378E1     2.921989420576880      -2.917189166052436E-1    9.563298565058805E1    -8.280841084987081E1    -3.292401981380890E1    -8.493592059153089E1     1.194898107265043E2
                        -8.728961776956815E1     4.298858247656402E1    -9.049740734084195E1     1.236308812960100E2    -9.475379585973988E-1   -2.470407418511825E1    -8.606885162854043E1     1.031482838706125E2
                        -8.437794954908632E1    -1.577277980209161E2    -8.836951404754679E1    -7.465305345376397E1    -8.674727557907268E1    -1.120721363231381E2    -9.167303800987527E-1   -2.180489027925625E1

 3.042500000000000E7    -2.647435874562015E-1    8.777619492014397E1    -6.917344601296963E1     1.567681744184718E1    -8.550716079963947E1    -1.436362352820266E1    -8.761399509949902E1     8.103944970212071E1
                        -6.824109345734502E1     7.328623338026956      -2.863107979575077E-1    9.535557027555186E1    -8.368670239099835E1     1.642267035337468E2    -8.790230918063442E1    -9.275694763125456E1
                        -9.404451801931992E1    -5.052443045964056E1    -8.976920965785001E1     1.209160063544739E2    -9.540580124726518E-1   -2.503061014981279E1    -9.003786737301485E1     2.883346245415322E1
                        -8.880373324959987E1     2.737805563094081E1    -8.700723117876160E1    -5.300121807196904      -8.053678980528517E1     1.171550596090272E1    -9.137443014163659E-1   -2.208979624936616E1

 3.045000000000000E7    -2.666173969897451E-1    8.742924497974303E1    -6.897345746864849E1     9.482213362396040      -8.352811977353230E1     8.511908860721108E1    -8.542432282460044E1    -1.410268674017440E2
                        -6.674014213119898E1     1.243874336985737E1    -2.833148869108614E-1    9.498617446773217E1    -7.937496398156503E1    -1.393745033737631E2    -8.132292505281234E1     1.013327115109107E2
                        -8.973758520846771E1    -9.303602874452773E1    -8.598830300515517E1    -9.702867103500904E1    -9.447651889728332E-1   -2.534040214726465E1    -8.752260603717225E1    -1.987425181963530E1
                        -9.315244458883178E1    -1.311257031919669E2    -8.625031785052718E1    -8.250147140652997      -8.300117083767523E1     1.304225766163632E2    -9.102450744467079E-1   -2.238363320678025E1

 3.047500000000000E7    -2.661531480283073E-1    8.708964243447450E1    -6.764287938167887E1    -3.033740923173611E-1   -8.941964474810824E1     1.595776212125797E2    -9.171093548949172E1     1.268627249518941E2
                        -6.853923291856843E1     2.392955701523835      -2.809573809571018E-1    9.473360504975044E1    -8.439092981322425E1    -1.146078746393519E2    -8.975446577312538E1    -1.701680494870349
                        -8.243283082344809E1    -8.727319552793714      -9.107810509933272E1    -1.476212477517880E2    -9.487384001567258E-1   -2.560049818021857E1    -8.172698963926378E1    -5.455339519663718E1
                        -8.143641152617778E1    -3.348847033326275E1    -8.528339663025423E1    -1.700789958411760E1    -9.387475812646557E1     5.057868828532011E1    -9.136186812384238E-1   -2.269181485709356E1

 3.050000000000000E7    -2.636586942483063E-1    8.676536779125914E1    -6.858573820483547E1     1.100726634358448E1    -9.775411125915235E1    -6.949420609486774E1    -8.125491959458159E1     1.297683984017746E2
                        -6.776726412435762E1     3.127358396522984      -2.848742623258063E-1    9.438531439368103E1    -8.465012246103098E1     3.854907096907351E1    -8.852386607159795E1    -7.247784077815643E1
                        -8.804858141580611E1     8.650507631738497      -8.662296789217847E1     3.281979272830589E1    -9.484647311855938E-1   -2.598364664739735E1    -8.678804162538798E1    -1.634749785541181E2
                        -8.456466137435852E1    -1.206094203105497E2    -9.618199129434794E1     1.288041344064870E2    -8.582774897889959E1    -1.034461091764084E2    -9.147899603430120E-1   -2.298299910932811E1

 3.052500000000000E7    -2.546131441424686E-1    8.643491595776915E1    -6.909929125815032E1    -5.907559574088046      -9.073601799504371E1     5.647919411465743E1    -9.207633880586351E1     1.007298273213965E2
                        -6.910197195424486E1     5.812941625287190      -2.844534976345504E-1    9.410748124176759E1    -8.937161321055284E1     8.164876585255733E1    -8.515196453600518E1    -1.563812308508687E2
                        -8.480262304911500E1    -2.004257294570318      -8.369841720761451E1     3.307318442418274E1    -9.480128322430720E-1   -2.630777090584839E1    -8.343295429788752E1    -1.309510061479586E2
                        -9.111909111303405E1     1.488654511188454E2    -9.243207683201591E1    -1.713309640724633E2    -8.607685692877084E1    -2.016716943675882      -9.146549966768058E-1   -2.332858076622831E1

 3.055000000000000E7    -2.632307140975693E-1    8.604271732187291E1    -6.839280017744889E1    -2.072246345986144      -9.001006645068426E1     6.587910333738329E1    -8.556527581468862E1     9.020075876516117E1
