#  HZ   S   DB   R     50.00 
! Rohde & Schwarz Vector Network Analyzer 
! Rohde-Schwarz,ZNB8-4Port,1311601044102961,2.82
! Created: UTC 2/13/2019, 12:06:13 PM
! freq[Hz]                db:S11                  ang:S11                 db:S12                  ang:S12                 db:S13                  ang:S13                 db:S14                  ang:S14
!                         db:S21                  ang:S21                 db:S22                  ang:S22                 db:S23                  ang:S23                 db:S24                  ang:S24
!                         db:S31                  ang:S31                 db:S32                  ang:S32                 db:S33                  ang:S33                 db:S34                  ang:S34
!                         db:S41                  ang:S41                 db:S42                  ang:S42                 db:S43                  ang:S43                 db:S44                  ang:S44
! 
 3.000000000000000E7    -2.971172630402172E-1    9.336113818313768E1    -7.032631632140954E1     3.037570080956273      -8.303014333207997E1    -9.952950911547582E1    -8.688162586429895E1     1.677125345028887E2
                        -7.043707230995194E1    -3.824906221850032      -2.909763416526495E-1    1.005560757060639E2    -9.395288560349977E1     1.446833406468955E2    -8.542749714195283E1    -5.503487273246616E1
                        -8.706100427503245E1     1.049724017960588E2    -9.146650486191530E1     1.029082357823620E2    -9.355552883757855E-1   -1.963038433466959E1    -9.384154261782206E1     1.236878628663187E1
                        -9.994428390349458E1    -1.079745493839505E2    -8.989421155482413E1     9.455921826054113E1    -8.699862634896114E1    -1.644069884137433E2    -9.111518145960973E-1   -1.691956534156875E1

 3.002500000000000E7    -2.999654256042009E-1    9.300626375275718E1    -6.981195083644023E1     1.796527466023987E1    -8.568657081096033E1    -4.297244849886715E1    -8.320469903993347E1    -1.003649416921144E2
                        -6.956232443552671E1     3.686127219530523      -2.970291374219846E-1    1.002450271881628E2    -9.691661238827221E1    -1.643162263085469E2    -8.742956483922052E1    -1.322905033308994E1
                        -7.912742938512443E1    -9.761759693827773E1    -8.350305990852247E1    -1.217481915115413E2    -9.401083331647577E-1   -1.998398935984198E1    -8.160018950925527E1    -4.688590958323312E1
                        -8.807960641296999E1    -7.139338287156313      -8.153513596034131E1     1.218886816552271E2    -8.393334762172492E1     1.525188744801762E2    -9.131816585652884E-1   -1.721341065495830E1

 3.005000000000000E7    -3.002075714692677E-1    9.271737652551784E1    -6.959232301119974E1     1.764050346645669      -8.133438274308340E1    -8.705955264878520E1    -8.274823866812149E1    -1.280434558013836E1
                        -6.860693372087327E1     4.725590251100369      -2.944862416498952E-1    9.994887350488757E1    -9.082724050633046E1    -4.991002459597286E1    -8.075923056610931E1     2.928814284397698E1
                        -8.767559401042449E1     1.749153663646462E2    -8.582699496460437E1    -1.041405368128693E2    -9.423898132012832E-1   -2.027230012583554E1    -8.674230787648787E1    -1.756342883574726E2
                        -9.286945482816617E1    -1.227097871595146E2    -8.921977163201225E1    -7.967111563814154E1    -9.060537143856811E1    -4.146020970660548E1    -9.134630994730306E-1   -1.755525957188079E1

 3.007500000000000E7    -2.954103379251956E-1    9.235400458122162E1    -7.084876007803591E1     8.860947272274460      -8.515566597886181E1    -6.655749385849389E1    -8.622333693806291E1     1.365883238097259E2
                        -6.913302387231170E1    -2.942451564275254      -2.913793121111943E-1    9.964499630691351E1    -8.146696198694848E1     7.332173013811906E-1   -8.924078310594726E1     6.123269791456023E1
                        -8.919467834466830E1    -1.427857039962065E2    -9.158426454786449E1    -7.419830140229168E1    -9.494504077103328E-1   -2.059184045939872E1    -9.460844357435508E1     3.337418087055292E1
                        -8.837108942781056E1     1.766711820399720E1    -8.386042967140955E1    -9.188884117614077E1    -7.791108199633938E1    -1.371498696634139E2    -9.139923889356582E-1   -1.781118598655665E1

 3.010000000000000E7    -2.916469382471686E-1    9.201791753527520E1    -7.095758193548417E1     8.328991263155908      -8.152268519200339E1    -8.670031617850049E1    -8.519810900558410E1    -1.305685033179196
                        -6.981577037748941E1    -2.397223903532762      -2.976666473520389E-1    9.929128412371114E1    -8.330401162725337E1     7.815585851663018E1    -8.546016278255964E1    -1.481477589268751E2
                        -8.562606336401666E1    -1.030112586358536E2    -9.033392285905933E1     1.764134323893421E2    -9.419500924899991E-1   -2.094158581757714E1    -8.766400522550448E1     8.105307141284830E1
                        -9.052554238645789E1    -1.451555545785009E2    -8.854924199753198E1    -1.116885045407715E1    -1.010024071573454E2    -9.563000132776001E1    -9.148359971819833E-1   -1.812909740113675E1

 3.012500000000000E7    -2.922289670428368E-1    9.169181746368291E1    -6.834472020249206E1     8.419179797860345      -8.095241319879111E1     1.056383778065747E2    -9.389331863621609E1     1.736038981599528E2
                        -6.973865392363111E1     4.158301936129688      -2.914812387554497E-1    9.902779254689362E1    -9.375381416432794E1    -9.698260014045349E1    -8.405033941568617E1     9.994674763567574E1
                        -8.972934707970877E1     1.722891605237610E2    -8.406126369863409E1     1.264707176979332E2    -9.391706622004168E-1   -2.126192052621147E1    -7.960458352972658E1    -3.288159125619189
                        -9.521090487985470E1    -8.535985095604839E1    -8.511233960840224E1    -2.556253841492640E1    -8.697272025192881E1     1.463888401585812E1    -9.161389002394578E-1   -1.844781306801544E1

 3.015000000000000E7    -2.911566360685119E-1    9.134568530081958E1    -7.036890133203420E1     2.904017495079728      -8.446901887519275E1     9.773217788133086E1    -8.152014735824268E1     1.290337359103183E2
                        -7.089156858308363E1     1.059141091100983      -2.966757992248402E-1    9.870188881828300E1    -8.850502171439244E1     1.773793350610787E2    -9.655810128230914E1    -5.710080252852219E1
                        -8.014808589411902E1     4.721658025519299E1    -8.653285842014414E1    -1.775050091697632E2    -9.421588861973450E-1   -2.151932878459548E1    -9.138289068702466E1    -1.556023748782519E2
                        -8.198012036911514E1    -1.657064532167485E2    -8.712033670150099E1    -1.374200713561387E2    -9.263018315888778E1    -7.346936413811996E1    -9.097349625243446E-1   -1.873018101533738E1

 3.017500000000000E7    -2.910544595860014E-1    9.103294973048281E1    -6.966296084315596E1     1.045345302595480E1    -8.226917791419588E1     4.684173621723219      -8.698123112608488E1    -1.363526843634632E1
                        -6.958279118326499E1     1.718764800402027E1    -2.920247066220446E-1    9.838122506861680E1    -8.968802037017977E1    -1.017085901024741E2    -8.324061318846302E1    -1.501919440505916E2
                        -8.785237233770850E1    -1.532394171322261E2    -8.385344086610795E1     3.778525438614128E1    -9.423869645018970E-1   -2.186680544518941E1    -8.069739152175555E1     1.694333105717018E2
                        -8.967786007339504E1     8.488176857291187E1    -8.700002394551824E1    -1.237656425187969E2    -9.837432662330868E1    -1.306825760953254E2    -9.120967247034272E-1   -1.907147525219742E1

 3.020000000000000E7    -2.880126137955639E-1    9.066284093186086E1    -7.023748802928097E1     1.418269717488172E1    -8.541467112549853E1     1.698855780657465E2    -8.515457731708025E1    -1.800312794290997E1
                        -6.850019853097260E1     1.289867615683854E1    -2.913127017547874E-1    9.810178861018513E1    -8.567783083363919E1    -1.152732746644392E2    -8.363667561793407E1     1.633064609700122E2
                        -1.002722652120906E2    -3.378631181461128      -8.291034537485379E1    -1.099573507961101E2    -9.451941962287280E-1   -2.219968168249390E1    -8.196817451154892E1    -4.530473220746394E1
                        -8.564398274793986E1     1.091271607437281E2    -9.136973856232045E1     1.318332602548076E2    -8.540965366443098E1     1.393263636808864E2    -9.128861688118952E-1   -1.933718715897984E1

 3.022500000000000E7    -2.948825467885353E-1    9.035421192365301E1    -7.095031690303061E1     1.278796946826306E1    -8.928905504603968E1     5.077866567503754E1    -8.494455743296888E1     7.920831053874016E1
                        -7.012134846388607E1     1.836084000373623      -2.945336456959463E-1    9.776917658781876E1    -8.731013257955846E1    -1.725224173761398E1    -9.172013570562382E1    -9.486654382611918E1
                        -8.535128483646354E1    -1.321465794252014E2    -8.346506410229095E1     7.564845450860607E1    -9.449067589286511E-1   -2.247825329752387E1    -8.650821557026484E1    -3.334386123925177E1
                        -8.610453030180963E1    -1.546789965709651E2    -8.822222623742601E1    -1.320241551600622E2    -1.000206428681016E2    -4.202996691445066E1    -9.156740625679051E-1   -1.965488499123122E1

 3.025000000000000E7    -2.910418481014762E-1    9.001346094011942E1    -6.943928375985281E1     4.469999473191506      -9.363051320848422E1    -3.897933163764748E1    -9.131229590130765E1     1.413262331272774E2
                        -6.860990664332688E1     6.975124250666138      -3.032341422410257E-1    9.744342163237347E1    -8.112662151267786E1    -1.639086701116875E2    -8.326233795228109E1     1.100888301157213E2
                        -8.114740134782676E1    -6.528778950168056E1    -9.249435671750109E1    -1.691154383555430E2    -9.411877220859576E-1   -2.284404795030942E1    -8.617868376231286E1    -1.347831097156685E2
                        -8.377719664764946E1     6.810006272444879E1    -8.939256156367944E1     6.458402671662857      -9.223811268712622E1     1.436744822328375E2    -9.187866844376104E-1   -1.996559823497100E1

 3.027500000000000E7    -2.920235347143285E-1    8.969122139950427E1    -7.189267992612639E1     1.101589883320937E1    -9.009938747120526E1    -1.254831681898265E2    -8.386518497479997E1     1.218082124696063E2
                        -6.916043852884783E1    -3.680118160673836      -2.889088674362362E-1    9.711829344644806E1    -8.389007277673082E1     6.878857369396233E1    -8.387747784772134E1    -4.607525949373444E1
                        -8.581967211220204E1     1.161568898850596E2    -1.008241830293134E2    -7.896186416465281E1    -9.425601580343234E-1   -2.317032061575349E1    -8.268379996196630E1    -8.375565681076503E1
                        -8.278103011351041E1     6.485720090716883E1    -8.191320663437266E1     4.605394937774926E1    -1.039913790710339E2     1.019635930552678E1    -9.125960224031533E-1   -2.028104142390037E1

 3.030000000000000E7    -2.894742112327762E-1    8.938757333901879E1    -6.917276037443361E1     5.036852604485855      -8.482211177963471E1     7.637095366412109E1    -8.926315679055287E1     4.924018429824704E1
                        -7.028325043174436E1     1.704335573866732      -2.940518637333352E-1    9.685822735811536E1    -8.229325657322812E1    -8.566090618967014E1    -8.745007694971923E1     9.799828387962150E1
                        -8.391602702657018E1    -1.505580787779939E2    -8.100050922749529E1    -7.804426929245201E1    -9.492171349322716E-1   -2.344530647982289E1    -9.060099237710622E1    -1.150665798448342E2
                        -8.890397055597690E1    -1.327009152222607E2    -7.989213298519282E1     1.221838588027085E2    -8.979635631409806E1     9.186590459365692E1    -9.076429282766830E-1   -2.058026857078235E1

 3.032500000000000E7    -2.957540248820118E-1    8.900215740044587E1    -7.033278292961478E1    -5.182811718214134      -8.436169213875087E1     1.719382003475579E2    -9.301438603592358E1    -5.919306433170974E1
                        -6.904707481393561E1     3.214640196702623E-1   -2.813993914877393E-1    9.649698073964970E1    -8.507014223769177E1     1.791353572969322E2    -8.388815404241038E1     1.320855439120010E2
                        -8.444867423265883E1    -4.005791500421138      -8.139379004039752E1     2.206961481347966      -9.517241391126841E-1   -2.373892724052541E1    -8.200867052503041E1     1.212783489836461E2
                        -8.954906430664536E1     6.495701235057382E1    -8.851755681547239E1     1.571070367898310E2    -8.902623712377826E1     3.994281793792097E1    -9.118457380682331E-1   -2.085719669667105E1

 3.035000000000000E7    -2.879318549048980E-1    8.869519091613761E1    -6.910822463935389E1     1.112812762833808E1    -9.520335678400514E1    -1.291597872458986E1    -8.623573778239715E1    -9.908295509866755E1
                        -6.797675370734507E1    -1.145421430903966      -2.889881907001595E-1    9.620893972227550E1    -8.712464610285879E1     6.629442706252437      -8.501715827926958E1    -9.030809460748554E1
                        -9.267807361691044E1     9.147384299887990E1    -8.378827515581348E1     1.280821189649911E2    -9.463804166439909E-1   -2.409798610994532E1    -8.390423628722007E1    -1.434302239519205E2
                        -9.901856674567695E1     9.636408113888095E1    -9.026330042893909E1    -4.876432201263365E1    -8.754894639822199E1     9.409026557321802E1    -9.123675479093445E-1   -2.118423932821470E1

 3.037500000000000E7    -2.847128883231841E-1    8.830451138704622E1    -6.974775076258396E1     1.175331577058710      -8.818053305665418E1     1.458299041202843E2    -8.759382833284349E1    -1.759773199412082E2
                        -7.013594594095821E1     1.297728215187011      -2.983788227560315E-1    9.587400099647135E1    -8.638977738640635E1    -1.234474315338151E2    -8.523378732445978E1    -1.558619795729986E2
                        -9.209800014765290E1    -3.751238720669879E1    -9.346041210794802E1    -1.161170825888834E2    -9.443819076832833E-1   -2.439851672761487E1    -8.428109632760481E1    -9.000088463928962E1
                        -8.924812091465093E1    -7.769709119721658E1    -8.687307443655273E1    -1.077008057503164E2    -9.018814810567810E1     4.065167447515903E1    -9.111787994998042E-1   -2.148431795477927E1

 3.040000000000000E7    -2.820414363134664E-1    8.792798804487885E1    -6.749614695084640E1     1.133248392939593E1    -8.651249583331972E1     6.995230279326489E1    -8.344742712908140E1    -4.702083789324193E1
                        -6.843976164435253E1     2.145256787703790E1    -2.972358948416310E-1    9.557530780050409E1    -9.620838659283847E1     6.560466651597375E1    -8.194251503227719E1     1.564300789826401E2
                        -8.106032169110227E1    -6.592017982222865E1    -9.970709531740965E1    -1.367806348021672E2    -9.454299002582410E-1   -2.463676747452017E1    -8.552090436303519E1     2.528175979612036E1
                        -8.926522102677799E1     5.100808859617816E1    -8.140005342852193E1    -1.385941700071811E2    -8.876635460830057E1    -9.244559119915414E1    -9.096930786292945E-1   -2.182296604666086E1

 3.042500000000000E7    -2.896451895699658E-1    8.763105009846660E1    -6.772573243712391E1     1.601265576377311E1    -8.460392498849375E1     1.277585847461390E2    -8.921633948639270E1    -8.180495530822540E1
                        -6.928202580046670E1     9.754900242150583      -2.900582022559130E-1    9.531886695734069E1    -8.042604438324376E1    -9.353591041850076E1    -8.229698516406161E1    -1.109449795452122E2
                        -9.084161468728510E1     1.020796920602203E1    -9.129295012911246E1     1.389526639342921E2    -9.495959567708801E-1   -2.506318883199738E1    -8.229358916772802E1    -2.851212276606042E1
                        -8.740423336125652E1     4.947598567216687      -9.308844174943302E1    -1.375366036234588E2    -8.817150699071189E1    -1.628706707211567E2    -9.087107574113966E-1   -2.208949898344808E1

 3.045000000000000E7    -2.856547132110139E-1    8.729303477983375E1    -6.755309218905560E1     4.493306461197921      -8.033675782821501E1     9.881662450531103E1    -8.565340135971044E1    -9.743262590407417
                        -7.035176614485607E1    -2.109903519915566      -2.838792870043723E-1    9.494134194774492E1    -8.732765260954736E1    -1.611076247727258E2    -8.138598245885235E1    -8.161219209243964E1
                        -7.895877798655459E1     4.555882661412173E1    -9.323156404092096E1     1.398170544821090E2    -9.452417081858258E-1   -2.530838442147841E1    -8.481799627447009E1    -4.727081122606428E1
                        -1.022578522064636E2     1.352396605654691E2    -8.643309500722657E1     1.637796436778751E2    -8.706696112575548E1    -3.307228668429134E1    -9.114256345408761E-1   -2.239663420738592E1

 3.047500000000000E7    -2.897018763937868E-1    8.694500061911553E1    -6.946001299598601E1     1.556726992777546      -9.120988107705286E1     8.751539777522849E1    -8.239457343968618E1    -7.412208001438079E1
                        -6.819470317925340E1     6.667096511484998      -2.930271802256628E-1    9.470457433593275E1    -9.480546387126603E1     1.060524795215962E2    -8.404763590842006E1     1.339621313658064E2
                        -8.338371161888705E1    -1.248210315717005E2    -8.588323670191772E1     7.669911503911320E1    -9.378537481316778E-1   -2.561952976318695E1    -9.075287947059834E1    -1.690632712446887E2
                        -8.433645948523413E1    -1.568207369061078E2    -9.810751887305523E1     1.136076309085099E2    -9.012486508025503E1     7.316597473391745E1    -9.153400649117548E-1   -2.272663189076098E1

 3.050000000000000E7    -2.908196005020999E-1    8.659457100667206E1    -6.946582291712713E1     7.145527617350499      -8.332420938716388E1     4.411189770980332E1    -7.839624849685590E1     1.601199357132092E2
                        -6.703869886112292E1     9.743296596645095      -2.848517940162216E-1    9.434646271614567E1    -8.953207336178322E1     3.457372693739024E1    -8.641411594734137E1    -1.788686161886546E2
                        -8.195312362212384E1    -7.705653345623016E1    -8.171667392089722E1    -2.131319699485918E1    -9.444827800145723E-1   -2.599447418713879E1    -1.035749473740810E2     1.101590364283336E2
                        -8.254688699831777E1     1.442560974432902E2    -9.074420850924190E1    -8.187874801962306E1    -8.594173007741097E1     1.432296238802086E2    -9.099184825802149E-1   -2.303632722207643E1

 3.052500000000000E7    -2.795959142828795E-1    8.625814513318893E1    -6.949557462811549E1     1.159048402898863      -9.025949471682777E1    -1.311903439388498E2    -9.067862131104036E1    -6.120736384726096E1
                        -6.792584575222345E1     2.910115073415885      -2.871169921829097E-1    9.405797254648844E1    -8.995563212542101E1     1.359743250923373E2    -8.642599958803220E1     1.654935865741088E2
                        -8.676566453393234E1    -7.210724269764449E1    -8.483460020775615E1    -8.496707419057773E1    -9.415811116001377E-1   -2.631399418654894E1    -9.688528453494968E1    -1.154272673566982E2
                        -9.269562130247431E1    -1.745208159746248E2    -9.187544099266431E1     1.173844511633373E2    -9.294008889769735E1     1.437062674724563E2    -9.129593193550913E-1   -2.333463326782205E1

 3.055000000000000E7    -2.828709154057075E-1    8.591240588029267E1    -6.862578808428829E1     8.321685677486533      -9.008327010619379E1     2.326817326676604E1    -8.938688890519003E1     1.000981241565157E2
