#  HZ   S   DB   R     50.00 
! Rohde & Schwarz Vector Network Analyzer 
! Rohde-Schwarz,ZNB8-4Port,1311601044102961,2.82
! Created: UTC 2/13/2019, 11:49:01 AM
! freq[Hz]                db:S11                  ang:S11                 db:S12                  ang:S12                 db:S13                  ang:S13                 db:S14                  ang:S14
!                         db:S21                  ang:S21                 db:S22                  ang:S22                 db:S23                  ang:S23                 db:S24                  ang:S24
!                         db:S31                  ang:S31                 db:S32                  ang:S32                 db:S33                  ang:S33                 db:S34                  ang:S34
!                         db:S41                  ang:S41                 db:S42                  ang:S42                 db:S43                  ang:S43                 db:S44                  ang:S44
! 
 5.525000000000000E7    -4.773024043408684E-1    9.741925303466528E1    -3.266477082855041E1     7.547830957943515E1    -8.596814293172986E1    -1.382673815453615E2    -8.698674699007458E1     1.737056672355357E2
                        -3.261912364141427E1     7.528101326612381E1    -8.012308210394663      -1.685700687221610E2    -7.396609788459548E1    -2.401309925150009E1    -6.962778417302657E1     1.772341019130057E2
                        -8.651365315027564E1    -1.864721465629707E1    -7.331923521877323E1    -6.913732097699671E1    -1.408495483969538       2.477998699401292E1    -7.884408626633494E1     1.737243304992273E1
                        -9.418851342518252E1     1.432496716638682E2    -6.938168242138534E1     1.739976052742735E2    -8.264007192697986E1     1.640244690257129E2    -1.431580211605693       3.126175446340586E1

 5.525025000000000E7    -4.761391499488804E-1    9.742912312279304E1    -3.256704410073876E1     7.478242269285212E1    -1.044353208136461E2    -1.271178259040332E2    -1.004042318979278E2    -1.112851954036734E2
                        -3.267502976917531E1     7.666683755714027E1    -8.028126594073928      -1.686080299035877E2    -7.300654320581577E1    -2.057336770954498E1    -7.004522296549096E1    -1.786295742322522E2
                        -8.912747745573050E1    -5.557672843477751E1    -7.264296541622124E1    -3.930549831289978E1    -1.409660661702928       2.475201281635155E1    -8.949962093598694E1     2.715519473527447E1
                        -8.163961080140759E1     9.099594573786105E1    -6.873998565160514E1    -1.756743824463261E2    -8.854569029177179E1     6.187978412701330E1    -1.431538860711251       3.126076416588083E1

 5.525050000000000E7    -4.759119183440775E-1    9.742562093195386E1    -3.266495687319132E1     7.499495779703771E1    -8.104894586233110E1    -3.809262934470111E1    -9.051685157139966E1    -1.078295179961082E2
                        -3.257984411529010E1     7.463689040439213E1    -8.028821873221837      -1.686295695864654E2    -7.232170017971563E1    -3.593179017000426E1    -6.970867118819706E1    -1.774872755947105E2
                        -9.802645509478899E1    -1.280853493521573E2    -7.431120034014334E1    -4.056792074724471E1    -1.408870410935412       2.477558558331494E1    -8.175782286559844E1     9.590898059409973E1
                        -9.394667853838240E1    -1.668689770318504E1    -6.800201843215052E1     1.799080579633893E2    -9.536729140920683E1     1.091622110777474E2    -1.429154930206658       3.125032679348177E1

 5.525075000000000E7    -4.698678213722382E-1    9.742125370015545E1    -3.252988479482712E1     7.610312388106028E1    -8.669423132220814E1     7.787660704940099E1    -1.001942221088106E2    -7.226562725130742E1
                        -3.275032151638700E1     7.541814739701516E1    -8.037604383635223      -1.686824576452801E2    -7.471174436467942E1    -4.393776280107606E1    -6.909499602214891E1    -1.775748682758914E2
                        -9.070436665331252E1     1.557146307731057E2    -7.378539365327939E1    -3.113126371857765E1    -1.404748256431354       2.475787394260540E1    -8.348861385684630E1     7.653552719703511E1
                        -8.252234172933187E1    -2.527788463014826E1    -6.847770292167668E1    -1.702311233029576E2    -9.474622623737191E1    -1.762588155029549E2    -1.431456515367355       3.124858226075974E1

 5.525100000000000E7    -4.735379644133295E-1    9.740762098300165E1    -3.253132519015097E1     7.464097171857195E1    -9.242194931284305E1     1.282177936088850E2    -8.144366254846375E1    -1.483204665293819E2
                        -3.263196539333989E1     7.489088069838395E1    -8.038659520928942      -1.686959043029268E2    -7.543485073277118E1    -3.558621369260299E1    -6.941240202705858E1    -1.708871757839758E2
                        -8.972477636519292E1     1.447653897195330E2    -7.436816555090923E1    -3.805897269450109E1    -1.408913696170058       2.473811539706396E1    -8.456299866385035E1    -5.806245336875671E1
                        -8.317281988233535E1     8.028950097287506E1    -7.071199828189035E1     1.708421077701246E2    -8.352313928345006E1    -7.040525788640736E1    -1.428112312913805       3.122564932821574E1

 5.525125000000000E7    -4.743287672887387E-1    9.739466701656963E1    -3.265111189754799E1     7.465006015580558E1    -8.624161643875233E1    -8.136413111072694E1    -7.873966430765832E1     5.998515167557959
                        -3.271153116853931E1     7.612558930280167E1    -8.048937250517099      -1.687465893283072E2    -7.298770633215662E1    -3.935245319973080E1    -6.815854304337978E1    -1.787673111232025E2
                        -8.561800034335585E1     6.221741986490048E1    -7.340160924232805E1    -3.227496555031514E1    -1.411812399208961       2.476142447314202E1    -9.157804709239437E1    -9.830448840929230E1
                        -8.888304092007381E1    -3.985707201905271E1    -6.903312770706206E1    -1.739446006778542E2    -8.882615271527028E1    -3.068539382070363E1    -1.433339102598737       3.123379304963571E1

 5.525150000000000E7    -4.709650365168055E-1    9.738289193080556E1    -3.254724824756382E1     7.476349910946416E1    -8.926417145754718E1    -1.248780990821255E2    -8.121765511711622E1     3.838291284457881E1
                        -3.270472935143636E1     7.575923166175434E1    -8.058293725709213      -1.687646046479667E2    -7.309318636357656E1    -5.160300100768721E1    -6.729847313365283E1    -1.718855857987157E2
                        -8.986494471420998E1    -1.386468337448191E2    -7.241041524128995E1    -4.269667964207531E1    -1.406643890376807       2.471714163382896E1    -8.852716169254110E1     1.364348706862235E2
                        -9.545034368419969E1     2.766047246138010E1    -6.876130746127967E1     1.760277259145200E2    -8.200121749325919E1    -1.749977862878453      -1.430347449157845       3.123081801705434E1

 5.525175000000000E7    -4.683023377926018E-1    9.738085266713391E1    -3.259076408197967E1     7.512245052575595E1    -9.186830679952381E1    -1.741034940629184E2    -8.566478311448927E1    -5.633765332069004E1
                        -3.268331561893911E1     7.516948781835538E1    -8.060410510584458      -1.688627155423295E2    -7.227429698393021E1    -4.108281985391326E1    -6.823393549099465E1     1.783667409731989E2
                        -1.022118580761171E2     1.525297807375955E2    -7.075528973909553E1    -5.370144118163385E1    -1.411772324336446       2.472261960387348E1    -8.103091621866207E1    -4.238802510793154
                        -8.872626563982072E1    -3.065328563761583E1    -7.014271719894894E1    -1.772164092308933E2    -1.009806154545217E2     6.909090828771944E1    -1.431084514411224       3.121983843922036E1

 5.525200000000000E7    -4.722063050069476E-1    9.740946231672356E1    -3.268417785156301E1     7.574140255436595E1    -8.742598907426671E1     7.415354186703107E1    -8.343089714416031E1    -1.186193401286395E2
                        -3.266446459578091E1     7.590315438070327E1    -8.059628979670762      -1.689011650980396E2    -7.729805100385578E1    -1.455435530745936E1    -6.875660293452859E1    -1.728545452963350E2
                        -9.331568835177465E1     7.378451353000577E1    -7.284213272491316E1    -3.545927489442912E1    -1.411832464355856       2.472627854754260E1    -9.256969510464597E1     1.333543059157996E2
                        -8.909069036600269E1     1.145008081762605E2    -6.829611863637865E1     1.772269238366088E2    -8.706524579258490E1     1.630054717268230E2    -1.429810677796171       3.125567105462829E1

 5.525225000000000E7    -4.702989944177715E-1    9.736794082519083E1    -3.264711744849353E1     7.583189325554481E1    -8.230572647570328E1    -4.226771288499361E1    -8.960150227538050E1    -2.194509907220691E1
                        -3.283602488244939E1     7.647385325990814E1    -8.085060232305422      -1.688659179815754E2    -7.541750496612497E1    -2.213985216170762E1    -6.834480696030758E1    -1.790733444873089E2
                        -8.313064281128085E1     6.847863567407620E1    -7.433958131691095E1    -2.784407496388594E1    -1.409160787037064       2.472809682496016E1    -8.825027310082361E1     1.584198848940563E2
                        -9.024828353665529E1     1.113024126176082E2    -6.995557859950378E1     1.735837958964136E2    -8.495785752785244E1    -1.194759888223331E2    -1.427704394108164       3.122605371731964E1

 5.525250000000000E7    -4.736364678111384E-1    9.738732686839580E1    -3.271028014006848E1     7.485013237236709E1    -8.739668060048462E1    -1.828536542363264E1    -9.022245915675343E1    -8.299226492117749E1
                        -3.257049052318499E1     7.537777206001854E1    -8.087587664382914      -1.689297488005875E2    -7.393338190498432E1    -4.151279501265003E1    -6.908516608669530E1    -1.781596586293834E2
                        -9.193170456148174E1     1.567437861580973E1    -7.399501382769964E1    -5.239889396768746E1    -1.408774910101429       2.472238868180802E1    -8.633933994940475E1     1.261376514117683E2
                        -8.888634153757580E1     7.835712949642338E1    -6.793597853054490E1    -1.766526259311546E2    -8.991616306257600E1    -1.572927435878112E2    -1.429865308580205       3.118845468578634E1

 5.525275000000000E7    -4.718957317348169E-1    9.737340087175635E1    -3.262591217161189E1     7.556567636966713E1    -8.814629015322157E1     1.043529912250327E2    -8.897653578497929E1     2.481655905750449E1
                        -3.273714000747451E1     7.508298920049280E1    -8.095628820672653      -1.689707505730030E2    -7.249486370111416E1    -4.466051388780014E1    -6.893770278983946E1     1.733609806993170E2
                        -8.389584655150108E1     1.519354876110680E2    -7.112694174412958E1    -3.315727470550641E1    -1.410281806718238       2.471085776336141E1    -7.916862959455469E1     1.367654394000620E2
                        -9.698628446970702E1    -1.276219166975101E2    -6.797407785262692E1    -1.782304081479095E2    -9.037267708839976E1     1.148444035929134E1    -1.428081638606443       3.122211627586276E1

 5.525300000000000E7    -4.668035423719468E-1    9.736136243346468E1    -3.274172945517525E1     7.503103864180355E1    -9.017757227749122E1     1.340067866745958E2    -8.917066101141040E1     1.602746176534224E2
                        -3.260831707617081E1     7.527699834165787E1    -8.104732697178532      -1.690520653266941E2    -7.482071406817904E1    -3.877059263810899E1    -6.802409670587235E1    -1.779225137267136E2
                        -8.702039944671020E1     1.373677060544374E2    -7.576654802139622E1    -3.405885535888840E1    -1.407655082853464       2.473116218780296E1    -8.250324747184443E1     9.853548665562285E1
                        -8.520382182411142E1     1.139833184497182E1    -6.944246189982520E1    -1.721987638533629E2    -8.479727187169699E1    -1.674570634007019E2    -1.430053617565413       3.124657590817575E1

 5.525325000000000E7    -4.715848158467009E-1    9.735169134141331E1    -3.274368430827580E1     7.489430350732052E1    -9.246101335346125E1    -7.518279654428878E1    -8.290890185378694E1     1.411146497336147E2
                        -3.253478282310817E1     7.580250213299905E1    -8.111190696488052      -1.690999133694449E2    -7.439619920281095E1    -4.304142013057921E1    -6.726164427349951E1    -1.769235109827307E2
                        -7.943415098605439E1     9.747473112605891E1    -7.263754012757855E1    -5.683363843349400E1    -1.412088570473971       2.473353932425110E1    -8.744902635374282E1     5.498940979556927E1
                        -9.858097855426424E1     8.184062480884455E1    -6.911582390061713E1     1.767379382811085E2    -1.055995814211322E2    -1.444114647439713E1    -1.429055161165677       3.119831105542795E1

 5.525350000000000E7    -4.682287856020292E-1    9.735814780973134E1    -3.263102847159493E1     7.552569681079532E1    -8.841338369091211E1    -2.476791747188294E1    -8.127182644096371E1    -8.899290917273228E1
                        -3.266966354792317E1     7.470230870028688E1    -8.118424719975426      -1.691597009000358E2    -7.251437904827509E1    -4.459818679525509E1    -6.738119496658592E1    -1.736404005893218E2
                        -9.027046984581524E1    -3.757697864543474E1    -7.028523216192949E1    -4.685161432563396E1    -1.409293305214686       2.472209995203621E1    -8.341632877850863E1    -2.130383088542435E1
                        -9.306904254843273E1     1.460533094766488E2    -6.814926798664070E1    -1.787996693785181E2    -8.573591463102829E1    -7.563527130182023E1    -1.431117905388098       3.121933634491086E1

 5.525375000000000E7    -4.728115038114282E-1    9.736441593238071E1    -3.273248336343545E1     7.514768321158013E1    -7.998438524556661E1    -6.586338386529791E1    -9.134856636895138E1     1.085094338511526E2
                        -3.252427151143658E1     7.595161352229881E1    -8.114806391432577      -1.691713679269746E2    -7.349805285474345E1    -5.108084092895751E1    -6.993856384678841E1    -1.707852393307674E2
                        -9.231241231022297E1    -1.561351823557930E2    -7.184445932476541E1    -3.221246013813939E1    -1.409361616027288       2.469053383839983E1    -8.309824669669186E1    -1.162441366083011E2
                        -8.404056115138494E1     2.794478225582504E1    -6.819063984781292E1    -1.774546140237953E2    -8.693292065208678E1     4.739198704322526E1    -1.426897047393384       3.121860285243962E1

 5.525400000000000E7    -4.686783567778044E-1    9.733706600210063E1    -3.260383054614545E1     7.612047237039515E1    -9.792020097944584E1     1.632306165586029E2    -8.841051880356544E1     1.147525084142878E2
                        -3.267577645297880E1     7.496174921978046E1    -8.121587792789605      -1.691937003673995E2    -7.355246036603705E1    -3.345560352079697E1    -6.886922478213184E1     1.747823174003531E2
                        -8.509279925771534E1     1.332548096013311E2    -7.213158429066037E1    -4.412831352147498E1    -1.411760547761821       2.469029917134422E1    -1.011407556646070E2     1.068029147002029E2
                        -9.566371520687540E1    -3.443880830369021E1    -6.888917989440870E1    -1.783666854137087E2    -8.608108004408533E1    -1.271712507491071E2    -1.431546725146342       3.119474647765336E1

 5.525425000000000E7    -4.682200930543598E-1    9.735808574881281E1    -3.256738338941887E1     7.480725384779781E1    -9.545018904728045E1    -1.511000720099976E1    -8.969397430669731E1    -1.640183874110992E2
                        -3.257130518945050E1     7.560335511896687E1    -8.135088056182980      -1.692581747395809E2    -7.340643964408214E1    -2.956466539235267E1    -6.865251566209268E1    -1.799081196897651E2
                        -8.619300301774224E1    -4.340413409961526E1    -7.725277157986372E1    -3.333297442789342E1    -1.408862743641261       2.469128735965364E1    -8.296831485957026E1     1.643456729114217E2
                        -9.126171228436306E1     1.179492886291054E2    -6.814442203773322E1     1.774724564261851E2    -8.651288988811697E1     7.720615920282501E1    -1.428402251545618       3.121687179299416E1

 5.525450000000000E7    -4.714451665812657E-1    9.735800955970657E1    -3.268613855503949E1     7.491746527571435E1    -1.005075230314235E2     9.230302429187272E1    -8.619043603230382E1     1.604382659808491E1
                        -3.264361792987211E1     7.526713032128369E1    -8.137153098482040      -1.692804481024432E2    -7.515847075697617E1    -3.344933230614211E1    -6.881918145844568E1    -1.761298763917833E2
                        -8.704277825222809E1    -1.531768747697557E2    -7.123180999915158E1    -4.338936550216751E1    -1.409781195724102       2.474653312212663E1    -9.387200536117044E1    -9.106103959260081E1
                        -8.245236272547609E1    -8.963730802106765E1    -6.845703888683359E1    -1.757472792866748E2    -9.916673150727389E1    -1.740494803432214E2    -1.431001590244695       3.115871896541517E1

 5.525475000000000E7    -4.669092653193702E-1    9.733727750805859E1    -3.272356985887393E1     7.477353873179465E1    -8.267113968958556E1    -1.656713474124980E2    -8.515527181021476E1     1.285598841463460E2
                        -3.282955509549925E1     7.597293973657280E1    -8.139916019433109      -1.693642830216908E2    -7.249383186103660E1    -4.444032552124915E1    -6.791925108619724E1     1.745330449860211E2
                        -8.790443532649816E1     1.378551597204327E2    -7.548643566143086E1    -4.696080086152480E1    -1.409974593141117       2.472812893007989E1    -8.563607222983926E1    -3.967027999046623E1
                        -9.734073350399923E1    -1.586071804581177E2    -6.886640105614124E1    -1.767366205887967E2    -8.110883501701798E1    -1.251412402046633E2    -1.428308895481073       3.120162225928634E1

 5.525500000000000E7    -4.714424935205039E-1    9.730287566065566E1    -3.259985876463101E1     7.608151228543981E1    -8.394916338236573E1    -1.383919648660782E2    -8.911110925364044E1     5.333001147358774
                        -3.271945337904338E1     7.591538441100032E1    -8.154690723187978      -1.693024698409607E2    -7.182242114845639E1    -2.594499438569504E1    -6.928766041148543E1    -1.686507831988850E2
                        -8.223136905021681E1    -6.155473960565388E1    -7.258154250933620E1    -3.227740523349326E1    -1.410903446876159       2.469790928259407E1    -8.124762409770028E1    -8.042137272316094E1
                        -8.734999787339774E1     1.676449072684360E2    -6.750971600056853E1     1.759534153438563E2    -8.933317566955617E1    -1.252850644745326E2    -1.429687458167796       3.120477311041879E1

 5.525525000000000E7    -4.702615664552165E-1    9.733739763620604E1    -3.264442995224016E1     7.561539675482756E1    -9.362125161692298E1     9.884466961474401E1    -8.958819727253353E1    -1.337679147707884E2
                        -3.264553035477908E1     7.516955374603400E1    -8.154236610016197      -1.693878489838154E2    -7.518289219330201E1    -3.258980870790095E1    -7.085849577512896E1    -1.783712550355073E2
                        -8.492295527068814E1    -8.446426677003389E1    -7.113491159529499E1    -3.069438862257052E1    -1.407153753608315       2.471457612723146E1    -9.402302732592899E1    -3.447362800782295E1
                        -8.609458232835506E1     5.306282444943418E1    -6.945818841927758E1    -1.708905035043560E2    -8.908839571899421E1     1.644722440819987E2    -1.428635879612902       3.119677135672680E1

 5.525550000000000E7    -4.714377281926925E-1    9.731443367570695E1    -3.267097303406241E1     7.518348423984489E1    -8.357291105090880E1    -1.123447218417570E1    -9.438930265130503E1    -1.772347833739957E2
