#  HZ   S   DB   R     50.00 
! Rohde & Schwarz Vector Network Analyzer 
! Rohde-Schwarz,ZNB8-4Port,1311601044102961,2.82
! Created: UTC 2/13/2019, 12:14:18 PM
! freq[Hz]                db:S11                  ang:S11                 db:S12                  ang:S12                 db:S13                  ang:S13                 db:S14                  ang:S14
!                         db:S21                  ang:S21                 db:S22                  ang:S22                 db:S23                  ang:S23                 db:S24                  ang:S24
!                         db:S31                  ang:S31                 db:S32                  ang:S32                 db:S33                  ang:S33                 db:S34                  ang:S34
!                         db:S41                  ang:S41                 db:S42                  ang:S42                 db:S43                  ang:S43                 db:S44                  ang:S44
! 
 3.000000000000000E7    -2.896554709830823E-1    9.342116691603846E1    -7.121391879825303E1    -3.958878247370947E-1   -8.189381965207988E1    -1.621091926889646E2    -9.465002505717571E1    -1.793620769184986E2
                        -6.873541201328119E1     2.016964825609067E1    -2.987563533961457E-1    1.005941867426063E2    -7.627907604865003E1    -2.311141524624065E1    -8.968430236915971E1    -4.251488213580161E1
                        -9.145518868639718E1    -1.539429906178904E2    -8.948295372132324E1     4.527424187769900E1    -9.402880518065776E-1   -1.964537973198603E1    -9.799818169838841E1    -6.018602914875572
                        -9.131208611303163E1    -1.198261780749106E2    -8.002568590088252E1     4.796643156261845E1    -8.885661458075660E1    -1.344128627197741E2    -9.115190681416524E-1   -1.692827807449710E1

 3.002500000000000E7    -2.955168724764989E-1    9.308491527540971E1    -6.996383403781245E1     7.153876655242719      -8.279811825558630E1    -1.009938631356689E2    -8.620100461715276E1    -6.452179126537517E1
                        -6.959780070172080E1     9.815062062277072      -2.920916224938509E-1    1.002439933897510E2    -8.120802404941669E1    -1.322430449122383E2    -8.378637456056350E1    -4.136939398262925E1
                        -9.595234955956869E1    -1.027380479502602E2    -8.933036687324119E1     1.247447415263246E2    -9.476057376737807E-1   -1.994833918555521E1    -9.110756389525021E1    -9.677542378600606E1
                        -8.601173194268519E1    -8.606152059281257E1    -8.917842229887387E1    -3.849510048486501E1    -7.968187625765637E1    -6.249261371711121E1    -9.140597620564253E-1   -1.716997083783368E1

 3.005000000000000E7    -2.952771185941204E-1    9.275083879475106E1    -6.918963009947974E1     7.163666505872451      -8.049634053326001E1     1.348178197255721E2    -9.403500834411646E1    -1.680503692965984E2
                        -6.845288568185531E1     7.815655817311333      -2.825630463545250E-1    9.994501403354566E1    -8.721969949963274E1     5.142773019415890E1    -9.685742725793926E1    -3.265988576110584E1
                        -1.026968126006726E2    -1.698017129357875E2    -8.902854992913704E1     1.366811339217694      -9.466303841363111E-1   -2.025699636764010E1    -8.790202042831183E1    -1.589969010790709E2
                        -8.465419906586091E1     5.857534605792171E1    -8.269717819817204E1    -9.530632807692473E1    -8.971547137251116E1     3.713278182124273E1    -9.161341612155221E-1   -1.752181868184483E1

 3.007500000000000E7    -2.886779970152266E-1    9.240753697954919E1    -6.905995429664336E1     7.165672256046384      -8.729293223611649E1    -1.415006281353536E2    -9.337736343561461E1     1.104117075009378E2
                        -7.029011347342947E1     5.319681421113846      -2.904731700993439E-1    9.960727173559788E1    -9.224477272757051E1     8.311770479180642E1    -8.697785679804838E1    -1.777333745637844E2
                        -8.134664314756796E1     7.805911391130044E1    -9.132796482365606E1     1.048563556426770E2    -9.499423827487087E-1   -2.060205024538895E1    -8.295247774862618E1    -1.636752701221911E2
                        -8.828903534243736E1     1.203260886376629E2    -8.266606476418323E1     1.138832607701644E2    -8.287461033654148E1     1.517417201695428E2    -9.161931410521238E-1   -1.780525250994194E1

 3.010000000000000E7    -2.867056711349890E-1    9.209359496300350E1    -6.885926106440911E1     5.332083722239370      -8.778576984673379E1    -1.352869642631793E2    -8.431409844285949E1     1.380475186833360E1
                        -6.866724246133720E1    -6.222009610954699E-1   -2.908073227748561E-1    9.935594690985509E1    -8.348200428444622E1     1.705907308910437E2    -8.858985474262106E1     8.802702853945173E1
                        -8.762924174406666E1     1.672744350400151E2    -8.996328892103877E1    -1.095486787125082E2    -9.415135170190683E-1   -2.092088989191558E1    -8.595614322787618E1     1.591347840014329E2
                        -8.808693673415408E1     6.054004080119450E1    -1.032152800491793E2     8.952030878164813E1    -8.388368732521181E1     1.776904861926537E2    -9.146221164798185E-1   -1.813742194159999E1

 3.012500000000000E7    -2.819604633014015E-1    9.176731447855528E1    -7.215396693974194E1     1.459024204656748E1    -8.591437137860009E1    -1.192420195554191E2    -9.496113373903363E1     1.309098832597086E2
                        -7.008960745468508E1     4.556806764125497      -2.932913108840962E-1    9.902056753453358E1    -8.164007285556026E1    -1.729075306922072E2    -9.930827585741456E1    -1.740824500302566E2
                        -8.234759401452561E1     1.520422409962343E2    -8.506496846136200E1    -5.894978445063159E1    -9.513333103214895E-1   -2.122073784596077E1    -7.885414019716079E1    -1.380160279291317E2
                        -8.726198144810141E1    -6.631257641166634E1    -8.349632619460364E1    -6.531267628683958E1    -8.889443430751425E1    -3.021731039964788E1    -9.129153200111512E-1   -1.845385211198767E1

 3.015000000000000E7    -2.882851513713213E-1    9.140354401926844E1    -6.804743810069746E1    -5.395323750740023      -9.471982436133997E1     3.082755471661649E1    -8.774477234154517E1     1.465052843836107E2
                        -6.979846922906931E1     8.112529075725666      -2.982618935431934E-1    9.869063574411715E1    -8.739884278314324E1    -4.370458168954341E1    -8.678304592996312E1     2.203210150855137E1
                        -8.675224640228885E1    -1.606364810085783E2    -9.029606427875413E1     1.180536907687540E2    -9.536312637370116E-1   -2.153414394555461E1    -8.754327420931040E1    -1.738060547411494E1
                        -8.604822159904390E1    -4.243471244273477E1    -8.836352565312750E1    -9.775521974335804E1    -8.960051508800976E1    -1.426520434922693E2    -9.145384251453550E-1   -1.872234012836214E1

 3.017500000000000E7    -2.822598868641807E-1    9.107018528592585E1    -6.921824962539243E1     1.506827774082335E1    -9.119666714217230E1     4.048330194978287E1    -1.087566224575272E2    -4.339153510944542E1
                        -6.908254311815351E1     6.259174801664559E-1   -2.895109377369419E-1    9.839539207251283E1    -8.793812735205363E1    -4.324413406171543E1    -8.208337319246550E1     1.356223558768266E2
                        -9.555517079098755E1     4.873084288960176E1    -8.761038096233733E1    -1.780757915717365E2    -9.433193696168138E-1   -2.186371300427695E1    -8.445385226294492E1     6.776695165274910E1
                        -9.418897781591267E1     1.457182554588520E2    -1.082152904210964E2    -1.176882267677919E2    -8.806158170201178E1     5.662954691785038E1    -9.138950188076653E-1   -1.904249506724721E1

 3.020000000000000E7    -2.756626479622107E-1    9.073269877635907E1    -6.808740206031858E1     2.792442201726693      -8.507816465339582E1    -6.179651960431247E1    -8.445732848277390E1    -1.493502672154372E2
                        -7.064094617568635E1     2.878944421987434      -2.843451913571767E-1    9.807628413165375E1    -8.014615180794286E1     4.262576665816273E1    -8.429055760641705E1    -1.594941421314470E2
                        -8.682688817254523E1    -1.611302900486462E2    -8.638335278427762E1     4.253786053680567E1    -9.414720068417859E-1   -2.220414320618602E1    -9.202734119855435E1    -3.108080028920497E1
                        -9.038423825328481E1    -8.491773994956135E1    -8.597157261363469E1     2.202324656434571E1    -8.620271102481101E1    -5.023602494664870E1    -9.128044703861492E-1   -1.938109995684683E1

 3.022500000000000E7    -2.865824096858549E-1    9.039212622920495E1    -7.051873869056701E1    -5.657632975243699      -8.801764602792918E1     8.172137093022980E1    -8.294423958749815E1     8.985122272610130E1
                        -6.977345565788829E1     9.625922393076932      -2.905775473880782E-1    9.777327420889539E1    -9.239561841992683E1     1.661037457508696E2    -8.925731868978160E1    -3.249845800059440E1
                        -8.341614563657222E1    -1.005001986799385E2    -8.337833902841499E1     1.471267945546578E2    -9.442638360270949E-1   -2.246075882821522E1    -8.564976027801208E1     1.470271647647124E1
                        -8.333520626185714E1    -1.433373067457953E2    -1.014699482467475E2    -1.323651108950344E2    -8.353707478615667E1     1.305502358480407E2    -9.127318883156056E-1   -1.964211127016386E1

 3.025000000000000E7    -2.872293307476123E-1    9.008927562939418E1    -6.722009859730194E1    -6.266889995430787      -8.350783149192651E1     8.960101456240160E1    -8.688524761238598E1    -4.406193208118734E1
                        -6.919354920093632E1    -1.653892091459523      -2.946129218707451E-1    9.744785501810313E1    -8.658601446116693E1     7.955054996803600E1    -8.497713246573775E1     1.351132356482347E2
                        -8.792634554744184E1     4.559236607702346E1    -8.211393645404144E1     1.418568952811905E2    -9.425041767957886E-1   -2.277425362833722E1    -8.003734429358984E1    -1.349582450036379E2
                        -8.453197019774316E1    -1.611200733155655E2    -8.466205962940998E1    -1.332134189306809E2    -8.350001527528237E1    -1.722857475540491E2    -9.149623711989026E-1   -1.994791714951288E1

 3.027500000000000E7    -2.800823515132238E-1    8.971023160810823E1    -6.900394405308707E1    -5.459953255681528      -8.789264439729328E1    -1.296233710428647E2    -9.082168591662600E1    -1.727762223798891E2
                        -6.883097891783433E1     3.140744007739417      -2.891578028167043E-1    9.712030646407369E1    -8.738906387835358E1    -8.204110307773793E1    -7.940839437170607E1     4.241344863639931E1
                        -9.137653647438390E1     7.477497914541350E1    -9.883769042905070E1    -1.227775357595534E1    -9.445529530480314E-1   -2.316877273701093E1    -8.180555134400319E1     9.950654266333659E1
                        -8.155192111565052E1     1.708619367298402E2    -8.944595056936721E1     9.678518977179388E1    -8.397491248299755E1     1.308375605167469E2    -9.124341134654090E-1   -2.028250546495895E1

 3.030000000000000E7    -2.878921019827256E-1    8.941761967885087E1    -6.709454679872582E1    -2.925446539771603      -7.874762368599596E1    -2.065135206552418E1    -8.429366527699712E1    -9.521608077982843E1
                        -7.155053775708245E1     1.847844519702247      -2.908577523461605E-1    9.684517979153799E1    -8.550268960960170E1     9.105770481821606E-1   -8.145607109222317E1     2.513387817951199E1
                        -8.414599624898207E1     1.410889071988542E2    -8.475185003126333E1    -1.369905864529982E2    -9.499343658889783E-1   -2.343442693006223E1    -8.569841105283101E1     5.265604123650589
                        -8.677949857304391E1    -1.593351715578905E2    -9.830729998791745E1     3.620603724607336E1    -9.504052038641976E1    -8.991547113721636E1    -9.135484489042876E-1   -2.059029451034860E1

 3.032500000000000E7    -2.850598679999656E-1    8.900909828907913E1    -6.935170574673950E1     4.461434997369387E-1   -8.557059500724820E1     6.108666940696659E1    -9.541423930056332E1    -6.144479983062336E1
                        -6.797694166260911E1     6.547923282162018      -2.801051436223314E-1    9.650344048441359E1    -8.725661043972312E1     1.623820551151557E2    -9.196281249136413E1    -1.409304401613776E2
                        -8.863568430442881E1     1.544731714623704E2    -8.158983265504742E1     1.486495536355857E2    -9.465525122136476E-1   -2.379929770963939E1    -9.062617742152148E1     3.925383477720224E1
                        -9.568147794891573E1     2.373958042143780      -8.336535322496368E1    -1.355267706025316E2    -8.907541919711305E1    -1.270906926905702E2    -9.126173927192858E-1   -2.085002916681616E1

 3.035000000000000E7    -2.752712948127156E-1    8.873053953256816E1    -6.802444893954002E1     1.311523601186332E1    -8.531617313381506E1    -7.308130652604655E1    -9.015482024043232E1    -1.726304151662673E2
                        -6.834503293548580E1     1.845992091702216      -2.883941776521072E-1    9.622439662395385E1    -8.905909762817677E1    -1.295838159986532E2    -1.028924345943783E2     9.391103172876792E1
                        -8.995947468173458E1    -1.391555419769813E2    -8.539237132461024E1     1.378394774326464E2    -9.405143455463384E-1   -2.411587311054015E1    -9.204476829127944E1     1.770198375426098E2
                        -8.876380384081199E1     8.217641567978218E1    -1.038621135209076E2     2.804246759842970E1    -8.335082209885563E1     1.573633168123435E2    -9.096634800686358E-1   -2.119259175471619E1

 3.037500000000000E7    -2.752164353899035E-1    8.838147309265392E1    -6.827964355347419E1     2.197252834349037      -8.957936082827740E1    -1.411105761082521E2    -8.622773307001965E1    -1.295212540456947E2
                        -6.984718042150180E1     7.431995859550908      -2.954977400827596E-1    9.583365783553400E1    -9.440209606957649E1     5.447359039675686E1    -8.204210282766400E1     1.744184497523974E2
                        -8.492334751327203E1     4.609080968166714E1    -8.786817316156112E1    -7.663666908922042E1    -9.466267989551696E-1   -2.439253765766498E1    -1.063378520539609E2    -9.369077799357541E1
                        -8.795687696393350E1    -1.402667473217030E2    -8.343741538998802E1    -1.550787800147735E2    -9.559525116952048E1    -1.130768978944507E2    -9.126086070921781E-1   -2.149403507912377E1

 3.040000000000000E7    -2.790916414699974E-1    8.801659896614315E1    -6.990024569035498E1     1.916373774655545      -8.829863566242725E1    -7.250873856598014E1    -8.501533961241196E1     8.320468669389513E1
                        -6.912515514408133E1    -1.095880850634280E1    -2.929738828336496E-1    9.554888607965285E1    -8.302613902071647E1    -4.779392038532699E1    -9.006865334691764E1    -1.510356879481124E2
                        -8.936276155584289E1    -1.382794554115083E2    -8.587408281892519E1    -1.356220190615794E2    -9.449581916057868E-1   -2.469685005819077E1    -1.050091131042591E2     4.225898753026570
                        -8.376289666692769E1     4.109761769662789E1    -8.351507224563301E1     1.622554364959082E-1   -8.254398997443704E1    -1.770606524794169E2    -9.156118021234988E-1   -2.180752328992582E1

 3.042500000000000E7    -2.800953161877432E-1    8.767315878291440E1    -6.815630641031804E1    -3.154151113290516E-2   -8.792733735648048E1     1.316225250095932E2    -8.600719257793671E1    -1.423872473206028E2
                        -6.977170602956171E1    -4.446740354264260      -2.882048181306264E-1    9.533496861986346E1    -7.780986056911486E1    -8.496623647132458E1    -8.264783972975917E1     9.841047178870650E1
                        -8.249589464791335E1     4.963276208819087E1    -1.003073186918470E2    -1.399740748009354E2    -9.544322858714625E-1   -2.506107951904917E1    -9.183385575297690E1    -3.320255765605278
                        -8.826170260484012E1     3.796295679802557E1    -9.681988256301837E1    -1.796710392369735E2    -8.410734982455372E1     1.082582097510104E2    -9.119047680428574E-1   -2.210572081782434E1

 3.045000000000000E7    -2.803640674337508E-1    8.732505227679604E1    -6.889072917163102E1     9.668833289039107E-2   -8.993334117233931E1     1.481694452115154E2    -8.732157625043311E1     1.286406410993679E2
                        -6.704702665656674E1     2.184122823018375E-1   -2.926063050976522E-1    9.497232184441234E1    -8.248073449974294E1    -1.078939775446627E2    -8.870695905564929E1     1.162063251891201E2
                        -8.038874019404999E1    -1.070846073862871E2    -8.621766383235381E1    -1.301800295600767E2    -9.471899109118018E-1   -2.529848611521022E1    -8.306700448227799E1     2.666758818625108
                        -9.241043683675591E1     6.308118635354254E1    -8.634561200504457E1    -4.733223548488975E1    -8.498241270166842E1     1.723396028616924E2    -9.121278439918898E-1   -2.237294655708909E1

 3.047500000000000E7    -2.814359879015555E-1    8.703628132675750E1    -6.894300436164710E1    -4.074023655808476      -8.092110474790844E1    -2.549770065484206E1    -8.706565438940669E1     1.322851499873486E2
                        -6.807668322536601E1     4.153702008612254      -2.863133362931194E-1    9.465395645269203E1    -9.356195592603095E1    -1.346212426800393E2    -9.150800610180932E1    -1.380488404415827E2
                        -9.404835667091490E1     6.255641252370035E1    -9.147413600557542E1     5.157178111885217E1    -9.471733755466927E-1   -2.566336114374190E1    -8.911570490541681E1     1.787851994530865E2
                        -8.696375180496361E1     1.395389304675507E2    -9.225565591626736E1     1.768537548754645E2    -8.412979606696703E1     1.291865017597152E2    -9.141964379899287E-1   -2.270759924951800E1

 3.050000000000000E7    -2.788044929052865E-1    8.670043680805073E1    -6.815531377198069E1     2.702614268722005      -8.214907904353603E1    -1.266569351413737E1    -8.483945254157777E1     1.204762055552100E2
                        -6.813200251468318E1    -2.579611237461271      -2.858430478605695E-1    9.438133981433180E1    -9.110334495212180E1    -6.497487040582931E1    -8.867410724430718E1    -6.549500766862342E1
                        -9.629217319826512E1     9.329990451938819E1    -8.215451350215528E1    -4.579262250159376E1    -9.468562893554744E-1   -2.597053459991445E1    -9.233356028964884E1    -8.225702231031233
                        -7.904444363563009E1    -1.690552542994539E2    -1.009968539867864E2     5.513243388346453E1    -8.720673929695975E1     8.205705222344565E1    -9.128161148833978E-1   -2.301074994927167E1

 3.052500000000000E7    -2.734607122982125E-1    8.633856124933907E1    -6.797227729601913E1    -1.192777652551068E1    -9.528362732355946E1    -1.537521798589683E2    -8.521478047768289E1    -1.794785336622432E2
                        -6.894835020277070E1    -9.114670729720280E-1   -2.873916157398830E-1    9.404061733175340E1    -9.796897431612956E1    -6.060393007650671E1    -8.892513811077379E1    -4.160232308829895E1
                        -8.773977921088491E1    -7.044107479992634E1    -9.369373709930278E1    -1.033873282232817E2    -9.425155353261225E-1   -2.627822116686183E1    -8.089085492058935E1     4.632473766697951E1
                        -8.215622426138772E1    -2.128761419618017      -8.309179140156095E1    -5.942576525533156E1    -9.377842924025940E1     1.323556673844108E2    -9.194392443481153E-1   -2.334277598080445E1

 3.055000000000000E7    -2.756033806080099E-1    8.596114678954029E1    -6.892848251239101E1     5.152456150700257      -8.434010348122482E1    -7.867156846450313E1    -8.208057673450036E1    -2.990731353078455E1
