#  HZ   S   DB   R     50.00 
! Rohde & Schwarz Vector Network Analyzer 
! Rohde-Schwarz,ZNB8-4Port,1311601044102961,2.82
! Created: UTC 2/13/2019, 2:23:20 PM
! freq[Hz]                db:S11                  ang:S11                 db:S12                  ang:S12                 db:S13                  ang:S13                 db:S14                  ang:S14
!                         db:S21                  ang:S21                 db:S22                  ang:S22                 db:S23                  ang:S23                 db:S24                  ang:S24
!                         db:S31                  ang:S31                 db:S32                  ang:S32                 db:S33                  ang:S33                 db:S34                  ang:S34
!                         db:S41                  ang:S41                 db:S42                  ang:S42                 db:S43                  ang:S43                 db:S44                  ang:S44
! 
 5.525000000000000E7    -4.038987018404932E-1    9.753338027026656E1    -2.918414863165737E1     7.577031407209938E1    -9.275175685920505E1    -1.267552052596720E2    -8.693042406096269E1    -3.884766607275086E1
                        -2.921537319204571E1     7.540042552192246E1    -9.506399759666823E-1   -1.265438778848485E2    -6.678880088588477E1    -1.376108531981071E2    -8.596910901215416E1     4.740534160024924E1
                        -8.303071320077657E1     1.360162768798466E2    -6.739258210748601E1    -1.435734242717447E2    -1.411898735370103       2.469129312011012E1    -9.291809099807389E1     3.532529468843809E1
                        -9.062462887925872E1     1.715751863042486E2    -8.089287877026295E1     7.141260478718354      -9.314558793033127E1     1.134772309031832E2    -1.434562124176726       3.118514145089643E1

 5.525025000000000E7    -4.030112191099589E-1    9.752362806844779E1    -2.911717031825879E1     7.526355274544298E1    -8.387437710735048E1     1.260508144173131E2    -8.416938685386369E1    -1.715036257065048E2
                        -2.915679423987939E1     7.547818612487841E1    -9.590901116170616E-1   -1.266007898777728E2    -6.742497547884369E1    -1.489200923663140E2    -7.980897567295918E1     2.686132419852726E1
                        -9.725856917648582E1     1.424108975541503E2    -6.831663311120141E1    -1.497531565887159E2    -1.412966286255811       2.467876447878258E1    -8.980546771660661E1     1.052234694654552E2
                        -8.827255084321212E1    -1.116093294573486E2    -8.685437492445306E1    -3.107567566816312E1    -8.208335408006741E1     9.660682606414741E1    -1.430540489146125       3.117742737953057E1

 5.525050000000000E7    -4.036876450243870E-1    9.750070992464951E1    -2.929687250868932E1     7.640675223595795E1    -8.375708860557052E1     2.708192385748179E1    -8.972345357952165E1    -1.835746376150577E1
                        -2.926600430299135E1     7.564826867889835E1    -9.533238992132904E-1   -1.265923911404960E2    -6.889258531941192E1    -1.570652036515374E2    -8.222411434874380E1     3.216044114621056E-2
                        -9.082247345629617E1    -9.212241921574540      -6.647373145914190E1    -1.413283546049503E2    -1.412750587194220       2.469815332301828E1    -8.793463819008781E1     1.112030005227258E2
                        -8.136764218886199E1     1.718859595364482E2    -7.961298675372515E1     1.712115688147237E1    -8.492758768783490E1    -1.165739609754077E2    -1.433743384137044       3.120333094406254E1

 5.525075000000000E7    -3.987680963970831E-1    9.750713349779606E1    -2.919601232892648E1     7.631330091036828E1    -8.571793960891164E1     1.649849564746978E2    -7.918243975119127E1     1.512406520367236E2
                        -2.916456944098616E1     7.662709309351624E1    -9.579251637321063E-1   -1.266330365039702E2    -6.787828478590699E1    -1.467553440162559E2    -8.139618366568547E1     1.316545991473945E1
                        -8.697796189851715E1     8.257890903138571E1    -6.775354713029377E1    -1.595005808511486E2    -1.415169996324948       2.468375934629432E1    -8.922879997368472E1     1.024408261256998E2
                        -8.895907114798814E1     1.516429980957616E2    -8.006200072466983E1     2.995498904566396E1    -8.959001151484385E1     5.393053431656900E1    -1.432325118020468       3.117778583776653E1

 5.525100000000000E7    -4.103864996177080E-1    9.750920025283659E1    -2.919932275452767E1     7.522100814133415E1    -1.014812377168917E2     4.547981464482742E1    -8.836224232278266E1     1.451315657811362E2
                        -2.916302813374040E1     7.555417917372331E1    -9.573097712945384E-1   -1.267163713820440E2    -6.766397963661584E1    -1.423413510994939E2    -8.091993489397326E1    -1.882923443075485E1
                        -8.199247314265261E1    -8.047977807130455E1    -6.688356058061814E1    -1.449574071765752E2    -1.410735182047821       2.469725372700493E1    -8.694496910173891E1    -2.613659044969841E1
                        -8.227377553890190E1     6.042363354357313E1    -7.885016663693679E1     2.086566463680789E1    -8.998158725462643E1     9.682362897266711E1    -1.430241632059508       3.117176895615904E1

 5.525125000000000E7    -4.067230693719310E-1    9.749949787544112E1    -2.912834216879059E1     7.564231015517207E1    -8.567194073860296E1     1.161942202371563E2    -8.505207669629284E1    -8.785221981962164E1
                        -2.922054033824922E1     7.555028318472274E1    -9.594464695453498E-1   -1.267047631259693E2    -6.751417476179522E1    -1.461798254156501E2    -9.423987654973445E1     1.878349093692679E1
                        -8.472947828407695E1    -7.732567192374771E1    -6.736833733195974E1    -1.436253549475073E2    -1.413118240402403       2.469161664064091E1    -8.717790464359052E1     1.023192478986818E2
                        -9.601515779320103E1    -7.101614953010676E1    -7.892665749766505E1    -2.292305463737273E1    -9.129467188682257E1     1.707315284555210E2    -1.431856560633120       3.118785560548434E1

 5.525150000000000E7    -3.996362005919331E-1    9.751114983514684E1    -2.914462994308513E1     7.596377174409152E1    -8.620788521303781E1     3.541866652377453E1    -8.262131559485215E1     1.787222122804218E2
                        -2.917462894843434E1     7.525626682569255E1    -9.593031025820248E-1   -1.267369123693534E2    -6.604538618643773E1    -1.506838322709908E2    -8.138782768776694E1     1.323293968581127E1
                        -8.306273291741144E1     7.921854259423272      -6.753862921699296E1    -1.444002898951223E2    -1.416161467167687       2.466531962939482E1    -9.712747829709763E1    -4.940175424650328E1
                        -8.729686118432036E1    -7.603983674501055E1    -8.421709989896941E1     3.911343757294296E1    -9.033515056289261E1    -4.030437062140171E1    -1.432078733900575       3.116616487067751E1

 5.525175000000000E7    -4.082911899500103E-1    9.752557499767475E1    -2.910295218915535E1     7.521886244690631E1    -8.735913199536454E1     1.581130844787967E1    -9.677314316575404E1    -1.646242273227658E2
                        -2.916554186624195E1     7.613283561674990E1    -9.626951499080577E-1   -1.267561217723115E2    -6.675763865024155E1    -1.443950555908544E2    -8.747432544759803E1     1.249720037297945E1
                        -8.622705788934337E1    -1.641215964264970E2    -6.754070438204421E1    -1.508280208559127E2    -1.411943128432138       2.466565239960918E1    -9.438242845544771E1     1.270413878172655E2
                        -8.306892720008584E1    -9.218461438139630E1    -7.962227269906136E1    -7.344924329986529      -8.906064318600146E1    -1.698805294575260E2    -1.431176908436950       3.115815393917630E1

 5.525200000000000E7    -4.009571270993897E-1    9.748658308424669E1    -2.915108645211425E1     7.564166078610833E1    -8.993346591292624E1     1.171818323466984E2    -9.683604812333414E1     1.036110372471046E2
                        -2.913501286980809E1     7.586156700005461E1    -9.625544348820183E-1   -1.268033589843341E2    -6.843600385046186E1    -1.394209829028789E2    -8.076597713595641E1     1.235318225043787E1
                        -8.778282482906232E1    -6.203351371964462E1    -6.727505091380699E1    -1.453099368652560E2    -1.412034486701904       2.468321128502688E1    -9.244098762830384E1     1.193907782576075E2
                        -8.469829995866485E1    -8.855111490379701E1    -8.065624940095827E1    -2.668370279412154E1    -7.976699105935730E1     8.630379793992807E1    -1.432000126391727       3.117069426852212E1

 5.525225000000000E7    -4.017327946015332E-1    9.747546549742543E1    -2.918181019634400E1     7.521576826334589E1    -8.049868318643794E1     1.134909087253084E2    -8.513151868115719E1     1.320746575403711E2
                        -2.916429055916122E1     7.556224439844719E1    -9.633167864908045E-1   -1.268611242445813E2    -6.778663304149529E1    -1.395581964937963E2    -7.929432570380511E1     2.798938741113846E1
                        -8.928861000005810E1    -1.009182425566402E1    -6.827932436417376E1    -1.437571212088260E2    -1.414789099661902       2.467006231772085E1    -8.380543049511584E1     1.177589317193617E2
                        -8.434262528074045E1    -1.706370160443080E2    -7.990355988381781E1     2.447040640308015E1    -8.672999824822725E1     1.267800007884256E2    -1.431421494369228       3.118223455150236E1

 5.525250000000000E7    -4.042996302403922E-1    9.744954527888119E1    -2.924007783838939E1     7.566893621045196E1    -9.249844075200531E1    -1.437381722525629E2    -9.092934537247243E1    -1.198211166868160E2
                        -2.918813219833964E1     7.545970219230129E1    -9.614192501973051E-1   -1.268894269448892E2    -6.631886957188021E1    -1.458918902032420E2    -8.219563555212957E1     5.864107883706856
                        -8.800719513405753E1     4.818102847583931E1    -6.645868257314915E1    -1.444381793431022E2    -1.416346048609897       2.467011787507038E1    -8.957727735758644E1    -1.003415619608318E2
                        -9.248362990425520E1     1.616225564624426E2    -8.440462141416562E1     1.137551302384326E1    -8.500572988189754E1     2.538567425409506E1    -1.435149285393790       3.114187980069639E1

 5.525275000000000E7    -4.048059413395382E-1    9.744729053611002E1    -2.912619260051599E1     7.577684369978111E1    -8.976443377492936E1    -1.219160646208590E2    -8.861944959128047E1    -5.467998078493637E1
                        -2.924308234184469E1     7.595691427644321E1    -9.628606230883064E-1   -1.268913905913138E2    -6.724116117260813E1    -1.409568013131907E2    -9.302061764896229E1    -6.005566407046280E1
                        -9.161309729259818E1    -8.934783632022445E1    -6.736484279444085E1    -1.490770860955399E2    -1.412011294645263       2.465560125148772E1    -8.192623607024115E1    -9.367714827583741E1
                        -9.654069637504789E1    -1.218017152068660E2    -7.679449259575893E1     4.040346513486612      -8.408194563914771E1     1.088206915274344E2    -1.431622186231664       3.118235125195147E1

 5.525300000000000E7    -4.076032553223036E-1    9.749544727567302E1    -2.922023119007618E1     7.561414241129694E1    -8.766601788900259E1    -1.170987580491595E2    -8.314877337781005E1     9.771910957698586E1
                        -2.924936332250383E1     7.639310672795818E1    -9.708734500549803E-1   -1.269261830943242E2    -6.650340938832422E1    -1.459880310683482E2    -8.311876902745682E1     2.190131639266507E1
                        -9.412863211292121E1     1.014106576945261E2    -6.655873365013163E1    -1.495335051102257E2    -1.413117876891348       2.463722733347856E1    -8.383353560113726E1     8.840348077776180E1
                        -1.111179147528235E2     8.195308679233523E1    -7.933919401224986E1     2.094624212789562E1    -8.969669799976728E1     1.359455864243453E2    -1.435392028207700       3.113011739000911E1

 5.525325000000000E7    -4.011678742832428E-1    9.744231905752382E1    -2.917493365444197E1     7.588080230117056E1    -8.600012312119691E1    -1.325482389360659E2    -9.313145103781260E1    -4.466174920281716E1
                        -2.919619112191801E1     7.527917933273255E1    -9.616933273301188E-1   -1.269851922924017E2    -6.826316797670559E1    -1.481756492912462E2    -8.556026661092631E1     7.191727860407596E1
                        -8.306276532845602E1     1.508254637603762E2    -6.927514948550588E1    -1.551698364909592E2    -1.410244310637596       2.465565161879905E1    -9.317282712125197E1    -8.979804691481190
                        -8.454577434445929E1    -1.077891348745761E2    -7.711912919122011E1     9.785093230667376E-1   -8.408195449642992E1    -1.416910824957043E2    -1.434813196935559       3.115574199651423E1

 5.525350000000000E7    -4.018950398865404E-1    9.747410186675705E1    -2.920416926430506E1     7.570286626156808E1    -8.546981203315723E1    -3.678517799301367E1    -8.948271632211996E1     6.190768549801985E1
                        -2.924624568308203E1     7.590020166719179E1    -9.646296507968457E-1   -1.270091987017354E2    -6.658747550617454E1    -1.448526126894947E2    -7.803856165686722E1     1.285833938824344E1
                        -8.496242810458823E1    -1.946039138291723E1    -6.861580635683814E1    -1.445414021256202E2    -1.418157570638126       2.465101924830303E1    -8.753302473677452E1     8.594019682028947E1
                        -9.036226529937892E1     1.773904154650989E2    -8.537509842653469E1     5.679324679477769      -8.442318412940145E1    -1.312284362065678E2    -1.430050649893240       3.115032678312103E1

 5.525375000000000E7    -4.031418810456783E-1    9.744220944953490E1    -2.912815661560943E1     7.535573368345820E1    -9.458322165277778E1     1.806849844361927E1    -8.806808058389521E1    -1.070939597746794E2
                        -2.918431886864145E1     7.559185348449984E1    -9.663559883080469E-1   -1.270332238400951E2    -6.678833729898173E1    -1.495142966178395E2    -8.494756178069696E1    -1.076789336096921E1
                        -9.277158614404647E1     6.325288280834793E1    -6.758160939234462E1    -1.541537469742839E2    -1.414123209670296       2.464892481757324E1    -9.852123198206186E1     1.162624354240459E2
                        -8.776538651199863E1     2.828670309696856E1    -1.075234284859653E2    -8.016313453531486      -8.801962340859086E1     1.596132852386486E2    -1.435055369510816       3.113914757622325E1

 5.525400000000000E7    -4.004381933747286E-1    9.744626642439678E1    -2.917085223667189E1     7.560179266846302E1    -9.155191399345767E1    -2.321663364544810E1    -8.925639186017511E1    -1.773945199357335E2
                        -2.920206366437949E1     7.580849523959643E1    -9.646133218154223E-1   -1.270694686750318E2    -6.706272241079573E1    -1.426879132369743E2    -8.035783235334063E1     5.408592054609796E1
                        -8.529196326703369E1     8.333218191284697      -6.745035137333855E1    -1.404974306352684E2    -1.411362534090967       2.466218337189953E1    -8.448936618798994E1     1.051503447941879E2
                        -8.351240393708059E1    -1.374979403755840E2    -7.668481074149111E1     3.618233943306203E1    -8.532880696800871E1     1.565534535582793E2    -1.434722157264122       3.116200389556792E1

 5.525425000000000E7    -4.033202302069556E-1    9.743646463766247E1    -2.920018068327685E1     7.593125179085175E1    -8.681735860163825E1    -4.406222565662345E1    -8.608437441478134E1    -7.396024301377224E1
                        -2.908766937511663E1     7.540147416584699E1    -9.724907203816653E-1   -1.270777393706078E2    -6.780252475818809E1    -1.405334825811872E2    -7.660128507337026E1     2.300809513425737E1
                        -9.329130415079194E1    -5.056939722144852E1    -6.674049514900651E1    -1.477583064557985E2    -1.412403277905457       2.464142993008015E1    -8.159574625572250E1     5.314976102399256
                        -8.320202657245615E1     1.449728650257938E2    -7.895130737085188E1     1.488830914106147E1    -8.488224980592869E1    -1.041152855613342E2    -1.433600710977358       3.113563319315720E1

 5.525450000000000E7    -4.009622197209716E-1    9.744160796631550E1    -2.922619384114806E1     7.582033471164365E1    -8.481485069741294E1    -3.027953564660790E1    -8.694048048617155E1     1.738002306460040E2
                        -2.912550075209737E1     7.558543393693398E1    -9.728786277249082E-1   -1.271228088152067E2    -6.605485705068450E1    -1.470869049577056E2    -8.049238768883839E1     1.140069588618619E1
                        -9.087557445721839E1    -6.966061101175789E1    -6.714191444199489E1    -1.467793016654188E2    -1.409538429166189       2.461837684069857E1    -8.731039534846401E1     8.240683060211505E1
                        -8.328965023916840E1    -1.002261951935440E2    -7.829444151112485E1     1.355993696399809E1    -8.742594651204055E1     1.602824956103912E2    -1.430005831929420       3.112045603019813E1

 5.525475000000000E7    -3.989200353960907E-1    9.744490167355326E1    -2.916425393130572E1     7.541610632931962E1    -8.213403027502054E1     8.477760938019542E1    -8.596172416081546E1     9.890785912147263E1
                        -2.919342154977466E1     7.511902553435982E1    -9.767077882053268E-1   -1.271545901442065E2    -6.745873584601398E1    -1.391410480069308E2    -8.381726114444378E1    -1.954773674096036E1
                        -8.155774159515039E1     3.958931825049332E1    -6.649782087216708E1    -1.504408993631089E2    -1.413651553911750       2.463991476671496E1    -1.057987356410883E2     7.473585531112749E1
                        -9.447246711134098E1     1.287778114381657E2    -7.998198445881005E1    -2.586642321197138E1    -8.979835724501905E1    -8.907564583517220E1    -1.433739089132772       3.112714584002214E1

 5.525500000000000E7    -4.032177633202153E-1    9.743444707634177E1    -2.918597453824451E1     7.577696233704646E1    -8.396875672641842E1    -9.010673185730907E1    -9.102373389226740E1     8.653865578846647E1
                        -2.913884975355680E1     7.546195579080454E1    -9.729512142243562E-1   -1.271674832379251E2    -6.710996164213471E1    -1.600270063469269E2    -7.678083608992274E1    -2.161430963520578E1
                        -8.894401114997041E1     4.813748202682696      -6.693713895648395E1    -1.492110761281218E2    -1.408356838842590       2.464816084622393E1    -8.401807494811150E1     5.874770512478368E1
                        -9.312552917737384E1     8.254425579598997E1    -7.701115670361891E1    -7.306718921607639E-1   -9.328775569455254E1    -1.378140520985823E2    -1.426889038849494       3.113791773211567E1

 5.525525000000000E7    -3.987254615982593E-1    9.743513582669164E1    -2.917787512335524E1     7.563916676481553E1    -9.322371364401616E1    -7.468176926739159E1    -8.062258694924631E1    -1.456086672378337E1
                        -2.917437602410944E1     7.558913459530147E1    -9.745394267138136E-1   -1.272352442291145E2    -6.750271967294849E1    -1.488941138444589E2    -7.979239201878585E1    -2.201847828421816E1
                        -8.878635551664320E1     1.643368523916053E2    -6.835727380140858E1    -1.479308868065718E2    -1.413664983377093       2.465308795332006E1    -9.765741855954728E1    -6.924688585071571E1
                        -9.660315840155620E1    -1.633497375869772E2    -7.959225227270711E1     3.097105440906350E-2   -8.451283763704996E1    -8.771893305564771E1    -1.429978367144158       3.114655380831458E1

 5.525550000000000E7    -4.021984811329749E-1    9.742452683511783E1    -2.915248774806063E1     7.533142262889200E1    -8.536366451350403E1     1.019837877446243E2    -9.102169769697821E1     1.268517733152803E2
