#  HZ   S   DB   R     50.00 
! Rohde & Schwarz Vector Network Analyzer 
! Rohde-Schwarz,ZNB8-4Port,1311601044102961,2.82
! Created: UTC 2/12/2019, 2:17:40 PM
! freq[Hz]                db:S11                  ang:S11                 db:S12                  ang:S12                 db:S13                  ang:S13                 db:S14                  ang:S14
!                         db:S21                  ang:S21                 db:S22                  ang:S22                 db:S23                  ang:S23                 db:S24                  ang:S24
!                         db:S31                  ang:S31                 db:S32                  ang:S32                 db:S33                  ang:S33                 db:S34                  ang:S34
!                         db:S41                  ang:S41                 db:S42                  ang:S42                 db:S43                  ang:S43                 db:S44                  ang:S44
! 
 3.000000000000000E7    -2.804364097474283E-1    9.703206231657468E1    -6.984548762599007E1     1.065209734051301E1    -8.735411020042722E1     5.878491767142924E1    -8.328276485640308E1    -1.156079635286633E2
                        -6.869845163053188E1     1.106438711912187E1    -2.287883902989243E-1    1.046975628898047E2    -9.335050871682755E1    -9.027830497141557E1    -8.183160404845478E1    -1.209115981831936E2
                        -8.337814349942397E1     1.087610422327320E2    -8.641519394094659E1     1.258125021456544E2    -9.329838834688641E-1   -1.572292913902398E1    -8.643051347262941E1     8.701842223597206
                        -9.116009602051818E1    -5.612914387208060E1    -8.857950752554713E1     8.213102745347585E1    -1.057941303388641E2    -1.595187417683696E2    -8.992281935346866E-1   -1.304435811706463E1

 3.002500000000000E7    -2.840632632578446E-1    9.669444523977529E1    -6.891415347706401E1     1.402881672977278E1    -9.504237092050097E1    -1.397133065320214E2    -9.025808652728843E1    -1.600539669560292E2
                        -6.825164224008910E1     6.802717312032878      -2.397292118820783E-1    1.043581772155372E2    -8.220880330066292E1     1.697869937197057E2    -1.124113980755870E2     5.256612015418598E1
                        -9.212574752093737E1    -1.692233822315755E2    -8.321525492508644E1    -1.359189061989916E2    -9.347727057104007E-1   -1.607997288180804E1    -8.027676049886517E1     2.118090466874715E1
                        -7.994671320075503E1    -7.364320173887391E1    -8.332557116595660E1     1.270809030748153E2    -9.604256855570382E1    -6.454366683840867E1    -8.934421576116690E-1   -1.329284511864011E1

 3.005000000000000E7    -2.863256568863783E-1    9.637581378996197E1    -6.866523457453062E1    -3.894461371020808      -8.227309441416871E1     1.228376440353956E2    -8.223181076637988E1    -9.898158111878911E1
                        -6.868991545912783E1     4.847578676075822      -2.288198837982156E-1    1.041241058591020E2    -8.840277123232072E1     9.676797711240003E1    -8.851569097840590E1    -1.675732735229274E2
                        -8.822618676051755E1    -1.317645318198822E1    -8.329292377264578E1     6.244553082644814E1    -9.319358013570105E-1   -1.635901435634486E1    -8.248163301914543E1    -1.701365398904950E2
                        -8.452344709122127E1    -8.230392076840200      -8.941006059865829E1    -7.301581864621107      -9.613006841962060E1    -1.618961948152015E2    -8.988729815972560E-1   -1.362201180184390E1

 3.007500000000000E7    -2.829501114644901E-1    9.601907186228171E1    -6.827161246096725E1     2.084534113711077E1    -8.851668207093353E1    -1.508588936658740E2    -8.731611703489291E1    -5.964991587497905E1
                        -7.103101272068052E1     4.426428006298697      -2.296971101826846E-1    1.037084046166127E2    -9.444262027760993E1    -5.073735647973663E1    -9.289342888564721E1     4.616394002268791E-1
                        -8.909587980717696E1    -6.341089601069636E-1   -8.063337051510452E1    -5.128798179617831      -9.341682629845151E-1   -1.671728513133115E1    -9.072481807060149E1    -2.731010550171148E1
                        -8.135586917770738E1    -1.483704348546059E2    -8.601450050700410E1    -3.040170566092953E1    -8.764045206886111E1    -1.442094473361091E2    -9.035171710406165E-1   -1.395624284658114E1

 3.010000000000000E7    -2.777222046456808E-1    9.568708011084581E1    -7.282156715176059E1    -4.420678080063290      -8.862812743475674E1     1.733568912731591E2    -8.325267029698082E1    -1.304241500242312E2
                        -7.048760047769393E1     2.525314510404614      -2.326487280485061E-1    1.034777266365094E2    -7.829764673114011E1    -4.673924001776327E1    -7.829118532169491E1     1.710182746288379E2
                        -8.744038003912581E1     1.172979424111722E2    -8.620473249425788E1    -1.664787274170337E2    -9.293304181486370E-1   -1.697435217453042E1    -8.418456003315458E1     2.282189373074399E1
                        -7.871345641701387E1    -5.763025198112278E1    -9.469917735811544E1     9.257615094145299E1    -8.564039848369697E1    -1.414084777355992E2    -8.975952029096612E-1   -1.422698804378100E1

 3.012500000000000E7    -2.768644306901308E-1    9.537114344726683E1    -6.973502165197986E1     1.581878808666245E1    -9.135386374943491E1    -1.544882785623485E2    -8.938749865907289E1    -1.276444037971906E1
                        -7.029092707541402E1     1.012190264086389E1    -2.318117770712460E-1    1.031765254324318E2    -8.093755448621990E1     7.220611996927123E1    -8.914611824064807E1    -1.346286752014495E2
                        -8.129113235527970E1     1.242533752914164E2    -9.018058019914366E1     4.296044599108283      -9.393347676318284E-1   -1.731135419983889E1    -8.783277270285223E1     1.089582331726253E2
                        -8.142336962093118E1    -1.514357780896495E2    -8.594451806291274E1     5.749788565041451E1    -8.195247011567025E1    -3.175070393418974E1    -9.014693442923814E-1   -1.454155773285646E1

 3.015000000000000E7    -2.780849938281959E-1    9.504471048001665E1    -6.885934889445720E1     2.054294621959236      -8.289749900090327E1     2.177631856391001      -8.318616490375440E1    -1.796153481538231E2
                        -6.957682545707228E1    -1.871160268005347      -2.334540408718683E-1    1.028650351252584E2    -8.862000248491484E1     1.214482825616400E2    -8.394297189905218E1     4.311912131865729E1
                        -8.621918883434336E1    -1.247636003215958E2    -8.154692503618480E1     1.281036522783711E2    -9.353671641803761E-1   -1.762489639803466E1    -8.906868621912835E1    -1.305626055505644E2
                        -8.246273963054759E1     1.311242166419854E2    -9.234657155649543E1    -1.348860799644485E1    -1.022474366536817E2    -9.996235858800945E1    -8.958873942524247E-1   -1.479654712485135E1

 3.017500000000000E7    -2.703821764845680E-1    9.469902060625944E1    -7.018833206573358E1     2.479932709778927      -9.601634597495773E1    -1.129591040147136E2    -8.072622058887467E1     1.414831088590965E2
                        -6.869966072245842E1     1.683771287994950E1    -2.175322114242266E-1    1.025234147873332E2    -8.451689385738018E1     3.345005589748954E1    -8.499526263771020E1    -3.363055982552544
                        -9.390427894076920E1    -4.862036645075168E1    -8.650702967144552E1    -1.632919780934095E1    -9.325226960522464E-1   -1.791356971578979E1    -8.818319163246825E1     1.578844596767273E1
                        -8.595351558912896E1     1.483560735744339E2    -8.955057434387771E1    -6.856283578530736E1    -8.386981888267093E1     6.248816972005338E1    -9.029329069619654E-1   -1.513603885907647E1

 3.020000000000000E7    -2.722481169965947E-1    9.436584318166807E1    -6.874264556923789E1     2.727996664667499E-2   -8.473043653932776E1     1.784389763729683E2    -8.960124742396067E1     1.072216794207069E2
                        -7.086604080443041E1     5.885932089598367      -2.293415169020048E-1    1.022314366955439E2    -8.485976254979906E1    -1.129376985909829E2    -8.729156035828721E1    -9.541538607125035E1
                        -8.417629029597529E1     7.395701587333030      -8.817335845154258E1     4.554572082176534E1    -9.402597288067525E-1   -1.823440807745507E1    -8.114250959216307E1    -3.725331624415635E1
                        -9.039002245453463E1    -7.531385998375856E1    -8.532257574440648E1    -7.271973676528145E1    -9.173252212861556E1     1.328682139450582E2    -8.959994155255138E-1   -1.544836273553535E1

 3.022500000000000E7    -2.774429601618753E-1    9.403260654865430E1    -6.962648124644265E1     1.172772109157752E1    -7.988229589539715E1     1.439333535077302E2    -9.252928981598853E1     1.534393896588176E2
                        -6.963351806065943E1     8.284995478616427      -2.282502843842333E-1    1.019016141735198E2    -8.047448656488746E1     1.359832739457776E2    -8.288309103972665E1     1.526265075930486E2
                        -9.908369820729460E1    -1.208851260460965E2    -8.422340940636988E1     8.902562172377475E1    -9.399976993815878E-1   -1.856975481050103E1    -8.327763299015177E1     2.796570778711839
                        -8.678990228537721E1     1.308230859813383E2    -8.670476990032498E1     4.062249597971967E1    -9.149762731525058E1     2.706003275098051E1    -9.010622550952003E-1   -1.571350811778708E1

 3.025000000000000E7    -2.787765585727614E-1    9.371746796707795E1    -6.985796513963274E1     6.032524840114371      -9.333640141400935E1    -4.309962692846531E1    -8.860456769922328E1    -1.642259330582799E2
                        -6.955806608360182E1     2.496613063501575E1    -2.349821021766894E-1    1.016078746442314E2    -9.402386253869076E1     4.917118787291601E1    -9.494692888784819E1    -1.385543660352518E2
                        -8.886081119987796E1     1.787802557173029E2    -8.000434527732915E1    -1.178255442282724E2    -9.334910294701769E-1   -1.883875726614960E1    -8.374846360473819E1     1.310711862920248E2
                        -8.622791296797992E1     6.848263913542401E1    -8.038886381481221E1     7.479615800692027      -8.851532155391546E1    -4.164816513053773E1    -9.028665711424838E-1   -1.600809855355628E1

 3.027500000000000E7    -2.738371284595613E-1    9.338795903214592E1    -6.892308050746618E1     5.459323598437377      -7.609061777338282E1    -6.961147366600024E1    -1.043803629767851E2    -7.846272755837460E1
                        -6.979111999557378E1     7.844180254568851      -2.200601485495632E-1    1.012963759956579E2    -9.025790361681865E1    -9.002163891852175E1    -9.346771910957281E1     5.513279521399898E1
                        -8.400715171808413E1    -7.820640794427528E1    -8.896053989576275E1    -1.714847613211750E2    -9.294607879438821E-1   -1.916100195763693E1    -8.628558421921349E1    -1.212529065656037E2
                        -8.690376227545210E1    -1.321290713929951E2    -8.380448698629471E1     3.945266881709832E1    -7.877430641352261E1     1.555202333344410E1    -8.992812342476564E-1   -1.630518811928854E1

 3.030000000000000E7    -2.784745104588962E-1    9.305154667108042E1    -7.060181952351707E1    -5.668840206411996      -9.693707275625846E1    -6.315211077155876E1    -8.374171423816365E1    -1.280385315444739E2
                        -6.883728480685325E1     1.541982185047447      -2.217127474743552E-1    1.010156872199420E2    -8.137753719801219E1     1.158301715099327E2    -8.754850747605292E1    -4.350277643426728E1
                        -8.466746636349743E1     2.935840526343158E1    -8.422116399537417E1     1.177437515628320E2    -9.397150928814392E-1   -1.947580259487780E1    -9.822167520935876E1     9.281215021602023E1
                        -8.776706360199216E1    -7.523730197401089E1    -8.321185855067853E1    -1.594227740794500E2    -8.515181645435645E1    -8.819725980277647E1    -9.006300162363435E-1   -1.662030018234237E1

 3.032500000000000E7    -2.761724652361990E-1    9.270131039085632E1    -7.012430155979756E1     1.858302743462615      -8.193912756530997E1     6.404888365266079E1    -8.289771915880557E1     3.736847713226522E1
                        -6.828123117898645E1    -7.819596522343218      -2.210090338759190E-1    1.006843699334581E2    -8.028032381489062E1    -5.330235124384490E1    -9.296488304049497E1    -2.821091508269980E1
                        -8.101797158460559E1     1.244619013471186E2    -8.774399235026890E1    -1.480593485518266E2    -9.374159867487777E-1   -1.984588244239053E1    -8.358834771306960E1    -9.052571931642861E1
                        -8.903406196411874E1    -9.154135642402181E1    -9.449950203353598E1     3.329296217594988E1    -9.136973637040217E1    -1.638421461023486E2    -8.986401728444909E-1   -1.693741719299180E1

 3.035000000000000E7    -2.661919815666001E-1    9.239429685010266E1    -6.921403279763239E1     1.047173335450110E1    -8.557724975135670E1    -1.513728073845131E2    -8.439415038232495E1     2.966572322901703E1
                        -7.194305620514817E1     1.313732932448036E1    -2.247177875147803E-1    1.003812242596988E2    -8.726354176987667E1    -1.162469128158703      -8.278274075716384E1    -5.989722325094314E1
                        -9.178103598519482E1    -7.855795159943179      -9.252506855573884E1    -3.534390445159844E1    -9.314870799045449E-1   -2.012267118530487E1    -8.790867573953497E1    -8.280465031318090E1
                        -9.219043734705126E1     1.240161520706714E2    -8.257448042137953E1     1.703367951747308E2    -8.493585229389470E1     1.487505724602748E2    -9.014608238101706E-1   -1.722262906308453E1

 3.037500000000000E7    -2.685227249364803E-1    9.202312996425300E1    -6.846969057169754E1     5.355723118605145      -9.214333138760445E1    -7.166393776097661E1    -8.529818366208755E1     7.330707899342345E1
                        -7.005417391073742E1     5.822439760904380      -2.328213623586289E-1    1.000339625816075E2    -9.055127896289967E1     5.464265447247411E1    -8.216590691976661E1    -1.160079797617050E2
                        -8.734053768130448E1    -1.516599136032160E2    -9.041333864359375E1     1.729553899556000E2    -9.339604543982311E-1   -2.036899054864243E1    -8.484801172642854E1    -1.085438506762059E2
                        -8.578468126294592E1    -1.792538153764464E2    -8.431847711783334E1    -2.162246023106564E1    -8.115900574906402E1    -1.137852302493346E2    -8.961994857387255E-1   -1.752300151036425E1

 3.040000000000000E7    -2.631894795871931E-1    9.170206059903926E1    -6.870063035136124E1     5.354585511979649      -9.300832509608556E1     1.208117734135681E2    -8.345704588849790E1     3.808366533395553E1
                        -6.936879967770359E1     1.130038856649729E1    -2.295845406330663E-1    9.977646949310700E1    -9.105396135885567E1    -1.700509478966856E2    -9.409030206421792E1    -1.288288944593134E2
                        -7.761008326601329E1     1.579269426320231E1    -7.975000215374782E1    -2.533420358394609E1    -9.340776445599173E-1   -2.072261178064963E1    -9.747924892945437E1     1.713143043112990E2
                        -8.282682906198779E1    -1.692001183847000E2    -9.670710353597782E1     1.137033264309225E2    -8.706762755029794E1    -6.018169926261195E1    -8.996372214688631E-1   -1.779446148048814E1

 3.042500000000000E7    -2.639598033125481E-1    9.135225989377155E1    -6.912115930635900E1     9.850399839233317      -9.804143561977442E1    -9.230696963358721      -8.269851012141190E1    -8.051392699332880E1
                        -7.002236358160201E1     5.417521421254547      -2.263195200408664E-1    9.945272499403477E1    -8.107540750312916E1     1.153640316002949E2    -8.969657870377988E1    -3.349330607811732E1
                        -8.287170989919784E1    -1.131234850146684E2    -9.042557500636173E1    -5.403367846849642E1    -9.350165853026822E-1   -2.108827069646149E1    -8.485664185992376E1     5.961816552491690E1
                        -8.580525822109325E1    -1.546290088556247E2    -9.119951044661084E1    -1.127245866484770E2    -8.360221106055280E1     8.762803008866226E1    -8.956675225140762E-1   -1.810088571199404E1

 3.045000000000000E7    -2.674171323802128E-1    9.100687620672034E1    -7.050294839321482E1     1.210227110340512E1    -9.380815791409080E1    -4.779930766505161E1    -8.914753821796512E1     1.594890018431312E2
                        -7.035601286592237E1     2.831403353209256      -2.198252157001816E-1    9.910598844726060E1    -8.517656420435010E1     5.164889552324753E1    -9.068765147470072E1    -1.303733919118555E1
                        -8.534625350267598E1    -8.356211108343327E1    -8.623800972536674E1    -1.219977277405374E2    -9.360299927513165E-1   -2.130320568188030E1    -8.801276720520917E1     1.290882109675755E2
                        -9.010446949054335E1    -9.579297715653917E1    -8.594609628993966E1     1.931879605334813E1    -8.498876489995436E1    -1.128219062583418E2    -9.007792969642183E-1   -1.842906959336430E1

 3.047500000000000E7    -2.686495883290342E-1    9.068786245832526E1    -6.790392626845876E1    -2.299404516979474      -8.718294633605706E1     1.353180364461602E2    -8.583525419706250E1     1.095994410464177E2
                        -6.905559124995192E1     1.703071591664340E1    -2.211701876873575E-1    9.889813322231551E1    -9.195067778591337E1    -1.230751109319710E2    -9.856795912361223E1    -2.285924031977119E1
                        -9.582797307973634E1    -1.331936392982519E2    -8.110778281764786E1     1.229896206340205E2    -9.307529194255747E-1   -2.164050901809057E1    -8.442171064605496E1    -1.111328485620157E2
                        -8.661140241926913E1     1.384988383957195E2    -8.594505864182631E1    -1.523407368058464E2    -8.603869023190501E1     3.010290581842675      -9.033473937048882E-1   -1.869372745319800E1

 3.050000000000000E7    -2.713835391942620E-1    9.034006583781198E1    -7.016918261929673E1     1.002216245175994      -8.334136643096062E1     8.491556156418368E1    -8.509797820134571E1     1.030061501635184E2
                        -6.903418739503738E1     9.412813404709496      -2.261570125803900E-1    9.851472662442032E1    -9.450411788366674E1     9.797599479686242E1    -8.774057987518413E1     4.765768001885586E1
                        -9.612370840813087E1     8.575822550704648E1    -9.136314650081253E1    -1.139513246550273E2    -9.349627869953682E-1   -2.197312985147491E1    -8.335782820368209E1     2.809801785489896E1
                        -8.449251611661450E1    -8.441477471238898E1    -8.359951965532471E1     1.506559329700799E2    -7.916041197972331E1     5.008065515130464E1    -8.993004580711916E-1   -1.898209663185515E1

 3.052500000000000E7    -2.713899709285030E-1    8.999871649620029E1    -7.127999918852842E1     6.189515540690301      -1.003870905045498E2    -9.797727804357257E1    -8.566026092870588E1    -1.499560135531292E2
                        -6.837935336705046E1     9.765012523665460      -2.271776050782751E-1    9.825812908255419E1    -8.634182736245235E1    -1.460909190634843E2    -8.236221316181826E1     1.227447519517766E2
                        -9.663427586397346E1    -7.206096823247302E1    -8.773145983530992E1     3.095126675613877E1    -9.344167223841260E-1   -2.224793887221881E1    -8.229703233132689E1     1.575770766576890E2
                        -8.586101393917723E1    -1.051925438796032E2    -8.279937628485644E1     1.434772771618121E2    -8.381601828017905E1    -9.004106767869907E1    -9.004549742804702E-1   -1.930187942206101E1

 3.055000000000000E7    -2.663925056300781E-1    8.967624458728325E1    -6.847725711439475E1     2.846546570463786      -9.827936639249609E1     7.349516566436654E1    -8.537758122556342E1     3.256870611957070E1
