#  HZ   S   DB   R     50.00 
! Rohde & Schwarz Vector Network Analyzer 
! Rohde-Schwarz,ZNB8-4Port,1311601044102961,2.82
! Created: UTC 2/13/2019, 12:10:19 PM
! freq[Hz]                db:S11                  ang:S11                 db:S12                  ang:S12                 db:S13                  ang:S13                 db:S14                  ang:S14
!                         db:S21                  ang:S21                 db:S22                  ang:S22                 db:S23                  ang:S23                 db:S24                  ang:S24
!                         db:S31                  ang:S31                 db:S32                  ang:S32                 db:S33                  ang:S33                 db:S34                  ang:S34
!                         db:S41                  ang:S41                 db:S42                  ang:S42                 db:S43                  ang:S43                 db:S44                  ang:S44
! 
 5.525000000000000E7    -4.529239981316396E-1    9.738457338310612E1    -3.170855176368807E1     7.083697817173196E1    -8.052508103973693E1     3.324186142642389E1    -9.675244950096925E1    -2.623031398261206E1
                        -3.161042373104006E1     7.084840735344137E1    -3.610502732473051      -1.513047245893492E2    -7.717381708257808E1    -2.723184652777244E1    -6.603428168728635E1    -1.587420129358393E2
                        -8.794924075220960E1    -9.410333189797256E-1   -7.344192285983475E1    -2.101734589651736E1    -1.410647243940745       2.476090778444911E1    -8.440254700217309E1     3.261901629723256E1
                        -8.741150863725986E1    -1.309707704391322E2    -6.784715910747435E1    -1.701369135681440E2    -9.665369161278062E1     1.412091612441286E2    -1.434159904865017       3.125555697871893E1

 5.525025000000000E7    -4.524960504208334E-1    9.734896141616228E1    -3.153284789099290E1     7.038554444875456E1    -8.116393392722375E1     1.768475452654920E2    -9.030906900933518E1    -1.513078473900037E2
                        -3.154569992905700E1     7.089644942483244E1    -3.610418313155335      -1.513851697270076E2    -7.290314688831573E1    -1.954643862148541E1    -6.686943916830080E1    -1.668058049878596E2
                        -9.177108317774946E1    -9.944542231828709E1    -7.373575924230889E1    -2.450796858542956E1    -1.407939216380958       2.476784140410081E1    -8.979360559587269E1    -5.531343057972772E1
                        -9.389064258425253E1     5.408924921964493E1    -6.707003698330058E1    -1.631325307937245E2    -8.463578838112747E1    -1.631036701001344E2    -1.430542857505783       3.123840048438420E1

 5.525050000000000E7    -4.531120324984616E-1    9.737849362276486E1    -3.157158678562791E1     7.171421594970808E1    -8.777375150768380E1     8.350853849887825E1    -1.079118479133706E2    -3.124063365326952E1
                        -3.172869799398653E1     6.990165898963350E1    -3.620875636128186      -1.514085636353053E2    -7.434122013215009E1    -1.082036638978546E1    -6.756186258700006E1    -1.643853008035359E2
                        -8.647704050793828E1     1.514630269388084E2    -7.312585914074360E1    -3.736985378732685      -1.414756454066996       2.473695023519175E1    -9.916998014573184E1    -1.622923459453407E2
                        -9.103675516495137E1    -1.751446171499876E2    -6.591469089432363E1    -1.578007819790447E2    -9.867194479353246E1     1.891540258639980E1    -1.430376692591355       3.124491485623216E1

 5.525075000000000E7    -4.527441107240524E-1    9.736380350548886E1    -3.154467740136379E1     7.123272388826318E1    -8.266084647322467E1    -1.653733693379265E2    -8.408472486184122E1    -4.024163887249578
                        -3.160482361971252E1     7.017254228314573E1    -3.617681685139288      -1.514745953177469E2    -7.220619342584040E1    -9.378026908618727      -6.641153396850586E1    -1.614529679054063E2
                        -9.071176470656840E1     1.969392173554180E1    -7.288665718886685E1    -3.024540901527805E1    -1.410781607331297       2.475788988756004E1    -8.492997548084274E1    -1.948106264986252E1
                        -9.431556147052682E1     1.155716741678429E2    -6.633126883854138E1    -1.686940076063486E2    -8.855680306482694E1    -1.188994038439443E2    -1.429624887455133       3.123668927977511E1

 5.525100000000000E7    -4.523156738232877E-1    9.736591375638865E1    -3.159516034545232E1     7.046621318785348E1    -8.792660854978541E1    -1.986267154141797E1    -8.839890605208299E1     9.802404643021664E1
                        -3.174697164582589E1     7.048210749005679E1    -3.627008457919159      -1.515040385136196E2    -7.687216738434687E1    -4.481469914967465E1    -6.670065211470553E1    -1.638033494137340E2
                        -8.435327007109348E1     2.997328938038001E1    -7.706618842211356E1    -1.330726446296302E1    -1.408943512271295       2.472705991695644E1    -8.784507336137284E1    -1.638388210534096E1
                        -8.597329726593327E1     7.946550839113033E1    -6.681140871299603E1    -1.654210969374512E2    -8.736300157061083E1    -1.648575505084069E2    -1.433276399361731       3.123914642367202E1

 5.525125000000000E7    -4.532098448478864E-1    9.734922781140742E1    -3.162776502293497E1     7.084450449291724E1    -8.976282738571922E1    -6.033832004625459E1    -8.468795328556860E1     6.837884099930059E1
                        -3.156414535687652E1     6.975215522813491E1    -3.624807362684381      -1.515596459905922E2    -7.290824689275435E1    -8.026079256069266      -6.726602996285168E1    -1.709570731235759E2
                        -8.801551077755192E1    -1.021385871174011E2    -7.338665098319638E1    -1.571204741166853E1    -1.407385908141245       2.474031827499438E1    -8.328188085732491E1    -4.751693434944491E1
                        -9.590163140111228E1     1.308386807109507E2    -6.783745297385848E1    -1.546021975158820E2    -8.994220487628090E1     2.217780267783570E-1   -1.434094593940937       3.120010353867906E1

 5.525150000000000E7    -4.563738545082741E-1    9.734598574541998E1    -3.159408857060631E1     7.058084383851113E1    -9.506940413439507E1     1.474847156195227E2    -9.021845409291672E1    -6.224899913994112E1
                        -3.165131850439471E1     7.075039790306879E1    -3.636083210540098      -1.515902702030287E2    -7.264754099332993E1    -1.063603646808710E1    -6.587603917248353E1    -1.700389757732876E2
                        -8.024021171636569E1    -1.690020560805658E2    -7.556669304596461E1    -3.113258596251143E1    -1.411222431669212       2.474456073195375E1    -8.230498800107343E1    -3.639327447379959E1
                        -9.470540466496902E1    -6.148137434097983E1    -6.621415403205893E1    -1.701792694801427E2    -8.537514661930109E1     9.812621889079755E1    -1.434494636213200       3.122957730906310E1

 5.525175000000000E7    -4.496088327959347E-1    9.735421842650470E1    -3.162881878117952E1     7.015408257086367E1    -8.148051667436153E1     1.252989027766296E2    -8.394898829437706E1    -5.410805712702699E1
                        -3.173702878037793E1     7.047072653071059E1    -3.641286238613013      -1.516413734147367E2    -7.439651175435333E1    -8.728424547826021      -6.764974050422411E1    -1.709074956376839E2
                        -9.225140694382463E1     7.822936057701941E1    -7.227549827343567E1    -3.017662863750735E1    -1.411648981425516       2.474690400504213E1    -9.142432954861789E1     5.389295874070206E1
                        -9.791155566720758E1     6.189494786074924E1    -6.727301806441004E1    -1.633443011477169E2    -8.001836536172932E1     5.472970547159238E1    -1.427466506089127       3.118910186830600E1

 5.525200000000000E7    -4.537915756214692E-1    9.737583601651079E1    -3.175042185364345E1     7.002971157851532E1    -8.332022093449118E1     1.385035404565044E2    -8.261018615162899E1    -1.973757120714949E1
                        -3.169252704847314E1     7.020776033083892E1    -3.641672872147901      -1.516778872090056E2    -7.391222234862549E1    -2.377815193935833E1    -6.746327121654963E1    -1.687889908374652E2
                        -9.013740797877985E1     4.758786118945235E1    -7.535823917805587E1    -5.439961303691092      -1.417209258894287       2.475619338216161E1    -9.145617217471694E1     7.987565625674469E1
                        -8.340239650527623E1     6.538530688835640      -6.705435074323145E1    -1.702369250514671E2    -8.951136258691172E1    -1.665456921536452E2    -1.431063094667628       3.121495225324478E1

 5.525225000000000E7    -4.551550209733529E-1    9.734795065168839E1    -3.165906403669051E1     7.093686206328535E1    -8.153740443452571E1     1.617157742458861E2    -8.542803949705488E1    -8.439624789707609E1
                        -3.168076386802446E1     7.024045599898167E1    -3.648856083840526      -1.517217188477849E2    -7.438010010081193E1    -3.426924385565428E1    -6.673593028293166E1    -1.619448024694241E2
                        -9.502491765022862E1     9.331570699977237E1    -7.508893908511796E1    -1.202699794955976E1    -1.406569856396343       2.473898224932942E1    -8.289290770413618E1    -9.219523804014555E1
                        -9.291488356486892E1     6.193722723850999E1    -6.735690284402557E1    -1.614648965553315E2    -7.899231050165307E1     1.089949527465091E1    -1.432165310676017       3.122778937534682E1

 5.525250000000000E7    -4.497026981291836E-1    9.732833997734089E1    -3.168823535926366E1     7.003960332141094E1    -9.109858198835508E1    -1.206473367412306E2    -9.332470249499232E1     1.127592057363208E1
                        -3.163194208482047E1     7.068431468368728E1    -3.652264347758305      -1.517907544498521E2    -7.378895811248174E1    -1.131320852125911E1    -6.625635675403674E1    -1.638684337320109E2
                        -8.492474464799338E1    -1.987812417458905E1    -7.558799859402329E1     6.821416291257129E-1   -1.414362641122106       2.474218513412906E1    -8.050159577537787E1     1.435281160710394E2
                        -8.358939585337569E1     1.259420655881378E2    -6.593572157450014E1    -1.660256435985316E2    -8.313967931459777E1     5.873739461365191      -1.434990807722610       3.119826912262877E1

 5.525275000000000E7    -4.522208880243514E-1    9.732270095673083E1    -3.165411479640422E1     7.043909735683711E1    -8.741557225673415E1     3.805407551317427E1    -7.964619585101886E1     4.346920439000373E1
                        -3.165029670095387E1     7.029257052077971E1    -3.657511482021188      -1.517946622175183E2    -7.581687237385802E1    -2.327802323064567E1    -6.720257862291308E1    -1.667436696846820E2
                        -8.345148181191151E1     1.488943002478488E2    -7.167040522224852E1    -2.741754402815195E1    -1.408914777745176       2.469950686192370E1    -8.097779085726602E1    -1.069898891867936E1
                        -8.698420377506400E1     4.969055002412026      -6.692455152468303E1    -1.591823907121301E2    -9.088503689268788E1    -1.145336891419397E2    -1.429041903638579       3.123312375914911E1

 5.525300000000000E7    -4.498637853919915E-1    9.730846876222276E1    -3.158866688640234E1     6.983819952901457E1    -8.769997396359227E1     3.361805448887083E1    -8.934471578118478E1    -1.371061080467555E2
                        -3.160829658449991E1     7.001994922934338E1    -3.665682028085186      -1.518192280533216E2    -7.157368888465983E1    -2.191634412479518E1    -6.737231013473080E1    -1.632944413236197E2
                        -1.029125946387270E2     3.209927836296265E1    -7.393079823435247E1    -1.259439426828272E1    -1.413402542432574       2.470605690940263E1    -9.021014761749066E1    -1.492287302789661E2
                        -9.700646532684877E1     5.946715163324641E1    -6.783771113283449E1    -1.588099934505056E2    -8.764895883321999E1    -1.013229720820584E2    -1.429011274077858       3.119186311301826E1

 5.525325000000000E7    -4.528000539955093E-1    9.730665250118948E1    -3.169256850550065E1     7.058646458080706E1    -8.987999702422806E1     7.899315071489397E1    -1.007771628067972E2    -1.364270821258109E2
                        -3.154119926325575E1     7.042244425059626E1    -3.666526999146573      -1.518722896300900E2    -7.158821266152495E1    -2.443022579004968E1    -6.617799523172027E1    -1.641102740522550E2
                        -8.437087378158809E1     1.661024091708178E2    -7.787048327803417E1    -3.227258189053725E1    -1.410001708135435       2.472608490572344E1    -8.864927927912643E1     1.739279181722964E2
                        -8.281817046819371E1    -8.068340525086657E1    -6.705051603350674E1    -1.701108850031502E2    -8.564227524966054E1     9.849348539893471E1    -1.432987640531183       3.120248027500483E1

 5.525350000000000E7    -4.524762908817031E-1    9.729933256142273E1    -3.167089665246627E1     7.008852947766420E1    -8.245827087269217E1     8.028045566602097E1    -8.474817267773729E1    -1.056733818938814E1
                        -3.154191813606218E1     7.087412992516461E1    -3.669962622641796      -1.519380968554442E2    -7.450018209365099E1    -1.628395455966877E1    -6.673983204882180E1    -1.570108290243271E2
                        -8.409874037742840E1     1.580548028945740E2    -7.352848096996490E1    -1.566166648803761E1    -1.403133461175654       2.471294392669736E1    -9.129019670678204E1     1.220896151687893E2
                        -8.496322005636100E1     6.039872224528013E1    -6.579571352280131E1    -1.671429601494827E2    -9.271768192718309E1    -1.721154398535852E2    -1.432600349575010       3.120746938774634E1

 5.525375000000000E7    -4.562243561199347E-1    9.732040238595162E1    -3.161616525671743E1     6.991546953457181E1    -8.316700220121668E1     7.784599871613303      -8.399198245487239E1     8.365273213552844E1
                        -3.157492100471791E1     7.067569112006751E1    -3.678103654643741      -1.519574236959430E2    -7.384487205270132E1    -2.594368228968351E1    -6.682060073486514E1    -1.610581285463093E2
                        -8.655760540805269E1     1.637127491204933E2    -7.488794221739076E1    -2.687813636654637E1    -1.410590778206958       2.470503635574704E1    -8.044611858697563E1    -8.378511420705586E1
                        -8.389831905854820E1    -4.033190125473110E1    -6.790184668692643E1    -1.722958768798204E2    -8.592667584990174E1    -2.051740774006193E1    -1.428373098540140       3.119644705556473E1

 5.525400000000000E7    -4.508988910927433E-1    9.732415905691326E1    -3.168977381046214E1     7.007706402761889E1    -8.575910555908335E1    -2.786647890049805E1    -8.912883204094013E1    -4.887474535091631E1
                        -3.168933596821639E1     6.998986974952186E1    -3.679824128266884      -1.520205893603709E2    -7.437524248958601E1    -8.722434558728635      -6.802200797152544E1    -1.729088222091355E2
                        -9.207525978009051E1    -2.997999194696352      -7.109845378858738E1     1.489581442583403      -1.408991220196436       2.470458394707039E1    -8.559794171921021E1     4.459290016327896E1
                        -8.589635430005920E1     1.665115616422540E2    -6.639528130518347E1    -1.625888833307697E2    -8.391495589665999E1     8.644613621381362E1    -1.433909376733791       3.124280406460101E1

 5.525425000000000E7    -4.566155130301670E-1    9.730662614570713E1    -3.160238956544448E1     7.043907305894911E1    -8.683056131970078E1    -1.081937283936256E2    -8.880937571446864E1    -1.674191297621285E2
                        -3.172859430604240E1     6.993681987406340E1    -3.680032648318061      -1.520603329213549E2    -7.465740319275470E1    -1.603461317592358E1    -6.792012102794053E1    -1.643433170829652E2
                        -8.764084472400307E1     9.604227759712876E1    -7.534494222470913E1    -1.496043108174650E1    -1.412297877764311       2.470630243769739E1    -8.362687020237823E1     1.672856506958568E2
                        -8.173480732882794E1     1.127443133176983E2    -6.669079312508997E1    -1.697137758267534E2    -8.402060774679740E1    -6.845165560894465E1    -1.431295068987386       3.119802460985075E1

 5.525450000000000E7    -4.486401557937132E-1    9.727771970400875E1    -3.169508783385627E1     7.047537428938827E1    -8.384911875802303E1    -4.052498393790619E1    -8.850125093737942E1     1.435886677331114E2
                        -3.180161865557600E1     6.975732920248262E1    -3.692530937337867      -1.520812463531723E2    -7.364651437629979E1    -3.847392792957709E1    -6.792157192622264E1    -1.674976135505658E2
                        -9.342938949171619E1     4.293290439340597E1    -7.433750733138257E1    -2.543443222363139E1    -1.410980582236205       2.469949415938033E1    -8.518453752344540E1     6.703302184797305E1
                        -9.126310771761968E1    -1.635930321542993E1    -6.636721117908817E1    -1.604946111081623E2    -8.891220439071907E1    -2.580981252887420E1    -1.429121656821148       3.118399884123310E1

 5.525475000000000E7    -4.525459094023479E-1    9.726316937508216E1    -3.167845917499926E1     6.980953668149897E1    -8.652264056536383E1     3.135110689297743E1    -8.305032118298351E1     1.690736374927301E2
                        -3.165947301809284E1     7.005369111658173E1    -3.688963123367778      -1.521709313899535E2    -7.485725596099090E1    -4.120591858947649E1    -6.645126462159287E1    -1.581537760525087E2
                        -8.913735774255771E1     1.233659817684396E2    -7.493693404245164E1    -3.192685262038218E1    -1.416172677805894       2.473225031964097E1    -1.141023412073878E2     3.691897525955361E1
                        -8.706903502067044E1    -4.158505279700606E1    -6.693701728306104E1    -1.640902094305261E2    -8.420724799708029E1    -5.434954308122816E1    -1.429970116052896       3.116290253448961E1

 5.525500000000000E7    -4.522913400599912E-1    9.728230504271257E1    -3.167959986874319E1     7.008588562921851E1    -8.832016091694911E1    -3.024358767089692E1    -9.217134732842011E1     6.904554315398126E1
                        -3.165123513364319E1     7.019506689500504E1    -3.697142739368368      -1.521450310106337E2    -7.713331090901295E1     1.604304012422007      -6.593749525111247E1    -1.624645226464821E2
                        -8.435548457383318E1    -1.442519886975034E2    -7.495243147629901E1    -6.365768950304720      -1.410636575496393       2.468507535923041E1    -9.101678633072469E1     3.607637045489111E1
                        -9.708324320367409E1    -7.583535219574480E1    -6.625149621978051E1    -1.667426732050254E2    -8.481901981219852E1     3.029761610606253E1    -1.436082037275801       3.118859028260885E1

 5.525525000000000E7    -4.536493083142755E-1    9.728447437939572E1    -3.170449084134763E1     7.059112665665788E1    -8.988374119911731E1     1.456478044158049E2    -8.491108852986375E1     7.969806203616005E1
                        -3.165579326721510E1     7.092425273863235E1    -3.698545154892204      -1.522098119035082E2    -7.666122581018173E1    -3.956315303652566E1    -6.686222194771284E1    -1.627471169165680E2
                        -8.437620044801349E1    -9.977442719984063E1    -7.785430566406814E1    -2.721061541943779E1    -1.409288202709362       2.470361294934861E1    -8.648975682791203E1    -1.109871264160897E2
                        -8.154579510003111E1    -4.540586550224870E1    -6.707870267960381E1    -1.619080278394162E2    -8.174537995404954E1    -5.942289729750813E1    -1.435805988106894       3.119940955503914E1

 5.525550000000000E7    -4.524135421814547E-1    9.729140835166068E1    -3.172177340160800E1     7.007620115830433E1    -8.474847917329852E1     9.195426636188452E1    -8.708038664945393E1     5.969311843882083E1
