#  HZ   S   DB   R     50.00 
! Rohde & Schwarz Vector Network Analyzer 
! Rohde-Schwarz,ZNB8-4Port,1311601044102961,2.82
! Created: UTC 2/12/2019, 1:54:51 PM
! freq[Hz]                db:S11                  ang:S11                 db:S12                  ang:S12                 db:S13                  ang:S13                 db:S14                  ang:S14
!                         db:S21                  ang:S21                 db:S22                  ang:S22                 db:S23                  ang:S23                 db:S24                  ang:S24
!                         db:S31                  ang:S31                 db:S32                  ang:S32                 db:S33                  ang:S33                 db:S34                  ang:S34
!                         db:S41                  ang:S41                 db:S42                  ang:S42                 db:S43                  ang:S43                 db:S44                  ang:S44
! 
 3.000000000000000E7    -2.884798050541541E-1    9.711274411216726E1    -6.590890072353267E1     3.100752533725510      -8.735153343289817E1     2.554874564315100E1    -8.244765427824643E1     8.843080074814635E1
                        -6.552855844490320E1     1.820711014343018E1    -2.563307112286915E-1    1.026787232513501E2    -8.264468083292924E1    -8.760787848015779E1    -8.875798617084980E1    -1.280527589470804E2
                        -8.478295590646603E1    -1.695032410689400E2    -8.767653006605059E1    -1.311459097697114E2    -9.302544001786790E-1   -1.575013219082335E1    -9.358754865086426E1     1.223750468853605E2
                        -8.477316529472689E1    -1.648756889709811E2    -8.296871042660220E1     1.086645062269853      -8.483762990546454E1     1.137641374958522E2    -9.015227361047874E-1   -1.299331087669813E1

 3.002500000000000E7    -2.914577762161914E-1    9.677750007720157E1    -6.574786948399103E1     7.461520558511527      -8.420526356682431E1     1.362187390771308E2    -8.406304820343286E1    -6.912964857614765E1
                        -6.592753086437759E1     6.798132388859612      -2.614192928266789E-1    1.023762677281333E2    -9.581289213788730E1    -6.525030362659716E1    -8.026809065786554E1    -1.587932405869415E2
                        -9.476878871466266E1     9.570736275739216E1    -8.348907539337404E1     4.251092693382761E1    -9.388399549324002E-1   -1.604601608096104E1    -8.708791815474798E1    -1.098480073305057E2
                        -9.985074979719053E1     3.738407222167720E1    -9.069356891691319E1     8.610968872049098E1    -7.974002528723804E1    -9.634118603612440E1    -9.033165216621817E-1   -1.328552632985976E1

 3.005000000000000E7    -2.953819274561261E-1    9.644287149452674E1    -6.660528575089839E1     1.048800715500295E1    -9.817901832418534E1     1.676796712244968E2    -8.330201354685295E1     3.334729563110571E1
                        -6.462109318851677E1     1.365706046917103E1    -2.548152684828705E-1    1.021171047035055E2    -8.770603831416432E1    -4.060147365003317      -9.037285322631684E1    -1.654930979460978E2
                        -8.137190564927644E1    -1.478387860649117E2    -9.375514726725746E1    -2.240590287243327E-2   -9.347548038166931E-1   -1.634111458748819E1    -8.684269885429978E1    -4.224224131261678E1
                        -8.690563185269062E1    -1.479244114209934E1    -8.361680466306282E1    -1.487558726271080E2    -8.520907177550421E1    -1.210086879824838E2    -9.021750003871548E-1   -1.365233015572232E1

 3.007500000000000E7    -2.928545069486137E-1    9.610167227454076E1    -6.558894793158386E1     1.230750199801156E1    -8.500406484822361E1    -1.759361405832689E2    -9.051124998550273E1    -3.651893321350467E1
                        -6.517523757403957E1     7.733449357729122      -2.550991637545113E-1    1.017448326898215E2    -8.936270076836232E1    -1.092139582213808E2    -8.529537768785387E1    -4.056048293652749E1
                        -8.723290421191160E1    -1.239709178426268E2    -8.592471206636652E1     7.473483201626129E1    -9.362470945339152E-1   -1.669038547587416E1    -8.942574001378827E1     5.010844590577606E1
                        -8.575769100023749E1     1.427278077114950E1    -8.319145681092387E1     7.742029858145776E1    -8.864144131693493E1     1.209881948290558E2    -9.016581010842997E-1   -1.389974914165822E1

 3.010000000000000E7    -2.965410584926413E-1    9.577180660081920E1    -6.583133560800548E1     9.769926964872109      -9.017549450569119E1    -1.053225573767727E2    -9.246983621087304E1     1.745546132266375E2
                        -6.619154657644364E1     2.218219630413610      -2.524808198186652E-1    1.013735729939824E2    -8.852489368527270E1     1.326100180414269E2    -8.940495448121627E1     1.022079367953414E2
                        -8.497354011492701E1    -8.710012127542822E1    -8.811963617882375E1     7.075874209688762      -9.360821526602453E-1   -1.697234108456005E1    -9.274012305534887E1    -3.468797198357918E1
                        -8.776265485642037E1     3.119973486517745E1    -8.527057049980230E1    -1.781129936582745E2    -8.058661246206766E1    -8.469322359986087E1    -9.020754292578437E-1   -1.420057754126328E1

 3.012500000000000E7    -2.904903615096412E-1    9.539950588501048E1    -6.662106288634072E1     8.966340577522937      -8.642017359959468E1     4.946721189429006E1    -8.216309261235891E1    -1.269565921014386E2
                        -6.404427429022999E1     1.118361083237500E1    -2.545196392618106E-1    1.011289904306354E2    -9.032314705381677E1    -3.602557594501000E1    -8.187169900445002E1    -1.481001551987738E2
                        -1.037542334921709E2     1.633277294991814E2    -8.722717278108499E1    -1.005603116854864E2    -9.323172342773296E-1   -1.729732892827753E1    -8.750336566242309E1     1.849709785735513E1
                        -8.214248220966034E1     7.990466084426060E1    -8.690968536050342E1     7.281293549576728E1    -8.304402496520284E1     1.779347095394965E2    -8.995954341917136E-1   -1.453334092590731E1

 3.015000000000000E7    -2.855278463677654E-1    9.505469735257543E1    -6.425012032802924E1     7.256489907425239      -9.010573976859547E1    -6.884795718193330E1    -9.152628291298763E1     1.413508390659210E2
                        -6.521579592465076E1     7.401029393132118      -2.557577679106051E-1    1.008130423043973E2    -8.359031820522846E1     1.417907837869008E2    -8.108040326881934E1    -1.618387505169156E2
                        -8.173047495497175E1     6.619999619728625E1    -8.916565065458983E1     8.698603088358951E1    -9.357047943724394E-1   -1.760924863503731E1    -8.704715595461650E1     1.726305359430116E2
                        -8.165805751979130E1     7.461169537975839E1    -9.103131544703935E1    -1.094385789878465E2    -9.236697823163391E1     1.228128735313570E2    -9.055485293457395E-1   -1.479749972758547E1

 3.017500000000000E7    -2.813281353775641E-1    9.476560993905852E1    -6.528148529966487E1     7.169269023719804      -8.468257201702031E1    -3.505090218834419      -9.081825806549439E1    -3.586001962895050E1
                        -6.428015039210726E1     1.003918241517803E1    -2.480381422791750E-1    1.004560199262851E2    -8.411931794142375E1     1.680637384104294E2    -8.137195964364631E1    -4.804262126754873E1
                        -9.071591661487960E1    -1.001662010062372E2    -8.787010438928427E1    -7.472427868457100E1    -9.333348305752648E-1   -1.793525790128503E1    -8.589215099819523E1    -1.768098827992044E2
                        -8.673153956846080E1    -1.671603734290877E2    -8.750083289170999E1    -3.718038913831032E1    -8.566664622750913E1    -8.862299950337088E1    -8.999278213120041E-1   -1.510510730414304E1

 3.020000000000000E7    -2.819706710281257E-1    9.440804878603262E1    -6.486860506208488E1     1.104651824767947E1    -8.667386423732236E1    -6.615772790184096E1    -8.081352732904178E1    -1.438358884039652E2
                        -6.383114850358760E1     4.020374529276163      -2.480751148544072E-1    1.001241691270568E2    -7.981098701470529E1     1.372391020178103E2    -8.657768122997835E1     5.213922832473701E1
                        -8.617442869885551E1    -1.217447864620824E2    -8.244927271531496E1    -1.406989323305429E2    -9.385803181407972E-1   -1.824110869085459E1    -8.371734532589672E1     1.150199573557504E2
                        -8.739121258767780E1     7.955795346385257E1    -8.573203234679981E1    -8.665166132382622E1    -8.670091495629944E1    -8.715781221502818      -8.996884894886488E-1   -1.543109109582368E1

 3.022500000000000E7    -2.873162236853930E-1    9.405199428669727E1    -6.532387863361360E1     1.341760391669554E1    -8.487056476065408E1    -1.453264335061029E2    -9.045764981364320E1    -1.512504022681642E2
                        -6.420077648285766E1     1.282559430748274E1    -2.488521961926979E-1    9.985813019786863E1    -9.677932629468896E1    -4.828243125390839E1    -8.866761785551239E1     1.718710739146049E2
                        -7.979750237911827E1     1.093333824937912E2    -8.816560464840477E1     5.765557262685351E1    -9.333827908892798E-1   -1.853100028632940E1    -9.592593245236145E1     2.211490810551245E1
                        -8.864218261561351E1     1.674152720719249E2    -8.966499906906870E1     2.366203177880712E1    -8.847234598589034E1    -1.521831399811433E2    -8.961270831171962E-1   -1.570049746490606E1

 3.025000000000000E7    -2.863230032849414E-1    9.374262477493231E1    -6.428862689262572E1     6.470473888140425      -8.834577322235960E1    -1.741846769327316E1    -9.513152653803948E1     3.796133597052950E1
                        -6.597445345109745E1     5.228168487176220      -2.593174353905148E-1    9.953726373447121E1    -8.250103276887248E1     6.397755665574489E1    -8.085518910888811E1     4.536716046593976E1
                        -8.875698941573955E1     1.775909753624862E2    -9.613554182684905E1    -6.738594372838048E1    -9.334412636321616E-1   -1.882844439946470E1    -8.599140924543286E1    -6.853045655132846E1
                        -8.826366090724770E1    -1.670992401420838E2    -8.484863867887390E1     1.064612441237575E2    -8.903010542656203E1    -1.695844560885338E2    -9.018549526082025E-1   -1.598314466072917E1

 3.027500000000000E7    -2.823561213032176E-1    9.342226752845059E1    -6.507376686273663E1     4.399754427827922      -9.114152643699237E1    -1.463709467714701E2    -9.863846608518540E1    -8.138406907832219E1
                        -6.441048169146434E1     4.669761823442198      -2.430904087562958E-1    9.921420384363130E1    -8.849680232808952E1     8.481656918171584E1    -8.117324714323883E1    -1.382244404061088E2
                        -8.643826424217197E1    -6.167372847094430E1    -9.510767520985289E1    -1.285197078862335E2    -9.293132049534123E-1   -1.916370251719632E1    -8.940502812642120E1    -9.391807608483885E1
                        -8.473085339845684E1     1.173964202738647E2    -8.424360432262624E1     7.294123958958068E1    -9.201986426726887E1    -3.748830816848805E1    -8.959394231016665E-1   -1.634508601396415E1

 3.030000000000000E7    -2.873197935942848E-1    9.306641402110945E1    -6.457388478377970E1     1.019017966093485E1    -8.520640775770232E1    -1.438013894620228E2    -9.109525040830195E1    -1.439287112626874
                        -6.462841350167572E1     7.420932779310912      -2.581209276309122E-1    9.888375404518129E1    -7.769246402363638E1    -8.839614542761586E1    -8.716325257017375E1     2.544358226637970E1
                        -8.336205659770913E1     1.726165513725411E2    -1.032616451641244E2     1.721189496233390E2    -9.335740700957425E-1   -1.946607253557557E1    -8.571464103895150E1    -1.554074049323716E2
                        -8.342178516210646E1     1.491491014335524E2    -8.152080522356528E1    -7.963936288973160E1    -9.240064261528437E1    -6.944866062756404E1    -8.983819446553218E-1   -1.663735075924384E1

 3.032500000000000E7    -2.916757336737968E-1    9.271759618708441E1    -6.509981466739370E1     5.275971992831230      -8.582883309696678E1     6.359256222715057E1    -8.542768761354620E1    -7.494954333235251E1
                        -6.480282862492740E1     6.437504454355980      -2.454350331683146E-1    9.857471643121878E1    -8.139991522996203E1     9.732861346936298      -8.942298509798056E1     1.271099982983152E2
                        -9.978463725016881E1    -4.710374652945469E1    -8.477610928081788E1     9.064221033849520E1    -9.358850316723538E-1   -1.977062123642881E1    -8.427600464933219E1     2.586876046398087E1
                        -8.541009138123927E1    -2.355777274345651E1    -8.145279840290880E1    -1.586151095365522E1    -8.986083153608743E1     1.592135127702321E2    -8.993306096303332E-1   -1.691453389343302E1

 3.035000000000000E7    -2.783633561312159E-1    9.246252682705021E1    -6.390846362250886E1    -9.456895740892137E-1   -7.975838386998339E1     3.365331464091059E1    -8.517986335949230E1     1.466464000156746E2
                        -6.568887279150019E1     2.887814581460853      -2.524573488420720E-1    9.827305085385520E1    -8.017196070621631E1     6.125410858627708E1    -1.063184066678603E2     5.701113291074450E1
                        -8.532729585284351E1     6.674978640068726E1    -8.778027670102978E1     1.474924735496646E2    -9.310478384308683E-1   -2.013434286287907E1    -8.941812923099563E1    -9.562425837628327E1
                        -8.242868688201855E1     1.784973099704493E2    -9.004364800196775E1    -9.738876299233371E1    -8.959965622443562E1     1.145274142590772E2    -9.013770185947089E-1   -1.720460272986532E1

 3.037500000000000E7    -2.797282441366940E-1    9.206938112113093E1    -6.610779705374188E1     2.496969921494395E-1   -8.268165120552787E1     1.776595707206512E2    -8.300877719753663E1     1.698366120180357E1
                        -6.379673994325459E1     1.236364803773935E1    -2.430058606595782E-1    9.793059297725098E1    -8.684747791675306E1    -1.088947118764712E2    -8.802985635633087E1    -6.080135285076417E1
                        -8.787648425541022E1     1.503816697518069E1    -8.291320289968317E1    -2.797083903770890E1    -9.386334420903147E-1   -2.038502455062470E1    -8.463580699428891E1    -1.793699215495222E2
                        -8.841327550073295E1    -1.701141325356977E2    -9.130979074907597E1     2.101278224889459E1    -9.084031893085799E1    -1.423438939202864E2    -8.992805716465501E-1   -1.750434444596250E1

 3.040000000000000E7    -2.778544232698165E-1    9.171206097920948E1    -6.438946009732624E1     7.168140915556148      -8.808908555187627E1    -1.480767408909150E2    -8.899515961591087E1     5.974595581452876E1
                        -6.351020325111915E1     3.756123488214001      -2.541763972583865E-1    9.766539316760625E1    -8.659801736129649E1     1.668416238116567E2    -8.502849393889001E1     3.118484999686006E1
                        -8.714293403979639E1    -1.340815081791897E2    -1.042119274458136E2    -1.601752509769339E2    -9.293627614190309E-1   -2.070984577029188E1    -8.221470672230424E1     1.565267164816004E2
                        -9.861329372447175E1     6.155853081323295E1    -8.690324839752989E1     8.069290319885201E1    -9.114070761628902E1    -1.547882752898271E2    -8.999310348374678E-1   -1.781001513637301E1

 3.042500000000000E7    -2.709584259980271E-1    9.137719273569232E1    -6.492769953437470E1     8.921046488911562      -8.561015924128176E1     4.510381005268765E1    -8.500649713715283E1    -7.831462433612907E1
                        -6.359448492070277E1     5.008565397838240      -2.540556679339728E-1    9.736163434626110E1    -9.101356777220016E1    -6.437164893572484E1    -8.649022891498858E1     4.245651869330177E1
                        -8.645437150781099E1     4.320651841212709      -8.458132318657106E1     9.154446111942896      -9.332286919440396E-1   -2.099012808858602E1    -8.839658257269588E1     3.336572857269172E1
                        -8.218178681105117E1    -6.414944464203470E1    -8.592265970991433E1     1.307026442955916E2    -8.415979798312526E1    -1.602194248406770E1    -8.949712538290955E-1   -1.810083980990264E1

 3.045000000000000E7    -2.750649339943488E-1    9.101861236245397E1    -6.330691829532078E1     5.164356059573909      -8.289164214803846E1     1.111921117083076E2    -8.274210664192680E1    -1.026059824071273E2
                        -6.344065189520399E1     1.184084840930482      -2.524652353697582E-1    9.701139744913290E1    -8.234102015848742E1    -2.840297565830799E1    -9.247354630826439E1    -1.631991558163375E2
                        -9.087841829686778E1    -7.653705463739622E-1   -9.414155914924294E1     5.235445663525528      -9.297622866127969E-1   -2.134284383644820E1    -8.791938733846055E1     1.343414772164993E2
                        -9.287033541236902E1     5.304086190241128E1    -8.629912422951811E1    -1.990694247166833E1    -8.741366059193186E1     8.329705950384502E1    -8.993123673459902E-1   -1.841016829008928E1

 3.047500000000000E7    -2.843278938612378E-1    9.070860313916190E1    -6.403047565938302E1     7.399787952680710      -8.381760811424590E1     6.481083359417364E1    -9.421488581916771E1    -4.992602461177899E1
                        -6.390527496768598E1     1.197659332325431      -2.394320480133214E-1    9.669831768460568E1    -7.852521057212879E1    -5.564808071430559E1    -8.672996394185333E1    -9.483578543059048E1
                        -9.039481048755759E1    -7.703210231759800E1    -9.077615004714846E1     2.948021636258235E1    -9.362465493075332E-1   -2.162789714767718E1    -9.143076937683075E1    -3.223650668394322E1
                        -8.462186262206957E1     1.117723853844013E2    -9.301648416664295E1     5.752670218030234E1    -8.210832734067250E1     1.788368152591624E2    -8.983503130291535E-1   -1.869248766279238E1

 3.050000000000000E7    -2.841202766875386E-1    9.035872179018703E1    -6.443713207760345E1     1.026779473383492E1    -8.940324567378332E1    -6.165060566695533E1    -9.190315334423831E1    -3.919961471969891E1
                        -6.407557197670128E1     8.252891538995575      -2.433543356131311E-1    9.634757265797768E1    -7.698308349736442E1     7.069361511201134E1    -8.444202824438582E1    -1.890384923515491E1
                        -8.620587441330136E1     4.690883300634642E1    -8.499678909472311E1    -1.405158353706627E2    -9.323331301416737E-1   -2.197063549209168E1    -8.486446191514629E1    -1.066586439895650E2
                        -9.085596156510901E1     8.786545676820764E1    -8.719066756060849E1    -5.847226861737467E1    -8.437984167358282E1     8.602437497606222E1    -8.947733086869520E-1   -1.899220198209180E1

 3.052500000000000E7    -2.808679858489837E-1    9.001241404486508E1    -6.391037686953005E1     1.662890819674323      -8.102748498335238E1    -8.576229659331736E1    -8.702111496394097E1     9.525449043774511E1
                        -6.341409045705359E1     8.219993347495115E-1   -2.500619293056196E-1    9.608362021016190E1    -8.429597121961808E1     7.486061469158676E1    -7.925207348324669E1    -8.325394013627488E1
                        -9.269441093723536E1    -4.372104818426509E1    -1.064203990383585E2    -5.554555394116747E-2   -9.354067345117654E-1   -2.231077231327371E1    -8.227703116769715E1     1.379289525631466E2
                        -8.319486014530696E1    -7.756220128827636E1    -8.405098991048658E1    -1.005761933806413E2    -9.273403555761625E1    -8.740316819928101E1    -9.003395226425579E-1   -1.931376619883901E1

 3.055000000000000E7    -2.731338494416737E-1    8.968294058382612E1    -6.433958806904370E1     2.256147207723542      -8.322020951783573E1    -1.159118809107570E2    -8.318555412713727E1     1.381296221034286
