#  HZ   S   DB   R     50.00 
! Rohde & Schwarz Vector Network Analyzer 
! Rohde-Schwarz,ZNB8-4Port,1311601044102961,2.82
! Created: UTC 2/12/2019, 2:32:13 PM
! freq[Hz]                db:S11                  ang:S11                 db:S12                  ang:S12                 db:S13                  ang:S13                 db:S14                  ang:S14
!                         db:S21                  ang:S21                 db:S22                  ang:S22                 db:S23                  ang:S23                 db:S24                  ang:S24
!                         db:S31                  ang:S31                 db:S32                  ang:S32                 db:S33                  ang:S33                 db:S34                  ang:S34
!                         db:S41                  ang:S41                 db:S42                  ang:S42                 db:S43                  ang:S43                 db:S44                  ang:S44
! 
 5.675000000000000E7    -3.899473368183131E-1    7.732663519887224E1    -2.938712599431416E1     6.169865988784168E1    -9.296689192716401E1     1.580517947795734E1    -8.879164618877036E1    -1.543530789944810E1
                        -2.938520334746712E1     6.198826020590781E1    -4.446484316873847E-1   -1.329934358116902E2    -8.203201888783653E1     1.381898905953091E2    -6.729785290848434E1    -1.501551794081089E2
                        -8.919964439656611E1    -1.844997131803203E1    -9.846756804491676E1    -8.053791735302988E1    -1.397117329446183       1.328300795451323E1    -9.091912720016893E1    -1.167474405317107E2
                        -8.337736149927260E1     4.975394473735100      -6.810867513510583E1    -1.416483661593539E2    -8.713305363405887E1     9.144485426477340E1    -1.407073646767297       1.984234456490864E1

 5.675025000000000E7    -3.934444072298337E-1    7.734184087263931E1    -2.947095286146882E1     6.225508394226254E1    -1.009878349152230E2     1.324135800273005E2    -9.086292350648110E1    -1.526016557285562E2
                        -2.935186504996458E1     6.204027714526806E1    -4.484257654718321E-1   -1.330382595106318E2    -8.170132873462254E1    -1.131860374320778E2    -6.970915728470027E1    -1.487655708776123E2
                        -8.360889519525203E1    -2.062030703359040E1    -9.367978309297222E1    -1.231397643305146E2    -1.397502498198293       1.329050673356400E1    -9.314317318854555E1    -1.380330102611236E2
                        -8.507206854798575E1    -8.863399549806937E1    -6.740597105793364E1    -1.384200605649436E2    -8.676948087476256E1     1.777164625306924E2    -1.404716967213007       1.985754106885536E1

 5.675050000000000E7    -3.893238466906531E-1    7.732706687160147E1    -2.938193576984961E1     6.201245054010493E1    -7.806454193694366E1     1.240419933233234E2    -8.076912701024958E1     1.043652024668156E2
                        -2.952899040594324E1     6.213354198759037E1    -4.440218285281200E-1   -1.330679953592239E2    -8.109966029453268E1    -1.203941688747747E2    -6.860648605042738E1    -1.500973467748442E2
                        -8.674854341060819E1    -9.664537983887692E1    -8.106432144762701E1    -9.071193777495338E1    -1.398597009933381       1.327906758857609E1    -8.783569273098699E1    -5.637999447005145E1
                        -9.940432266733293E1    -1.594372204902339E2    -7.030118336773506E1    -1.543173466315591E2    -8.786891772421006E1    -1.246272922784186E2    -1.403894000534448       1.983483111950703E1

 5.675075000000000E7    -3.912721422542898E-1    7.731888526417571E1    -2.943323380705916E1     6.176825123393103E1    -8.463565711058548E1    -2.372582224691236E1    -1.024841571472776E2    -5.972818961550690E1
                        -2.939709406584543E1     6.195952232527103E1    -4.500087338656401E-1   -1.330728639324684E2    -8.640829311699159E1    -1.212517678038157E2    -6.840710145977687E1    -1.490135717928984E2
                        -8.416851590012426E1    -5.098528650014758      -8.251055790300512E1    -1.294680801812277E2    -1.394489639803768       1.325875529358892E1    -8.194127960647197E1    -6.497792631717000E1
                        -9.162942665776347E1    -2.723218695470195E1    -6.740225391551041E1    -1.346652970291003E2    -8.778720913531460E1    -4.111788922240387E1    -1.403035877487424       1.983177625906198E1

 5.675100000000000E7    -3.873801340421006E-1    7.733281768200996E1    -2.945477495949824E1     6.211607597071109E1    -8.369288052016339E1     1.519504096843222E2    -8.133715700669126E1    -8.635469676966449E1
                        -2.942506264948266E1     6.192386678106966E1    -4.450083501979362E-1   -1.330948751602033E2    -8.228212779264196E1    -4.836198179733984E1    -6.845159408157676E1    -1.521869349587041E2
                        -8.106434080972983E1    -1.750813258031309E2    -8.383240293656704E1    -1.343822043524971E2    -1.398418697581769       1.327345195500235E1    -8.571266323539282E1     3.551666399283546E1
                        -9.802434232828463E1     1.327915012396793E2    -6.829983504789186E1    -1.551106496985890E2    -8.597902170882216E1     2.721879357638974E1    -1.401593580567871       1.982010855082404E1

 5.675125000000000E7    -3.913995829454871E-1    7.734181092671388E1    -2.938050226292116E1     6.218305444247002E1    -9.436474387521770E1     2.645283542990985E1    -1.003324467371469E2     1.269222593704729E2
                        -2.942083125525897E1     6.266371766172795E1    -4.465042994615036E-1   -1.330957547345519E2    -8.628325080610829E1     2.086472940358539E1    -6.805841837728960E1    -1.523934616349471E2
                        -1.013737207856739E2    -4.283228257176607E1    -1.118044744258474E2     2.602259687467330      -1.395668874606573       1.326971617494091E1    -8.806488692253099E1    -9.309316364145825E1
                        -9.127751796601771E1     1.122607731726826E2    -6.769306350341124E1    -1.513951316517701E2    -9.132706156920202E1     4.179400507348814E1    -1.404026202029866       1.983124956274036E1

 5.675150000000000E7    -3.919975326958218E-1    7.729798083830293E1    -2.943459086345950E1     6.207028411605833E1    -9.822731956255018E1     8.584735040653355E1    -8.971605255809999E1     7.501401293109218E1
                        -2.944383643482824E1     6.224457541977098E1    -4.457684258027015E-1   -1.331375002349130E2    -7.953052282269347E1    -1.647852748293583E2    -6.660705784442182E1    -1.580151803839484E2
                        -8.576825938715741E1    -6.881224947001357E1    -8.603645794018678E1    -1.443461889915200E2    -1.398587025181952       1.327510667033924E1    -8.276226288843438E1     5.075594256837188E1
                        -9.460332928487816E1     1.154187291742237E2    -7.028064440676836E1    -1.491483713806830E2    -8.285888680779694E1     9.251185816380520E1    -1.406997650419047       1.983626457830490E1

 5.675175000000000E7    -3.855662342532276E-1    7.727773069766836E1    -2.942064355042515E1     6.162351023301950E1    -8.160957460710803E1    -1.126121741867547E2    -8.908200240003048E1    -9.196384936840471E1
                        -2.945953482350176E1     6.222664757896120E1    -4.496354251798229E-1   -1.331714350175449E2    -8.450887758345493E1     1.113540663175920E2    -7.001491293118734E1    -1.420489966715601E2
                        -8.130134414933909E1    -1.209472091098449E2    -9.181078300510797E1     1.414759628705493E1    -1.401066936560277       1.326936372170275E1    -9.814632274226955E1     5.525600004142665E1
                        -8.631352487594717E1     6.121709408194617E1    -6.892396365504338E1    -1.459461569205484E2    -9.059285194073802E1     1.029343903279610E1    -1.403047452746691       1.982917607333889E1

 5.675200000000000E7    -3.970759657450443E-1    7.728983199627504E1    -2.939180330161177E1     6.242013846155346E1    -9.534800588595680E1     9.592122127574795E1    -8.960227286307955E1    -1.731725066616397E2
                        -2.948560758748604E1     6.279391281009689E1    -4.474467719956433E-1   -1.331829165506192E2    -7.999561977342154E1    -1.576444920490943E2    -6.863567321095501E1    -1.495046294665539E2
                        -8.498117750432583E1     3.039461318165368      -9.379321510149674E1    -1.448810648589100E2    -1.398455916602732       1.326215182224465E1    -9.133123251544581E1    -1.073536285538292
                        -1.119015941214654E2    -7.956670359305353E1    -6.846719137008668E1    -1.584690869436709E2    -8.569505445083857E1    -6.051543106107814E1    -1.398223414443072       1.979491432311947E1

 5.675225000000000E7    -3.902229383819802E-1    7.730509969590824E1    -2.936696168910498E1     6.222439277137350E1    -8.429146741514195E1     1.051111379662980      -8.991344617573634E1    -3.217083937089765E1
                        -2.940725818721822E1     6.233775129678119E1    -4.529170029607972E-1   -1.332233679170506E2    -8.462967078496746E1    -1.301941608754532E2    -6.883771107464858E1    -1.396038666021689E2
                        -8.965396286240015E1     1.729332535567447E2    -8.480067747995349E1    -2.022356830671021E1    -1.395785859886335       1.328061496808401E1    -8.416124645972914E1    -1.272900848942967E2
                        -9.397642910650910E1     1.520607770601642E2    -6.800067273998788E1    -1.509631822839266E2    -8.339285849935374E1     1.977525008954515E1    -1.400965875488323       1.983970055483296E1

 5.675250000000000E7    -3.885860144029551E-1    7.730721250093809E1    -2.932713980549597E1     6.174761390964675E1    -9.772660584574901E1    -1.641589448841500E2    -8.611047533533809E1     1.553681860170553E2
                        -2.932917477354947E1     6.178949577798971E1    -4.546953913723918E-1   -1.332239806458280E2    -8.875000771245425E1     1.685765902044136E2    -7.000255066448935E1    -1.505197460805590E2
                        -8.669229368014976E1    -9.060856815267680E1    -8.165667713105003E1    -1.152770247778917E2    -1.396917258300578       1.326624898814697E1    -8.787641838829327E1     1.013563131268449E2
                        -9.076780652729214E1     1.401684139257887E2    -6.960301128683462E1    -1.505709730035698E2    -8.435580744915561E1    -1.627996157112015E2    -1.401191516873531       1.982713088538668E1

 5.675275000000000E7    -3.891310820233801E-1    7.727571299836752E1    -2.942110328238870E1     6.148400160366251E1    -9.137641792961695E1     6.146417204993853E1    -8.255806319311481E1     1.511622340594828E2
                        -2.939083285879442E1     6.208709760224551E1    -4.551470545835978E-1   -1.332737513500283E2    -9.033967829201831E1    -6.324269209500399      -6.936085927214893E1    -1.361170057553104E2
                        -8.823690459767067E1     1.757248440931678E2    -8.007865187237044E1    -8.413430810339223E1    -1.397225712224363       1.326482823476669E1    -9.435057475738279E1    -1.238935182428669E2
                        -9.346503666014685E1     2.132828775633272E1    -6.842038878471612E1    -1.499976104035923E2    -9.233236999435277E1     9.337743643130473E1    -1.404472843350315       1.982517665469209E1

 5.675300000000000E7    -3.896840990911649E-1    7.729839030500872E1    -2.938428392849694E1     6.139138651733172E1    -8.714602909747899E1     2.687051821746065E1    -8.945507984477315E1     1.346972027195149E2
                        -2.937231109673217E1     6.235751074551111E1    -4.488120710059415E-1   -1.332702841476870E2    -8.396460704858529E1    -1.120487624624668E2    -6.873143181300317E1    -1.468748587523570E2
                        -8.380684465224968E1     2.341016360647363      -8.366996946470732E1    -1.299054553744292E2    -1.402104014511005       1.327047382645765E1    -8.307326829683427E1     1.045748644064975E2
                        -8.720699540343159E1    -9.506565296449791E1    -6.842432629596021E1    -1.423440364935255E2    -9.093039116339782E1     1.375693956128348E2    -1.405895657953874       1.979807009704457E1

 5.675325000000000E7    -3.904835465412616E-1    7.726687520034243E1    -2.939174543504362E1     6.247390546045172E1    -1.000432164365540E2     7.845388268262636E1    -8.676733779649555E1     6.011128671003736E1
                        -2.941617258064703E1     6.209808416213298E1    -4.509093266204762E-1   -1.332926665828261E2    -8.055253487469669E1    -1.041291349678426E2    -6.720375837528428E1    -1.517882606647875E2
                        -8.885372419428913E1     1.177207892261015E2    -8.237665355866062E1    -1.131236400330452E2    -1.395653122456849       1.325408203032408E1    -9.491467766447960E1    -1.639645851840354E2
                        -8.945049707619104E1    -1.196527518505185E2    -6.737183188382915E1    -1.429948522366024E2    -9.002479111639012E1     7.429298786100216E1    -1.402818146491252       1.979650389811965E1

 5.675350000000000E7    -3.893944976737082E-1    7.725502665497753E1    -2.942880762679761E1     6.261901243318116E1    -8.804099930342261E1     2.016972300622265E1    -8.980160064240110E1    -1.367984287687735E2
                        -2.938776179238710E1     6.217874469738514E1    -4.526787530225667E-1   -1.333255394481285E2    -8.541986670670980E1    -7.510463013421459E1    -6.752120034734665E1    -1.537716667754164E2
                        -8.156023560922073E1     1.238444235919178E2    -8.315274124177493E1    -6.085509477280453E1    -1.396945590602310       1.325898625340566E1    -9.490612712988126E1     1.718717489175403E2
                        -8.793982019568169E1    -4.954250181794260E1    -6.775344873846200E1    -1.467477190468612E2    -8.971152729392857E1    -3.548142048024469E1    -1.405412374531291       1.980929511246618E1

 5.675375000000000E7    -3.892957348595030E-1    7.727052820494845E1    -2.938372942050576E1     6.206642307768362E1    -7.951526944904192E1     7.518379294499198      -8.893647704509446E1    -9.500499199179524E1
                        -2.940407964328683E1     6.238590436112911E1    -4.474035260159114E-1   -1.333538915587946E2    -8.890403741859237E1     1.602011843865830E2    -6.745302863713573E1    -1.467588399119247E2
                        -9.484787835724620E1    -1.002402676775286E2    -8.713389546727606E1    -5.341336318791198E1    -1.397879775513020       1.319695135923453E1    -8.564322841379736E1    -1.632637897606680E2
                        -8.974504181178432E1    -5.845259312260708E1    -6.831724919199198E1    -1.491161189171831E2    -7.861473057435050E1     3.037885044095570E1    -1.403331157595495       1.980943648848713E1

 5.675400000000000E7    -3.890875415766698E-1    7.725816600990756E1    -2.942018036295451E1     6.232222698234048E1    -8.754213611804238E1    -9.508885344210871E1    -8.910827561174651E1     1.255765475510361E2
                        -2.935507813054610E1     6.145553109394082E1    -4.552551847812538E-1   -1.333488943766810E2    -8.244767776275549E1    -1.288068903288975E2    -6.760667084406990E1    -1.529680350765721E2
                        -8.687301982515959E1     1.271900122943249E2    -8.663200165072014E1    -2.532313225081228E1    -1.400307496263792       1.323599584654330E1    -8.295256984699400E1     7.996291766253056E1
                        -8.930360632938111E1     4.782664862381350E1    -6.754289949895723E1    -1.527393737257318E2    -8.774340966190808E1    -3.873281660404043E1    -1.401200552417676       1.981046349187863E1

 5.675425000000000E7    -3.918171069873098E-1    7.729089094415438E1    -2.931541179490936E1     6.161629508475153E1    -8.347872539619979E1    -1.286954028234423E2    -8.394353989587788E1     1.660384467082171E2
                        -2.941846840240812E1     6.197008504704204E1    -4.512113573639213E-1   -1.333873519897630E2    -8.597193471782586E1     1.258581546513564E2    -6.905626462938284E1    -1.474449172568554E2
                        -8.485982208226255E1     1.248426415416755E2    -8.934503555131961E1    -8.139900614432422E1    -1.393177973444538       1.324948005600790E1    -9.054320536034814E1     1.400299243401238E1
                        -8.635331685689073E1     8.315014083238572E1    -6.849886891593958E1    -1.552436210651369E2    -8.858107863835200E1    -1.345212767238702E2    -1.402494372289007       1.979903113891396E1

 5.675450000000000E7    -3.892563994110321E-1    7.730703174855766E1    -2.934693018733321E1     6.238666986467855E1    -8.204342261601290E1     9.238099244042977E1    -9.338424195782372E1    -1.385465251241143E2
                        -2.939525638907191E1     6.196438870027671E1    -4.510479968365203E-1   -1.334201663374913E2    -7.952654080045298E1    -1.096729258970760E2    -6.799170026372528E1    -1.457723364476695E2
                        -8.948670223631380E1     1.716047920732007E1    -8.733275519902158E1    -1.418796519730523E2    -1.396869791954922       1.322665222408082E1    -8.777570341996264E1     1.606120444912884E2
                        -8.041247560200752E1     1.465767381062827E2    -6.823591515309464E1    -1.433054710276679E2    -9.988952024447507E1    -1.987828126342851E1    -1.402769897470168       1.981162526017808E1

 5.675475000000000E7    -3.905487500044840E-1    7.725846079133433E1    -2.942591786513927E1     6.174532873603204E1    -8.521864762712447E1     3.907536821072419E1    -9.235112462075759E1     1.503114918522179E2
                        -2.942586965004376E1     6.177799703257130E1    -4.549784294910979E-1   -1.334286765823944E2    -8.098608981739018E1    -1.678880007097613E2    -6.679749688934338E1    -1.449536893499516E2
                        -8.681542794485644E1     1.630681209873992E2    -9.851070667259224E1    -2.532008076911579E1    -1.398288538848261       1.324810353215806E1    -8.862162625205913E1     1.662552649112141E2
                        -9.525010105486641E1     5.968185291600424E1    -6.761392951327521E1    -1.434763927893101E2    -8.873969331598252E1     1.036570392699910E2    -1.401759562426898       1.978700132535265E1

 5.675500000000000E7    -3.861432988710317E-1    7.726769415419233E1    -2.937883161626854E1     6.182761500071282E1    -9.846592251981379E1     9.888425757638582E1    -1.043881248625760E2     1.129080381800670E2
                        -2.936375508032277E1     6.187280635381048E1    -4.507546435964203E-1   -1.334648452427587E2    -7.962321867380375E1    -1.077336649654205E2    -6.791761622744126E1    -1.478222857500047E2
                        -9.095849622207263E1    -7.421159130032783E1    -8.890574956804385E1    -1.481824240610949E2    -1.395191006553413       1.321360513105254E1    -8.510353479841386E1     1.650284972880269E2
                        -9.514467814438368E1     1.724845489679192E2    -6.801599405393867E1    -1.453532960721370E2    -8.530379003438361E1     2.998352660157365E1    -1.403921823254677       1.979889447948336E1

 5.675525000000000E7    -3.897160619515429E-1    7.722496246608174E1    -2.942915571742446E1     6.141157350556058E1    -8.878655776052310E1     1.648304266766168E2    -8.036815589601940E1     4.277481510980182
                        -2.945757360510806E1     6.150808596726888E1    -4.526536067269003E-1   -1.334724310172705E2    -8.909934375471245E1     2.754733674169495E1    -6.692807572733911E1    -1.575827751213308E2
                        -8.246273246175427E1     1.533738939505078E2    -8.301418542246947E1    -7.453426739575873E1    -1.400842802357479       1.322678945890661E1    -1.049823638957156E2    -2.014000237360413E1
                        -8.536255603703134E1    -1.274834064548968E2    -6.765407099895224E1    -1.463349095053619E2    -8.631484707370028E1     1.764164757832780E2    -1.404885185287595       1.977478247514009E1

 5.675550000000000E7    -3.873418336015103E-1    7.727582066293402E1    -2.936048496792549E1     6.155660453001171E1    -1.024731114349552E2     1.453996621617072E2    -8.299474236871700E1     6.049241545125193E1
