#  HZ   S   DB   R     50.00 
! Rohde & Schwarz Vector Network Analyzer 
! Rohde-Schwarz,ZNB8-4Port,1311601044102961,2.82
! Created: UTC 2/13/2019, 1:51:55 PM
! freq[Hz]                db:S11                  ang:S11                 db:S12                  ang:S12                 db:S13                  ang:S13                 db:S14                  ang:S14
!                         db:S21                  ang:S21                 db:S22                  ang:S22                 db:S23                  ang:S23                 db:S24                  ang:S24
!                         db:S31                  ang:S31                 db:S32                  ang:S32                 db:S33                  ang:S33                 db:S34                  ang:S34
!                         db:S41                  ang:S41                 db:S42                  ang:S42                 db:S43                  ang:S43                 db:S44                  ang:S44
! 
 3.000000000000000E7    -2.794716701924315E-1    9.352258642928041E1    -6.977919090793026E1     5.387984168725312E-1   -8.507018443567208E1     6.384589272787914E1    -1.010219342075203E2     4.052098708697277E1
                        -6.934559800697186E1     1.852019579147958      -2.918100500981434E-1    1.006244213553646E2    -1.016859673972188E2    -5.131624457104156E1    -8.467579991834425E1     1.299997703146499E1
                        -9.380222247342351E1     5.250253091914453      -8.812409051053530E1    -7.904233808414678E1    -9.419961439205644E-1   -1.968601033863893E1    -8.594768148008092E1     1.591141879569891E1
                        -8.367609547672556E1     2.893451125515006E1    -8.515669499527658E1     1.408257117041056E1    -8.476379211319497E1    -1.583878162910340E2    -9.153327586897692E-1   -1.695678424060627E1

 3.002500000000000E7    -2.797559459887946E-1    9.320174366845002E1    -7.046452311396482E1     8.355510877679141      -8.804442773294502E1     3.758295071170266      -8.340102091535213E1    -1.691934230100640E2
                        -7.081386622542522E1    -6.261375147192650      -2.927240304033869E-1    1.002633758953928E2    -9.500601599593608E1     1.384538493201619E2    -8.552944084581911E1     6.022962150567501E1
                        -8.857050602137034E1     1.260671147743119E2    -9.467146155727329E1     5.684693890448383      -9.459157714565250E-1   -2.000007195364397E1    -8.494477776445643E1    -6.648284863588195E1
                        -8.207115121455296E1     1.848717309263845E1    -8.937151252099898E1    -1.134475828847871E2    -9.101147590275586E1     8.222669354570020E1    -9.162935618715808E-1   -1.721490729449329E1

 3.005000000000000E7    -2.862762469825718E-1    9.286617732626519E1    -7.088096471868110E1     1.166467683342822E1    -9.774242094334907E1     1.528347602531087E2    -8.169157671900760E1     7.856164047280979
                        -7.053483396809413E1     1.017866585615374E1    -2.805928092896888E-1    1.000574068022517E2    -8.147893911318346E1     1.211736959476793E2    -9.124589128013673E1    -1.729904561278103E2
                        -7.770425821817807E1     1.203393792149366E2    -8.791012897737491E1    -1.087543442681444E2    -9.464266025774788E-1   -2.029350489080051E1    -9.081206660707142E1    -1.323326980742399E2
                        -8.823400891973810E1    -3.178654829217561E1    -1.009209118358442E2     1.345068735650177E2    -8.729977140951966E1     7.145463265940852E1    -9.165673072276950E-1   -1.756515253181223E1

 3.007500000000000E7    -2.762629092027608E-1    9.251139341206120E1    -7.101964772174762E1     6.472523123598529      -8.530461445024523E1     1.593647945365472E2    -9.019645569700209E1     7.638695022577865E1
                        -7.006120621800592E1     2.820890941304596      -2.899456020543240E-1    9.968901683003995E1    -8.085558424040413E1     4.110853868421210E1    -8.764086194822930E1     3.794570421329037
                        -8.296771081844803E1    -8.967791260776380E1    -8.638871420161506E1    -1.426115580297699E2    -9.488634184395544E-1   -2.066689812505230E1    -8.423124168115287E1     4.003070849324470E1
                        -8.864089241552367E1    -1.732266420028383E2    -9.158377800233274E1     8.767728201076028E1    -8.060240393667783E1    -1.559860065052116E2    -9.208066824738125E-1   -1.783923193118819E1

 3.010000000000000E7    -2.714660297715362E-1    9.219639693956944E1    -6.960846912968069E1     1.690045150430852E1    -8.469744097816638E1    -1.567386357580183E2    -8.954336588710108E1     4.514197488340922
                        -6.980363231188272E1     1.950925067524880E1    -2.950485896190981E-1    9.935930504605781E1    -8.176614394441488E1    -5.041966545017483E1    -8.494718132086604E1     8.655248202014667E1
                        -9.056384262733869E1     6.618487107877456E1    -9.355361680912937E1    -1.789985538676955E1    -9.473601920204284E-1   -2.091288869914612E1    -9.792775021504431E1     3.071183314743787E1
                        -8.679424766523550E1     1.763039169980631E2    -8.424658193121771E1    -1.315378478810541E2    -8.670674903877537E1     1.431212789254069E2    -9.179288722102447E-1   -1.813752859890618E1

 3.012500000000000E7    -2.739217220053546E-1    9.183869390587802E1    -6.942706959032940E1    -4.493892624233392      -8.728817788624647E1    -1.587644822152717E2    -8.501016409245578E1    -1.064479125133687E2
                        -6.923177383230198E1     9.958977081245514      -2.855717159390108E-1    9.905362195292383E1    -9.263087390618813E1    -1.080986921147946E2    -1.035013664898565E2    -7.285096022744414
                        -9.631141983590511E1     1.090788418427188      -7.874404471876419E1    -9.017795441979772E1    -9.483926456381352E-1   -2.126497154275269E1    -9.666862149530789E1     9.136255310528433E1
                        -1.046581506199960E2     6.154954493287359E1    -9.339611464961399E1     7.194928411581530E1    -9.027328538608457E1    -4.672755883047226E1    -9.154865027394106E-1   -1.845080661992159E1

 3.015000000000000E7    -2.752097232430686E-1    9.149135318748441E1    -7.038974774095343E1    -1.453763902142449      -9.065719825748869E1    -2.495672177733965E1    -8.790410999621176E1    -9.064073326713697E1
                        -6.827261673182477E1     1.321868553855190E1    -2.937234607738911E-1    9.870485276814442E1    -8.500570060243895E1     9.545235899142010E1    -8.349904854746498E1     6.390596463057000E1
                        -8.375410632228814E1     6.898084262597506E1    -8.440487842266954E1     2.950322422874798E1    -9.478288613981833E-1   -2.153084720469523E1    -8.157376833839676E1    -1.041186020148400E2
                        -9.237488137763410E1     6.787055231965114E1    -8.595664460773129E1    -1.651550300745460E2    -9.310175704666963E1     1.567243944745831E2    -9.122273358933651E-1   -1.874986011445324E1

 3.017500000000000E7    -2.715704324585349E-1    9.115405139900935E1    -7.066394624546126E1     8.647148203760805      -9.040255843522880E1     1.729130403484769E2    -8.133555924318327E1     2.312261316064687E1
                        -7.056934398847353E1    -1.749932496802473E-1   -2.860573637436169E-1    9.842571195142691E1    -8.571555819389974E1     9.340130560988810E1    -9.441722703611633E1    -5.117894745431560
                        -8.970533410368729E1     1.192115495174263E2    -1.027498319828402E2    -1.237103823262354E2    -9.457935347145002E-1   -2.184262973858888E1    -8.433131523366677E1     6.566548558590364E1
                        -9.165128677461816E1    -1.282917731472113E2    -8.043119433659021E1     1.285088798247601E2    -8.551496735917597E1    -1.338185955750467E2    -9.154139586856690E-1   -1.903719405053204E1

 3.020000000000000E7    -2.712184757549332E-1    9.085031914013929E1    -7.117849625509790E1     5.352199952961873      -8.302449746348857E1     8.732180674001523E1    -8.730393448210430E1     1.218203622371307E2
                        -6.831182825215495E1     6.185126746464686      -2.943008617759393E-1    9.809906092115165E1    -8.584578529153355E1    -8.981728255756622E1    -8.707071843428786E1    -1.292186609860242E2
                        -9.238896196103423E1     7.954409729841268E1    -8.623376532693871E1     1.435261303113838E2    -9.421229438645857E-1   -2.223992906676390E1    -8.252878978920234E1    -1.380719037583646E1
                        -9.763200352809166E1     1.373023182370780E2    -8.229044458108498E1     1.145298622618098E2    -9.663322708846472E1    -9.380094385002040E1    -9.170182384120101E-1   -1.941743746049967E1

 3.022500000000000E7    -2.778189189443465E-1    9.049280168827707E1    -6.818604134514622E1     6.300868540395381      -8.140502375801037E1     3.529102878596488E1    -9.363015037748296E1    -2.106241160309985E1
                        -6.852083864102207E1     8.561710577274287      -2.876545540150618E-1    9.780766890265090E1    -7.979744712807704E1     1.233084101429944E2    -8.793029806395384E1    -3.419113315031873E1
                        -8.185355743237727E1    -1.529653639084756E2    -8.061679419556960E1    -1.638394781063710E2    -9.503927497483471E-1   -2.253263381043128E1    -8.394925430042220E1     1.542922644607137E2
                        -9.693064941538947E1    -1.320852508728361E2    -9.545937710609857E1    -7.343735737958107E1    -8.342618047590474E1    -5.991311410477864E1    -9.139971089522291E-1   -1.966411773699529E1

 3.025000000000000E7    -2.705614731682229E-1    9.013788246893348E1    -7.015706103468861E1     1.079730515006742E1    -9.682122448110668E1     3.735201287284460E1    -8.106428858424864E1    -1.016527628665919E2
                        -6.888357335291896E1     1.294611467440750E1    -2.951808545405935E-1    9.750956441853599E1    -8.454763702661965E1    -6.209520214155541E1    -8.144583192556148E1    -1.665676738793320E2
                        -9.275081934937663E1     3.392936141922463E1    -9.263418194307570E1    -1.483428013752215E2    -9.430993250467115E-1   -2.283422441250239E1    -9.350196816512562E1     7.640486606771208E1
                        -8.233675293655254E1    -9.312585755111748E1    -8.560268135416825E1     1.692298474960095E2    -8.579265692154013E1    -1.398262376533238E2    -9.194305304024235E-1   -1.997158478801286E1

 3.027500000000000E7    -2.754463467924667E-1    8.978608051801095E1    -6.888956121301563E1     2.048495942215961      -9.111835594867401E1     1.380137344689148E2    -7.979235108349062E1    -1.681719540649438E2
                        -7.013949054227584E1     9.756253050430452      -2.769680527555014E-1    9.718058483175682E1    -8.561788436107102E1    -7.611131234214153E1    -8.532962420103752E1     3.170250822834593E1
                        -8.556100272693948E1     3.608404368857579E1    -8.404748826452577E1    -9.348978038292394E1    -9.458710443006089E-1   -2.317261344328486E1    -9.068262688230405E1    -5.927342329847669
                        -9.004604283271719E1     1.563352369633049E2    -8.996845047530761E1    -8.966440205754738      -8.192180673241526E1    -3.274562738956391E1    -9.143333041478572E-1   -2.027395886837869E1

 3.030000000000000E7    -2.716556457240620E-1    8.947073306715713E1    -6.940720764033262E1     1.726795483847712      -8.195378424119895E1     1.480758118682292E1    -9.365887336071752E1     7.874377697400014E1
                        -6.964854369384742E1     8.772771441107734      -2.898316613362715E-1    9.689983857594386E1    -8.425451315547120E1     8.481340714490136E1    -8.366618028511937E1    -1.064226016999681E2
                        -8.796769351004278E1     1.626300378916280E2    -8.901788057169169E1    -1.115994486672351E2    -9.436642318470019E-1   -2.346088593873320E1    -8.709985686657207E1     1.295720433496616E2
                        -8.775251396555539E1    -9.703075164260729E1    -9.349016756121408E1    -1.519571499194076E2    -8.151862108135715E1    -8.115783785032879E1    -9.148306184122141E-1   -2.060374601202071E1

 3.032500000000000E7    -2.744716210620032E-1    8.914418828170514E1    -6.870511952484650E1     6.605109455468676E-2   -8.553870402727968E1     7.656925437845719E-1   -8.819985958420924E1    -1.710585911663149E2
                        -6.818215032923767E1    -2.919497040224812      -2.749822676365915E-1    9.658669475273344E1    -9.008559171872020E1    -9.687747216184272E1    -8.412070430588643E1    -1.460550399908418E2
                        -8.727761442414973E1     2.001787963452904E1    -8.394530467705714E1    -8.260913636509237E1    -9.414009608068230E-1   -2.376084861543001E1    -9.514358743511895E1    -1.821607915658520E1
                        -9.032863521891548E1     1.774554638963364E2    -9.382284268716923E1    -1.444733540610602E2    -7.970165759574383E1     1.049313020306539E2    -9.132552711736690E-1   -2.090214372529325E1

 3.035000000000000E7    -2.668520080438240E-1    8.879747544332227E1    -6.828871230121101E1    -3.589460914288086      -8.815599359995952E1     9.288524520290575E1    -8.741039237629701E1    -2.066249181085011E1
                        -6.909590669335749E1     8.736828018518825      -2.857088819741365E-1    9.627070612962331E1    -7.918303134329489E1    -6.945699281561164E1    -8.191159848383181E1    -1.003454160035597E2
                        -9.416146638302543E1     5.631351065129004E1    -8.735985954529178E1    -7.005388821508683E1    -9.463748604829971E-1   -2.415246525840918E1    -8.427874371219386E1     9.942840894534453E1
                        -8.381822612285075E1    -8.841710771803497E1    -8.146312883604587E1     3.591133415543450E1    -9.116088443168657E1     1.590591554553339E2    -9.135215183314229E-1   -2.118600000311685E1

 3.037500000000000E7    -2.640861580687925E-1    8.843320692355145E1    -6.784370919935931E1     1.130414715997440E1    -9.089720291296855E1    -6.167501064763563E1    -8.358019601446900E1    -7.931616815569559
                        -6.833730643789514E1     1.363828934369206E1    -2.871988628213601E-1    9.589610567179928E1    -8.995999058388401E1     5.263789992162304      -9.061056653905453E1     5.874111069038934E1
                        -8.653855650845668E1     8.773039803295026E1    -9.479863011603648E1     1.508296656914222E1    -9.513871003684694E-1   -2.445201525027584E1    -9.127741668757396E1     7.071330973661565
                        -8.596003825945465E1    -1.795134190373730E2    -9.052197395710181E1     9.290830761307588E1    -8.607070664549001E1     8.812602038347072E1    -9.165932705646028E-1   -2.152001064584638E1

 3.040000000000000E7    -2.655817143081936E-1    8.813369367630513E1    -6.779944075724158E1     4.982557805740354      -8.726347462908080E1     4.351285481655215E1    -8.418364782645875E1     5.138037175907088E1
                        -7.207299817532751E1     4.131847456097333      -2.941585836537301E-1    9.567498084061377E1    -8.424935886889314E1     1.400872344113880E2    -8.826240300590399E1    -1.115543204346161E2
                        -8.838992817536669E1     5.868355226371634E1    -8.432282514240376E1     1.678902961006983E2    -9.478874953783506E-1   -2.472316418564312E1    -9.170345195737821E1    -7.224620854347322E1
                        -8.838679361423098E1     1.789011146380670E1    -9.383724359329106E1    -7.761386771299117E1    -8.857651238067459E1     4.818646996764838E1    -9.147832825769482E-1   -2.185635171429027E1

 3.042500000000000E7    -2.690606279901954E-1    8.776568786491538E1    -6.852721063831532E1    -1.620597478837223      -8.444567994627285E1    -1.732600519106730E2    -9.348340547072229E1     1.248768719738885E2
                        -6.996676694135513E1    -1.343319993511627      -2.830685799687436E-1    9.533874008584611E1    -9.308454461844954E1    -1.828349540190499E1    -8.677728002564336E1    -7.128280862663762E1
                        -9.945745903974328E1    -1.325390331495267E2    -9.412597519334283E1    -2.193429966817817E1    -9.440140569182537E-1   -2.504286965782920E1    -8.335014179813351E1     6.713155990834166E1
                        -8.741379096482675E1    -2.310975798748470E1    -8.715380279028543E1     1.716128549615696E2    -8.079961840110977E1    -9.002248276150240      -9.161161024323479E-1   -2.212265538974219E1

 3.045000000000000E7    -2.676884821952109E-1    8.738266045645673E1    -6.895527289260545E1    -2.581657124509761E-1   -8.738402716201925E1     5.846394916926027      -8.598562304442328E1     1.412880360103120E2
                        -7.075107654252636E1    -1.872577103234340E1    -2.820809537722997E-1    9.501290455667466E1    -9.571144898935295E1     1.779308694985629E2    -9.001465118559898E1     8.732598825487153E1
                        -8.973022100964107E1     8.684572423247975      -8.461211590675322E1    -2.054878530399560E1    -9.447996914676500E-1   -2.535612848715295E1    -8.994290479265025E1     7.698049750863203E1
                        -8.679164910668426E1     1.297556265055631E2    -8.342158332593934E1     6.823704567337134E1    -8.559891470417868E1     1.235950255812735E2    -9.183889049582248E-1   -2.243302629222919E1

 3.047500000000000E7    -2.660197574474217E-1    8.707962432037989E1    -6.860475277892924E1     1.166577121764059E1    -8.241597116171134E1     9.173274496386507E-1   -8.399473254622828E1     2.012759056221948E1
                        -6.750136487128950E1     2.171146315800640      -2.878888921209971E-1    9.471577439378503E1    -9.640271378536718E1     4.538421410320244E1    -9.746493418779416E1     1.303851572037140E2
                        -8.594850037533954E1     1.416144090340837E2    -9.261985737565325E1    -5.539327658906695E1    -9.442319452815805E-1   -2.567329763997096E1    -9.572463996013831E1    -9.556469366086473E1
                        -8.883446440904761E1    -1.449230889806130E2    -8.551560494559580E1    -8.324884776076090E1    -8.483993861158361E1    -9.337746552203552E1    -9.142906310320669E-1   -2.274020392881995E1

 3.050000000000000E7    -2.639297267730534E-1    8.672636774366380E1    -6.899063112186380E1    -5.910013314974480      -8.976818670351005E1    -8.114039059189790E1    -9.495459670017084E1     1.325254387729753E1
                        -6.808017813317009E1    -3.710805935579145      -2.887140355883205E-1    9.439263103528803E1    -8.158239443508285E1    -1.427185721833742E2    -8.601631626436551E1     2.121735640503007E1
                        -9.176661063701154E1     8.245370015915053E1    -8.304271169875207E1     5.615872286500020      -9.468693632923907E-1   -2.596557998611046E1    -9.446010462354795E1    -1.452578615825223E2
                        -8.239294511955647E1    -1.060304618392230E2    -8.277927059198900E1    -5.033469068538383E1    -8.694025109335937E1     5.164896062156619E1    -9.119002853751314E-1   -2.300158999221362E1

 3.052500000000000E7    -2.577585738590583E-1    8.641426570662510E1    -6.874060992686596E1     8.215916634830281      -8.900153126570240E1     9.434131062752098E1    -8.600976193808756E1     1.744138519242578E2
                        -6.858119221562986E1     4.044658242202913E-2   -2.897954270278694E-1    9.413978550690837E1    -8.995339487500571E1    -7.455034687607152E1    -8.099729592902399E1    -1.254720456122838E2
                        -8.827537092426385E1     1.657826529818532E2    -1.053977095704286E2     7.781857746408052E1    -9.514503730679111E-1   -2.629943894060267E1    -8.642174759693498E1     1.504622504950445E2
                        -9.207109053932706E1     1.161192604309989E2    -8.563676083394446E1    -1.262539883604153E2    -8.470152133840644E1     1.068938597152534E2    -9.193593358607513E-1   -2.334265473087401E1

 3.055000000000000E7    -2.629879665692756E-1    8.604554283669322E1    -6.738658748572274E1     7.656030692653626      -9.173648160348556E1    -1.049009396203920E2    -8.295464627433768E1     8.017160541406490E1
