#  HZ   S   DB   R     50.00 
! Rohde & Schwarz Vector Network Analyzer 
! Rohde-Schwarz,ZNB8-4Port,1311601044102961,2.82
! Created: UTC 2/13/2019, 2:14:21 PM
! freq[Hz]                db:S11                  ang:S11                 db:S12                  ang:S12                 db:S13                  ang:S13                 db:S14                  ang:S14
!                         db:S21                  ang:S21                 db:S22                  ang:S22                 db:S23                  ang:S23                 db:S24                  ang:S24
!                         db:S31                  ang:S31                 db:S32                  ang:S32                 db:S33                  ang:S33                 db:S34                  ang:S34
!                         db:S41                  ang:S41                 db:S42                  ang:S42                 db:S43                  ang:S43                 db:S44                  ang:S44
! 
 3.000000000000000E7    -2.701635136356286E-1    9.352668536865271E1    -7.034781324841256E1     9.996394938419181E-1   -8.257254228624831E1    -1.290954932275625E2    -8.231276335508304E1    -9.407113143216492E1
                        -6.959763844777481E1     3.960056774681598      -2.849503721353092E-1    1.006357769312144E2    -8.950267724406814E1    -1.757478834634084E2    -8.210746286073106E1    -7.640413532088238E1
                        -8.259415744923665E1    -1.047916227210473E2    -9.181238648202043E1     9.773568065803076E1    -9.455514661580800E-1   -1.966987394862528E1    -9.305419712502069E1    -1.411459284090757E2
                        -8.570987943874577E1     1.158984327617063E2    -8.635835356605227E1     6.153974920056156      -8.702515944237487E1    -1.105751363124121E2    -9.103537122851269E-1   -1.689422156945572E1

 3.002500000000000E7    -2.759181172535122E-1    9.323286340923139E1    -6.911999628131788E1     1.539602933468955E1    -8.093298727411194E1     9.425970888170967E1    -8.834586409965453E1    -2.563344235542024E1
                        -6.897074809293531E1     8.784960560378237E-1   -2.790471734907880E-1    1.003150636729789E2    -8.687945583182824E1    -7.855495626503645E1    -8.117513199799744E1     1.425390344937043E2
                        -9.163379363214558E1     6.932516609353682E1    -8.510013804082909E1    -5.713299381995145E1    -9.495637507029073E-1   -1.998259369266281E1    -9.530557320800712E1     1.164052132072881E2
                        -8.813839966826873E1     3.932032237571183E1    -8.586635271487447E1     7.921419079475069E1    -7.926499653234730E1     1.237541320337544E2    -9.173031716219705E-1   -1.724249107854362E1

 3.005000000000000E7    -2.754335205919521E-1    9.290245807440888E1    -6.955647276758042E1     1.093312951420194E1    -9.011879067376449E1    -6.579422384456993E1    -8.835504900027084E1     7.513790250246345E1
                        -7.096799856999277E1     9.392727254017299      -2.800485415563008E-1    1.000591815439695E2    -9.049664209637089E1    -2.697428320316155E1    -8.477267065223091E1     1.609967242434024E2
                        -8.675470428038440E1     1.506979525844953E2    -8.601880319458263E1    -4.397765245679787E1    -9.504018133387765E-1   -2.030333835956806E1    -9.511712502968138E1     1.607344774645269E2
                        -8.571703590029692E1    -8.054883542854738E1    -8.786262283358782E1    -7.596980768544481E-1   -8.480488123031702E1    -1.403011688619673E2    -9.152750103476619E-1   -1.754047966466442E1

 3.007500000000000E7    -2.722019885768914E-1    9.250558277789659E1    -7.149065092490824E1    -8.752215924248431E-1   -8.930016040842949E1     1.124048874862543E2    -8.093951517267088E1     7.486866796528673E1
                        -7.008594616655363E1    -7.578259219599710      -2.864955536996358E-1    9.962701618934483E1    -8.159311863939740E1     1.689082578125111E2    -8.288643020779207E1     1.395923386414334E1
                        -9.887783231837457E1    -2.790487466360004E1    -8.430340836215771E1    -1.399162833386854E2    -9.455115079322024E-1   -2.062420185242584E1    -8.233673602593298E1     9.423422859181285E1
                        -8.807323732607205E1     1.347205731360233E2    -9.181696707681962E1    -1.494671509806916E2    -8.768829091450760E1    -1.424407754217919E2    -9.183998182915008E-1   -1.784397054952008E1

 3.010000000000000E7    -2.703725965381189E-1    9.221837670844043E1    -7.153329499800503E1     9.650106705807154      -8.398870440720260E1     1.275090088496710E2    -8.581395459619010E1    -1.220987633989640E2
                        -6.995574578988303E1     8.402527439614032      -2.797386275937087E-1    9.930053980143514E1    -8.018577708833028E1     4.717883659747806E1    -8.499835088964262E1     6.518559043746440E1
                        -8.854321150893978E1    -5.581213539658096E1    -8.303229313968693E1    -9.534598061188986E1    -9.483708500159817E-1   -2.093775640085088E1    -8.849701669293297E1     1.607882371406328E2
                        -8.891278772213522E1    -6.841040873361282      -9.137930387904714E1    -6.514449905298333E-1   -8.509492668041634E1     1.492584636851064E1    -9.166446398801318E-1   -1.816663703610042E1

 3.012500000000000E7    -2.676792691563177E-1    9.185536966608002E1    -7.071570554264612E1     7.933581404763417      -8.414273336912750E1    -2.839831098525293E1    -9.140770337400618E1     9.640240469855310E1
                        -7.174448878799925E1     5.416270602763184      -2.750096595303032E-1    9.906075109563625E1    -9.468650420827282E1    -1.331791667564407E2    -9.174316104011544E1     1.778453068190430E2
                        -9.734610963525385E1    -9.354093292931918E1    -9.176023494084375E1    -8.689283617814090E1    -9.519984836144692E-1   -2.126687420175210E1    -8.032839095826742E1    -2.509495655906380E1
                        -9.163335619535923E1    -7.383985620924590E1    -8.937235662705133E1     1.008019989180367E1    -8.867240404722450E1    -9.702637722594569E1    -9.137052022350399E-1   -1.843738043890422E1

 3.015000000000000E7    -2.678967335291719E-1    9.154169439383983E1    -6.911390069392601E1     1.256989521532038E1    -8.390388680531899E1     1.596579310352716E2    -8.872799714685122E1    -1.716351961155833E2
                        -6.967490017102125E1    -2.210963877621900      -2.760997569301887E-1    9.870791466561360E1    -8.910249301223283E1     6.419095167208722E1    -8.448322935232461E1     1.033133942016598E2
                        -8.812751591786781E1     6.322051217638621      -1.027986194135972E2     4.508786731731267E1    -9.499801809501476E-1   -2.159737380355995E1    -7.943540601698821E1    -1.146933125299188E2
                        -9.132870380840777E1    -1.302615181133697E2    -8.471970925858128E1     2.994069938881699E1    -8.516858634484974E1     1.769300627313116E2    -9.158362764359301E-1   -1.872176068430652E1

 3.017500000000000E7    -2.630178845671781E-1    9.120184702879305E1    -6.926894870603556E1    -1.112670809250539E1    -9.889018891169975E1     1.736371350854272E2    -8.785795852309433E1    -1.522174608603649E2
                        -7.021188588681572E1     1.406009558934296E1    -2.765212464703699E-1    9.840818433057287E1    -8.410247960528388E1     3.647804036169899E1    -8.893270661630560E1     1.669674075116676E2
                        -8.332572168977177E1    -1.311354678638475E2    -8.744017288312890E1    -1.149211483417095E2    -9.446529224949776E-1   -2.186202005502904E1    -8.854073783643160E1     1.113224852508052E2
                        -9.007825195695999E1    -1.026256881228464E2    -9.103881061500657E1     8.964650646869502E1    -8.494026893572291E1    -1.073891621090464E2    -9.134673994631375E-1   -1.908716780455975E1

 3.020000000000000E7    -2.623966698569313E-1    9.083467859647485E1    -6.959310930669780E1     4.809527586441425      -8.640954461160122E1    -1.047703444062785E2    -9.328324819644351E1    -1.682129809052254E2
                        -7.042171280746140E1    -3.525086259049715      -2.793691492260813E-1    9.812394853219959E1    -9.377407253906091E1     4.947267107790474E1    -8.019352141840885E1     6.280065964787221
                        -9.093028115642896E1     1.341255308020733E2    -8.482121882279583E1    -1.284802808823601E1    -9.460841408230083E-1   -2.218238042935607E1    -8.728948572565841E1     1.451140502440290E2
                        -9.074710373642986E1     7.145636727326643      -9.417875878005005E1    -1.667865586441341      -8.002452918060368E1     1.983361263723624E1    -9.103564833109865E-1   -1.938765096214091E1

 3.022500000000000E7    -2.726019410882084E-1    9.053803839323470E1    -7.015976795634609E1    -2.868021886062624      -8.209543164575311E1     1.469682067300788E2    -9.145144802494218E1    -8.225945438861250E1
                        -6.915147069608797E1     1.274792339942568      -2.812625882315227E-1    9.784295481852918E1    -8.776254210437364E1     1.560702658750259E2    -8.563203491908028E1     1.492763396010449E2
                        -8.374842768474190E1     9.901039049508420E1    -8.549280837933792E1     3.856308856407139E1    -9.450021531515580E-1   -2.252066512529506E1    -8.833834683986028E1    -1.186247707053011E1
                        -8.916718051931630E1     7.884366260961437E1    -8.882983659003905E1    -4.510949293790160E1    -8.623236335259543E1     6.240239007615763E1    -9.152596502610839E-1   -1.966687969058782E1

 3.025000000000000E7    -2.603279838908992E-1    9.016139973298684E1    -7.095554294989516E1     2.434359707668524      -8.613651687833311E1     1.382445161039887E2    -9.860793075562627E1     1.321600534060707E2
                        -6.916519420684885E1     1.029198866952274E1    -2.916087655870464E-1    9.747662306990813E1    -8.411209959116142E1     2.026887518603490E1    -8.690894274913893E1     1.205627092358088E2
                        -8.970802807604328E1    -1.044447840064020E1    -1.026111153044488E2    -1.016423399766231E1    -9.451390269901829E-1   -2.280317668335345E1    -8.148457710700367E1     1.183063453869386E2
                        -9.007055279794759E1    -6.669150521317879E1    -8.154175591447168E1     3.541863556123420E1    -7.954960725666322E1    -1.424978831864912E2    -9.152809331399823E-1   -1.994896813314069E1

 3.027500000000000E7    -2.560664865248216E-1    8.987756434101851E1    -6.898306677622036E1     5.164485881353519      -8.285172568891802E1     1.375209004058200E2    -9.224895330556868E1    -6.843518473082828E1
                        -6.839916216491265E1     5.728578198296193      -2.713952155948516E-1    9.719881519083702E1    -9.235509943634284E1    -1.315358489328887E2    -9.215255276190501E1    -1.449893179049725E2
                        -9.519856691105709E1     1.318138797268722E2    -8.943227243938867E1    -9.479717406750432      -9.509663022867063E-1   -2.315367431546215E1    -8.624487350420537E1     1.000149237021509E1
                        -8.813961648255463E1    -1.148821043772193E2    -8.376606045227447E1     1.668224540939413E2    -8.464264765066969E1     1.148773569966217E2    -9.144918493829096E-1   -2.031184187811825E1

 3.030000000000000E7    -2.652428575765973E-1    8.952971842671414E1    -6.963905885133028E1     1.194059870096441E1    -8.620610712387904E1    -1.691771993242406E2    -9.362310321806091E1    -4.308484799957950E1
                        -7.186262905647391E1     1.343383923312477E1    -2.768225725873450E-1    9.686693593484858E1    -8.358331670178686E1    -1.629487030093847E2    -8.165675250409632E1    -6.719019515478637E1
                        -9.170037366271438E1     5.224616633133113E1    -8.211779126976624E1    -1.694231429988188E1    -9.519226292932665E-1   -2.351259072317130E1    -8.525508869163605E1    -3.456780476097584E1
                        -8.009136188305867E1    -1.315177613484228E2    -7.820164660534637E1    -1.535719886047634E2    -8.357884871435880E1    -1.749308874821412E1    -9.107991885962308E-1   -2.058254995704520E1

 3.032500000000000E7    -2.615608215967190E-1    8.917332495569249E1    -6.875527562128555E1     1.732729480259128      -8.333902041553216E1    -1.121576082772134E2    -8.334952166084518E1    -1.177443276802995E2
                        -6.970679706743327E1    -8.811725354618345      -2.705205260667873E-1    9.649448043460946E1    -9.285683118456146E1     7.660129669632761E1    -8.822403754737013E1     1.531652568697188E2
                        -8.829233034883058E1     6.210712850920083E1    -9.461642595123153E1     5.912128721812478E1    -9.494793778896183E-1   -2.380045682488256E1    -8.576289614296013E1     6.179563194511822
                        -8.841827904681236E1    -3.626674757915802E1    -8.590417408765751E1    -1.134203461916306E2    -8.890378278968623E1    -5.935532852450047E1    -9.118298068427905E-1   -2.088601920212516E1

 3.035000000000000E7    -2.610941121463177E-1    8.886626037929992E1    -6.957267977201470E1     7.751684653521167      -8.150279317213879E1    -1.545250570711135E2    -8.120821600478448E1    -7.085735537772914E1
                        -6.870358785015949E1     4.959906111911886      -2.752745991512053E-1    9.623951597265916E1    -9.234313292282403E1     1.179796119488697E2    -8.975333774579002E1     1.303825284839022E2
                        -8.440995472266394E1     1.210276170444902E2    -9.516110456384223E1    -4.037935631873753E1    -9.445429555426366E-1   -2.411876217187783E1    -8.807178133526791E1     1.392311261614615E1
                        -1.016692654870342E2     2.323672694590862E1    -8.048593719568783E1    -1.958605734270358E1    -8.291218061457214E1     1.612174917689769E2    -9.112664587252914E-1   -2.117843595265476E1

 3.037500000000000E7    -2.608778743056999E-1    8.849209325749924E1    -6.871384214790980E1     4.902679464313464      -8.105994201605130E1    -1.054856207572262E2    -8.573720046555451E1    -4.466928405010215E1
                        -6.905878815620511E1     5.603167797383898      -2.789556478693770E-1    9.591038773289172E1    -8.579874099280546E1    -1.147258808106121E2    -9.975754989177325E1     9.720199560296082E1
                        -9.148869356344096E1     1.032240199328553E2    -8.968995735444486E1    -1.464752964284652E2    -9.477574469942334E-1   -2.441236731426434E1    -9.580066474246154E1     1.031235249411943E1
                        -9.139268642076799E1    -1.081661529622770E2    -9.147589343402655E1     1.605972490093087E2    -8.091679929229726E1     1.283983535144257E2    -9.152270755630481E-1   -2.151942011714674E1

 3.040000000000000E7    -2.589252046211005E-1    8.816037317495200E1    -6.884458394032205E1     9.065645721108407      -8.636187171173899E1     1.090541167456668E2    -9.515064178791081E1     1.763417872012400E2
                        -7.069263267111415E1     3.767956849567868      -2.806959348915742E-1    9.563152293050840E1    -9.227605221969684E1     2.816013352396957E1    -9.084472021988344E1     4.056140996176466E1
                        -8.694785961748613E1    -5.288678317024755E1    -9.314490828780940E1    -1.559699151453388E2    -9.466466175687649E-1   -2.475671707156343E1    -8.551575756873946E1    -1.134109203325850E1
                        -8.122307017108291E1     7.831041928824239E1    -9.053712152386048E1    -7.591668610406710E1    -8.100272014050269E1    -9.849275223325847      -9.148187050764899E-1   -2.182195174586841E1

 3.042500000000000E7    -2.621878602987829E-1    8.780212603840781E1    -6.723472666639630E1     2.200001574403069      -8.266143669675901E1    -2.387632801434158E1    -9.817666275436898E1     1.354677105349061E2
                        -6.856377029091981E1    -6.292588863752846      -2.740087478523539E-1    9.533788380019489E1    -1.071967606196078E2     1.326204997415695E2    -8.535306172609862E1    -1.740067210472184E2
                        -8.513891289976512E1     6.556376944679971      -8.800549225864305E1    -4.133466654489335E1    -9.519040589518786E-1   -2.504728060164361E1    -8.363777683857380E1     1.370047623535349E2
                        -8.652280064977884E1     6.211200196469402E1    -8.276657743667192E1     1.706276321437995E2    -8.877743147498748E1    -9.349546007477638      -9.121723305706081E-1   -2.212467393795495E1

 3.045000000000000E7    -2.591946920073785E-1    8.746076305194804E1    -6.823897260602224E1     2.855252715279961      -8.802259815331203E1     5.010887944981541E1    -8.587475118888864E1     3.536327487792349E1
                        -6.894473244288716E1    -3.429314389938992      -2.753556612203824E-1    9.501328477571455E1    -9.760668527071316E1    -9.180722517959714      -8.012213098431020E1    -9.565663745698279E1
                        -8.574385955889512E1    -1.151026928523706E2    -8.388353362107388E1     8.424741947191978E1    -9.469733808788873E-1   -2.537431910853929E1    -8.398127947743595E1     8.408025406072569E1
                        -8.866065885487261E1    -8.722412648929475E1    -8.274659695730229E1    -3.305021146790119E1    -8.541485089738602E1     9.509564779789029E1    -9.156068256558434E-1   -2.241026310399448E1

 3.047500000000000E7    -2.627135026223319E-1    8.711109236449508E1    -6.863254792897705E1    -1.695911185258325      -8.788145788637937E1     1.087532723037830E2    -8.268700180362201E1     7.180269640011716E1
                        -6.894159125470367E1    -4.699332845639551      -2.714521155385909E-1    9.467804910725639E1    -7.790688384934927E1     5.159208740009751E1    -8.631677184605918E1     1.263237134570945E2
                        -8.980228600268455E1    -9.077121077758257E1    -8.186815421798696E1     5.805417721491104E1    -9.487584341464410E-1   -2.567823648929128E1    -8.371075484406546E1    -1.496773708389512E2
                        -8.996343885155295E1    -5.157747283358519E1    -8.896791683612992E1     1.462145292383785E2    -8.123301779691629E1    -7.605417375090265E1    -9.125037321325068E-1   -2.274249974585873E1

 3.050000000000000E7    -2.643647249822385E-1    8.678553892206584E1    -7.046202504422490E1     6.827150485843863      -8.951046506253482E1     1.615534660753465E2    -9.536019191244944E1     3.118208844470777E1
                        -7.244743942258981E1     2.264659194868365      -2.684302000335103E-1    9.438950966445228E1    -8.639600423168970E1    -6.876441778317302E1    -9.008050026387311E1     8.286007270293966E1
                        -8.150124171727580E1    -1.380599917001200E2    -8.780133831821678E1     8.208930829843982E1    -9.488284060983787E-1   -2.599949859767685E1    -9.574946909970571E1     1.398093292047402E2
                        -8.483405554886636E1     1.375712219276106E2    -8.890202103883664E1     1.451992769746128E2    -8.726628039598261E1     1.077434403906955E2    -9.141965592782271E-1   -2.304285439798870E1

 3.052500000000000E7    -2.602836297648124E-1    8.648254404979920E1    -6.873744761929234E1     2.081742265960422      -8.975127557894874E1     1.378141205961056E2    -7.999466632129654E1     1.284032104795750E2
                        -6.754577559185137E1    -1.071893109170856E1    -2.723972255229886E-1    9.410808587897377E1    -8.598792440627854E1     1.520562395394229E2    -9.234260439074051E1    -1.675758540651115E2
                        -8.322759761389291E1    -3.106766170263547E1    -8.572579815350412E1     1.479071349473703E2    -9.489438881020182E-1   -2.629177792130031E1    -8.448798513550848E1    -1.113489793537129E2
                        -9.334112649444130E1    -1.716723258909485E2    -8.533965376919484E1    -2.351612482430129E1    -8.808058520101811E1     7.647593865076706E1    -9.162680128081144E-1   -2.332623173480677E1

 3.055000000000000E7    -2.545823443143975E-1    8.609627776585874E1    -6.849547784307048E1     2.566620556912688      -9.120989889311657E1     1.181687178153431E2    -8.592096629092772E1    -2.942183457899869E1
