#  HZ   S   DB   R     50.00 
! Rohde & Schwarz Vector Network Analyzer 
! Rohde-Schwarz,ZNB8-4Port,1311601044102961,2.82
! Created: UTC 10/29/2018, 9:45:03 AM
! freq[Hz]                db:S11                  ang:S11                 db:S12                  ang:S12                 db:S13                  ang:S13
!                         db:S21                  ang:S21                 db:S22                  ang:S22                 db:S23                  ang:S23
!                         db:S31                  ang:S31                 db:S32                  ang:S32                 db:S33                  ang:S33
! 
 3.000000000000000E5    -6.651770726156752E1     1.932492808231788E1    -5.946869853885741E1    -3.223398840122935E-1   -1.061759544003375E2    -1.611010239412779E1
                        -5.949606755819281E1    -3.968555627173852E-1   -3.135592378978885E1     6.711459677709171E-2   -9.845066593478012E1     1.455847663546580E2
                        -1.041939937444537E2    -1.170595846282237E2    -1.121796867283724E2     4.695970990712016E1    -5.708700451041259E-4    2.693053516798562E-2

 3.010500000000000E5    -6.379560013089719E1     4.753503981843761E1    -5.946801704562059E1    -1.930161704508704E-2   -1.022204086090823E2    -6.759676845338343E1
                        -5.960052180646259E1    -2.442105456201452E-1   -3.129854993534504E1    -4.620200361710547E-2   -1.046767654178132E2    -1.882268529044758E1
                        -9.741658482330297E1     4.735176846503585E1    -1.199912691467803E2     2.336915605496834E1    -2.877629675815085E-3   -3.513702509378047E-4

 3.021000000000000E5    -6.817296851539997E1     3.478525296545961E1    -5.953539324959874E1    -2.176758227140428E-1   -1.111765174934706E2     4.692322454883738E1
                        -5.956217065224421E1    -1.984933765350541E-1   -3.139252009287404E1    -3.351666937860414E-1   -9.970365491549528E1    -1.648776922572958E2
                        -9.676042080126878E1     1.099429713352786E2    -1.029072013271142E2     2.526369631799848E1    -6.047953164721973E-4    2.793633330304359E-2

 3.031500000000000E5    -6.733187200466139E1     7.151185519777077      -5.945885461398824E1    -2.405077521993312E-1   -1.063446095385599E2     4.012117051600706E1
                        -5.954860182923470E1    -2.119643889099300E-1   -3.137057797061548E1    -1.511254614806844E-1   -1.118372973925156E2    -4.801094934676743E1
                        -9.486974691784226E1    -1.788823643329401E2    -1.018513476673111E2    -8.807767556080238E1    -3.170973338561776E-3    2.071319816835915E-3

 3.042000000000000E5    -6.497659778037475E1     3.303133451065974E1    -5.947309760781847E1    -3.221199075148795E-1   -1.030323853318959E2    -1.705010215966295E2
                        -5.951978925623861E1     1.348948398378056E-2   -3.136804171630227E1    -1.807304472590247E-1   -1.040111180399090E2     1.157007996534831E2
                        -1.035843851272879E2    -1.098783853717997E2    -1.055334381319467E2     1.165799596651049E2    -2.932497099919412E-3    6.352134009167444E-3

 3.052500000000000E5    -6.701527181630102E1     4.616194719820832E1    -5.947211246401510E1    -3.027848093925968E-1   -1.036682683154817E2    -5.580342951093878E1
                        -5.951779558543316E1    -1.256087996816850E-1   -3.137084806475848E1    -3.465281224400331E-1   -1.032521398132323E2     2.808902313213147E1
                        -1.001017625151905E2     5.952457732954191E1    -9.841934292266785E1     1.031914649374899E2    -1.881111318533321E-5    2.115960794838570E-2

 3.063000000000000E5    -6.608235512956870E1     1.574509365661704E1    -5.950011613829834E1    -2.284646948349914E-1   -1.100446506030843E2     1.189334247841508E2
                        -5.954505939854453E1    -1.630189269481757E-1   -3.140700290545601E1    -2.783171945426767E-1   -1.046313675153900E2    -9.444539389767107E1
                        -1.246968586478537E2    -7.076440425560770E1    -1.000640933093633E2    -1.206605400292804E2    -1.902422416831180E-3    2.044511995621497E-2

 3.073500000000000E5    -7.214435592563248E1     5.108983322435033E1    -5.949792070316590E1    -2.784968792008880E-2   -1.031225361547071E2     4.358452872251466E1
                        -5.958087378120561E1     1.240436861897264E-1   -3.139158136994004E1    -3.272555406090411E-1   -1.084452505735368E2     1.011270131668628E2
                        -1.022027642974636E2     1.599718202968919E2    -9.924447458568473E1    -1.497114877227754E2    -2.133060873548820E-3    1.601810844937287E-2

 3.084000000000000E5    -6.821547608726370E1     5.451949774935616E1    -5.951229238314081E1    -7.922959464361012E-3   -1.074159642733282E2    -1.249850027519006E2
                        -5.953224958615613E1    -3.908932937306785E-2   -3.136078063089723E1     3.328061811034727E-1   -1.042016239143385E2     1.666844522704187E1
                        -1.045841241059607E2    -5.567870196660528      -9.891055970249312E1    -6.083586348573518E1    -1.999360585590691E-4   -3.794379694530647E-4

 3.094500000000000E5    -6.492604292373029E1     3.014020234544953E1    -5.938615520180284E1    -2.719643585530198E-1   -1.042309214797020E2    -1.348106978136102E2
                        -5.942299457689251E1     7.457903636639744E-2   -3.139426557356171E1    -5.415228489222090E-1   -1.033321324803832E2     1.401823974708009E2
                        -1.094186893279527E2    -9.754347958236855E1    -1.141109478207610E2     9.667226549418244E1    -2.833738497013918E-3    6.060921395238131E-3

 3.105000000000000E5    -6.559814279710545E1     5.441973222711419E1    -5.944108394130488E1    -2.641843520613899E-1   -1.050578726044575E2     7.166456378609038E1
                        -5.951657725337650E1     1.524107679371720E-1   -3.135842529315976E1    -5.432060512955195E-2   -1.083570022256042E2     3.110371809344012E1
                        -1.048020358501011E2     1.276891676923541E2    -1.264937066143623E2     2.311639279042623E1    -1.038045490674165E-3   -9.577653319967456E-3

 3.115500000000000E5    -6.844976979194541E1     3.552095738303902E1    -5.949511695185872E1    -4.746420240653461E-1   -9.874121149488956E1     1.286089839749139E2
                        -5.949395752719508E1    -6.809579108927664E-2   -3.139243150674998E1    -5.000974866368114E-1   -1.078605581586223E2     1.727180145956087E1
                        -1.023893921604927E2    -7.561927526484340E1    -1.043075712615013E2     1.510993878407992E1    -5.852087795327320E-4    2.329103163028688E-2

 3.126000000000000E5    -6.769173825647086E1    -9.044159491385293E-1   -5.952889966058194E1     1.156609038754977E-1   -1.031189677992460E2     1.557856825722108E2
                        -5.953715843358646E1     9.048426047289192E-2   -3.145027723071292E1     6.379255856985910E-2   -1.037927137531280E2    -1.446274348532565E2
                        -1.034998410748272E2     1.565220707481066E2    -1.013490363103862E2    -1.009594351064684E2    -2.057547754610275E-3    2.046405715432534E-2

 3.136500000000000E5    -7.122622538193822E1     3.705212859675786E1    -5.946894893730001E1    -4.855180850666657E-1   -1.156264860628642E2    -1.753465053953340E2
                        -5.956788697501423E1    -3.337738553235588E-2   -3.143973274266685E1    -2.167895768534544E-1   -9.752643488009041E1    -3.497149276920339E1
                        -9.730400931144736E1     3.077630965784018E1    -1.013638303259579E2     4.890998341714594E1    -1.225796649249693E-3    8.216488374302024E-3

 3.147000000000000E5    -6.373117158573005E1     2.629609219016263E1    -5.945574298265436E1    -4.312421462344415E-2   -1.028842056724337E2    -9.182627536492474
                        -5.952095193284984E1     5.846582605966198E-2   -3.134295099946334E1    -1.903573061522702E-1   -1.015421759387353E2     5.843659800442448E1
                        -1.016784396030504E2    -4.785488804320530      -1.069035334506212E2     1.083963246759060E2    -1.487505653743533E-3    1.382658037093219E-2

 3.157500000000000E5    -6.492951996719766E1     3.312039624311544      -5.947041676074714E1    -1.978757093859111E-1   -1.011611428426987E2     4.844736049466491E1
                        -5.950968117209897E1    -1.462538606963179E-1   -3.138128696815238E1    -5.452057098702506E-2   -1.034685749787268E2     6.901433137682312
                        -9.658451180293747E1    -1.167440857775488E2    -1.103666849056078E2    -6.767381072492557E1    -2.843089829791725E-3    7.579967055669135E-3

 3.168000000000000E5    -7.477151129229056E1     6.567216407366264E1    -5.947820571541882E1    -2.861085001487742E-1   -1.118841989092097E2    -7.777862221869806E1
                        -5.947484862443546E1    -3.438116296953127E-1   -3.142421767918618E1    -4.168367797147429E-1   -1.019458528645004E2     9.514378709547353
                        -1.002562690486297E2     8.498047625321922E1    -9.424819127470258E1    -1.634854799054767E2    -2.008356694269240E-4    2.209713387676770E-2

 3.178500000000000E5    -7.705127282808947E1     6.004082772976572E1    -5.946585642405570E1    -2.916129119479413E-1   -1.208039492822420E2    -1.406445340043998E2
                        -5.950851519637530E1    -7.677622690457845E-1   -3.146309877017360E1     8.138404205640344E-2   -9.986710459235076E1    -1.323817074486901E2
                        -1.092948921718919E2     1.794278927552213E2    -1.167623064027461E2     6.064345998361159E1    -2.445477684679461E-3    3.033949559638732E-2

 3.189000000000000E5    -6.761337257526022E1     4.350955498031760E1    -5.948376699671141E1    -3.824943240997716E-1   -1.022856623821670E2     1.098449405591047E1
                        -5.955564162485689E1    -1.889803752681605E-1   -3.129119774140139E1    -5.651264211997192E-3   -1.074131229206458E2    -1.527538714244101E2
                        -1.088679366750654E2    -1.313369150888122E2    -1.008900117137227E2    -1.051007091692779E2    -2.159690326257961E-3    6.967565161477538E-3

 3.199500000000000E5    -6.954447404167810E1     5.207796444792393E1    -5.945923343789917E1    -4.746091895928572E-1   -9.996797523818712E1    -3.697694400313866E1
                        -5.952189630157098E1    -1.910748712174712E-1   -3.146337350260752E1    -4.363560512199509E-1   -1.013809760948308E2    -4.479814262275166E1
                        -9.667297633989236E1    -1.725451550111799E2    -1.000450987678124E2     9.420230036699525       4.176773705361951E-4    8.737881351693367E-3

 3.210000000000000E5    -7.168765141154204E1    -2.036748175897671E-1   -5.951287181664358E1    -3.878894257448579E-1   -1.006601434407905E2    -7.935455209862830E1
                        -5.948911789146168E1    -1.646428425762687E-1   -3.138677296635427E1    -8.311177437680652E-2   -9.982748328593272E1    -8.993312633040337E1
                        -1.013976286980420E2    -7.365291640247011E1    -1.055759626075616E2     1.094638615481569E2    -1.638303286009605E-3    1.307182000166887E-2

 3.220500000000000E5    -6.602970779355815E1     4.284193521442798E1    -5.950428407868741E1    -7.611676292880350E-2   -1.008845105483732E2     4.066316836386874E1
                        -5.952526579610860E1    -5.854152165494790E-1   -3.136731594144333E1    -3.584509191368932E-1   -1.038581533425168E2     1.733268604438490E2
                        -1.000780309794518E2     7.399674460681688E1    -1.062271148450339E2    -1.050993846472737E1     1.408131023493951E-3    1.220765665115242E-2

 3.231000000000000E5    -7.030358669098227E1     7.333263067396493E1    -5.957156916542382E1    -3.046341916511884E-1   -1.061466426572212E2     7.054773736453012E1
                        -5.956007792981599E1     3.255569212317374E-1   -3.140669289116757E1    -2.220809902696400E-1   -1.021262956298171E2     4.748799229213439E1
                        -9.835445720656722E1     6.982234329393246E1    -9.901651917840333E1    -1.380195482541160E2    -3.459227407601245E-3    1.271685210029026E-2

 3.241500000000000E5    -7.240255572662312E1     1.866999679067730      -5.952462570641488E1    -3.717685252631039E-1   -1.082574489636638E2    -7.041212550655435
                        -5.956731037523955E1    -1.221086829725219E-1   -3.133830477869765E1    -5.580459936931134E-1   -1.046947405921409E2    -7.162147789984469E1
                        -1.073980593896007E2     2.127743512433343      -9.778643111618011E1     9.483534081987366E1    -2.773424444846603E-4    1.794118817132781E-2

 3.252000000000000E5    -6.577416068241786E1     3.775154619547433E1    -5.955950546219017E1     9.581328931829912E-2   -1.031932349249626E2    -4.904860191792068E1
                        -5.944403440376567E1     3.230904146432144E-1   -3.135033038008899E1    -1.396424258368129E-1   -1.085841008235357E2    -1.711100086726524E2
                        -1.144544009794720E2    -1.295319433287704E2    -1.062266757605959E2     1.091666042299941E2    -5.475721844291615E-4    5.981553625063409E-3

 3.262500000000000E5    -6.775217487100873E1     3.658466691840374E1    -5.953294672123597E1    -7.480077078799827E-1   -1.116300480994953E2     1.457785123795921E2
                        -5.956868652084041E1     5.083560268260817E-3   -3.135766256023572E1     5.987081320601839E-2   -1.114387293159694E2    -1.007371745263139E1
                        -1.000837659363611E2     1.056499849748427E1    -9.697324982138959E1     2.507659708398956E1    -2.389487331829899E-3   -5.508473424959408E-3

 3.273000000000000E5    -6.962104098865081E1     7.843353003517309      -5.946885846182910E1    -1.589459398227952E-1   -1.032634309911253E2     1.705073097276651E2
                        -5.954566571808041E1    -4.201748594424646E-1   -3.125031611490309E1     1.715005162002411E-1   -9.952462344322694E1     8.017932872870484
                        -1.066594467106047E2     8.815989467616436E1    -1.036966031209382E2     3.224769546136511E1    -2.162535804698698E-3    1.890337401433090E-2

 3.283500000000000E5    -8.220218983757758E1     1.301810661174839E2    -5.951317212361001E1    -2.687326333938411E-1   -1.071348736056476E2     1.376885788828556E2
                        -5.945631699097919E1    -2.098410623866580E-1   -3.140853417637831E1    -3.751213162365932E-1   -1.015244230277541E2     3.296617284612696E1
                        -1.109171739605842E2     1.216823467903795E2    -1.037054505244936E2     5.463380452143756E1    -1.338907999275797E-3    9.139131257382921E-3

 3.294000000000000E5    -6.676423732450509E1     1.375646528188444E1    -5.947063775199179E1    -1.621997161808511E-1   -1.142588367150866E2    -1.064456518683426E2
                        -5.948786006931177E1    -2.354205676931782E-1   -3.138463875095189E1    -2.673937125672669E-1   -1.148045727081821E2     1.065668584602709E2
                        -9.849100713938009E1    -2.260783047391805E1    -1.052455514526651E2     1.068138298297047E1    -1.628804189949570E-3    1.106881418131334E-2

 3.304500000000000E5    -7.243631685119912E1     8.883857551750946E-1   -5.956043761730126E1     5.060334067135955E-2   -9.842971726984135E1     3.035588171490921E1
                        -5.953903019582142E1    -5.618609342117852E-2   -3.138042200299740E1     3.740428394164062E-1   -1.066754506753813E2    -1.027509276551690E1
                        -1.120495562661225E2     3.007631930246070E1    -1.027957547409071E2     2.277660100551550E1    -1.941336067832998E-3    1.013976060636252E-2

 3.315000000000000E5    -7.037973654774754E1    -1.412140243899404      -5.954962660963938E1     5.897678331259343E-2   -1.011570897874015E2     9.963185908700577E1
                        -5.952543070248229E1    -2.864369258033264E-1   -3.135953910571934E1    -3.707961468621325E-1   -1.018414601050904E2    -9.504069207974066
                        -9.958856213559223E1     7.639881315790149E1    -9.840331166240445E1     1.255660013979388E2    -3.349458550762357E-3    1.886582872064772E-2

 3.325500000000000E5    -6.870146639003943E1     3.810304438351447E1    -5.951196343856359E1    -2.255459208802353E-1   -1.002382204472069E2     3.863817858322315E1
                        -5.955245735839091E1    -2.453432508879906E-1   -3.141974547786579E1    -1.175448224427095E-1   -1.037405776445604E2    -4.451017242826267E1
                        -9.704893609722420E1     1.248985838635946E2    -1.202042295079515E2     6.192524568485425E1    -1.431312941010707E-3    2.637376998511115E-2

 3.336000000000000E5    -6.836356853831100E1     9.690826485963775      -5.947388906265411E1     1.089854069588200E-1   -1.053600637357109E2     6.571333863922537E1
                        -5.952420101463051E1    -1.509530813293138E-2   -3.145991822406704E1     3.222009643736371E-2   -1.294641109996704E2    -8.530188685461283
                        -1.022376231959511E2     1.619843028122341E2    -1.069815605887373E2    -1.492929300170704E2    -5.286041876286438E-4    1.163763173497299E-2

 3.346500000000000E5    -7.077302638335199E1     6.142742469017342      -5.950269277375803E1     1.484881823574155E-1   -1.040756112179943E2    -1.607143700980204E2
                        -5.954174897157900E1    -2.869483512000581E-1   -3.130547133026596E1     9.353147651725835E-2   -1.072991115148331E2     1.462837111205810E2
                        -1.128245870746166E2     1.609476511813977E2    -9.720998829131888E1    -4.022381501172944E1    -1.290846256823219E-3   -4.861237857528860E-3

 3.357000000000000E5    -7.035074701071794E1     2.299605578893343E-1   -5.958116496420392E1    -6.202905845692175E-1   -1.093160043614218E2     1.074518347414955E1
                        -5.954521944839060E1     9.336060626383664E-3   -3.133859486430687E1     1.792667946740594E-1   -1.125362388179896E2     9.368048684935398E1
                        -1.059036163413887E2    -1.266882632803973E2    -1.004228572795182E2    -1.440656367698948E2    -1.900739373909123E-3    2.309278150212319E-2

 3.367500000000000E5    -6.890964330304671E1     2.309892315830314E1    -5.947675411260694E1    -7.256613826294959E-1   -1.189525307777628E2    -1.012288764057568E2
                        -5.956565009010735E1    -3.374545761250163E-1   -3.133339287190637E1    -9.241321676000146E-1   -9.984765339184962E1    -1.005763589074610E2
                        -1.144002370363533E2    -1.154025923744170E2    -9.381746398121894E1    -1.414539327582257E2    -8.760482830996157E-4    1.068613163960614E-2

 3.378000000000000E5    -7.046776862516482E1     4.537583925473205E1    -5.955974442858988E1    -2.586429995934969E-1   -1.168241352044222E2    -8.358533486295549E1
                        -5.947984522952621E1     1.393694381710930E-1   -3.134638312699053E1     6.840104468999199E-2   -9.856274136511473E1    -1.506383042581271E2
                        -9.713662830256487E1     3.626716157026257E1    -1.005866455917042E2    -6.697641244504175E1    -1.107208071204987E-3   -8.775991816573799E-4

 3.388500000000000E5    -7.000413577852685E1     6.431257946885087      -5.945791302486399E1    -1.255930311137163E-1   -1.098687919763116E2     1.358671570157614E2
                        -5.946096980605175E1     1.823086063803150E-1   -3.135349091492727E1    -4.299556671557034E-1   -1.046432906607222E2     1.212679535976770E2
                        -1.008965809430725E2     1.515798040818822E2    -9.953040952507448E1     9.881571865438781E1    -9.602587166173562E-5    8.778577099938668E-3

 3.399000000000000E5    -7.528857473169553E1     3.936290312845293E1    -5.947738625621486E1    -2.458886913156926E-1   -1.008300979742133E2    -1.365172200498772E2
                        -5.952814342177474E1    -3.541125534037785E-1   -3.131070832825876E1    -4.917859756893874E-1   -9.698018622134973E1    -2.171576172367943E1
                        -1.007038628123571E2    -4.945544302391595E1    -1.044058777351983E2     1.550840013204660E2    -1.097704411694601E-3    1.467929026769229E-2

