#  HZ   S   DB   R     50.00 
! Rohde & Schwarz Vector Network Analyzer 
! Rohde-Schwarz,ZNB8-4Port,1311601044102961,2.82
! Created: UTC 1/14/2019, 9:25:29 AM
! freq[Hz]                db:S11                  ang:S11                 db:S21                  ang:S21                 db:S12                  ang:S12                 db:S22                  ang:S22
 4.000000000000000E7    -4.742543024181502E1    -1.241163261639494E2    -5.655815138919319E-1    1.112137706956060E2    -6.373687174495047E-1    1.111806733263634E2    -3.372128757142671E1    -9.468594490870510E1
 4.006012024048096E7    -4.668177255554792E1    -1.242806843355138E2    -5.729434632107238E-1    1.108507065997449E2    -6.257473787545711E-1    1.109067218196057E2    -3.300735081116837E1    -9.244497940635083E1
 4.012024048096193E7    -4.640360030485184E1    -1.303372208521234E2    -5.698771992121656E-1    1.104538409976406E2    -6.406260598720501E-1    1.105479542841482E2    -3.422792000577211E1    -9.237970660796681E1
 4.018036072144289E7    -4.840271773288033E1    -1.271574598927829E2    -5.810618482469506E-1    1.100578217118300E2    -6.373583913811833E-1    1.101363136321852E2    -3.285772737614127E1    -9.379326609669892E1
 4.024048096192385E7    -4.642883620101558E1    -1.401766148995309E2    -5.739526815029992E-1    1.096915533062854E2    -6.423560387754110E-1    1.097734154904921E2    -3.397075722191347E1    -9.495345930827594E1
 4.030060120240481E7    -4.416536625866330E1    -1.115101891510070E2    -5.824662756797787E-1    1.094093034025692E2    -6.298389250316910E-1    1.093919025706851E2    -3.379883149224345E1    -9.560471096781552E1
 4.036072144288577E7    -4.442080456614171E1    -1.242617556187550E2    -5.756816649673412E-1    1.089684551058542E2    -6.295082423169667E-1    1.089580557769251E2    -3.336543247512036E1    -9.931568932592303E1
 4.042084168336673E7    -4.638235916073542E1    -1.255874018589923E2    -5.860142576928428E-1    1.086048377547971E2    -6.375415294030169E-1    1.086352278644244E2    -3.360895299986144E1    -9.736647854331409E1
 4.048096192384770E7    -4.786804020011438E1    -1.141027123624416E2    -5.772301535267341E-1    1.082034523850696E2    -6.416804311110967E-1    1.082727165520369E2    -3.299112224070673E1    -1.036927790790386E2
 4.054108216432866E7    -4.329857274592369E1    -1.133139825804715E2    -5.849855848396659E-1    1.078137798869095E2    -6.415038304276293E-1    1.078285842152071E2    -3.391226478697443E1    -9.685779450492244E1
 4.060120240480962E7    -4.697139315981330E1    -1.249478928195829E2    -5.921507521448367E-1    1.074811306041685E2    -6.396503807819965E-1    1.074934038633944E2    -3.345172474433267E1    -9.902357981270592E1
 4.066132264529058E7    -4.332527427543026E1    -1.299082500546435E2    -5.974529836763283E-1    1.070739538447345E2    -6.465166895240621E-1    1.071758769882214E2    -3.337646462194737E1    -9.733935258003675E1
 4.072144288577154E7    -4.434776168774092E1    -1.225520514045044E2    -5.833702711736439E-1    1.067320583564338E2    -6.420470878522432E-1    1.067980655393317E2    -3.409699808679984E1    -1.027499899276750E2
 4.078156312625250E7    -4.404457851686692E1    -1.209053053272307E2    -5.847684417338692E-1    1.063538563356568E2    -6.334601255564585E-1    1.064170660138888E2    -3.265065455265857E1    -9.928623866823634E1
 4.084168336673347E7    -4.426913608560957E1    -1.295117213199129E2    -5.882342220281716E-1    1.059873274662821E2    -6.411900389329766E-1    1.060608932667017E2    -3.408543078145777E1    -1.031339168148175E2
 4.090180360721443E7    -4.392178494068727E1    -1.156030953828185E2    -5.879423548949582E-1    1.055950882063820E2    -6.401841379718266E-1    1.056626963046783E2    -3.336476685592915E1    -9.928079346489420E1
 4.096192384769539E7    -4.447045382186805E1    -1.044524743031485E2    -5.759109391157559E-1    1.052315457880394E2    -6.402051294737727E-1    1.052590940201917E2    -3.334389141539455E1    -1.000545884799735E2
 4.102204408817636E7    -4.389081871444893E1    -1.268223106481421E2    -5.938244364022082E-1    1.048818346876647E2    -6.361186406160845E-1    1.048569203088687E2    -3.358746144029613E1    -1.062681333566765E2
 4.108216432865731E7    -4.528660351620732E1    -1.193417954354723E2    -5.780398190661641E-1    1.045083377362569E2    -6.385274525567779E-1    1.045193174477221E2    -3.332539020706407E1    -1.058242180484457E2
 4.114228456913827E7    -4.208240763459862E1    -1.235716555677551E2    -5.914962268575911E-1    1.042326134465063E2    -6.485276312037362E-1    1.042230472534046E2    -3.402211685421683E1    -1.056671035654291E2
 4.120240480961924E7    -4.474265602413886E1    -1.190886913119715E2    -5.935165566808244E-1    1.037401912818203E2    -6.504630771563247E-1    1.038163809486795E2    -3.438990390821561E1    -1.082311485571293E2
 4.126252505010020E7    -4.266977344500808E1    -1.233338637393659E2    -5.864462754632672E-1    1.033399047719895E2    -6.433672299080764E-1    1.034212335108366E2    -3.395200179806901E1    -1.048610629489343E2
 4.132264529058116E7    -4.452508357084522E1    -1.164055631463147E2    -5.958599018290643E-1    1.030088291963650E2    -6.525495314868784E-1    1.030409460139680E2    -3.436717254400175E1    -1.064003504067465E2
 4.138276553106213E7    -4.479326220174541E1    -1.194931248748634E2    -5.810008134296243E-1    1.026526360444517E2    -6.404162937164603E-1    1.026731276770028E2    -3.341124154888865E1    -1.038719563029213E2
 4.144288577154309E7    -4.405846721006324E1    -1.323360369991584E2    -5.840095475050682E-1    1.022576267014495E2    -6.489710329242128E-1    1.023115160759211E2    -3.386809647460240E1    -1.057575265528664E2
 4.150300601202405E7    -4.414760020189094E1    -1.253069071826044E2    -5.860469458006208E-1    1.019144862172942E2    -6.489453270726643E-1    1.019297653355877E2    -3.378924297454961E1    -1.126099807337430E2
 4.156312625250501E7    -4.125918011093538E1    -1.248336803850866E2    -5.924427047088928E-1    1.015019954398770E2    -6.516905529549806E-1    1.015324930596116E2    -3.414214247729260E1    -1.106901628372079E2
 4.162324649298597E7    -4.402838530435450E1    -1.257818386205617E2    -5.986784962461698E-1    1.011108931244089E2    -6.545605119475849E-1    1.011415724864907E2    -3.420508621972886E1    -1.090487644736361E2
 4.168336673346693E7    -4.306502349331674E1    -1.307750029362006E2    -5.894852580839208E-1    1.008113899559989E2    -6.536294877671296E-1    1.007489963399418E2    -3.389498220736780E1    -1.124744708539239E2
 4.174348697394790E7    -4.236758407254301E1    -1.308898376061807E2    -5.973055707149235E-1    1.004968159687985E2    -6.460928445823878E-1    1.004759798383197E2    -3.398723474767707E1    -1.086395527798127E2
 4.180360721442886E7    -4.118718024469229E1    -1.276434273483699E2    -5.919786723378461E-1    1.001201346739412E2    -6.499042121820947E-1    1.000559826162137E2    -3.341694378098446E1    -1.152499906130993E2
 4.186372745490982E7    -4.186677054100734E1    -1.260520715902034E2    -5.934852100564210E-1    9.967827294027276E1    -6.503629741225209E-1    9.967820574723882E1    -3.344300228262753E1    -1.152100805116549E2
 4.192384769539078E7    -4.179481049789381E1    -1.241990700149809E2    -5.951952030562394E-1    9.927457330716820E1    -6.615384252116796E-1    9.935512111403756E1    -3.466706421172157E1    -1.116016673904305E2
 4.198396793587174E7    -4.202535137853052E1    -1.312552473638598E2    -5.969963801028528E-1    9.895105809754136E1    -6.636054878967428E-1    9.898979431991825E1    -3.442756667440025E1    -1.171206432706467E2
 4.204408817635270E7    -4.136928418840499E1    -1.237430102018201E2    -6.039927848142850E-1    9.856830126727805E1    -6.487601642755231E-1    9.853218038654399E1    -3.371750572774702E1    -1.173887372754801E2
 4.210420841683367E7    -4.107446104572659E1    -1.227057137119107E2    -6.018879403116736E-1    9.807477670002919E1    -6.543705284508770E-1    9.819530313248623E1    -3.549753317795167E1    -1.172599474932257E2
 4.216432865731463E7    -4.061237860310804E1    -1.285723903279332E2    -6.028745235232280E-1    9.778634884907872E1    -6.486543305840999E-1    9.780083798217369E1    -3.431231611255900E1    -1.162410714303487E2
 4.222444889779559E7    -4.048965592666660E1    -1.319683050730015E2    -6.035556081980054E-1    9.743580665178413E1    -6.580017231098165E-1    9.749307767522325E1    -3.456809827082432E1    -1.121651624333786E2
 4.228456913827656E7    -3.925979881982781E1    -1.310957901881616E2    -6.019131915138393E-1    9.714139611196268E1    -6.550486185922900E-1    9.707850927136364E1    -3.361253820582313E1    -1.147270413143989E2
 4.234468937875751E7    -4.096669071036706E1    -1.222368833690087E2    -6.055974393703265E-1    9.670824108631476E1    -6.728615757303756E-1    9.673813668767032E1    -3.501269089012317E1    -1.136601374478563E2
 4.240480961923848E7    -4.122202186451418E1    -1.250106522007064E2    -6.071470709790813E-1    9.631167584540567E1    -6.573650509561704E-1    9.631447633928261E1    -3.377279978463709E1    -1.170567432059757E2
 4.246492985971944E7    -4.159294036019035E1    -1.173805129362095E2    -6.028736822226748E-1    9.592294712133190E1    -6.663949472015252E-1    9.588922092148155E1    -3.395679156259583E1    -1.181915162233785E2
 4.252505010020040E7    -4.105174267027294E1    -1.337040940488320E2    -6.058053100756542E-1    9.558844493852551E1    -6.729874065812135E-1    9.555961263366849E1    -3.479704223271670E1    -1.207590077797457E2
 4.258517034068136E7    -3.994164204255988E1    -1.313689742983931E2    -6.151588826854263E-1    9.522300811483254E1    -6.654954000954795E-1    9.511971995006925E1    -3.439064736899957E1    -1.248541416441203E2
 4.264529058116233E7    -4.041343151785849E1    -1.218318942343324E2    -6.038163030950421E-1    9.479398718366950E1    -6.754976801505769E-1    9.483729272204946E1    -3.403338393892675E1    -1.250764992037657E2
 4.270541082164329E7    -4.021988012492562E1    -1.348511303190338E2    -6.039561419950852E-1    9.451954187976524E1    -6.662747864091833E-1    9.444116201960090E1    -3.463380398585856E1    -1.223400538541984E2
 4.276553106212425E7    -3.984301808454932E1    -1.308368500321696E2    -6.013225167100154E-1    9.406734533416288E1    -6.738734713559826E-1    9.403192888501947E1    -3.484953265568003E1    -1.260015970431979E2
 4.282565130260521E7    -4.001281469415007E1    -1.300114157642086E2    -6.047312558614039E-1    9.376092391356767E1    -6.782083998280096E-1    9.360349864932874E1    -3.530291915865571E1    -1.211069825185727E2
 4.288577154308617E7    -4.053120077862918E1    -1.355712965032369E2    -6.064513182110473E-1    9.332858084746057E1    -6.711660046055266E-1    9.330800822327096E1    -3.441933101386452E1    -1.231347063711513E2
 4.294589178356713E7    -4.005251571304385E1    -1.388356219348843E2    -6.022978354244500E-1    9.298524417469868E1    -6.687553113086115E-1    9.295394596079258E1    -3.447707588305330E1    -1.220749674589800E2
 4.300601202404810E7    -3.946433446843925E1    -1.373255443420223E2    -6.074367411294152E-1    9.262489701951616E1    -6.707407866826114E-1    9.261108341782324E1    -3.508118973539752E1    -1.251594190418029E2
 4.306613226452906E7    -4.034490441754443E1    -1.295043471439550E2    -6.187095206145459E-1    9.223770134569271E1    -6.767987044244921E-1    9.223679392167111E1    -3.547996438229423E1    -1.272408246121883E2
 4.312625250501002E7    -4.060640257873847E1    -1.318607789675424E2    -6.054306417525084E-1    9.190031611282670E1    -6.753362420540696E-1    9.183971747996040E1    -3.495752011624654E1    -1.261341554190642E2
 4.318637274549098E7    -3.934402740938361E1    -1.335217563650251E2    -6.113274349791904E-1    9.149084134932328E1    -6.761101415481042E-1    9.151597430202436E1    -3.444826195240368E1    -1.338103863674718E2
 4.324649298597194E7    -3.849094274937306E1    -1.388253190795042E2    -6.116387295981578E-1    9.117284998634229E1    -6.823236708979165E-1    9.102361696128837E1    -3.513457291773732E1    -1.347761966201122E2
 4.330661322645290E7    -3.894096003036408E1    -1.348538815267236E2    -6.148180436993713E-1    9.077141404587592E1    -6.782681234836306E-1    9.071918485595023E1    -3.519377121461779E1    -1.296867881668384E2
 4.336673346693387E7    -3.978810963769686E1    -1.298014053145713E2    -6.152554725739543E-1    9.036375330584262E1    -6.745491816003804E-1    9.037208757381481E1    -3.485825577893559E1    -1.375123279385987E2
 4.342685370741483E7    -3.875129647385189E1    -1.388573748255020E2    -6.190423746430025E-1    9.004043369172648E1    -6.754834181639368E-1    9.000964244406168E1    -3.513092175771766E1    -1.313990270775594E2
 4.348697394789580E7    -3.828966493329692E1    -1.308280511537316E2    -6.185336356684489E-1    8.961007025152148E1    -6.760292224680818E-1    8.960241048490651E1    -3.474528146627657E1    -1.308658847004003E2
 4.354709418837676E7    -3.874150677550168E1    -1.333023203575679E2    -6.076143066572646E-1    8.932848815349851E1    -6.760589873142628E-1    8.925348179240098E1    -3.540119837446292E1    -1.316585611998918E2
 4.360721442885771E7    -3.865294898877980E1    -1.345759103777151E2    -6.136067527498247E-1    8.889445609414716E1    -6.723097464144340E-1    8.889280864210967E1    -3.538349503423090E1    -1.373224794026968E2
 4.366733466933868E7    -3.869936992709190E1    -1.385856998961333E2    -6.209181572319363E-1    8.855262494065013E1    -6.687849584683767E-1    8.848069412198763E1    -3.503682530843906E1    -1.332058085499775E2
 4.372745490981964E7    -3.791327254108131E1    -1.309605774928948E2    -6.167277706795583E-1    8.814730411033946E1    -6.823862089092923E-1    8.810446991796393E1    -3.557384369775622E1    -1.408295886906469E2
 4.378757515030060E7    -3.836644373532830E1    -1.368442705189644E2    -6.126949647312752E-1    8.778948726503430E1    -6.794810102116700E-1    8.775204555432190E1    -3.480677730553327E1    -1.395197831581213E2
 4.384769539078157E7    -3.780766686347882E1    -1.326651618704520E2    -6.201004724389371E-1    8.746051790743901E1    -6.779120137446644E-1    8.735260609167317E1    -3.524203096729569E1    -1.364290806405269E2
 4.390781563126253E7    -3.838840937462724E1    -1.337268731142821E2    -6.257549164380561E-1    8.702659446128602E1    -6.838732716718582E-1    8.700223287464903E1    -3.487433819643496E1    -1.362060659203827E2
 4.396793587174349E7    -3.789027844228257E1    -1.441305887733800E2    -6.185866859518538E-1    8.667121973253248E1    -6.816759475522647E-1    8.665595107635966E1    -3.487325598904091E1    -1.387130453435233E2
 4.402805611222445E7    -3.834664651309242E1    -1.259093506154819E2    -6.107601198105370E-1    8.620370525274245E1    -6.798487813041307E-1    8.621680160451631E1    -3.487815414810451E1    -1.322903456792943E2
 4.408817635270541E7    -3.750610241216617E1    -1.357243091864601E2    -6.154162872029086E-1    8.591070116141587E1    -6.798938812624177E-1    8.598831379488163E1    -3.546345950373683E1    -1.378009944954009E2
 4.414829659318637E7    -3.948002492911971E1    -1.351950352886845E2    -6.203281526764074E-1    8.555064498968605E1    -6.804865464981241E-1    8.548155678829576E1    -3.572171277160312E1    -1.407959282973049E2
 4.420841683366734E7    -3.779191884088411E1    -1.477964129311215E2    -6.185069301448031E-1    8.514994310552685E1    -6.870974987406541E-1    8.521273199264036E1    -3.557652314473455E1    -1.414472138090480E2
 4.426853707414830E7    -3.727216597698799E1    -1.419158837454967E2    -6.226420221591573E-1    8.485745403556106E1    -6.861530836236445E-1    8.486949525168319E1    -3.598891097302121E1    -1.368386918407131E2
 4.432865731462926E7    -3.751610616774634E1    -1.355138785845504E2    -6.345574907359299E-1    8.442404097385442E1    -6.763936572027639E-1    8.442352989050782E1    -3.595390949917896E1    -1.399910805179310E2
 4.438877755511022E7    -3.793705381250233E1    -1.382061342247198E2    -6.169994929007823E-1    8.403809376652364E1    -6.855973809795507E-1    8.404827930523604E1    -3.540293826758105E1    -1.452258787807206E2
 4.444889779559118E7    -3.844272376121556E1    -1.366728760673537E2    -6.250132176870700E-1    8.374958795308972E1    -6.824776890419215E-1    8.367386631997478E1    -3.443496399899552E1    -1.446012778463106E2
 4.450901803607214E7    -3.770594567871439E1    -1.432583802074133E2    -6.255922472187854E-1    8.330050372166244E1    -6.908623476984330E-1    8.339211770871884E1    -3.544593615795354E1    -1.462099408855026E2
 4.456913827655311E7    -3.705072184898970E1    -1.436112838209615E2    -6.232496757407121E-1    8.300393159923988E1    -6.752815283500018E-1    8.296657998952504E1    -3.505292325517727E1    -1.441448550750607E2
 4.462925851703407E7    -3.687415039437780E1    -1.368116588356550E2    -6.248625653049656E-1    8.252912999434335E1    -6.832827372729898E-1    8.255314257321419E1    -3.520315642723624E1    -1.473886503043833E2
 4.468937875751503E7    -3.766772462057267E1    -1.460585008976644E2    -6.236092801190447E-1    8.220643244822705E1    -6.787718325712864E-1    8.225430299361082E1    -3.583623374303724E1    -1.462983891574802E2
 4.474949899799600E7    -3.683035969470805E1    -1.408788993996605E2    -6.273938169417487E-1    8.181903600597697E1    -6.751531387329691E-1    8.189529980751448E1    -3.480988582685303E1    -1.527412567955666E2
 4.480961923847695E7    -3.724059674788775E1    -1.405569471496791E2    -6.299958334193061E-1    8.150863098990753E1    -6.823175951497158E-1    8.150041451607596E1    -3.573124198520765E1    -1.496273432564236E2
 4.486973947895791E7    -3.659933593076747E1    -1.412737091077193E2    -6.298451260623310E-1    8.113718909706837E1    -6.877433880955554E-1    8.120717414790757E1    -3.617706420067861E1    -1.550191913944099E2
 4.492985971943888E7    -3.729559015641480E1    -1.393753723360870E2    -6.280722877330094E-1    8.075114100551197E1    -6.826006180921928E-1    8.083979228863349E1    -3.656200779924419E1    -1.474523485792076E2
 4.498997995991984E7    -3.692620811059616E1    -1.402772431768322E2    -6.277607156475522E-1    8.033820240687714E1    -6.917525121838518E-1    8.045626619171348E1    -3.554680593569644E1    -1.564257367867348E2
 4.505010020040080E7    -3.624574152750128E1    -1.443648299372823E2    -6.322643109040114E-1    7.993284950121917E1    -6.783597397325467E-1    8.006806911191778E1    -3.559568661304625E1    -1.519593454391771E2
 4.511022044088177E7    -3.730394580789631E1    -1.431245367702099E2    -6.332411172028309E-1    7.959672667723110E1    -6.836091213041595E-1    7.970386268670943E1    -3.606837857702293E1    -1.489241853941491E2
 4.517034068136273E7    -3.663743922129208E1    -1.455530886806134E2    -6.276696640624719E-1    7.920714543855327E1    -6.758107242166855E-1    7.932396983787812E1    -3.580955345699840E1    -1.529110603210919E2
 4.523046092184369E7    -3.654153555666535E1    -1.439024217799105E2    -6.330589597982262E-1    7.884791434678139E1    -6.705498187966572E-1    7.896923923564945E1    -3.691915042556567E1    -1.547409806176254E2
 4.529058116232465E7    -3.632636372778037E1    -1.392133373350407E2    -6.281094527518512E-1    7.846693117607624E1    -6.815279795440971E-1    7.854350799666155E1    -3.577358629903176E1    -1.536400530162719E2
 4.535070140280561E7    -3.707812203007055E1    -1.416681451616684E2    -6.327817701988612E-1    7.813965186634252E1    -6.862641766327293E-1    7.819711888665739E1    -3.558300807168814E1    -1.593994089149662E2
 4.541082164328657E7    -3.651973470720330E1    -1.374973629914299E2    -6.342855599386644E-1    7.768478275796424E1    -6.849541548549882E-1    7.781852712659099E1    -3.648980049456408E1    -1.603782811227719E2
 4.547094188376754E7    -3.622999182984321E1    -1.425475818697738E2    -6.345630779377836E-1    7.736191343717223E1    -6.853807952830300E-1    7.744221829712484E1    -3.646135657216245E1    -1.615011240134818E2
