#  HZ   S   DB   R     50.00 
! Rohde & Schwarz Vector Network Analyzer 
! Rohde-Schwarz,ZNB8-4Port,1311601044102961,2.82
! Created: UTC 1/14/2019, 10:42:34 AM
! freq[Hz]                db:S11                  ang:S11                 db:S21                  ang:S21                 db:S12                  ang:S12                 db:S22                  ang:S22
 4.000000000000000E7    -3.267600507536601E1    -2.501446739222196E1    -5.581524479019342E-1    1.135275515392733E2    -6.586368817579407E-1    1.136513935605586E2    -3.708010890728086E1     1.837159736415349E1
 4.006012024048096E7    -3.267655061381875E1    -2.636485903119422E1    -5.652509892601909E-1    1.131680221960034E2    -6.469139698481503E-1    1.133831987481048E2    -3.681000081987293E1     1.029349478876389E1
 4.012024048096193E7    -3.285405138789760E1    -2.707817239391469E1    -5.620037878658540E-1    1.127748788936097E2    -6.622940180366271E-1    1.130206625274884E2    -3.633517486047428E1     2.046506223709672E1
 4.018036072144289E7    -3.268651497731267E1    -2.542802878885288E1    -5.733041934243826E-1    1.123825772517162E2    -6.587232795656967E-1    1.126181853924123E2    -3.708827130135769E1     8.343271418868282
 4.024048096192385E7    -3.311456076721184E1    -2.770262007892957E1    -5.664597329452993E-1    1.120189505390472E2    -6.638482361589702E-1    1.122552161481145E2    -3.684955712490420E1     1.885984854784269E1
 4.030060120240481E7    -3.213853450435294E1    -3.187421527152793E1    -5.752184655056613E-1    1.117458113428437E2    -6.510233867785596E-1    1.118791395195177E2    -3.701411302001851E1     1.750568738425748E1
 4.036072144288577E7    -3.260812580031765E1    -3.239476475665054E1    -5.681098841129577E-1    1.113061774503910E2    -6.505154903006328E-1    1.114473553855333E2    -3.800695946191954E1     1.489323996372963E1
 4.042084168336673E7    -3.262109856053286E1    -2.989895437011334E1    -5.784116550062854E-1    1.109456725607117E2    -6.590123513456458E-1    1.111276900158531E2    -3.740243693300535E1     1.568881111675174E1
 4.048096192384770E7    -3.228079804920316E1    -2.859451452720862E1    -5.695385422983552E-1    1.105466994024590E2    -6.624870365596585E-1    1.107686233465773E2    -3.930330219928104E1     1.294084907293537E1
 4.054108216432866E7    -3.206945591789946E1    -3.538538867716866E1    -5.772146266858081E-1    1.101661701116427E2    -6.630016524030115E-1    1.103280320652182E2    -3.702220654020098E1     1.756168028915550E1
 4.060120240480962E7    -3.254957321358008E1    -3.066688218392372E1    -5.843362469441870E-1    1.098327969406075E2    -6.612175463882309E-1    1.099985772898556E2    -3.769610313916517E1     1.416504808439988E1
 4.066132264529058E7    -3.272405200478513E1    -3.693269904301833E1    -5.896925289000096E-1    1.094320205764960E2    -6.677441795122465E-1    1.096809053395575E2    -3.728966311845786E1     1.190156249331476E1
 4.072144288577154E7    -3.243248059987388E1    -3.547010371759322E1    -5.755909961121102E-1    1.090928323982901E2    -6.631030266034985E-1    1.093075199202198E2    -3.793187666859844E1     2.180728335740271E1
 4.078156312625250E7    -3.232496966067655E1    -3.646521692509935E1    -5.767785850272572E-1    1.087209914534626E2    -6.545245565032981E-1    1.089362140724180E2    -3.795183696578130E1     4.471741811870433
 4.084168336673347E7    -3.264799854357668E1    -3.670443020094240E1    -5.800560353272432E-1    1.083557495400478E2    -6.622121101903864E-1    1.085754203118192E2    -3.793910460250074E1     2.096758844031409E1
 4.090180360721443E7    -3.207577942893509E1    -3.737311782790342E1    -5.803396824257820E-1    1.079691202753062E2    -6.612580739879146E-1    1.081820882107922E2    -3.754376962929172E1     1.126138132159591E1
 4.096192384769539E7    -3.171382725747842E1    -3.619404359613121E1    -5.684748248965120E-1    1.076093178692918E2    -6.611733360336586E-1    1.077834197210736E2    -3.764952280710998E1     1.123736833536094E1
 4.102204408817636E7    -3.245470040246583E1    -3.889991738182617E1    -5.862176656283569E-1    1.072621466936465E2    -6.573876545660427E-1    1.073832164838496E2    -3.890019562552528E1     1.761449317742348E1
 4.108216432865731E7    -3.221779698918785E1    -3.697954987270656E1    -5.703873808637312E-1    1.068924159630917E2    -6.593228818252566E-1    1.070513492890742E2    -3.897517812634564E1     1.388191446861616E1
 4.114228456913827E7    -3.220786884624892E1    -4.317730071645072E1    -5.833395663524703E-1    1.066229636873283E2    -6.697992361497633E-1    1.067528138469611E2    -3.830851105432813E1     2.024303093257616E1
 4.120240480961924E7    -3.214811122483940E1    -3.867789508498751E1    -5.858849353912636E-1    1.061323065898695E2    -6.717911210152350E-1    1.063476488048165E2    -3.840210395112568E1     2.527099004110161E1
 4.126252505010020E7    -3.216696243136838E1    -4.294895588732037E1    -5.782308040039506E-1    1.057374387128893E2    -6.646454971815963E-1    1.059574729743577E2    -3.810801709351598E1     1.791983552132937E1
 4.132264529058116E7    -3.201520760261642E1    -3.989828802617404E1    -5.879148159028678E-1    1.054075091603239E2    -6.740258514395416E-1    1.055825495963682E2    -3.800129592915666E1     2.260953081966185E1
 4.138276553106213E7    -3.211419205315021E1    -4.006831166717088E1    -5.735606611799594E-1    1.050547594004947E2    -6.620414631338377E-1    1.052197880235033E2    -3.815726822291654E1     1.108761086712152E1
 4.144288577154309E7    -3.254675705710080E1    -4.236921195516884E1    -5.757945951160584E-1    1.046650675877137E2    -6.700020832552983E-1    1.048595267293512E2    -3.817681175677623E1     1.659288267237341E1
 4.150300601202405E7    -3.224941104056410E1    -4.239509845207505E1    -5.779870593362216E-1    1.043267826565780E2    -6.699842516173610E-1    1.044834719191784E2    -3.978744838322428E1     2.265201738255012E1
 4.156312625250501E7    -3.200768965450001E1    -4.832165793293739E1    -5.843784648144559E-1    1.039171254434893E2    -6.729719801741145E-1    1.040889830567640E2    -3.889393606508207E1     2.305592762735560E1
 4.162324649298597E7    -3.222297127284479E1    -4.357037458507993E1    -5.907029885304380E-1    1.035275501695540E2    -6.762983074065855E-1    1.037004853302138E2    -3.847174036293906E1     2.122215195034666E1
 4.168336673346693E7    -3.236038888094330E1    -4.597782032556216E1    -5.816043035235941E-1    1.032334880401304E2    -6.742787707527991E-1    1.033110728062821E2    -3.948231496342625E1     2.144967168907966E1
 4.174348697394790E7    -3.230708562037033E1    -4.798230124434524E1    -5.892124215255566E-1    1.029225261113021E2    -6.677851548117904E-1    1.030433240242139E2    -3.847219876756921E1     1.784031453892992E1
 4.180360721442886E7    -3.204509699160928E1    -5.063361067154010E1    -5.842905834035381E-1    1.025514544137048E2    -6.711345712631258E-1    1.026242082185483E2    -4.071489439917986E1     1.914098442709932E1
 4.186372745490982E7    -3.198814131411382E1    -4.953910226822800E1    -5.857540508575285E-1    1.021135183762405E2    -6.715811623048035E-1    1.022532411305968E2    -4.059816351594957E1     1.901868449809794E1
 4.192384769539078E7    -3.188004772507945E1    -5.007834456392552E1    -5.871689043544508E-1    1.017144614519105E2    -6.833895656153632E-1    1.019291746129283E2    -3.827834787656943E1     2.476967345918380E1
 4.198396793587174E7    -3.220360881250895E1    -5.056190647491301E1    -5.890231180371988E-1    1.013906088759271E2    -6.851718316427498E-1    1.015691109959573E2    -3.949482940845278E1     2.932102750053913E1
 4.204408817635270E7    -3.175248889997162E1    -5.173551655463891E1    -5.958220483528577E-1    1.010133743940935E2    -6.702018884685644E-1    1.011158650242622E2    -4.051458910932102E1     2.316356430434150E1
 4.210420841683367E7    -3.165601794180461E1    -5.263871480341616E1    -5.944253318362240E-1    1.005254375894713E2    -6.758461608295702E-1    1.007820532685477E2    -3.803517995090282E1     3.431802116358958E1
 4.216432865731463E7    -3.186598598689542E1    -5.484681470048439E1    -5.947388851380803E-1    1.002414439565205E2    -6.689084307879706E-1    1.003981732060939E2    -3.920217180022889E1     2.547823481109900E1
 4.222444889779559E7    -3.198126034660953E1    -5.590920729415839E1    -5.953774277925417E-1    9.989384752868845E1    -6.774597130523254E-1    1.001033915934142E2    -3.810245497031794E1     2.231589098888014E1
 4.228456913827656E7    -3.175804577125144E1    -5.930131025250349E1    -5.938328845984664E-1    9.960458305972814E1    -6.728451732449738E-1    9.970093272729018E1    -3.949782008536383E1     1.580736616144485E1
 4.234468937875751E7    -3.151681545226745E1    -5.457084710185217E1    -5.977424090728184E-1    9.917195652212371E1    -6.897287792036483E-1    9.937139717650689E1    -3.765458218988761E1     2.490172566785040E1
 4.240480961923848E7    -3.163997729734170E1    -5.475949647442856E1    -5.990391117129781E-1    9.878207269571520E1    -6.733300870217904E-1    9.896470238197850E1    -3.954855513539157E1     1.814149468848520E1
 4.246492985971944E7    -3.134486538449798E1    -5.347489834308103E1    -5.953995019418091E-1    9.839498952909942E1    -6.815631507316780E-1    9.854828379149154E1    -3.945862617321686E1     2.007707405790140E1
 4.252505010020040E7    -3.199827585141337E1    -5.707715026904396E1    -5.977624071132186E-1    9.806474505398916E1    -6.872787997593748E-1    9.823401556887598E1    -3.875419563715096E1     2.781097854760907E1
 4.258517034068136E7    -3.170724242332266E1    -5.990878393840700E1    -6.065375114372650E-1    9.770587998287566E1    -6.781910977812571E-1    9.781053644487523E1    -3.992224389916984E1     2.940242833700974E1
 4.264529058116233E7    -3.128003147176720E1    -5.772421406298226E1    -5.956368893250233E-1    9.727996730462614E1    -6.876752508378964E-1    9.754014729799347E1    -4.055352051426949E1     2.640849396962128E1
 4.270541082164329E7    -3.187954667349733E1    -6.050271619514933E1    -5.955995510514660E-1    9.700907409516307E1    -6.781859128345774E-1    9.714736305770508E1    -3.913726440395277E1     2.543646671058726E1
 4.276553106212425E7    -3.158501515081512E1    -6.127355267786064E1    -5.929364911040059E-1    9.656014987539889E1    -6.860164271594902E-1    9.673911019146566E1    -3.929087647683672E1     3.128519085616720E1
 4.282565130260521E7    -3.154298486999242E1    -6.121494063026525E1    -5.964241457704035E-1    9.625714813042841E1    -6.906900420577740E-1    9.631100006500438E1    -3.811293841987491E1     2.695736727101129E1
 4.288577154308617E7    -3.186201425700632E1    -6.121420434849923E1    -5.981570224465300E-1    9.582792535943337E1    -6.836752871656943E-1    9.601793407458681E1    -3.948871583812199E1     2.392186626039258E1
 4.294589178356713E7    -3.195492934681374E1    -6.319892091414390E1    -5.939051222304349E-1    9.548690646954508E1    -6.817871222623910E-1    9.566652984404111E1    -3.922848190453868E1     2.243742668931232E1
 4.300601202404810E7    -3.176718471622210E1    -6.498619277619250E1    -5.992112978348573E-1    9.513030096021637E1    -6.840884231233930E-1    9.532599842252344E1    -3.881875463511602E1     2.978005392486852E1
 4.306613226452906E7    -3.144294165884040E1    -6.218193024500544E1    -6.106264577947519E-1    9.474630286442780E1    -6.891372346524587E-1    9.495627688934989E1    -3.843678338864243E1     3.328740743669167E1
 4.312625250501002E7    -3.158160261012060E1    -6.244258413999410E1    -5.972607261849934E-1    9.441214241545997E1    -6.876411269207796E-1    9.456693498584458E1    -3.901473286065058E1     2.883516816297684E1
 4.318637274549098E7    -3.144306573106741E1    -6.590801469874985E1    -6.027168512421099E-1    9.400763253708486E1    -6.879402804832929E-1    9.424848834089312E1    -4.063412334745044E1     3.886278059479993E1
 4.324649298597194E7    -3.156960528065521E1    -6.943627935715533E1    -6.031428870442591E-1    9.369302261578638E1    -6.942362509963898E-1    9.376163853964870E1    -3.944674942456972E1     4.075520387107090E1
 4.330661322645290E7    -3.138558057053199E1    -6.800962619971527E1    -6.063638538825106E-1    9.329699239714063E1    -6.906860523727070E-1    9.346322043089558E1    -3.908070290636262E1     3.249198606565773E1
 4.336673346693387E7    -3.123956027405373E1    -6.556699638900084E1    -6.070690513519580E-1    9.288961905394605E1    -6.867917767451727E-1    9.311609564887615E1    -4.002420840600521E1     4.412580089491031E1
 4.342685370741483E7    -3.151487408274597E1    -7.000020421699537E1    -6.105487105046987E-1    9.257196010742280E1    -6.877113111063478E-1    9.276213174710998E1    -3.929787799656480E1     3.389877087458255E1
 4.348697394789580E7    -3.092855752754799E1    -6.999216046868057E1    -6.101392960438777E-1    9.214755921112105E1    -6.890379205541022E-1    9.235675748230902E1    -3.986183195612656E1     3.103335154197296E1
 4.354709418837676E7    -3.113816201785113E1    -6.991568523967382E1    -5.991155531395369E-1    9.186582559203852E1    -6.889961973338338E-1    9.200773996211467E1    -3.891389150572269E1     3.397595347307356E1
 4.360721442885771E7    -3.115534742234396E1    -7.079328317121723E1    -6.049995553486700E-1    9.143664200234557E1    -6.856614583405241E-1    9.165167536483929E1    -3.923945616515287E1     4.181024985453617E1
 4.366733466933868E7    -3.136905743497686E1    -7.183417880920196E1    -6.122685251527426E-1    9.109737424372845E1    -6.819342557378894E-1    9.124049458909150E1    -3.961604469798557E1     3.419431462941259E1
 4.372745490981964E7    -3.073332783297289E1    -7.249812277245120E1    -6.085107720386512E-1    9.069689090801950E1    -6.957895568215471E-1    9.086679914986597E1    -3.894762813939918E1     4.646337203101626E1
 4.378757515030060E7    -3.113394318133594E1    -7.312025280288464E1    -6.039546614281636E-1    9.034160353760518E1    -6.927968320442536E-1    9.051998392183559E1    -4.023008182464650E1     4.437315944387918E1
 4.384769539078157E7    -3.074342149705018E1    -7.401258029659545E1    -6.116463511817443E-1    9.001726630201657E1    -6.917972746680745E-1    9.012279753521648E1    -3.945273895034315E1     3.867607980079657E1
 4.390781563126253E7    -3.090643425007737E1    -7.330676340017594E1    -6.174699971989629E-1    8.958607634534054E1    -6.979511767114488E-1    8.977481868270921E1    -4.005255664392270E1     3.714058599837173E1
 4.396793587174349E7    -3.137242784363227E1    -7.721738081508347E1    -6.095852001978618E-1    8.923397920982623E1    -6.954027153066942E-1    8.943073283786799E1    -4.011307787893118E1     4.106158074722020E1
 4.402805611222445E7    -3.044939414054992E1    -7.223971780275952E1    -6.027387219753454E-1    8.877198960781094E1    -6.941773432862590E-1    8.899727842681051E1    -3.973652529444716E1     2.959527436704941E1
 4.408817635270541E7    -3.070861050031154E1    -7.707349877767837E1    -6.071990577409018E-1    8.848094920416118E1    -6.944600205763450E-1    8.876944221754499E1    -3.910683121997312E1     3.932137400250921E1
 4.414829659318637E7    -3.110170640331055E1    -7.272965226942476E1    -6.123773533968983E-1    8.812113464625222E1    -6.951540030174050E-1    8.826471641088835E1    -3.880139532526808E1     4.343369336593745E1
 4.420841683366734E7    -3.145468878307278E1    -7.987580168849365E1    -6.097962464843396E-1    8.772638410642252E1    -7.020172269566996E-1    8.799742580712572E1    -3.902068285186785E1     4.398231995906515E1
 4.426853707414830E7    -3.092066632581018E1    -8.042828257215611E1    -6.138789136945402E-1    8.744026218131579E1    -7.018352214332804E-1    8.765743261227189E1    -3.843474953110017E1     3.752637262335362E1
 4.432865731462926E7    -3.058440923071651E1    -7.846421638112911E1    -6.262335031373305E-1    8.700805648493598E1    -6.920415994941742E-1    8.721418818555529E1    -3.854005322655166E1     4.103500826598715E1
 4.438877755511022E7    -3.080010081886687E1    -7.857126750348387E1    -6.086610837398880E-1    8.662795898855475E1    -7.010161805043685E-1    8.684161527920109E1    -3.925851769126066E1     4.892249826746306E1
 4.444889779559118E7    -3.081036450305476E1    -7.742122106474572E1    -6.164907745382433E-1    8.634261669694418E1    -6.978715886212332E-1    8.646846569692646E1    -4.107300823243388E1     4.918663047292466E1
 4.450901803607214E7    -3.097813123780955E1    -8.111592131387572E1    -6.168941817878506E-1    8.589634287131163E1    -7.068162705671874E-1    8.619207668821018E1    -3.917314828098877E1     4.945304971899883E1
 4.456913827655311E7    -3.080722653034554E1    -8.336377218428180E1    -6.145211557386709E-1    8.560391956601306E1    -6.910384702042537E-1    8.576981223810955E1    -3.997285271138688E1     4.563314441605473E1
 4.462925851703407E7    -3.033960836758582E1    -8.226583652407901E1    -6.164873925369601E-1    8.513280784620500E1    -6.987717915961156E-1    8.536016268634349E1    -3.960588201424151E1     4.999869856574765E1
 4.468937875751503E7    -3.104306736949232E1    -8.311951249608059E1    -6.153412840776685E-1    8.481291962512071E1    -6.944111275936377E-1    8.506679762642455E1    -3.875262336692916E1     4.647582659329665E1
 4.474949899799600E7    -3.048390599067929E1    -8.430289772802453E1    -6.190786755512475E-1    8.442943340242934E1    -6.904063045028575E-1    8.470969080480587E1    -3.983167685224843E1     5.912052794718859E1
 4.480961923847695E7    -3.053931558253171E1    -8.360712825295822E1    -6.215729060546446E-1    8.412525064215521E1    -6.986571856796204E-1    8.431411855148571E1    -3.881220712225276E1     5.058540393659077E1
 4.486973947895791E7    -3.037892763511238E1    -8.581394408996685E1    -6.211382450597236E-1    8.375376755341596E1    -7.043869038881558E-1    8.402312671000931E1    -3.785244104205593E1     5.551182632960129E1
 4.492985971943888E7    -3.043857122204022E1    -8.391312431778469E1    -6.199687809556074E-1    8.337298546265312E1    -7.000797087073816E-1    8.365329737032268E1    -3.787904531878222E1     4.589131660066447E1
 4.498997995991984E7    -3.035115475788000E1    -8.544598683750516E1    -6.193885029850819E-1    8.296270169845093E1    -7.092701143105772E-1    8.327182196859354E1    -3.847169442036374E1     5.962739717769220E1
 4.505010020040080E7    -3.036540544144700E1    -8.866346123824447E1    -6.238127688790527E-1    8.256190083220714E1    -6.967728649992054E-1    8.288605200895140E1    -3.894881885044934E1     5.320320221338073E1
 4.511022044088177E7    -3.055107679304456E1    -8.601573494828334E1    -6.248283798119356E-1    8.223013312789161E1    -7.019857488506129E-1    8.252651060664297E1    -3.846271265029758E1     4.759819245129111E1
 4.517034068136273E7    -3.047869241114931E1    -8.872492098304060E1    -6.190975884584914E-1    8.184278591421635E1    -6.945556349325170E-1    8.214761050478597E1    -3.861716679813793E1     5.313186804627262E1
 4.523046092184369E7    -3.033223897578058E1    -8.888671147762382E1    -6.246407968781678E-1    8.148713551738631E1    -6.895753237559897E-1    8.179419704727825E1    -3.729739362173495E1     5.117330567795534E1
 4.529058116232465E7    -2.996768025731396E1    -8.835558306906543E1    -6.196366938299222E-1    8.111205261621259E1    -7.007016868687406E-1    8.137362027359794E1    -3.870226252231537E1     5.326685433779991E1
 4.535070140280561E7    -3.030265667191558E1    -8.758062057957091E1    -6.246862820340647E-1    8.078731440265820E1    -7.056929739722297E-1    8.102855747099149E1    -3.833781752294875E1     6.077885656848321E1
 4.541082164328657E7    -2.988095947698129E1    -8.800923909539708E1    -6.263200966287332E-1    8.033743773513660E1    -7.043273739869038E-1    8.065153192851773E1    -3.737709695763878E1     5.675702798665069E1
 4.547094188376754E7    -3.003353241771328E1    -9.070272164225008E1    -6.263111280218630E-1    8.001817409525408E1    -7.050771623259032E-1    8.027764826780317E1    -3.732705179389473E1     5.788712868170870E1
