#  HZ   S   DB   R     50.00 
! Rohde & Schwarz Vector Network Analyzer 
! Rohde-Schwarz,ZNB8-4Port,1311601044102961,2.82
! Created: UTC 1/14/2019, 9:22:42 AM
! freq[Hz]                db:S11                  ang:S11                 db:S21                  ang:S21                 db:S12                  ang:S12                 db:S22                  ang:S22
 4.000000000000000E7    -3.429608309931841E1    -7.990438472381480E1    -5.782456860175358E-1    1.085782922468381E2    -6.463239975383116E-1    1.085189335403683E2    -4.354417541008728E1    -1.522315889706802E2
 4.006012024048096E7    -3.417488647915726E1    -8.126233749763134E1    -5.858514773114303E-1    1.082111321647833E2    -6.344140889925900E-1    1.082400461091998E2    -4.285441529671994E1    -1.363882692609815E2
 4.012024048096193E7    -3.429555512602649E1    -8.309627122068009E1    -5.828617355723859E-1    1.078105663947081E2    -6.494541495313253E-1    1.078769199636687E2    -4.564267894772955E1    -1.571120081154450E2
 4.018036072144289E7    -3.450753256919540E1    -8.083517786633630E1    -5.938433968530498E-1    1.074106280652382E2    -6.459829796851964E-1    1.074617200920534E2    -4.217113142772084E1    -1.365529501164644E2
 4.024048096192385E7    -3.459777618920473E1    -8.567651875082343E1    -5.870654181238075E-1    1.070385117198009E2    -6.511037448368688E-1    1.070955772391381E2    -4.413952459304841E1    -1.557341186611455E2
 4.030060120240481E7    -3.333112237658457E1    -8.331568795571805E1    -5.956757369241110E-1    1.067538081426868E2    -6.382644451340760E-1    1.067120178269470E2    -4.357664882488863E1    -1.535023428862201E2
 4.036072144288577E7    -3.370819310287687E1    -8.653202708606278E1    -5.891146981857443E-1    1.063084469397685E2    -6.382136807102933E-1    1.062732404845595E2    -4.161714415916228E1    -1.532392833344760E2
 4.042084168336673E7    -3.413545285462622E1    -8.490563116835558E1    -5.992547482880911E-1    1.059386749033836E2    -6.464018283201962E-1    1.059458705054244E2    -4.273993576648658E1    -1.527977186946363E2
 4.048096192384770E7    -3.415141332257667E1    -8.208418866312712E1    -5.902811844612730E-1    1.055348786620807E2    -6.505926327889010E-1    1.055797876308457E2    -3.986514650093199E1    -1.548355159651995E2
 4.054108216432866E7    -3.313224033866787E1    -8.641737108545813E1    -5.979361279617018E-1    1.051413116639836E2    -6.503803373689752E-1    1.051323417643358E2    -4.351471735131203E1    -1.561911470875580E2
 4.060120240480962E7    -3.421280480731820E1    -8.567450191436589E1    -6.052935023812749E-1    1.048045884705403E2    -6.484156221320475E-1    1.047928439819134E2    -4.203272333043744E1    -1.525546719449307E2
 4.066132264529058E7    -3.360912703878515E1    -9.171626376923810E1    -6.107308795089094E-1    1.043943788437423E2    -6.549083993772003E-1    1.044716329680022E2    -4.245954687919041E1    -1.482425773466470E2
 4.072144288577154E7    -3.362397642656495E1    -8.906748175026984E1    -5.968635061534353E-1    1.040470516521672E2    -6.508191110058968E-1    1.040903374646951E2    -4.181707830171159E1    -1.665376833375929E2
 4.078156312625250E7    -3.351256218585804E1    -8.957600444339076E1    -5.980015507438296E-1    1.036655253677803E2    -6.420960935387710E-1    1.037057291986755E2    -4.058464200958069E1    -1.425901757832086E2
 4.084168336673347E7    -3.377600564400651E1    -9.181913550726058E1    -6.014605993788055E-1    1.032937260341733E2    -6.502242268401803E-1    1.033455007656808E2    -4.177822809052826E1    -1.666101374201469E2
 4.090180360721443E7    -3.333925775549658E1    -8.920533855365295E1    -6.012701006044161E-1    1.028980068477371E2    -6.489069554994215E-1    1.029433456734342E2    -4.199165925511836E1    -1.505601505755429E2
 4.096192384769539E7    -3.328732940592765E1    -8.635432700552228E1    -5.893753060290966E-1    1.025307725468699E2    -6.490834500339913E-1    1.025359543146404E2    -4.169917470933904E1    -1.513801099476327E2
 4.102204408817636E7    -3.362143856604848E1    -9.308493048833694E1    -6.074757819996799E-1    1.021771426707841E2    -6.453246892779642E-1    1.021289987286883E2    -4.036517761165264E1    -1.635671157527125E2
 4.108216432865731E7    -3.375031961394313E1    -9.018065227925493E1    -5.918243451672349E-1    1.017994820895499E2    -6.477278666902915E-1    1.017883847986737E2    -4.019561288366055E1    -1.597038198256998E2
 4.114228456913827E7    -3.300805484149551E1    -9.526789850320958E1    -6.052106757276601E-1    1.015203577834101E2    -6.576473810573742E-1    1.014878637476602E2    -4.117384430810654E1    -1.678518864125610E2
 4.120240480961924E7    -3.361325568632627E1    -9.168450245934658E1    -6.074622999606854E-1    1.010234727142398E2    -6.595563944050631E-1    1.010760678678473E2    -4.087344732855875E1    -1.749550889447634E2
 4.126252505010020E7    -3.315936737095876E1    -9.542281476241611E1    -6.001647660893527E-1    1.006198197463814E2    -6.524366433098741E-1    1.006768901302824E2    -4.140464283904917E1    -1.654855001567254E2
 4.132264529058116E7    -3.350930730592037E1    -9.217104156383111E1    -6.094608964470740E-1    1.002828156967247E2    -6.619239284406571E-1    1.002930973398154E2    -4.143089570382238E1    -1.727861183300774E2
 4.138276553106213E7    -3.363468980630971E1    -9.319490671720094E1    -5.952188189048053E-1    9.992280325114443E1    -6.497111034520681E-1    9.992126075766736E1    -4.097930448685037E1    -1.567790775072344E2
 4.144288577154309E7    -3.377698402708856E1    -9.747982945341190E1    -5.977450743673722E-1    9.952552206978845E1    -6.581856882801942E-1    9.955424523863746E1    -4.114535967618848E1    -1.650885864538772E2
 4.150300601202405E7    -3.360671012761075E1    -9.621938455219181E1    -5.998817124803073E-1    9.917836765809250E1    -6.582733495618252E-1    9.917113232499062E1    -3.926868515161949E1    -1.718140837865172E2
 4.156312625250501E7    -3.274216144861862E1    -9.974845049214804E1    -6.065514643457227E-1    9.876109508076834E1    -6.610533164367383E-1    9.877123271828273E1    -4.014639305942936E1    -1.735940349314508E2
 4.162324649298597E7    -3.356811959044723E1    -9.739681435015666E1    -6.126801510130928E-1    9.836459096730518E1    -6.643185836292269E-1    9.837485217703255E1    -4.072914274168245E1    -1.724409559368316E2
 4.168336673346693E7    -3.343962454012466E1    -1.003384665238120E2    -6.037065552942272E-1    9.806383246265534E1    -6.629410903162364E-1    9.797916514858683E1    -3.952734790456874E1    -1.725423424277582E2
 4.174348697394790E7    -3.324027296690844E1    -1.015825841177750E2    -6.113860438819325E-1    9.774306746262735E1    -6.558510532556244E-1    9.770125244272344E1    -4.064185641578929E1    -1.692220354161351E2
 4.180360721442886E7    -3.277860449458735E1    -1.024510344715534E2    -6.065500060612554E-1    9.736380898258139E1    -6.594486719323783E-1    9.727648303256467E1    -3.844380831431911E1    -1.704115938108219E2
 4.186372745490982E7    -3.296015981672021E1    -1.016468298287916E2    -6.075664557698299E-1    9.691762644232520E1    -6.602144349808747E-1    9.689584236313263E1    -3.849104254338644E1    -1.704060516037283E2
 4.192384769539078E7    -3.289166067268435E1    -1.013991345306481E2    -6.091494560703227E-1    9.651129261967128E1    -6.713505248403960E-1    9.656872228440929E1    -4.065461663347534E1    -1.797647926711642E2
 4.198396793587174E7    -3.312781676353532E1    -1.039077472378563E2    -6.113991827182548E-1    9.618294701634517E1    -6.737059207043892E-1    9.620049420843789E1    -3.912476547682756E1     1.783547953973905E2
 4.204408817635270E7    -3.273106261229297E1    -1.026370838931054E2    -6.182751871793711E-1    9.579440325759397E1    -6.584909392549501E-1    9.573708360435012E1    -3.839978856635128E1    -1.750958735744958E2
 4.210420841683367E7    -3.259466358061158E1    -1.030129015065989E2    -6.169449808327575E-1    9.529941977316896E1    -6.639188832551878E-1    9.540134307518861E1    -3.993650584962671E1     1.671249943073292E2
 4.216432865731463E7    -3.258358908614309E1    -1.059539840404937E2    -6.172210380593981E-1    9.500599004764463E1    -6.568565814733249E-1    9.500711984818014E1    -3.947738243968134E1    -1.798669558006738E2
 4.222444889779559E7    -3.261740631928330E1    -1.077998517766854E2    -6.181339648307620E-1    9.465246657278622E1    -6.654008167177418E-1    9.470377513232920E1    -4.086654397298919E1    -1.790140905345895E2
 4.228456913827656E7    -3.212647632560861E1    -1.093612382944558E2    -6.167683826604399E-1    9.435401681780975E1    -6.609241922331822E-1    9.429321094874516E1    -3.934792444549114E1    -1.706721989787135E2
 4.234468937875751E7    -3.254363853544797E1    -1.045512339431106E2    -6.201996669685223E-1    9.391578712225805E1    -6.777276137728663E-1    9.395898519934201E1    -4.119988670209494E1     1.745940712930560E2
 4.240480961923848E7    -3.268989170957111E1    -1.057038557703633E2    -6.218118065366075E-1    9.351494253081683E1    -6.614738230123697E-1    9.354092231799768E1    -3.927993357291454E1    -1.736543036051832E2
 4.246492985971944E7    -3.266558212256286E1    -1.032106673336998E2    -6.178576775089743E-1    9.312239004089626E1    -6.697211093429933E-1    9.311704698809952E1    -3.931931025307313E1    -1.760388511880444E2
 4.252505010020040E7    -3.284212292210929E1    -1.097634134957185E2    -6.206376257130724E-1    9.278661280060626E1    -6.751719515229766E-1    9.279591576374983E1    -3.958025546811005E1     1.745126753746327E2
 4.258517034068136E7    -3.237236018293938E1    -1.105166559629175E2    -6.298176334372427E-1    9.241753668825379E1    -6.664048432362636E-1    9.236444581487666E1    -3.844425373479440E1     1.761013317655087E2
 4.264529058116233E7    -3.233652478273236E1    -1.068492175962581E2    -6.183999236500269E-1    9.198493071658352E1    -6.759040750478212E-1    9.208558093839737E1    -3.811705829599481E1     1.794810760277961E2
 4.270541082164329E7    -3.256137418566424E1    -1.122697574019147E2    -6.186935578558105E-1    9.170780386946176E1    -6.663559069030923E-1    9.168503224495370E1    -3.930722466977129E1     1.767261927164942E2
 4.276553106212425E7    -3.229259711084544E1    -1.116139110121737E2    -6.161652476920571E-1    9.124966309862786E1    -6.742996494419415E-1    9.127178769060775E1    -3.872838590563477E1     1.712876147302585E2
 4.282565130260521E7    -3.233929866749078E1    -1.114825449474864E2    -6.195630473254103E-1    9.093844787248511E1    -6.785044390380064E-1    9.083685148200483E1    -4.015182920876497E1     1.704579709547741E2
 4.288577154308617E7    -3.266584628380052E1    -1.134606032909022E2    -6.215127124999454E-1    9.050375298192436E1    -6.715489890266196E-1    9.053498118632672E1    -3.892955610626292E1     1.777057959887389E2
 4.294589178356713E7    -3.257246020930349E1    -1.156885219424077E2    -6.175023056984248E-1    9.015488805383646E1    -6.693834010986605E-1    9.017504304140370E1    -3.928092512430187E1     1.781375331069288E2
 4.300601202404810E7    -3.228601733756105E1    -1.162075684445656E2    -6.224139628224269E-1    8.979153811546537E1    -6.718196611373241E-1    8.982758503221155E1    -3.914034131809972E1     1.700062701789678E2
 4.306613226452906E7    -3.245488170766612E1    -1.126166637217954E2    -6.336147652277634E-1    8.939937592486118E1    -6.773378862147393E-1    8.945128840052152E1    -3.902213468134889E1     1.650908771424758E2
 4.312625250501002E7    -3.260504911376476E1    -1.136839389509366E2    -6.202930278586395E-1    8.905763970025174E1    -6.753839514646580E-1    8.905290916628945E1    -3.890594477513431E1     1.707206742809066E2
 4.318637274549098E7    -3.213918935523812E1    -1.159254364410760E2    -6.263803660211421E-1    8.864392018746511E1    -6.757818251291365E-1    8.872596970472814E1    -3.713166231943179E1     1.693008092802532E2
 4.324649298597194E7    -3.190463156323007E1    -1.195276695865301E2    -6.269922999503469E-1    8.832354252657456E1    -6.821200697707293E-1    8.823294718475201E1    -3.750970360140219E1     1.633313919336868E2
 4.330661322645290E7    -3.200247492795282E1    -1.176592381179945E2    -6.299193177853134E-1    8.791858577239515E1    -6.779742152042545E-1    8.792591328747638E1    -3.849842506231185E1     1.669601982465423E2
 4.336673346693387E7    -3.222944994401104E1    -1.151641857818309E2    -6.304668834795004E-1    8.750655479843773E1    -6.744254243370205E-1    8.757279448619194E1    -3.692622292643972E1     1.638842525093873E2
 4.342685370741483E7    -3.200338143156736E1    -1.203685134919407E2    -6.342458168746739E-1    8.717971702422301E1    -6.754454078311880E-1    8.720817053808894E1    -3.816739213958461E1     1.663622289438963E2
 4.348697394789580E7    -3.162199749141700E1    -1.177056791983903E2    -6.335319719739035E-1    8.674426053847216E1    -6.767960297454998E-1    8.679301608079804E1    -3.795593855806592E1     1.698967477812087E2
 4.354709418837676E7    -3.186805986756984E1    -1.187366805883039E2    -6.229835552568802E-1    8.645893068245059E1    -6.764569722185719E-1    8.643930886694692E1    -3.834013595356797E1     1.641719645819005E2
 4.360721442885771E7    -3.186330234026764E1    -1.197856902886679E2    -6.286650867512806E-1    8.602098866995750E1    -6.736146841811670E-1    8.607412640168735E1    -3.735953026251615E1     1.605449624690776E2
 4.366733466933868E7    -3.195985516808296E1    -1.218386397416383E2    -6.362967548481103E-1    8.567613831269838E1    -6.698547809113732E-1    8.565572987043784E1    -3.782313531677227E1     1.658795760423619E2
 4.372745490981964E7    -3.145439550301924E1    -1.195225435048695E2    -6.324366054789370E-1    8.526639507992522E1    -6.836001365607483E-1    8.527470421035496E1    -3.693025541543756E1     1.570863258992797E2
 4.378757515030060E7    -3.176489638907028E1    -1.221284170791369E2    -6.279090918615916E-1    8.490400274725700E1    -6.810867564196083E-1    8.491649260470310E1    -3.666341162938427E1     1.629246463046650E2
 4.384769539078157E7    -3.143795376806207E1    -1.211136088396116E2    -6.357191877477932E-1    8.457086967966130E1    -6.796132432583508E-1    8.451110414974576E1    -3.747311595925446E1     1.620532462315959E2
 4.390781563126253E7    -3.171268525855887E1    -1.214752059222172E2    -6.411714571215685E-1    8.413329056764607E1    -6.855546449777378E-1    8.415387490582181E1    -3.726744640622412E1     1.648084928510948E2
 4.396793587174349E7    -3.171832576263832E1    -1.270895740802175E2    -6.338967254130002E-1    8.377481323014420E1    -6.835842719816486E-1    8.380251749990153E1    -3.685678457080550E1     1.630461450554015E2
 4.402805611222445E7    -3.156958232456557E1    -1.187206816622879E2    -6.260636574025393E-1    8.330222175149370E1    -6.823049705506237E-1    8.335883135408351E1    -3.792384244464891E1     1.676410475010551E2
 4.408817635270541E7    -3.134469198211241E1    -1.242190374265831E2    -6.310460839063543E-1    8.300486705006962E1    -6.822181270590099E-1    8.312381204934417E1    -3.741678406318856E1     1.595865129928755E2
 4.414829659318637E7    -3.219688189542377E1    -1.227338976042339E2    -6.360350868078397E-1    8.264098676201370E1    -6.833197792897217E-1    8.261341953086736E1    -3.710553188050407E1     1.556994551271971E2
 4.420841683366734E7    -3.172200278601587E1    -1.303129985978322E2    -6.341958785066671E-1    8.223793305201461E1    -6.899449207926344E-1    8.233703736719917E1    -3.692133318664209E1     1.564783782764393E2
 4.426853707414830E7    -3.134560161335117E1    -1.284418374941060E2    -6.380793672976738E-1    8.194257959085248E1    -6.894107909744276E-1    8.198829368375566E1    -3.790393958750516E1     1.561094780467488E2
 4.432865731462926E7    -3.132611061567685E1    -1.255199788093186E2    -6.503790889478855E-1    8.150195588683540E1    -6.799802259866161E-1    8.153752837413413E1    -3.736601792324466E1     1.546613068752825E2
 4.438877755511022E7    -3.159160495036332E1    -1.268240193436745E2    -6.328452254721155E-1    8.111448979078136E1    -6.893031983381153E-1    8.115595466929038E1    -3.626201475850773E1     1.552199171140950E2
 4.444889779559118E7    -3.177743278481540E1    -1.261013241757594E2    -6.406449309612893E-1    8.082251301865237E1    -6.865155653519035E-1    8.077406439388282E1    -3.572322651655871E1     1.612951043954873E2
 4.450901803607214E7    -3.156218988508462E1    -1.300841440466419E2    -6.414021187261605E-1    8.037014066639979E1    -6.951098894755025E-1    8.049015100958060E1    -3.622386992652297E1     1.543418392402856E2
 4.456913827655311E7    -3.126171542765071E1    -1.312097319497910E2    -6.390842803598545E-1    8.006957274433734E1    -6.791499239035875E-1    8.005944701170331E1    -3.628104732459413E1     1.579132409037954E2
 4.462925851703407E7    -3.103829969004616E1    -1.282838760327227E2    -6.409203063527609E-1    7.958844659036585E1    -6.872193812680134E-1    7.964248157505422E1    -3.597091250921432E1     1.550997083621880E2
 4.468937875751503E7    -3.160635403220882E1    -1.324694064566224E2    -6.395873418909813E-1    7.926453864261623E1    -6.823023365462766E-1    7.934144381576299E1    -3.653156858708489E1     1.520910428070345E2
 4.474949899799600E7    -3.109240215744010E1    -1.310894222014310E2    -6.439821462029983E-1    7.887264540676830E1    -6.791115876283809E-1    7.897641864764837E1    -3.506865804555277E1     1.539434075876352E2
 4.480961923847695E7    -3.128646200952952E1    -1.310405828169051E2    -6.459701121822946E-1    7.855723309879646E1    -6.865434376198704E-1    7.857453685506124E1    -3.603482411391559E1     1.509017998799187E2
 4.486973947895791E7    -3.098317660776305E1    -1.320193477539705E2    -6.462331526875832E-1    7.818123876696154E1    -6.928197366530462E-1    7.827530852639428E1    -3.558162826078097E1     1.455476189162843E2
 4.492985971943888E7    -3.130222647888751E1    -1.310013499794843E2    -6.442387593869031E-1    7.779227032648146E1    -6.877446064870809E-1    7.789629207025966E1    -3.672262967213174E1     1.472524833033259E2
 4.498997995991984E7    -3.113174217179252E1    -1.319847152991517E2    -6.438460991353318E-1    7.737579633129013E1    -6.976375871791886E-1    7.750905204928432E1    -3.507622208024947E1     1.478263083747877E2
 4.505010020040080E7    -3.084019945909729E1    -1.349298313618427E2    -6.482777782491934E-1    7.696528776219641E1    -6.847142890754971E-1    7.711270781165038E1    -3.564946433828997E1     1.499826630455108E2
 4.511022044088177E7    -3.136331354602120E1    -1.338449454027019E2    -6.491057610322506E-1    7.662582059839110E1    -6.898041226677043E-1    7.674480985891994E1    -3.629427484259264E1     1.493121269106946E2
 4.517034068136273E7    -3.107142075516757E1    -1.359692849441770E2    -6.438374430952670E-1    7.623259915362067E1    -6.823720077946377E-1    7.635768436818356E1    -3.566918267226004E1     1.485219759010916E2
 4.523046092184369E7    -3.098752551544494E1    -1.353971046669677E2    -6.492409113971898E-1    7.586969511974029E1    -6.774683442469749E-1    7.599786679811014E1    -3.600130554369742E1     1.418033686306295E2
 4.529058116232465E7    -3.081410732950214E1    -1.334779609669766E2    -6.441271084887184E-1    7.548494929077906E1    -6.887184457234865E-1    7.556902707185272E1    -3.559465188736022E1     1.482421997078626E2
 4.535070140280561E7    -3.122709242508134E1    -1.347528956511192E2    -6.490922349425971E-1    7.515372858264136E1    -6.936649114093046E-1    7.522001437864773E1    -3.483535087369765E1     1.460698842196747E2
 4.541082164328657E7    -3.090094447843848E1    -1.331893595813299E2    -6.503607055231213E-1    7.469430880685431E1    -6.923781495226911E-1    7.483605369416766E1    -3.521221381661852E1     1.412835463835781E2
 4.547094188376754E7    -3.081053251416132E1    -1.362428776799304E2    -6.507002327074239E-1    7.436929281932878E1    -6.931909645840670E-1    7.445410316891362E1    -3.508941554712357E1     1.409246892394125E2
