#  HZ   S   DB   R     50.00 
! Rohde & Schwarz Vector Network Analyzer 
! Rohde-Schwarz,ZNB8-4Port,1311601044102961,2.82
! Created: UTC 1/14/2019, 9:27:03 AM
! freq[Hz]                db:S11                  ang:S11                 db:S21                  ang:S21                 db:S12                  ang:S12                 db:S22                  ang:S22
 4.000000000000000E7    -3.345917536653074E1    -4.959038675300762E1    -5.655365417717283E-1    1.095174716349278E2    -6.386173082198372E-1    1.094974026568565E2    -4.864677143437142E1     4.659746136198150E1
 4.006012024048096E7    -3.342562406998891E1    -5.114401338324554E1    -5.729198824431657E-1    1.091500287147007E2    -6.270810802363578E-1    1.092203389867844E2    -4.939629498684080E1     1.321562542469003E1
 4.012024048096193E7    -3.360605754219592E1    -5.239038485004679E1    -5.699891576107099E-1    1.087517555464043E2    -6.421787585591019E-1    1.088552730774193E2    -4.575401826927424E1     4.506874070661341E1
 4.018036072144289E7    -3.357574618386299E1    -5.011830839010301E1    -5.808945571252220E-1    1.083532200264503E2    -6.384268570243810E-1    1.084445357288455E2    -5.064513017229654E1     6.203639210856688
 4.024048096192385E7    -3.394734537258889E1    -5.377635670733089E1    -5.742655848266384E-1    1.079829706057970E2    -6.437258981679604E-1    1.080778179157512E2    -4.755985546868048E1     4.658130354382927E1
 4.030060120240481E7    -3.272539646790420E1    -5.565029549715215E1    -5.830398300911808E-1    1.077010384222929E2    -6.310955074475784E-1    1.076964742582476E2    -4.856544019018514E1     4.475752917779369E1
 4.036072144288577E7    -3.321586361810131E1    -5.737062344263980E1    -5.757526935127101E-1    1.072565530445643E2    -6.306156471816768E-1    1.072589552196687E2    -5.334962480892877E1     5.549635662033670E1
 4.042084168336673E7    -3.342217766391274E1    -5.494085502694403E1    -5.860095564449268E-1    1.068887538829896E2    -6.389498785627727E-1    1.069329191331030E2    -5.029616523612464E1     4.478572453910498E1
 4.048096192384770E7    -3.320714358796973E1    -5.269629414335189E1    -5.773745405685034E-1    1.064854495943252E2    -6.427965389133211E-1    1.065692866875379E2    -5.844647160220948E1     1.127213792254609E2
 4.054108216432866E7    -3.261953641307719E1    -5.921481952389694E1    -5.850880293141647E-1    1.060955307629046E2    -6.430645053779049E-1    1.061225364546136E2    -4.843645052033841E1     4.604509223111587E1
 4.060120240480962E7    -3.343014828037605E1    -5.565680140829100E1    -5.921251604038358E-1    1.057574335820537E2    -6.413917047821323E-1    1.057836798627789E2    -5.216299940247323E1     4.519921170588840E1
 4.066132264529058E7    -3.329720635270711E1    -6.253540245086812E1    -5.973808362975651E-1    1.053491688752128E2    -6.479061617687045E-1    1.054640552378734E2    -5.117622937336918E1     2.980705777175065E1
 4.072144288577154E7    -3.310691783064480E1    -6.037377999522293E1    -5.835913946136304E-1    1.050029654918016E2    -6.435898158376191E-1    1.050821497519510E2    -4.907591340963145E1     7.468607533442014E1
 4.078156312625250E7    -3.300129312412681E1    -6.120604658987951E1    -5.846306248857884E-1    1.046245869010912E2    -6.347263505892120E-1    1.047014893822083E2    -5.629750340792519E1    -1.614154819110100E1
 4.084168336673347E7    -3.333401642787624E1    -6.238624833852171E1    -5.880451494781263E-1    1.042544603547606E2    -6.428018539378690E-1    1.043414975519862E2    -4.923980387232437E1     7.406329290494024E1
 4.090180360721443E7    -3.276121408373079E1    -6.157498668745649E1    -5.880645415888937E-1    1.038602752334782E2    -6.415960965527433E-1    1.039410230337356E2    -5.247127282061501E1     3.239499804538326E1
 4.096192384769539E7    -3.250852768693876E1    -5.945940740998949E1    -5.761687139353893E-1    1.034943045497411E2    -6.416692356412994E-1    1.035343308374276E2    -5.337682984605551E1     3.409454328474360E1
 4.102204408817636E7    -3.317435877008492E1    -6.422494232905605E1    -5.939552308465456E-1    1.031419251277726E2    -6.377794544391823E-1    1.031285035616619E2    -5.256616009150373E1     9.469506295482218E1
 4.108216432865731E7    -3.306198335597676E1    -6.158421923080314E1    -5.784830300965338E-1    1.027648900232933E2    -6.400640996100526E-1    1.027899095914362E2    -5.584766719032507E1     9.463150733886353E1
 4.114228456913827E7    -3.272849038798712E1    -6.804928234320818E1    -5.917951310531471E-1    1.024882047187770E2    -6.501116859378160E-1    1.024876204526728E2    -5.001231538028601E1     8.120356273900346E1
 4.120240480961924E7    -3.297635911759267E1    -6.340433168243942E1    -5.941321503003112E-1    1.019919773613413E2    -6.522126006052218E-1    1.020786621760197E2    -4.767644328047208E1     8.982133278391378E1
 4.126252505010020E7    -3.279854102188848E1    -6.787315567661440E1    -5.867175781409292E-1    1.015904760676256E2    -6.450777097039533E-1    1.016813308813604E2    -5.072706027881964E1     7.289082160170975E1
 4.132264529058116E7    -3.285077779259358E1    -6.430453600550085E1    -5.962729221694458E-1    1.012548934306933E2    -6.544503250647283E-1    1.012999300466617E2    -4.825996519555180E1     7.950071393924131E1
 4.138276553106213E7    -3.298383705237222E1    -6.485727832311677E1    -5.819275334484487E-1    1.008945739084795E2    -6.422498778594463E-1    1.009296861099766E2    -5.567256412474454E1     5.306372370747192E1
 4.144288577154309E7    -3.334799217982975E1    -6.817727000710755E1    -5.842003586126894E-1    1.005001020783258E2    -6.503197018561763E-1    1.005644731211870E2    -5.157944939130260E1     7.379888232102891E1
 4.150300601202405E7    -3.308254589897169E1    -6.765671700091016E1    -5.860374724277055E-1    1.001535273579021E2    -6.504760810007960E-1    1.001814398634014E2    -4.910272651660981E1     1.160793334791778E2
 4.156312625250501E7    -3.253270619028922E1    -7.319391874729919E1    -5.928043987390217E-1    9.973772266795660E1    -6.533957257954782E-1    9.978130876998449E1    -4.881604338904531E1     9.844367569386380E1
 4.162324649298597E7    -3.305794743367303E1    -6.892903936475162E1    -5.990177582797017E-1    9.934309250134071E1    -6.565981603446153E-1    9.938775937497097E1    -4.930244329572788E1     8.735980448093198E1
 4.168336673346693E7    -3.310751544099266E1    -7.190348134491873E1    -5.902030976024121E-1    9.904220813141919E1    -6.548472245137491E-1    9.899293644931900E1    -4.939011522761072E1     1.101895825917458E2
 4.174348697394790E7    -3.297801538239600E1    -7.362817659131254E1    -5.977155057534025E-1    9.872450600776223E1    -6.480540664563429E-1    9.871826593324084E1    -5.100411757093805E1     8.502700945170197E1
 4.180360721442886E7    -3.260122351907035E1    -7.576589319132695E1    -5.927830402243752E-1    9.834730901656160E1    -6.515874838902412E-1    9.829303506189910E1    -4.923817964969719E1     1.347925355476959E2
 4.186372745490982E7    -3.266743410070280E1    -7.465986057948115E1    -5.941086484774855E-1    9.790147554023996E1    -6.522628264223378E-1    9.791540701263642E1    -4.947608871841344E1     1.337600375504065E2
 4.192384769539078E7    -3.256156942177724E1    -7.474442473493973E1    -5.958084804226057E-1    9.749813103207274E1    -6.638671032972916E-1    9.758686338623377E1    -4.720767014670288E1     8.836472599764056E1
 4.198396793587174E7    -3.288800523454118E1    -7.632280229790945E1    -5.979442361348579E-1    9.716926485050091E1    -6.659715442343914E-1    9.721945228721403E1    -4.612210657191298E1     1.096350280830524E2
 4.204408817635270E7    -3.241836279050298E1    -7.639447190713867E1    -6.046562116423963E-1    9.678271696100852E1    -6.506540660442227E-1    9.676010691186806E1    -4.777075403845026E1     1.276602780735480E2
 4.210420841683367E7    -3.228842134410576E1    -7.715224449448810E1    -6.030571794536617E-1    9.628945456313667E1    -6.561495347714894E-1    9.642224658244081E1    -4.375238498691219E1     9.360236059990778E1
 4.216432865731463E7    -3.242367482794736E1    -7.991670856093636E1    -6.034103365856248E-1    9.599885015746600E1    -6.493433457684673E-1    9.603184942461758E1    -4.728011752059732E1     1.050578486819730E2
 4.222444889779559E7    -3.253308531254218E1    -8.148621166379644E1    -6.042901636330645E-1    9.564577588172902E1    -6.574821710892010E-1    9.573072233309151E1    -4.781486005495067E1     8.326390600643573E1
 4.228456913827656E7    -3.214917413553114E1    -8.429329484535660E1    -6.027498059216331E-1    9.534950855130792E1    -6.526842004104374E-1    9.532147102278212E1    -5.179182744786780E1     1.131309806681472E2
 4.234468937875751E7    -3.220276288272916E1    -7.894577555031121E1    -6.062894590423376E-1    9.491300020605706E1    -6.695676827052021E-1    9.498675268776898E1    -4.602623881045898E1     7.939578939622139E1
 4.240480961923848E7    -3.236433509149657E1    -7.962994654747945E1    -6.078121715697233E-1    9.451381617184195E1    -6.531884028257555E-1    9.457232192128005E1    -5.033692803593787E1     1.125081450564923E2
 4.246492985971944E7    -3.215970362291557E1    -7.761982008188804E1    -6.040938229030535E-1    9.412132280731890E1    -6.614617382304839E-1    9.415046610222566E1    -4.937591357543389E1     1.095800284815358E2
 4.252505010020040E7    -3.268230447543449E1    -8.297072197393086E1    -6.065606413528561E-1    9.378578260937070E1    -6.669087209597797E-1    9.382960437013765E1    -4.604254080948717E1     9.909778345079380E1
 4.258517034068136E7    -3.227128047838495E1    -8.501653913083622E1    -6.153919817407778E-1    9.341915714984729E1    -6.579534157954046E-1    9.340065995793410E1    -4.576259199161724E1     1.160176510473113E2
 4.264529058116233E7    -3.198205233378342E1    -8.184984201112997E1    -6.043940084532402E-1    9.298698434563045E1    -6.677267160766642E-1    9.312269003004097E1    -4.646094924684015E1     1.245835229281082E2
 4.270541082164329E7    -3.248405919198815E1    -8.614402454310256E1    -6.042976062156104E-1    9.271150447621886E1    -6.584920272973200E-1    9.272430083126137E1    -4.691623909396296E1     1.036794909556305E2
 4.276553106212425E7    -3.216905868519958E1    -8.636688410317395E1    -6.020952300662467E-1    9.225553631613100E1    -6.660980917877339E-1    9.230964491920845E1    -4.487048332080712E1     1.075212535227168E2
 4.282565130260521E7    -3.216552771556695E1    -8.618629137882650E1    -6.054561973671170E-1    9.194533428608949E1    -6.708790815725332E-1    9.187541504546682E1    -4.551972814256617E1     8.908946055314914E1
 4.288577154308617E7    -3.254571247396655E1    -8.711452811513827E1    -6.070998976700650E-1    9.151066871448472E1    -6.637603430399184E-1    9.157545516615757E1    -4.728574771943234E1     1.099177717168819E2
 4.294589178356713E7    -3.256214998161774E1    -8.943678812261484E1    -6.030322407276043E-1    9.116337951324603E1    -6.619295172374605E-1    9.121743538777653E1    -4.788712568038797E1     1.048291992416735E2
 4.300601202404810E7    -3.229676323076526E1    -9.075761333548346E1    -6.080981299821047E-1    9.080185876295795E1    -6.640950022364384E-1    9.087025308036137E1    -4.510906189889813E1     1.010827359935920E2
 4.306613226452906E7    -3.219162526254071E1    -8.717386725483566E1    -6.193780139134668E-1    9.041218314215780E1    -6.695394034737329E-1    9.049696240964110E1    -4.384038047423981E1     9.873220325651312E1
 4.312625250501002E7    -3.235982453049112E1    -8.774582834871970E1    -6.060549906609105E-1    9.007214676882398E1    -6.676173996089206E-1    9.009969611742420E1    -4.537155941401998E1     1.039861532804143E2
 4.318637274549098E7    -3.203824674991782E1    -9.105370295955700E1    -6.119596222846940E-1    8.966019070745350E1    -6.679272855093827E-1    8.977464398088091E1    -4.306941034927080E1     1.227352516119562E2
 4.324649298597194E7    -3.201395210091964E1    -9.500820930853861E1    -6.122125780315749E-1    8.934045630973853E1    -6.744166824755050E-1    8.928059039543389E1    -4.233910589722596E1     1.120908458790286E2
 4.330661322645290E7    -3.195307102523436E1    -9.310265268070792E1    -6.150259816261554E-1    8.893644530343882E1    -6.701770095150338E-1    8.897751364288538E1    -4.421762747840425E1     1.055308469678247E2
 4.336673346693387E7    -3.197472664567904E1    -9.031371061877238E1    -6.159810392416558E-1    8.852431645459946E1    -6.664722181580879E-1    8.862393854385310E1    -4.188358899333376E1     1.179927523085161E2
 4.342685370741483E7    -3.205201603794174E1    -9.564976313228434E1    -6.196465202690716E-1    8.819997920444183E1    -6.676565770262792E-1    8.826216485593629E1    -4.389902893763426E1     1.087810323716443E2
 4.348697394789580E7    -3.150476698169365E1    -9.424161585019004E1    -6.190859440987646E-1    8.776775872366440E1    -6.687355386185503E-1    8.784972349590615E1    -4.469366837988239E1     1.147794859964728E2
 4.354709418837676E7    -3.175083733693043E1    -9.463078002207382E1    -6.082754630957457E-1    8.748150687963167E1    -6.688234968659251E-1    8.749572098390503E1    -4.367022745079653E1     1.045784689525646E2
 4.360721442885771E7    -3.177789305667618E1    -9.563555774956829E1    -6.140125938623933E-1    8.704584357089028E1    -6.654501482027487E-1    8.713352459479441E1    -4.197827048094577E1     1.104090820839430E2
 4.366733466933868E7    -3.195769771221125E1    -9.732767257684812E1    -6.212587787544842E-1    8.670123943544550E1    -6.617710358784158E-1    8.671494619220226E1    -4.371562499155536E1     1.119067949610315E2
 4.372745490981964E7    -3.132893030013681E1    -9.651145753933207E1    -6.175228931648751E-1    8.629340528943867E1    -6.757805676582719E-1    8.633542845840367E1    -4.096653656666925E1     1.103218927377860E2
 4.378757515030060E7    -3.172593304105834E1    -9.820861130607543E1    -6.130146215738056E-1    8.593205440486454E1    -6.728611814737562E-1    8.598060657916312E1    -4.177271515934187E1     1.193796554109712E2
 4.384769539078157E7    -3.133207633171869E1    -9.811905535585521E1    -6.209405320956406E-1    8.560127488962189E1    -6.712679867369504E-1    8.557652410401940E1    -4.264303269942510E1     1.110848003893904E2
 4.390781563126253E7    -3.157241955186531E1    -9.784007269621712E1    -6.265122883042142E-1    8.516444465765750E1    -6.776987523949622E-1    8.522024634760192E1    -4.308299681895012E1     1.165230521265208E2
 4.396793587174349E7    -3.186609461995739E1    -1.030284651416081E2    -6.191063258798012E-1    8.480658769549505E1    -6.753940772648405E-1    8.487124275409765E1    -4.223231197394021E1     1.181167859162728E2
 4.402805611222445E7    -3.122505486155535E1    -9.577317332568265E1    -6.114502040766506E-1    8.433747803001370E1    -6.740241854154537E-1    8.442893000735273E1    -4.476598833512181E1     1.129465249354760E2
 4.408817635270541E7    -3.128360717708114E1    -1.014133904830649E2    -6.159693329764683E-1    8.404021686219286E1    -6.742983187747518E-1    8.419519026139122E1    -4.232293890783894E1     1.089668444332504E2
 4.414829659318637E7    -3.194932425774226E1    -9.797954023692543E1    -6.212971180883274E-1    8.367623979842574E1    -6.751991227003250E-1    8.368463819603987E1    -4.127388507750795E1     1.075532670414153E2
 4.420841683366734E7    -3.193632744843867E1    -1.061505639546192E2    -6.190408353392455E-1    8.327489944521031E1    -6.817219738674779E-1    8.340875944567448E1    -4.129653789941712E1     1.098861644191208E2
 4.426853707414830E7    -3.142754468430066E1    -1.054020616691630E2    -6.230469220811927E-1    8.298236260895726E1    -6.812838705328252E-1    8.306229333663043E1    -4.227168948691865E1     1.010777216358458E2
 4.432865731462926E7    -3.121939189805145E1    -1.027668072414171E2    -6.354635200081543E-1    8.254386853105513E1    -6.715951232237082E-1    8.261271560550901E1    -4.153757244032541E1     1.044181968232843E2
 4.438877755511022E7    -3.149949057102115E1    -1.034138155617610E2    -6.177359868544428E-1    8.215686588221105E1    -6.807329941030711E-1    8.223412864217531E1    -4.047116545769450E1     1.135781424176247E2
 4.444889779559118E7    -3.160131113225536E1    -1.023099285915640E2    -6.259266932867841E-1    8.186560018418506E1    -6.777788966284775E-1    8.185408542223131E1    -4.083447858538595E1     1.256717882719048E2
 4.450901803607214E7    -3.159242050909905E1    -1.065423967961992E2    -6.262695454573872E-1    8.141440894577779E1    -6.862093997204768E-1    8.156946439691730E1    -4.037385186359007E1     1.129426631072578E2
 4.456913827655311E7    -3.134829789874348E1    -1.084056368324868E2    -6.241614769022885E-1    8.111551943789624E1    -6.705084950378893E-1    8.114172736939513E1    -4.112163734644300E1     1.172239000721539E2
 4.462925851703407E7    -3.095084437528989E1    -1.062240681692657E2    -6.259013428590160E-1    8.063836293484927E1    -6.784545346731576E-1    8.072631271649878E1    -4.029923838297428E1     1.160937305334991E2
 4.468937875751503E7    -3.167214936525413E1    -1.088137555014954E2    -6.244534910665718E-1    8.031287465789774E1    -6.740031669149396E-1    8.042588900428817E1    -4.053010638029767E1     1.085028352248479E2
 4.474949899799600E7    -3.108397726621568E1    -1.087719576972983E2    -6.287057041882103E-1    7.992305619731862E1    -6.699561396569648E-1    8.006344856667374E1    -3.904683707517899E1     1.205311024306636E2
 4.480961923847695E7    -3.123129570244844E1    -1.083076568127478E2    -6.310557187385948E-1    7.961067381959546E1    -6.779694739274735E-1    7.966251231391323E1    -3.984417555698340E1     1.108271661431348E2
 4.486973947895791E7    -3.096727344716644E1    -1.100231139221083E2    -6.305983146736983E-1    7.923489854916051E1    -6.839663896199200E-1    7.936351410774293E1    -3.860977059426653E1     1.075174850452902E2
 4.492985971943888E7    -3.117549256607190E1    -1.083775127578764E2    -6.291262046076308E-1    7.884643911636093E1    -6.793545214351154E-1    7.898724082693381E1    -4.011320116256539E1     1.019791077413028E2
 4.498997995991984E7    -3.104717869620158E1    -1.097356501677463E2    -6.286273354008786E-1    7.843134725127679E1    -6.889961914966416E-1    7.860022937511836E1    -3.841609502007711E1     1.133139557529430E2
 4.505010020040080E7    -3.090386144248852E1    -1.131850921468949E2    -6.333230636735977E-1    7.802370251896217E1    -6.760951712489172E-1    7.820672921172010E1    -3.945314144937382E1     1.126091788131886E2
 4.511022044088177E7    -3.129967246337457E1    -1.109672139784701E2    -6.341247510579624E-1    7.768660967639836E1    -6.813520760265625E-1    7.783902956108894E1    -4.012460193700232E1     1.073617466261110E2
 4.517034068136273E7    -3.111116109657579E1    -1.136485668934711E2    -6.284478513152989E-1    7.729218378374745E1    -6.740447622853198E-1    7.745463906886332E1    -3.933766994242827E1     1.108172771390274E2
 4.523046092184369E7    -3.097717827016938E1    -1.133831045418212E2    -6.338919776332115E-1    7.693030552712797E1    -6.689644708746233E-1    7.709741641527776E1    -3.879893546160211E1     1.013682369352439E2
 4.529058116232465E7    -3.068170239552522E1    -1.120475733449216E2    -6.289719180560137E-1    7.654852494766318E1    -6.803375403439298E-1    7.666856918618710E1    -3.930329289650840E1     1.112126092385201E2
 4.535070140280561E7    -3.109675996016823E1    -1.122761605828180E2    -6.338870248785335E-1    7.621829174628316E1    -6.850962053608707E-1    7.631889388126784E1    -3.811421670929857E1     1.129250408116025E2
 4.541082164328657E7    -3.068754336414602E1    -1.116511349468419E2    -6.353967090717085E-1    7.576177903657813E1    -6.836330893629945E-1    7.593548970767746E1    -3.799882188971264E1     1.054676137978706E2
 4.547094188376754E7    -3.073093738876889E1    -1.147228104383376E2    -6.351765478826961E-1    7.543578356448884E1    -6.845325895481359E-1    7.555676586148601E1    -3.785119268841758E1     1.058295652845805E2
