#  HZ   S   DB   R     50.00 
! Rohde & Schwarz Vector Network Analyzer 
! Rohde-Schwarz,ZNB8-4Port,1311601044102961,2.82
! Created: UTC 2/11/2019, 2:27:17 PM
! freq[Hz]                db:S11                  ang:S11
 3.000000000000000E7     1.295041542692983E-2   -1.196007867621809E1
 3.002500000000000E7     1.464361442767246E-2   -1.196762096352251E1
 3.005000000000000E7     1.240181969052598E-2   -1.197984118382895E1
 3.007500000000000E7     1.392844044333164E-2   -1.199479553237377E1
 3.010000000000000E7     1.377143430954555E-2   -1.200800759409855E1
 3.012500000000000E7     1.287983583893312E-2   -1.202276628143231E1
 3.015000000000000E7     1.413126040343437E-2   -1.201697650162429E1
 3.017500000000000E7     1.476163934757709E-2   -1.203953361790825E1
 3.020000000000000E7     1.477990002313454E-2   -1.205588178999103E1
 3.022500000000000E7     1.417073493267964E-2   -1.205138300800273E1
 3.025000000000000E7     1.592103225449069E-2   -1.206670988498448E1
 3.027500000000000E7     1.039695825229445E-2   -1.207802756062747E1
 3.030000000000000E7     1.288333651792974E-2   -1.207959015006098E1
 3.032500000000000E7     1.381182881284807E-2   -1.208978456656547E1
 3.035000000000000E7     1.216679811472997E-2   -1.210541757620539E1
 3.037500000000000E7     1.248376463901798E-2   -1.211172498284265E1
 3.040000000000000E7     1.255039034583701E-2   -1.213944828548473E1
 3.042500000000000E7     1.383641980575404E-2   -1.213656455388629E1
 3.045000000000000E7     1.353873516705142E-2   -1.215342178077846E1
 3.047500000000000E7     1.273262993839603E-2   -1.215148588935254E1
 3.050000000000000E7     1.352831710488017E-2   -1.217632705872138E1
 3.052500000000000E7     1.425508100987975E-2   -1.217025540828843E1
 3.055000000000000E7     1.271463136695844E-2   -1.220070890770351E1
 3.057500000000000E7     1.378843105487869E-2   -1.219875369480297E1
 3.060000000000000E7     1.196937852961731E-2   -1.220286544144332E1
 3.062500000000000E7     1.282995759561899E-2   -1.222907980639365E1
 3.065000000000000E7     1.258691365807608E-2   -1.222027083536451E1
 3.067500000000000E7     1.549147394679720E-2   -1.224674890733319E1
 3.070000000000000E7     1.319238009869772E-2   -1.224697890323201E1
 3.072500000000000E7     1.547310899872874E-2   -1.227020420847520E1
 3.075000000000000E7     1.321115502477765E-2   -1.225621339846440E1
 3.077500000000000E7     1.364045357866257E-2   -1.227788038386601E1
 3.080000000000000E7     1.505176866404137E-2   -1.228777487921038E1
 3.082500000000000E7     1.270331411231400E-2   -1.228875726937260E1
 3.085000000000000E7     1.447066962894266E-2   -1.231073531820263E1
 3.087500000000000E7     1.389182736636219E-2   -1.232425944658125E1
 3.090000000000000E7     1.428673323737085E-2   -1.232158322554377E1
 3.092500000000000E7     1.242416866002987E-2   -1.234172570042587E1
 3.095000000000000E7     1.396488765788143E-2   -1.236913843092978E1
 3.097500000000000E7     1.333547058673417E-2   -1.236179964179821E1
 3.100000000000000E7     1.189944118712524E-2   -1.237043711267989E1
 3.102500000000000E7     1.409596925924843E-2   -1.237744008872756E1
 3.105000000000000E7     1.448045517903548E-2   -1.239295224874065E1
 3.107500000000000E7     1.420122356830340E-2   -1.240118902202094E1
 3.110000000000000E7     1.256875779081775E-2   -1.241135675710146E1
 3.112500000000000E7     1.184891484718608E-2   -1.241108523316046E1
 3.115000000000000E7     1.313000291753408E-2   -1.242178074168017E1
 3.117500000000000E7     1.290063187290564E-2   -1.243942252167597E1
 3.120000000000000E7     1.333998983996684E-2   -1.245225027366475E1
 3.122500000000000E7     1.346283645217398E-2   -1.246578892406852E1
 3.125000000000000E7     1.422730445042297E-2   -1.246590675740675E1
 3.127500000000000E7     1.371967396545520E-2   -1.248086317732807E1
 3.130000000000000E7     1.503963677675508E-2   -1.249574918677140E1
 3.132500000000000E7     1.242727447261271E-2   -1.250205823126142E1
 3.135000000000000E7     1.389276329315269E-2   -1.251008128517060E1
 3.137500000000000E7     1.248233785680386E-2   -1.250285526631158E1
 3.140000000000000E7     1.260535459262548E-2   -1.252088663719380E1
 3.142500000000000E7     1.470438535990341E-2   -1.253819886982393E1
 3.145000000000000E7     1.215751613301520E-2   -1.255108193764904E1
 3.147500000000000E7     1.390284879487006E-2   -1.256079982054887E1
 3.150000000000000E7     1.455970211878215E-2   -1.256953151291448E1
 3.152500000000000E7     1.467868610489864E-2   -1.258257062869870E1
 3.155000000000000E7     1.407660870122914E-2   -1.259158282346279E1
 3.157500000000000E7     1.449809632517512E-2   -1.259381215085410E1
 3.160000000000000E7     1.447915213638617E-2   -1.261743417045155E1
 3.162500000000000E7     1.280522534998294E-2   -1.261723686360700E1
 3.165000000000000E7     1.471252788882251E-2   -1.262029292905219E1
 3.167500000000000E7     1.333934565818023E-2   -1.265112385174800E1
 3.170000000000000E7     1.399664026143687E-2   -1.263907268422996E1
 3.172500000000000E7     1.366108147317454E-2   -1.266929419784342E1
 3.175000000000000E7     1.264194622847684E-2   -1.267245923612959E1
 3.177500000000000E7     1.369024513558089E-2   -1.267871620609296E1
 3.180000000000000E7     1.230722712422160E-2   -1.269846459779346E1
 3.182500000000000E7     1.309174024104576E-2   -1.271020323249906E1
 3.185000000000000E7     1.275907559649170E-2   -1.271872192389946E1
 3.187500000000000E7     1.538199916332254E-2   -1.271388422488889E1
 3.190000000000000E7     1.461936543625684E-2   -1.273361202394696E1
 3.192500000000000E7     1.629474955724366E-2   -1.273511304543395E1
 3.195000000000000E7     1.355948231847133E-2   -1.275071828269144E1
 3.197500000000000E7     1.432952749887513E-2   -1.275773219841327E1
 3.200000000000000E7     1.320108320295285E-2   -1.278550527457846E1
 3.202500000000000E7     1.510555177521172E-2   -1.278593362970694E1
 3.205000000000000E7     1.430776901832368E-2   -1.279916677428239E1
 3.207500000000000E7     1.334504122332313E-2   -1.280459820239861E1
 3.210000000000000E7     1.368536979271682E-2   -1.281773288424246E1
 3.212500000000000E7     1.391042386170013E-2   -1.282810921417505E1
 3.215000000000000E7     1.365520419167365E-2   -1.282791780970315E1
 3.217500000000000E7     1.352533284080802E-2   -1.284852815718989E1
 3.220000000000000E7     1.481546748391559E-2   -1.285457835319454E1
 3.222500000000000E7     1.373225726353193E-2   -1.285125246260279E1
 3.225000000000000E7     1.325098923984398E-2   -1.286579003172244E1
 3.227500000000000E7     1.332281876149206E-2   -1.288380820795306E1
 3.230000000000000E7     1.498619796937246E-2   -1.288740709375259E1
 3.232500000000000E7     1.200475595604933E-2   -1.290433532993059E1
 3.235000000000000E7     1.434769841803434E-2   -1.290660383900475E1
 3.237500000000000E7     1.374008869311747E-2   -1.292661683402633E1
 3.240000000000000E7     1.490351424556497E-2   -1.293417560222335E1
 3.242500000000000E7     1.216313001228465E-2   -1.294600288876395E1
 3.245000000000000E7     1.284010534168150E-2   -1.295636644113244E1
 3.247500000000000E7     1.468851263485640E-2   -1.296241302169554E1
 3.250000000000000E7     1.405277712348185E-2   -1.296407202497694E1
 3.252500000000000E7     1.436167830570137E-2   -1.298633213592188E1
 3.255000000000000E7     1.433887799674558E-2   -1.298828164494474E1
 3.257500000000000E7     1.397263094192992E-2   -1.302100018263567E1
 3.260000000000000E7     1.237782925748192E-2   -1.301467966277761E1
 3.262500000000000E7     1.397778027807426E-2   -1.302894669194613E1
 3.265000000000000E7     1.419894166495943E-2   -1.303843551648669E1
 3.267500000000000E7     1.321481849819844E-2   -1.304707432630783E1
 3.270000000000000E7     1.320332136047368E-2   -1.306533289512468E1
 3.272500000000000E7     1.361703900691109E-2   -1.307121638826794E1
 3.275000000000000E7     1.503308214688063E-2   -1.305985265739668E1
 3.277500000000000E7     1.424993888080867E-2   -1.308563028681447E1
 3.280000000000000E7     1.381523078045433E-2   -1.309585681636007E1
 3.282500000000000E7     1.276645224696143E-2   -1.310268597303264E1
 3.285000000000000E7     1.524309651472803E-2   -1.312116156213017E1
 3.287500000000000E7     1.393639289554296E-2   -1.313076625328325E1
 3.290000000000000E7     1.278125534443045E-2   -1.313171735349663E1
 3.292500000000000E7     1.377358592879662E-2   -1.314130493147447E1
 3.295000000000000E7     1.318414508251429E-2   -1.314597468888480E1
 3.297500000000000E7     1.429470248333591E-2   -1.316429949623206E1
 3.300000000000000E7     1.330252872867048E-2   -1.316835808063773E1
 3.302500000000000E7     1.343367276382295E-2   -1.317777942445579E1
 3.305000000000000E7     1.356295844484393E-2   -1.320427981079760E1
 3.307500000000000E7     1.283184629691222E-2   -1.320813036074953E1
 3.310000000000000E7     1.397052553427485E-2   -1.321354763813858E1
 3.312500000000000E7     1.451572240097129E-2   -1.323034879290020E1
 3.315000000000000E7     1.304257408849583E-2   -1.324263375297526E1
 3.317500000000000E7     1.431294488816455E-2   -1.325494860477781E1
 3.320000000000000E7     1.241005976712290E-2   -1.325762090061170E1
 3.322500000000000E7     1.198668466381206E-2   -1.327458325577601E1
 3.325000000000000E7     1.383466370399125E-2   -1.329018180982192E1
 3.327500000000000E7     1.345126795462434E-2   -1.329324100162866E1
 3.330000000000000E7     1.351162655534076E-2   -1.329791975404711E1
 3.332500000000000E7     1.315202057492670E-2   -1.330565305029574E1
 3.335000000000000E7     1.414120523444157E-2   -1.332220466266558E1
 3.337500000000000E7     1.531200193496824E-2   -1.331592124602562E1
 3.340000000000000E7     1.433741550147983E-2   -1.334506933889582E1
 3.342500000000000E7     1.237194693047116E-2   -1.334749304297230E1
 3.345000000000000E7     1.472660907286687E-2   -1.335298415104136E1
 3.347500000000000E7     1.430446407134418E-2   -1.337890506238119E1
 3.350000000000000E7     1.499532585135591E-2   -1.337437901482701E1
 3.352500000000000E7     1.410300324580127E-2   -1.339540035991105E1
 3.355000000000000E7     1.627388497791375E-2   -1.340226983556198E1
 3.357500000000000E7     1.387042982789097E-2   -1.341458032783761E1
 3.360000000000000E7     1.390427160930257E-2   -1.341981054605174E1
 3.362500000000000E7     1.286735860546625E-2   -1.342921120694340E1
 3.365000000000000E7     1.473186926969763E-2   -1.345258833792400E1
 3.367500000000000E7     1.353439467288898E-2   -1.344580462850501E1
 3.370000000000000E7     1.435748633627577E-2   -1.346119444711558E1
 3.372500000000000E7     1.421084881577802E-2   -1.346753808096808E1
 3.375000000000000E7     1.351121400182903E-2   -1.348036944840636E1
 3.377500000000000E7     1.334591472449885E-2   -1.349526222118555E1
 3.380000000000000E7     1.557599944073047E-2   -1.350366559782000E1
 3.382500000000000E7     1.333113848176582E-2   -1.351347619500997E1
 3.385000000000000E7     1.381211244802815E-2   -1.352165271453639E1
 3.387500000000000E7     1.391258297103738E-2   -1.353500635987363E1
 3.390000000000000E7     1.258276498558181E-2   -1.354931050290640E1
 3.392500000000000E7     1.394613392488914E-2   -1.354892728614621E1
 3.395000000000000E7     1.423290853683719E-2   -1.355927209228235E1
 3.397500000000000E7     1.392997510813123E-2   -1.357441265105771E1
 3.400000000000000E7     1.328949594810191E-2   -1.358045714509967E1
 3.402500000000000E7     1.383648016925716E-2   -1.359144682913797E1
 3.405000000000000E7     1.435422104124221E-2   -1.360689378586018E1
 3.407500000000000E7     1.337573316860792E-2   -1.360911771895669E1
 3.410000000000000E7     1.388989883339811E-2   -1.361305090036302E1
 3.412500000000000E7     1.391485153427688E-2   -1.363697767117768E1
 3.415000000000000E7     1.351960042626728E-2   -1.365266757539830E1
 3.417500000000000E7     1.349387922842118E-2   -1.364533821762955E1
 3.420000000000000E7     1.499336910722679E-2   -1.365669631946512E1
 3.422500000000000E7     1.412911378643527E-2   -1.367307047705129E1
 3.425000000000000E7     1.315947895341290E-2   -1.368385906093359E1
 3.427500000000000E7     1.320923305400712E-2   -1.369895246308899E1
 3.430000000000000E7     1.348985386420799E-2   -1.370229824807142E1
 3.432500000000000E7     1.418849315520614E-2   -1.371335682256560E1
 3.435000000000000E7     1.321567379131576E-2   -1.373053622843577E1
 3.437500000000000E7     1.395575798366491E-2   -1.373820155922666E1
 3.440000000000000E7     1.365455332477275E-2   -1.374468872395766E1
 3.442500000000000E7     1.322568249726648E-2   -1.376165244902371E1
 3.445000000000000E7     1.425779048470451E-2   -1.377911374143152E1
 3.447500000000000E7     1.337565294257213E-2   -1.376441260974821E1
 3.450000000000000E7     1.361961352920871E-2   -1.379255710120036E1
 3.452500000000000E7     1.184566043440120E-2   -1.381336732160266E1
 3.455000000000000E7     1.323946004351548E-2   -1.380647949520694E1
 3.457500000000000E7     1.472495186898097E-2   -1.382051881676257E1
 3.460000000000000E7     1.171254154741441E-2   -1.382474772614457E1
 3.462500000000000E7     1.290887546169488E-2   -1.384179158950946E1
 3.465000000000000E7     1.369077459452558E-2   -1.384005431024515E1
 3.467500000000000E7     1.349859066003706E-2   -1.385908116230047E1
 3.470000000000000E7     1.265133835448155E-2   -1.387061001619848E1
 3.472500000000000E7     1.376623425046453E-2   -1.389297845519338E1
 3.475000000000000E7     1.452808426007745E-2   -1.388809448238651E1
 3.477500000000000E7     1.321407514203611E-2   -1.390290066687578E1
 3.480000000000000E7     1.304550538354978E-2   -1.390201807384971E1
 3.482500000000000E7     1.363744562583367E-2   -1.392755628532701E1
 3.485000000000000E7     1.282355434587911E-2   -1.392857770199596E1
 3.487500000000000E7     1.267287113790478E-2   -1.394048643119686E1
 3.490000000000000E7     1.434463467405715E-2   -1.394201766280170E1
 3.492500000000000E7     1.407595425852327E-2   -1.395888586400184E1
 3.495000000000000E7     1.360800282336867E-2   -1.397435964602632E1
 3.497500000000000E7     1.428804117403975E-2   -1.398044510954169E1
 3.500000000000000E7     1.236180365170096E-2   -1.399077715437121E1
 3.502500000000000E7     1.402503027262377E-2   -1.400016155107981E1
 3.505000000000000E7     1.359251249248908E-2   -1.400161041542509E1
 3.507500000000000E7     1.360941833352145E-2   -1.402535808964582E1
 3.510000000000000E7     1.198504748922567E-2   -1.403289561873755E1
 3.512500000000000E7     1.350965998875699E-2   -1.403052886724446E1
 3.515000000000000E7     1.336975747096909E-2   -1.405849758194237E1
 3.517500000000000E7     1.270013895103770E-2   -1.405353013980630E1
 3.520000000000000E7     1.572308903240518E-2   -1.407313017169061E1
 3.522500000000000E7     1.342365767396733E-2   -1.407214908685442E1
 3.525000000000000E7     1.288680360078469E-2   -1.409097447529040E1
 3.527500000000000E7     1.470155323599113E-2   -1.409224282434036E1
 3.530000000000000E7     1.420951961377290E-2   -1.410946346795310E1
 3.532500000000000E7     1.510148128821790E-2   -1.412434402408016E1
 3.535000000000000E7     1.231650427985432E-2   -1.413160257614097E1
 3.537500000000000E7     1.220104303558824E-2   -1.414660209755819E1
 3.540000000000000E7     1.263897374669019E-2   -1.415820509765648E1
 3.542500000000000E7     1.335600783579050E-2   -1.417253749806409E1
 3.545000000000000E7     1.550785188705520E-2   -1.418175192445554E1
 3.547500000000000E7     1.390694175341257E-2   -1.418705304446692E1
 3.550000000000000E7     1.371560942805086E-2   -1.419366609996295E1
 3.552500000000000E7     1.249200848423992E-2   -1.420819263570343E1
 3.555000000000000E7     1.279616996713637E-2   -1.422334944337707E1
 3.557500000000000E7     1.385528321821060E-2   -1.422835586655586E1
 3.560000000000000E7     1.363322990939992E-2   -1.422603883524754E1
 3.562500000000000E7     1.293575005548659E-2   -1.422804425029101E1
 3.565000000000000E7     1.248975622994352E-2   -1.424767900522197E1
 3.567500000000000E7     1.295045850458724E-2   -1.425901243262455E1
 3.570000000000000E7     1.398499189934329E-2   -1.428657707455782E1
 3.572500000000000E7     1.325504025860095E-2   -1.428722405814065E1
 3.575000000000000E7     1.256644798759787E-2   -1.428486707508545E1
 3.577500000000000E7     1.326568593516086E-2   -1.430968665763541E1
 3.580000000000000E7     1.274270207552709E-2   -1.430211679641686E1
 3.582500000000000E7     1.273533406890073E-2   -1.432518391166436E1
 3.585000000000000E7     1.326146788200617E-2   -1.433478675480367E1
 3.587500000000000E7     1.211279782703871E-2   -1.434863717057378E1
 3.590000000000000E7     1.223637035684513E-2   -1.435748835941829E1
 3.592500000000000E7     1.383244769923535E-2   -1.438059211015577E1
 3.595000000000000E7     1.376799998690585E-2   -1.438664095222633E1
 3.597500000000000E7     1.348230402156788E-2   -1.438429660824457E1
 3.600000000000000E7     1.217034744637763E-2   -1.439261902336580E1
 3.602500000000000E7     1.233567078421182E-2   -1.439973264783517E1
 3.605000000000000E7     1.289536633691971E-2   -1.442636413148570E1
 3.607500000000000E7     1.202078620856660E-2   -1.443347513862767E1
 3.610000000000000E7     1.183020509682265E-2   -1.442871875932530E1
 3.612500000000000E7     1.189029062123970E-2   -1.445066670502419E1
 3.615000000000000E7     1.298397792057487E-2   -1.445694393700228E1
 3.617500000000000E7     1.277136272619722E-2   -1.445921374174037E1
 3.620000000000000E7     1.420318207811488E-2   -1.448387775335120E1
 3.622500000000000E7     1.227328820717852E-2   -1.448336291235526E1
 3.625000000000000E7     1.400816714826950E-2   -1.450994747859079E1
 3.627500000000000E7     1.363975595973631E-2   -1.449644203049402E1
 3.630000000000000E7     1.431789188117594E-2   -1.451678782369286E1
 3.632500000000000E7     1.377160945540360E-2   -1.452951878397045E1
 3.635000000000000E7     1.309248836241053E-2   -1.454403656852798E1
 3.637500000000000E7     1.243798821366395E-2   -1.454855437965970E1
 3.640000000000000E7     1.365927831478630E-2   -1.455308943838044E1
 3.642500000000000E7     1.364242615470804E-2   -1.458212230841781E1
 3.645000000000000E7     1.154885736810865E-2   -1.458373762852276E1
 3.647500000000000E7     1.114202356426820E-2   -1.459524995049696E1
 3.650000000000000E7     1.173842949389301E-2   -1.459963791429315E1
 3.652500000000000E7     1.272986520164265E-2   -1.461458015359671E1
 3.655000000000000E7     1.375049184853990E-2   -1.462580432778520E1
 3.657500000000000E7     1.191921776744958E-2   -1.462876170624316E1
 3.660000000000000E7     1.217329306487070E-2   -1.463865869147778E1
 3.662500000000000E7     1.268000790895064E-2   -1.464799761559672E1
 3.665000000000000E7     1.285235959314007E-2   -1.466794396490177E1
 3.667500000000000E7     1.387815242864704E-2   -1.466619951264706E1
 3.670000000000000E7     1.328703485361404E-2   -1.468841807958060E1
 3.672500000000000E7     1.137050440365852E-2   -1.469160405982213E1
 3.675000000000000E7     1.253982303755472E-2   -1.470271815690173E1
 3.677500000000000E7     1.431132966722357E-2   -1.472343823409321E1
 3.680000000000000E7     1.278847413092352E-2   -1.472924009489208E1
 3.682500000000000E7     1.242045496411085E-2   -1.473178375281914E1
 3.685000000000000E7     1.263713074673150E-2   -1.474601730454485E1
 3.687500000000000E7     1.340362189301851E-2   -1.476679101714301E1
 3.690000000000000E7     1.118126402930727E-2   -1.476157601068055E1
 3.692500000000000E7     1.342803898132630E-2   -1.477444302752003E1
 3.695000000000000E7     1.197384041381058E-2   -1.478597823245130E1
 3.697500000000000E7     1.312598766810268E-2   -1.479985012086297E1
 3.700000000000000E7     1.134606280693336E-2   -1.480532014080911E1
 3.702500000000000E7     1.241560962528971E-2   -1.482457684749804E1
 3.705000000000000E7     1.194479295762772E-2   -1.483543123638873E1
 3.707500000000000E7     1.275469230548781E-2   -1.482993614485774E1
 3.710000000000000E7     1.318758940123762E-2   -1.485182728147412E1
 3.712500000000000E7     1.381022303986863E-2   -1.485886240000274E1
