#  HZ   S   DB   R     50.00 
! Rohde & Schwarz Vector Network Analyzer 
! Rohde-Schwarz,ZNB8-4Port,1311601044102961,2.82
! Created: UTC 2/11/2019, 1:57:23 PM
! freq[Hz]                db:S11                  ang:S11
 3.000000000000000E7     2.631309831395919E-2   -1.258199591492849E1
 3.002500000000000E7     2.899752980602375E-2   -1.259061772320651E1
 3.005000000000000E7     2.597534178777991E-2   -1.261932855786951E1
 3.007500000000000E7     2.843054702392063E-2   -1.262755804669178E1
 3.010000000000000E7     2.676856167260062E-2   -1.264668490692667E1
 3.012500000000000E7     2.699955331336347E-2   -1.264349457667767E1
 3.015000000000000E7     2.805604601893556E-2   -1.264768142729970E1
 3.017500000000000E7     2.681067176887149E-2   -1.267058870969020E1
 3.020000000000000E7     2.817210287267514E-2   -1.267463708226740E1
 3.022500000000000E7     2.743230467186344E-2   -1.267759366273042E1
 3.025000000000000E7     2.974326722974675E-2   -1.269463182252452E1
 3.027500000000000E7     2.466360888034139E-2   -1.270464586377352E1
 3.030000000000000E7     2.700773437069282E-2   -1.270866255607444E1
 3.032500000000000E7     2.746538519701007E-2   -1.272054919941906E1
 3.035000000000000E7     2.453976638822845E-2   -1.273462236742343E1
 3.037500000000000E7     2.697062698198865E-2   -1.274626582115963E1
 3.040000000000000E7     2.606254956587097E-2   -1.276077690909135E1
 3.042500000000000E7     2.649883110498308E-2   -1.276710869724188E1
 3.045000000000000E7     2.667741318601865E-2   -1.277988296040682E1
 3.047500000000000E7     2.742400327025123E-2   -1.279850003578862E1
 3.050000000000000E7     2.603798691492757E-2   -1.280602892294393E1
 3.052500000000000E7     2.887399813962243E-2   -1.280724205188334E1
 3.055000000000000E7     2.521411208965345E-2   -1.283669077219958E1
 3.057500000000000E7     2.680359258986584E-2   -1.283256764381704E1
 3.060000000000000E7     2.617422411904862E-2   -1.283829447033362E1
 3.062500000000000E7     2.604327143199387E-2   -1.287044778323032E1
 3.065000000000000E7     2.566218973409937E-2   -1.285538542875752E1
 3.067500000000000E7     2.807724824247879E-2   -1.288165567694492E1
 3.070000000000000E7     2.529751694435312E-2   -1.288888580394272E1
 3.072500000000000E7     2.973344665623028E-2   -1.290287322267761E1
 3.075000000000000E7     2.526748194938863E-2   -1.290693023776763E1
 3.077500000000000E7     2.722406635365832E-2   -1.292129747397172E1
 3.080000000000000E7     2.683810738174646E-2   -1.292692729569966E1
 3.082500000000000E7     2.599790440514527E-2   -1.292994600782433E1
 3.085000000000000E7     2.731797279332579E-2   -1.294844012167918E1
 3.087500000000000E7     2.819624371140507E-2   -1.296787646046350E1
 3.090000000000000E7     2.757829860929768E-2   -1.296368420853747E1
 3.092500000000000E7     2.602014551296939E-2   -1.298300583747680E1
 3.095000000000000E7     2.527225509767792E-2   -1.300062574463556E1
 3.097500000000000E7     2.622417774639990E-2   -1.300177172847953E1
 3.100000000000000E7     2.597119510591222E-2   -1.301013122465465E1
 3.102500000000000E7     2.782708961532883E-2   -1.302419987324546E1
 3.105000000000000E7     2.781010903591986E-2   -1.303510008109083E1
 3.107500000000000E7     2.801191303978725E-2   -1.305185774111044E1
 3.110000000000000E7     2.665350452113332E-2   -1.305433969413619E1
 3.112500000000000E7     2.567833432175574E-2   -1.306039202206527E1
 3.115000000000000E7     2.608026698035630E-2   -1.307802866546052E1
 3.117500000000000E7     2.632260147460264E-2   -1.308428081749757E1
 3.120000000000000E7     2.733066045547533E-2   -1.309219034186455E1
 3.122500000000000E7     2.656645335818818E-2   -1.312141882436403E1
 3.125000000000000E7     2.858786926177641E-2   -1.311484918123471E1
 3.127500000000000E7     2.699532775798694E-2   -1.312698398925740E1
 3.130000000000000E7     2.932979152867207E-2   -1.314056301146865E1
 3.132500000000000E7     2.644678306740950E-2   -1.314991201640102E1
 3.135000000000000E7     2.769421569109400E-2   -1.315826505240562E1
 3.137500000000000E7     2.642334607659096E-2   -1.316199688899190E1
 3.140000000000000E7     2.674856527244186E-2   -1.317749315212090E1
 3.142500000000000E7     2.805583811293679E-2   -1.319179224298600E1
 3.145000000000000E7     2.658064176077697E-2   -1.319873516794699E1
 3.147500000000000E7     2.756333068045808E-2   -1.321512921288017E1
 3.150000000000000E7     2.740621543060699E-2   -1.322087564478566E1
 3.152500000000000E7     2.745560687390084E-2   -1.323039619007538E1
 3.155000000000000E7     2.748833566365287E-2   -1.324871183696590E1
 3.157500000000000E7     2.853082436257400E-2   -1.324657249633362E1
 3.160000000000000E7     2.812101155234306E-2   -1.327589099195229E1
 3.162500000000000E7     2.793594908607448E-2   -1.327205075575123E1
 3.165000000000000E7     2.831621856465338E-2   -1.327499691410896E1
 3.167500000000000E7     2.748493981349959E-2   -1.331031660776266E1
 3.170000000000000E7     2.703828417954145E-2   -1.330043822012136E1
 3.172500000000000E7     2.820459065994957E-2   -1.333079586286951E1
 3.175000000000000E7     2.723689767613857E-2   -1.332996782312774E1
 3.177500000000000E7     2.629159960649182E-2   -1.333507171934020E1
 3.180000000000000E7     2.609174830456676E-2   -1.334863773386450E1
 3.182500000000000E7     2.760281622473471E-2   -1.336488470634468E1
 3.185000000000000E7     2.705185064213748E-2   -1.337373501112157E1
 3.187500000000000E7     2.911271787175274E-2   -1.337778150757298E1
 3.190000000000000E7     2.848643787389103E-2   -1.339163524849175E1
 3.192500000000000E7     2.908725448701619E-2   -1.339443841317058E1
 3.195000000000000E7     2.783525075212901E-2   -1.341277562165575E1
 3.197500000000000E7     2.697916326329093E-2   -1.342908746335870E1
 3.200000000000000E7     2.528356080831614E-2   -1.345048943813599E1
 3.202500000000000E7     2.778515846664654E-2   -1.343893902983591E1
 3.205000000000000E7     2.751423608919430E-2   -1.346340999052057E1
 3.207500000000000E7     2.806923939155425E-2   -1.346795604874239E1
 3.210000000000000E7     2.794810830447936E-2   -1.347592213589374E1
 3.212500000000000E7     2.781735604857722E-2   -1.349123981574849E1
 3.215000000000000E7     2.856907552164755E-2   -1.349992718868850E1
 3.217500000000000E7     2.846168190979487E-2   -1.351828207423103E1
 3.220000000000000E7     2.845795257039882E-2   -1.352562982082792E1
 3.222500000000000E7     2.835074508455528E-2   -1.351777910061134E1
 3.225000000000000E7     2.893348575806264E-2   -1.352820211042279E1
 3.227500000000000E7     2.740145154907651E-2   -1.355221811068664E1
 3.230000000000000E7     2.898081598584351E-2   -1.355208454481770E1
 3.232500000000000E7     2.621317549086336E-2   -1.357734549389821E1
 3.235000000000000E7     2.845023538944292E-2   -1.357643314373084E1
 3.237500000000000E7     2.745410936205392E-2   -1.360037027824519E1
 3.240000000000000E7     2.917095931018347E-2   -1.360265954912876E1
 3.242500000000000E7     2.709910162604237E-2   -1.361687659931333E1
 3.245000000000000E7     2.715967592850314E-2   -1.362813219130096E1
 3.247500000000000E7     2.911918096904473E-2   -1.362961803204645E1
 3.250000000000000E7     2.836168168804993E-2   -1.364196511270196E1
 3.252500000000000E7     2.925019532612385E-2   -1.364704942544300E1
 3.255000000000000E7     2.869424700668045E-2   -1.366506483435899E1
 3.257500000000000E7     2.827935705365742E-2   -1.369061353771917E1
 3.260000000000000E7     2.720513615960411E-2   -1.368054866014439E1
 3.262500000000000E7     2.798410751229967E-2   -1.370774591691452E1
 3.265000000000000E7     2.898648750187760E-2   -1.370689858482616E1
 3.267500000000000E7     2.684028753457839E-2   -1.372077095312251E1
 3.270000000000000E7     2.674873821858467E-2   -1.373817140492216E1
 3.272500000000000E7     2.825208062263548E-2   -1.374427143969326E1
 3.275000000000000E7     2.849799553969556E-2   -1.373420490147799E1
 3.277500000000000E7     2.888315363333207E-2   -1.375868999194545E1
 3.280000000000000E7     2.796169428316095E-2   -1.377680395291067E1
 3.282500000000000E7     2.685064948784947E-2   -1.377492316393316E1
 3.285000000000000E7     2.854646832113545E-2   -1.380459397105597E1
 3.287500000000000E7     2.784020664368608E-2   -1.380180853131059E1
 3.290000000000000E7     2.706971608725043E-2   -1.380846033155232E1
 3.292500000000000E7     2.697448944068417E-2   -1.382230757192631E1
 3.295000000000000E7     2.840087730746040E-2   -1.383825445096096E1
 3.297500000000000E7     2.893463354552697E-2   -1.383341809367294E1
 3.300000000000000E7     2.744878644054838E-2   -1.384769545408687E1
 3.302500000000000E7     2.788065355636544E-2   -1.385937011763592E1
 3.305000000000000E7     2.845435459486154E-2   -1.388691577567389E1
 3.307500000000000E7     2.677869159966152E-2   -1.388838512859461E1
 3.310000000000000E7     2.792655325267446E-2   -1.389461266865902E1
 3.312500000000000E7     2.872324319608170E-2   -1.390983533689893E1
 3.315000000000000E7     2.730049713748856E-2   -1.392449779332479E1
 3.317500000000000E7     2.844895926558717E-2   -1.393616404472980E1
 3.320000000000000E7     2.639054374368977E-2   -1.393629363314171E1
 3.322500000000000E7     2.702786712409706E-2   -1.395637793372721E1
 3.325000000000000E7     2.763609040583728E-2   -1.397032876272173E1
 3.327500000000000E7     2.798754678094639E-2   -1.398016859475987E1
 3.330000000000000E7     2.750238534290406E-2   -1.398858373882041E1
 3.332500000000000E7     2.766468487074534E-2   -1.398778680507241E1
 3.335000000000000E7     2.857232310029416E-2   -1.400825458258668E1
 3.337500000000000E7     3.025738046573717E-2   -1.401038698509370E1
 3.340000000000000E7     2.869006572657061E-2   -1.402776646039980E1
 3.342500000000000E7     2.634698349871293E-2   -1.402885657776535E1
 3.345000000000000E7     2.885702870617935E-2   -1.404047262562471E1
 3.347500000000000E7     2.764963269168565E-2   -1.406458448275218E1
 3.350000000000000E7     2.976509910686589E-2   -1.407005492679604E1
 3.352500000000000E7     2.751162003503539E-2   -1.407914451931198E1
 3.355000000000000E7     3.052848201608786E-2   -1.408480101270936E1
 3.357500000000000E7     2.705015311230188E-2   -1.410383466973001E1
 3.360000000000000E7     2.798665807693282E-2   -1.411284938632515E1
 3.362500000000000E7     2.632183801708348E-2   -1.413062662508385E1
 3.365000000000000E7     2.856670917818334E-2   -1.414763779878244E1
 3.367500000000000E7     2.784020383094055E-2   -1.414523264884705E1
 3.370000000000000E7     2.878333469959478E-2   -1.415465011430652E1
 3.372500000000000E7     2.817789043093208E-2   -1.416097559585593E1
 3.375000000000000E7     2.760290533454355E-2   -1.417387841160430E1
 3.377500000000000E7     2.754610475570436E-2   -1.418836268006860E1
 3.380000000000000E7     2.966086375402503E-2   -1.419640458048576E1
 3.382500000000000E7     2.835076305887581E-2   -1.420903699584998E1
 3.385000000000000E7     2.894240133100621E-2   -1.421929074563252E1
 3.387500000000000E7     2.798035044709895E-2   -1.423321974523971E1
 3.390000000000000E7     2.773550536253798E-2   -1.424510169616568E1
 3.392500000000000E7     2.864147628379743E-2   -1.425129903380503E1
 3.395000000000000E7     2.854815169862662E-2   -1.426016133972287E1
 3.397500000000000E7     2.900664559278038E-2   -1.426610510951626E1
 3.400000000000000E7     2.782475493415519E-2   -1.428256538802008E1
 3.402500000000000E7     2.952480591992847E-2   -1.429186758271858E1
 3.405000000000000E7     2.693904010892233E-2   -1.430850297289699E1
 3.407500000000000E7     2.765607732761603E-2   -1.430400485251178E1
 3.410000000000000E7     2.861796535496826E-2   -1.431020308840965E1
 3.412500000000000E7     2.910032223548512E-2   -1.433815665277671E1
 3.415000000000000E7     2.822770847409083E-2   -1.435102016818701E1
 3.417500000000000E7     2.812223722425668E-2   -1.434646101051375E1
 3.420000000000000E7     2.886360010038550E-2   -1.436301752327175E1
 3.422500000000000E7     2.813988181037740E-2   -1.438245207584246E1
 3.425000000000000E7     2.865614618771691E-2   -1.438488583260258E1
 3.427500000000000E7     2.775316040553353E-2   -1.439965190746065E1
 3.430000000000000E7     2.894115539277190E-2   -1.440509295200146E1
 3.432500000000000E7     2.808757376972648E-2   -1.442005300545667E1
 3.435000000000000E7     2.861736996434924E-2   -1.443455360111182E1
 3.437500000000000E7     2.845139894748128E-2   -1.444456568112826E1
 3.440000000000000E7     2.837051955236434E-2   -1.445490657317744E1
 3.442500000000000E7     2.697543058603813E-2   -1.446897450862959E1
 3.445000000000000E7     2.796547822207616E-2   -1.447911877641639E1
 3.447500000000000E7     2.842803591171327E-2   -1.447420726766916E1
 3.450000000000000E7     2.902173216051059E-2   -1.449849078038776E1
 3.452500000000000E7     2.786172344029218E-2   -1.451191614633046E1
 3.455000000000000E7     2.701369971996247E-2   -1.451741479262559E1
 3.457500000000000E7     2.964314129662412E-2   -1.453831755146597E1
 3.460000000000000E7     2.771129654160740E-2   -1.453417316317334E1
 3.462500000000000E7     2.756797175150257E-2   -1.455174815341660E1
 3.465000000000000E7     2.876419267825683E-2   -1.455741216898602E1
 3.467500000000000E7     2.813786142236129E-2   -1.456799980085488E1
 3.470000000000000E7     2.734096638712028E-2   -1.458129131356536E1
 3.472500000000000E7     2.970864807115529E-2   -1.460161693619519E1
 3.475000000000000E7     2.932598016921221E-2   -1.460367846077234E1
 3.477500000000000E7     2.825393900911046E-2   -1.461659666536441E1
 3.480000000000000E7     2.769303517969741E-2   -1.461836569218905E1
 3.482500000000000E7     2.846583988232473E-2   -1.463400687549501E1
 3.485000000000000E7     2.808601777016057E-2   -1.464086050154636E1
 3.487500000000000E7     2.688845628958939E-2   -1.464926812302542E1
 3.490000000000000E7     2.914706375371152E-2   -1.466029462588994E1
 3.492500000000000E7     2.913370869493982E-2   -1.467416222306262E1
 3.495000000000000E7     2.775918402121741E-2   -1.468907053418704E1
 3.497500000000000E7     2.954489646414458E-2   -1.469654694874533E1
 3.500000000000000E7     2.815612443138165E-2   -1.471470376375315E1
 3.502500000000000E7     2.797255837726427E-2   -1.471514861156058E1
 3.505000000000000E7     2.861102755176704E-2   -1.471686637873217E1
 3.507500000000000E7     2.829514157722932E-2   -1.474331819671976E1
 3.510000000000000E7     2.709304955564456E-2   -1.475019126669569E1
 3.512500000000000E7     2.938061867984103E-2   -1.474894266271103E1
 3.515000000000000E7     2.941643214331524E-2   -1.477482106386512E1
 3.517500000000000E7     2.877665537037217E-2   -1.477785851056410E1
 3.520000000000000E7     3.110811326171608E-2   -1.479687014148629E1
 3.522500000000000E7     2.910174244682644E-2   -1.479092433914243E1
 3.525000000000000E7     2.733781277676765E-2   -1.481646715773009E1
 3.527500000000000E7     2.978320019072616E-2   -1.482027342087175E1
 3.530000000000000E7     2.980075810668139E-2   -1.482962589949048E1
 3.532500000000000E7     2.923188676914034E-2   -1.484698967475191E1
 3.535000000000000E7     2.729416665641724E-2   -1.485310215327181E1
 3.537500000000000E7     2.720627675425333E-2   -1.487251885090943E1
 3.540000000000000E7     2.730270721299759E-2   -1.488459772432798E1
 3.542500000000000E7     2.923403247699888E-2   -1.489308074137968E1
 3.545000000000000E7     3.018761483320534E-2   -1.490877643469940E1
 3.547500000000000E7     2.952076824854882E-2   -1.492130212805094E1
 3.550000000000000E7     2.850031577073237E-2   -1.491794408555429E1
 3.552500000000000E7     2.762528994929480E-2   -1.493359033526287E1
 3.555000000000000E7     2.744032771636348E-2   -1.494880299099367E1
 3.557500000000000E7     3.057860195884863E-2   -1.495587085163525E1
 3.560000000000000E7     2.855344021617672E-2   -1.494800697056637E1
 3.562500000000000E7     2.899101909019566E-2   -1.496391223690300E1
 3.565000000000000E7     2.824419581198399E-2   -1.497479120214480E1
 3.567500000000000E7     2.904467624557051E-2   -1.498764021818605E1
 3.570000000000000E7     2.889393143064788E-2   -1.501429926536258E1
 3.572500000000000E7     2.865866663983706E-2   -1.501690706059864E1
 3.575000000000000E7     2.705785175060601E-2   -1.501485004544312E1
 3.577500000000000E7     2.760405437369024E-2   -1.503487573264776E1
 3.580000000000000E7     2.815393994091481E-2   -1.503734062930330E1
 3.582500000000000E7     2.788681946492721E-2   -1.505554098969148E1
 3.585000000000000E7     2.882277134118141E-2   -1.506402011963280E1
 3.587500000000000E7     2.694439550744065E-2   -1.507347734822411E1
 3.590000000000000E7     2.734815828516334E-2   -1.508565349093589E1
 3.592500000000000E7     2.945404653180448E-2   -1.510955037882692E1
 3.595000000000000E7     2.898316784398959E-2   -1.511411691994167E1
 3.597500000000000E7     2.808715295851864E-2   -1.511982857143534E1
 3.600000000000000E7     2.660895303990396E-2   -1.512938528540293E1
 3.602500000000000E7     2.846983303263165E-2   -1.513239775928412E1
 3.605000000000000E7     2.758540377333988E-2   -1.515895843496678E1
 3.607500000000000E7     2.767755240153104E-2   -1.517434666063162E1
 3.610000000000000E7     2.678582539231329E-2   -1.516740435660091E1
 3.612500000000000E7     2.687616848014883E-2   -1.518795499407562E1
 3.615000000000000E7     2.865662382587451E-2   -1.519222873676756E1
 3.617500000000000E7     2.845052606810670E-2   -1.520209004036313E1
 3.620000000000000E7     2.801981857761262E-2   -1.522124632302887E1
 3.622500000000000E7     2.661971413885029E-2   -1.522999272983149E1
 3.625000000000000E7     2.939974413003156E-2   -1.524792441509170E1
 3.627500000000000E7     2.877057158697104E-2   -1.524098525912769E1
 3.630000000000000E7     2.973238573484606E-2   -1.525598153546970E1
 3.632500000000000E7     2.832051858162012E-2   -1.526965519954454E1
 3.635000000000000E7     2.867860140534739E-2   -1.528351556221822E1
 3.637500000000000E7     2.829130242243776E-2   -1.529261194374861E1
 3.640000000000000E7     2.855204066452630E-2   -1.529861951415591E1
 3.642500000000000E7     2.891495614328096E-2   -1.532266333811093E1
 3.645000000000000E7     2.599387273222176E-2   -1.533275389395530E1
 3.647500000000000E7     2.712437060128154E-2   -1.533866112469757E1
 3.650000000000000E7     2.664465852553093E-2   -1.535374237550826E1
 3.652500000000000E7     2.724103662836846E-2   -1.535959620250362E1
 3.655000000000000E7     2.851328701621220E-2   -1.537288758087362E1
 3.657500000000000E7     2.690746893940894E-2   -1.537718047496018E1
 3.660000000000000E7     2.717504749819683E-2   -1.538809582745097E1
 3.662500000000000E7     2.950580677590357E-2   -1.539293334226950E1
 3.665000000000000E7     2.831854894860519E-2   -1.541225207144484E1
 3.667500000000000E7     2.874395605776162E-2   -1.540984902541859E1
 3.670000000000000E7     2.890173918468430E-2   -1.543385787878002E1
 3.672500000000000E7     2.796039439477318E-2   -1.544269789582961E1
 3.675000000000000E7     2.837426335907153E-2   -1.545504775379569E1
 3.677500000000000E7     2.999816384987053E-2   -1.547114493775124E1
 3.680000000000000E7     2.800912901426618E-2   -1.547786520286804E1
 3.682500000000000E7     2.748035048291468E-2   -1.548727500941148E1
 3.685000000000000E7     2.820382912169619E-2   -1.549658057328299E1
 3.687500000000000E7     2.874347645104493E-2   -1.551009585321327E1
 3.690000000000000E7     2.745522674106496E-2   -1.552263397025716E1
 3.692500000000000E7     2.819646796520528E-2   -1.552738549487603E1
 3.695000000000000E7     2.827115438704262E-2   -1.554564420182855E1
 3.697500000000000E7     2.850355342763268E-2   -1.554960184672585E1
 3.700000000000000E7     2.673723728089827E-2   -1.555776077476395E1
 3.702500000000000E7     2.767644990522486E-2   -1.558389472152536E1
 3.705000000000000E7     2.852601667774047E-2   -1.559052976636304E1
 3.707500000000000E7     2.892632760994204E-2   -1.558676719471412E1
 3.710000000000000E7     2.799688150228387E-2   -1.560969231070622E1
 3.712500000000000E7     2.942258295872743E-2   -1.561413442330832E1
