#  HZ   S   DB   R     50.00 
! Rohde & Schwarz Vector Network Analyzer 
! Rohde-Schwarz,ZNB8-4Port,1311601044102961,2.82
! Created: UTC 2/11/2019, 2:04:47 PM
! freq[Hz]                db:S11                  ang:S11
 3.000000000000000E7     2.682559861170615E-2   -1.086184973053691E1
 3.002500000000000E7     2.915476213409420E-2   -1.087994133038887E1
 3.005000000000000E7     2.561715347036915E-2   -1.089981862622298E1
 3.007500000000000E7     2.896573242832761E-2   -1.091072179931213E1
 3.010000000000000E7     2.806324921453796E-2   -1.091759134155561E1
 3.012500000000000E7     2.781804305427436E-2   -1.092546404287947E1
 3.015000000000000E7     2.764548208250287E-2   -1.092498634615834E1
 3.017500000000000E7     2.860311063407759E-2   -1.094030625601156E1
 3.020000000000000E7     2.888163771362440E-2   -1.095110699218569E1
 3.022500000000000E7     2.869214761124335E-2   -1.095264005558303E1
 3.025000000000000E7     2.974722120250908E-2   -1.096464448584496E1
 3.027500000000000E7     2.659409385796389E-2   -1.097335386617918E1
 3.030000000000000E7     2.748760100525912E-2   -1.097628272981513E1
 3.032500000000000E7     2.783763790323337E-2   -1.099530695445755E1
 3.035000000000000E7     2.668783574783327E-2   -1.100970868157691E1
 3.037500000000000E7     2.638815377937086E-2   -1.100978610864477E1
 3.040000000000000E7     2.706013153716856E-2   -1.102696273372698E1
 3.042500000000000E7     2.774589688240202E-2   -1.102567665428053E1
 3.045000000000000E7     2.786820199785039E-2   -1.104551348666292E1
 3.047500000000000E7     2.684762245030373E-2   -1.105703690648665E1
 3.050000000000000E7     2.610656286149510E-2   -1.106889982468003E1
 3.052500000000000E7     2.896320858411502E-2   -1.105443686597799E1
 3.055000000000000E7     2.689629965581104E-2   -1.108854319932897E1
 3.057500000000000E7     2.735898558641002E-2   -1.109101891392776E1
 3.060000000000000E7     2.647429786630030E-2   -1.108540816614602E1
 3.062500000000000E7     2.765920242352866E-2   -1.112000005100945E1
 3.065000000000000E7     2.653815918030787E-2   -1.110819355767652E1
 3.067500000000000E7     2.933087482454014E-2   -1.113058282464306E1
 3.070000000000000E7     2.714151692922591E-2   -1.113458974643027E1
 3.072500000000000E7     2.958390340066595E-2   -1.115565098864020E1
 3.075000000000000E7     2.752006654217076E-2   -1.114640880554871E1
 3.077500000000000E7     2.749028519724836E-2   -1.115388014066532E1
 3.080000000000000E7     2.990367036558608E-2   -1.117115048623436E1
 3.082500000000000E7     2.802033357792004E-2   -1.116567432126692E1
 3.085000000000000E7     2.919298587257354E-2   -1.119397290875359E1
 3.087500000000000E7     2.830682664718206E-2   -1.119305732656370E1
 3.090000000000000E7     2.691123111198104E-2   -1.119801915041736E1
 3.092500000000000E7     2.733353032685151E-2   -1.122188668148187E1
 3.095000000000000E7     2.709755750248985E-2   -1.123957955305455E1
 3.097500000000000E7     2.877866182160132E-2   -1.123975099822834E1
 3.100000000000000E7     2.660281843545997E-2   -1.123899906828362E1
 3.102500000000000E7     2.851439817684275E-2   -1.125274065492626E1
 3.105000000000000E7     2.855556240902019E-2   -1.126376245901341E1
 3.107500000000000E7     2.877527144185884E-2   -1.127045249023560E1
 3.110000000000000E7     2.699325406699671E-2   -1.127623502538340E1
 3.112500000000000E7     2.654763782021007E-2   -1.128338739900572E1
 3.115000000000000E7     2.702357495066799E-2   -1.128647816511299E1
 3.117500000000000E7     2.748446439080922E-2   -1.130683671626465E1
 3.120000000000000E7     2.865240543533152E-2   -1.131517505934044E1
 3.122500000000000E7     2.801841797353463E-2   -1.133425095747592E1
 3.125000000000000E7     2.915176557099194E-2   -1.132944138797117E1
 3.127500000000000E7     2.895277860340677E-2   -1.133959224908270E1
 3.130000000000000E7     2.941648699097893E-2   -1.135471130863025E1
 3.132500000000000E7     2.882643524160873E-2   -1.136055944173012E1
 3.135000000000000E7     2.930119438940870E-2   -1.136753917222415E1
 3.137500000000000E7     2.752282754513066E-2   -1.136759583385892E1
 3.140000000000000E7     2.792226655683971E-2   -1.138781220657394E1
 3.142500000000000E7     2.954151791429883E-2   -1.140034094448422E1
 3.145000000000000E7     2.802863320061225E-2   -1.140732954348477E1
 3.147500000000000E7     2.881860382217322E-2   -1.141245465844238E1
 3.150000000000000E7     2.829934725297767E-2   -1.142324332500187E1
 3.152500000000000E7     2.910570729643819E-2   -1.142828326774355E1
 3.155000000000000E7     2.920472413469714E-2   -1.144626761092952E1
 3.157500000000000E7     2.796835205342593E-2   -1.143976039492132E1
 3.160000000000000E7     2.916999591589944E-2   -1.146715451493605E1
 3.162500000000000E7     2.870376896040225E-2   -1.146658307523180E1
 3.165000000000000E7     3.005907752670515E-2   -1.146765747733472E1
 3.167500000000000E7     2.875858856597985E-2   -1.150015221074666E1
 3.170000000000000E7     2.896405743014923E-2   -1.148820581793497E1
 3.172500000000000E7     2.925243173993645E-2   -1.151113063483983E1
 3.175000000000000E7     2.922317055794649E-2   -1.152022603192789E1
 3.177500000000000E7     2.777724898150936E-2   -1.152493105667627E1
 3.180000000000000E7     2.726395845776785E-2   -1.153395363881907E1
 3.182500000000000E7     2.890218820404319E-2   -1.155116231329193E1
 3.185000000000000E7     2.801933406239561E-2   -1.155558966584762E1
 3.187500000000000E7     3.010289194611436E-2   -1.156512115289429E1
 3.190000000000000E7     2.976549895754842E-2   -1.157264484203923E1
 3.192500000000000E7     3.059024147067755E-2   -1.157578600547088E1
 3.195000000000000E7     2.856820998270270E-2   -1.159034154444979E1
 3.197500000000000E7     2.814479354914873E-2   -1.160257463561493E1
 3.200000000000000E7     2.806806966076910E-2   -1.162094215683602E1
 3.202500000000000E7     2.949163071714931E-2   -1.161083846814406E1
 3.205000000000000E7     2.987975425295752E-2   -1.163017682536594E1
 3.207500000000000E7     2.883519267849719E-2   -1.163356149902772E1
 3.210000000000000E7     2.917399263244389E-2   -1.164844637566696E1
 3.212500000000000E7     2.946856412271182E-2   -1.166037725822059E1
 3.215000000000000E7     2.928522247276535E-2   -1.166162569865906E1
 3.217500000000000E7     2.943493235331632E-2   -1.168257220290362E1
 3.220000000000000E7     2.957859395994212E-2   -1.168598684958342E1
 3.222500000000000E7     2.882162775624402E-2   -1.167974512192035E1
 3.225000000000000E7     2.863256908607782E-2   -1.168352934032875E1
 3.227500000000000E7     2.931202607642933E-2   -1.171145279788352E1
 3.230000000000000E7     3.029726589681405E-2   -1.171549933825505E1
 3.232500000000000E7     2.669124622081662E-2   -1.172170227534836E1
 3.235000000000000E7     2.970865678064708E-2   -1.172633886454129E1
 3.237500000000000E7     2.980303355197255E-2   -1.174951371197482E1
 3.240000000000000E7     3.102727810597449E-2   -1.174882925805354E1
 3.242500000000000E7     2.811246836608147E-2   -1.176423725346750E1
 3.245000000000000E7     2.869427971046448E-2   -1.177251686370684E1
 3.247500000000000E7     3.073997166065369E-2   -1.177316791071186E1
 3.250000000000000E7     2.982382307363117E-2   -1.178018899742848E1
 3.252500000000000E7     3.036348043883156E-2   -1.179681649040528E1
 3.255000000000000E7     2.992237698971565E-2   -1.180407115342319E1
 3.257500000000000E7     2.931709350563916E-2   -1.182319520146221E1
 3.260000000000000E7     2.843706351571461E-2   -1.182442825536296E1
 3.262500000000000E7     2.977741283583229E-2   -1.183972650180052E1
 3.265000000000000E7     2.927160465547932E-2   -1.184566949250956E1
 3.267500000000000E7     2.903049426600852E-2   -1.185237626504678E1
 3.270000000000000E7     2.847103907709173E-2   -1.187530358188502E1
 3.272500000000000E7     2.988439056682684E-2   -1.187659853948671E1
 3.275000000000000E7     2.926668632478015E-2   -1.187746156290689E1
 3.277500000000000E7     3.065121254659622E-2   -1.188676026626490E1
 3.280000000000000E7     2.887240453521254E-2   -1.190393190105872E1
 3.282500000000000E7     2.906286683185742E-2   -1.189855317677679E1
 3.285000000000000E7     3.011003989170331E-2   -1.193167610944046E1
 3.287500000000000E7     2.971431464788151E-2   -1.192912922871131E1
 3.290000000000000E7     2.846393316812605E-2   -1.192951063100275E1
 3.292500000000000E7     2.973928833449385E-2   -1.194467703890500E1
 3.295000000000000E7     2.912895115518963E-2   -1.195315506260189E1
 3.297500000000000E7     3.098511659550764E-2   -1.195846236342555E1
 3.300000000000000E7     2.933813610888936E-2   -1.196045203421974E1
 3.302500000000000E7     2.765661953875963E-2   -1.196479496042350E1
 3.305000000000000E7     2.912653113591853E-2   -1.199527367943809E1
 3.307500000000000E7     2.834668674841943E-2   -1.199950684929889E1
 3.310000000000000E7     2.970532418265171E-2   -1.200211784016002E1
 3.312500000000000E7     2.977471643449367E-2   -1.201704019881630E1
 3.315000000000000E7     2.901162960272019E-2   -1.202444256857406E1
 3.317500000000000E7     2.922344474857265E-2   -1.204647788627030E1
 3.320000000000000E7     2.834781145652364E-2   -1.204577790071393E1
 3.322500000000000E7     2.773533024002726E-2   -1.205838656505448E1
 3.325000000000000E7     2.951917326236311E-2   -1.206878187973875E1
 3.327500000000000E7     2.968836353292891E-2   -1.207938602543933E1
 3.330000000000000E7     2.825664972323302E-2   -1.208636034676238E1
 3.332500000000000E7     2.813060764108551E-2   -1.208371337013174E1
 3.335000000000000E7     2.911628737069499E-2   -1.210134156870872E1
 3.337500000000000E7     3.038433256590984E-2   -1.210084976849452E1
 3.340000000000000E7     3.060903245961427E-2   -1.212258480944424E1
 3.342500000000000E7     2.805023768554371E-2   -1.211977167871799E1
 3.345000000000000E7     3.012695968473341E-2   -1.213164889418718E1
 3.347500000000000E7     2.872281858023073E-2   -1.215224568621280E1
 3.350000000000000E7     3.026212690757241E-2   -1.215751883017956E1
 3.352500000000000E7     2.942868655322747E-2   -1.216716118604424E1
 3.355000000000000E7     3.099437497218891E-2   -1.217087445462056E1
 3.357500000000000E7     2.933690842152973E-2   -1.218958579216477E1
 3.360000000000000E7     2.962800219488335E-2   -1.218873921192903E1
 3.362500000000000E7     2.824139820728118E-2   -1.220654674561586E1
 3.365000000000000E7     3.059831757775477E-2   -1.221852542486883E1
 3.367500000000000E7     2.862943257384266E-2   -1.221930783822374E1
 3.370000000000000E7     3.065841250342218E-2   -1.223116325751493E1
 3.372500000000000E7     2.995114275303846E-2   -1.223199272687796E1
 3.375000000000000E7     2.919463136819053E-2   -1.223780163045903E1
 3.377500000000000E7     2.884185434460498E-2   -1.225965114676289E1
 3.380000000000000E7     3.059891040662700E-2   -1.226580473664617E1
 3.382500000000000E7     2.861338623345201E-2   -1.227908238890109E1
 3.385000000000000E7     3.043957080689843E-2   -1.228824635705199E1
 3.387500000000000E7     2.977403657021725E-2   -1.230015530989176E1
 3.390000000000000E7     3.001803410904907E-2   -1.231217273716914E1
 3.392500000000000E7     3.048713324762397E-2   -1.230444457804192E1
 3.395000000000000E7     3.035374405889926E-2   -1.231737535107636E1
 3.397500000000000E7     2.985932930514942E-2   -1.233033316637925E1
 3.400000000000000E7     2.880119098055286E-2   -1.233666202844960E1
 3.402500000000000E7     3.100335892004934E-2   -1.235080761277502E1
 3.405000000000000E7     2.889033563363263E-2   -1.235801892176964E1
 3.407500000000000E7     2.947487688932177E-2   -1.236198087408722E1
 3.410000000000000E7     3.024069524469824E-2   -1.236727637418502E1
 3.412500000000000E7     3.054830885794335E-2   -1.238930080387047E1
 3.415000000000000E7     2.965837902707676E-2   -1.240717516714258E1
 3.417500000000000E7     2.982817943538509E-2   -1.239743540526803E1
 3.420000000000000E7     3.052560119268022E-2   -1.241390385942592E1
 3.422500000000000E7     3.067447619415493E-2   -1.242687077688180E1
 3.425000000000000E7     3.007951924078477E-2   -1.242729690935838E1
 3.427500000000000E7     2.941155160779440E-2   -1.245110559964936E1
 3.430000000000000E7     2.983357612650569E-2   -1.244930187630158E1
 3.432500000000000E7     2.937049267883421E-2   -1.246286752527777E1
 3.435000000000000E7     3.021757654109730E-2   -1.247629062152141E1
 3.437500000000000E7     2.943860106209759E-2   -1.248290200590687E1
 3.440000000000000E7     2.893038459339003E-2   -1.248566366942940E1
 3.442500000000000E7     2.956164078937953E-2   -1.250108030713126E1
 3.445000000000000E7     3.018768339547368E-2   -1.252077215186722E1
 3.447500000000000E7     3.010719643315105E-2   -1.250496513780478E1
 3.450000000000000E7     2.924641380566180E-2   -1.252839993530358E1
 3.452500000000000E7     2.801595752084019E-2   -1.254722146259296E1
 3.455000000000000E7     2.956367601493079E-2   -1.254241277683734E1
 3.457500000000000E7     3.062740494904808E-2   -1.256211167792813E1
 3.460000000000000E7     2.906380468437896E-2   -1.256053545648085E1
 3.462500000000000E7     3.080221397067738E-2   -1.257635033882827E1
 3.465000000000000E7     2.989392155490531E-2   -1.257122710782844E1
 3.467500000000000E7     2.988243239177398E-2   -1.258670993612147E1
 3.470000000000000E7     3.014486120899101E-2   -1.259673899721475E1
 3.472500000000000E7     3.036310444709340E-2   -1.261942498228906E1
 3.475000000000000E7     3.094061994183297E-2   -1.261642320444362E1
 3.477500000000000E7     2.928588207261684E-2   -1.263578236332686E1
 3.480000000000000E7     3.034888911656953E-2   -1.263817874577747E1
 3.482500000000000E7     2.973107102812855E-2   -1.264796534256439E1
 3.485000000000000E7     2.892507012609024E-2   -1.265236289494996E1
 3.487500000000000E7     2.909000318650443E-2   -1.265896286356299E1
 3.490000000000000E7     3.059886287968578E-2   -1.266796059627944E1
 3.492500000000000E7     2.947317294554708E-2   -1.268235297706291E1
 3.495000000000000E7     2.905710149378765E-2   -1.269208194214665E1
 3.497500000000000E7     3.069274595311760E-2   -1.270062808777572E1
 3.500000000000000E7     2.901527133848041E-2   -1.271092107896650E1
 3.502500000000000E7     2.983477317067922E-2   -1.270663478540299E1
 3.505000000000000E7     3.025018468227464E-2   -1.271530787837193E1
 3.507500000000000E7     3.071628343620866E-2   -1.274745924046399E1
 3.510000000000000E7     2.862568133461802E-2   -1.274648903042529E1
 3.512500000000000E7     2.999380597102773E-2   -1.274467305662232E1
 3.515000000000000E7     2.986316244089009E-2   -1.277173075928203E1
 3.517500000000000E7     2.999196200763821E-2   -1.276860361088855E1
 3.520000000000000E7     3.224465936902975E-2   -1.278531720394125E1
 3.522500000000000E7     2.987350627043355E-2   -1.278330830173504E1
 3.525000000000000E7     2.915492200641762E-2   -1.280355194393197E1
 3.527500000000000E7     3.113920327745122E-2   -1.280893616376982E1
 3.530000000000000E7     3.052765658583114E-2   -1.281823284500287E1
 3.532500000000000E7     3.093603810515527E-2   -1.283539128922761E1
 3.535000000000000E7     2.863012825622512E-2   -1.283442660128280E1
 3.537500000000000E7     2.969419803847451E-2   -1.285245934859981E1
 3.540000000000000E7     2.809645678438960E-2   -1.285983092957153E1
 3.542500000000000E7     2.950756827939222E-2   -1.287163732113283E1
 3.545000000000000E7     3.129307483539462E-2   -1.288338535740246E1
 3.547500000000000E7     3.042949370679934E-2   -1.289046506182832E1
 3.550000000000000E7     2.935105412327390E-2   -1.290046850659342E1
 3.552500000000000E7     2.887269018579965E-2   -1.290090112252220E1
 3.555000000000000E7     2.829169591491251E-2   -1.292003077501057E1
 3.557500000000000E7     3.089884891008569E-2   -1.292264522258669E1
 3.560000000000000E7     3.115706940591161E-2   -1.291580634748580E1
 3.562500000000000E7     3.040334692509649E-2   -1.292454376363252E1
 3.565000000000000E7     3.012266126876186E-2   -1.294907300009391E1
 3.567500000000000E7     2.903538012452528E-2   -1.295546143634207E1
 3.570000000000000E7     3.136668868710499E-2   -1.298554371889749E1
 3.572500000000000E7     2.932960148899264E-2   -1.297819245433823E1
 3.575000000000000E7     2.848451895921786E-2   -1.297932355447170E1
 3.577500000000000E7     2.912304063978683E-2   -1.299259015957359E1
 3.580000000000000E7     2.995309259621004E-2   -1.299603964270911E1
 3.582500000000000E7     2.840380504025273E-2   -1.301358321486045E1
 3.585000000000000E7     2.996855056373620E-2   -1.301765037518428E1
 3.587500000000000E7     2.943791611649016E-2   -1.303663392685778E1
 3.590000000000000E7     2.936786440259803E-2   -1.303224894495566E1
 3.592500000000000E7     3.005834341491525E-2   -1.306470342335363E1
 3.595000000000000E7     3.078303230465158E-2   -1.305449397295119E1
 3.597500000000000E7     2.989341548454867E-2   -1.306813251049048E1
 3.600000000000000E7     2.922890477956648E-2   -1.307268880109763E1
 3.602500000000000E7     2.992545770572504E-2   -1.307908397425970E1
 3.605000000000000E7     2.965526976045763E-2   -1.309870411914041E1
 3.607500000000000E7     2.897344047438154E-2   -1.311700159338560E1
 3.610000000000000E7     2.919268154494612E-2   -1.310778117927023E1
 3.612500000000000E7     2.978117173073502E-2   -1.312195935010550E1
 3.615000000000000E7     2.902821699542624E-2   -1.313365374131926E1
 3.617500000000000E7     2.976068601902507E-2   -1.313766767413322E1
 3.620000000000000E7     3.076674723263794E-2   -1.315744894076312E1
 3.622500000000000E7     2.880386329934949E-2   -1.315878140697792E1
 3.625000000000000E7     3.000911100229292E-2   -1.318091960501448E1
 3.627500000000000E7     3.045724984371237E-2   -1.316740483160211E1
 3.630000000000000E7     3.097369527082636E-2   -1.318605073107226E1
 3.632500000000000E7     3.015830466945254E-2   -1.319435352980639E1
 3.635000000000000E7     3.059886482238611E-2   -1.320899323030895E1
 3.637500000000000E7     2.935286729590465E-2   -1.322003832622353E1
 3.640000000000000E7     2.951513715091566E-2   -1.322409760910418E1
 3.642500000000000E7     3.103857253760948E-2   -1.323447462684827E1
 3.645000000000000E7     2.895317895352122E-2   -1.325304208607343E1
 3.647500000000000E7     2.835784300345499E-2   -1.325726226625087E1
 3.650000000000000E7     2.896200866597614E-2   -1.327280679061036E1
 3.652500000000000E7     2.935778992586080E-2   -1.327403122836813E1
 3.655000000000000E7     3.116517177833752E-2   -1.328430732918359E1
 3.657500000000000E7     2.946154651014139E-2   -1.328171385276198E1
 3.660000000000000E7     2.804429060349131E-2   -1.329710880682196E1
 3.662500000000000E7     3.143526911214777E-2   -1.330371269678571E1
 3.665000000000000E7     2.999932849471878E-2   -1.332098515057774E1
 3.667500000000000E7     3.069009599685554E-2   -1.332560668417558E1
 3.670000000000000E7     3.083216743168564E-2   -1.333690796148636E1
 3.672500000000000E7     2.806621368785639E-2   -1.334386756553169E1
 3.675000000000000E7     2.883470432318347E-2   -1.335056901321365E1
 3.677500000000000E7     3.156557094031205E-2   -1.336810774639506E1
 3.680000000000000E7     2.927029644814894E-2   -1.337661203566118E1
 3.682500000000000E7     2.940847522473982E-2   -1.338286462545336E1
 3.685000000000000E7     2.939302221618382E-2   -1.339260206698829E1
 3.687500000000000E7     2.991001235419835E-2   -1.341211306536357E1
 3.690000000000000E7     2.891375891758319E-2   -1.340972807512494E1
 3.692500000000000E7     2.927441740796639E-2   -1.341890444455003E1
 3.695000000000000E7     2.860295800695938E-2   -1.342257832512048E1
 3.697500000000000E7     3.059679836273211E-2   -1.343927647269960E1
 3.700000000000000E7     2.915625902237477E-2   -1.344555248667937E1
 3.702500000000000E7     2.945408671032402E-2   -1.346058200264139E1
 3.705000000000000E7     3.010012813705037E-2   -1.347377460850967E1
 3.707500000000000E7     2.858266531922685E-2   -1.346831142163276E1
 3.710000000000000E7     2.988493899312747E-2   -1.349370624284147E1
 3.712500000000000E7     2.950590062587735E-2   -1.349545725503441E1
