#  HZ   S   DB   R     50.00 
! Rohde & Schwarz Vector Network Analyzer 
! Rohde-Schwarz,ZNB8-4Port,1311601044102961,2.82
! Created: UTC 2/11/2019, 2:16:19 PM
! freq[Hz]                db:S11                  ang:S11
 3.000000000000000E7    -7.920336728927720E-3   -1.222070660554415E1
 3.002500000000000E7    -5.712723679838172E-3   -1.223379516242006E1
 3.005000000000000E7    -6.993958551369989E-3   -1.226000034100797E1
 3.007500000000000E7    -7.083123556424965E-3   -1.226586343421905E1
 3.010000000000000E7    -7.974299871845919E-3   -1.228443985366222E1
 3.012500000000000E7    -7.107340193230878E-3   -1.229787761763686E1
 3.015000000000000E7    -7.065175283576436E-3   -1.229118446051690E1
 3.017500000000000E7    -7.036177036972854E-3   -1.231198786807120E1
 3.020000000000000E7    -7.040971342832857E-3   -1.233089685164962E1
 3.022500000000000E7    -5.844230782822410E-3   -1.232660777687782E1
 3.025000000000000E7    -4.212617429066397E-3   -1.232599018954675E1
 3.027500000000000E7    -9.621128307252216E-3   -1.234986554537201E1
 3.030000000000000E7    -7.869540232730714E-3   -1.235760648778477E1
 3.032500000000000E7    -7.464075797260725E-3   -1.236585981064166E1
 3.035000000000000E7    -8.210393427184064E-3   -1.239124710122461E1
 3.037500000000000E7    -9.005026089218731E-3   -1.239836971901019E1
 3.040000000000000E7    -9.051815950796108E-3   -1.240132219286271E1
 3.042500000000000E7    -6.641192531830065E-3   -1.241061885367330E1
 3.045000000000000E7    -6.945302579621502E-3   -1.242186589045849E1
 3.047500000000000E7    -6.631440918662716E-3   -1.243034958697395E1
 3.050000000000000E7    -8.836801261423702E-3   -1.244428405437248E1
 3.052500000000000E7    -5.002857597276906E-3   -1.244008350644866E1
 3.055000000000000E7    -9.405101724259523E-3   -1.247760636963934E1
 3.057500000000000E7    -7.130994187783284E-3   -1.247889856224935E1
 3.060000000000000E7    -7.979634560456214E-3   -1.246955400682867E1
 3.062500000000000E7    -7.199823225107603E-3   -1.251135233994383E1
 3.065000000000000E7    -8.310478581742551E-3   -1.249713804658754E1
 3.067500000000000E7    -7.548729090641113E-3   -1.252205534136420E1
 3.070000000000000E7    -8.134432353377725E-3   -1.252819750934583E1
 3.072500000000000E7    -6.721499063565618E-3   -1.254641870986240E1
 3.075000000000000E7    -9.718650986871320E-3   -1.254213102922863E1
 3.077500000000000E7    -7.453469229024768E-3   -1.254792604776211E1
 3.080000000000000E7    -7.029708563884459E-3   -1.256380211832897E1
 3.082500000000000E7    -7.774967573479420E-3   -1.256542111682060E1
 3.085000000000000E7    -7.056935350613801E-3   -1.258910455253285E1
 3.087500000000000E7    -6.098164252563709E-3   -1.260089100756210E1
 3.090000000000000E7    -6.370784183010137E-3   -1.260519945431998E1
 3.092500000000000E7    -8.210470607881599E-3   -1.262031273644288E1
 3.095000000000000E7    -7.529089161504942E-3   -1.264841592817079E1
 3.097500000000000E7    -8.380300026032111E-3   -1.264029109976159E1
 3.100000000000000E7    -9.089620860267607E-3   -1.264638602830700E1
 3.102500000000000E7    -7.590458625686546E-3   -1.265544400648203E1
 3.105000000000000E7    -7.731814133006692E-3   -1.267114209204582E1
 3.107500000000000E7    -7.132828759873468E-3   -1.267641486296252E1
 3.110000000000000E7    -9.878010514681151E-3   -1.268510387090793E1
 3.112500000000000E7    -9.597086002797978E-3   -1.270068568269514E1
 3.115000000000000E7    -9.802037467819944E-3   -1.270512827120909E1
 3.117500000000000E7    -8.771010461617363E-3   -1.271677049658957E1
 3.120000000000000E7    -7.807819727398743E-3   -1.272787447360589E1
 3.122500000000000E7    -9.380587378488492E-3   -1.275371643618946E1
 3.125000000000000E7    -7.542829698746511E-3   -1.275276592164381E1
 3.127500000000000E7    -8.255842484368729E-3   -1.275605492224285E1
 3.130000000000000E7    -7.255384456241562E-3   -1.277284560444880E1
 3.132500000000000E7    -7.907037534426079E-3   -1.278122880289621E1
 3.135000000000000E7    -7.544916402047224E-3   -1.278902530978659E1
 3.137500000000000E7    -7.811966344909520E-3   -1.278632651345010E1
 3.140000000000000E7    -7.615851931341904E-3   -1.280573097993990E1
 3.142500000000000E7    -7.222077098210287E-3   -1.281811575269163E1
 3.145000000000000E7    -8.582459188281710E-3   -1.282755585824702E1
 3.147500000000000E7    -7.172305292401447E-3   -1.283514112600120E1
 3.150000000000000E7    -7.706663036045684E-3   -1.285475273083421E1
 3.152500000000000E7    -8.514557245405098E-3   -1.286451932876212E1
 3.155000000000000E7    -7.451861463585977E-3   -1.287652441251155E1
 3.157500000000000E7    -7.592101847129665E-3   -1.287871312022647E1
 3.160000000000000E7    -7.440333716461769E-3   -1.290400600634859E1
 3.162500000000000E7    -7.515692946397241E-3   -1.289876523925923E1
 3.165000000000000E7    -7.913962865740256E-3   -1.290251581740311E1
 3.167500000000000E7    -7.505832552121912E-3   -1.293539082459792E1
 3.170000000000000E7    -9.060570951419818E-3   -1.292001020837257E1
 3.172500000000000E7    -7.649742502091861E-3   -1.294624929512830E1
 3.175000000000000E7    -8.213803570396803E-3   -1.295805711465692E1
 3.177500000000000E7    -8.617359585753834E-3   -1.296051023013002E1
 3.180000000000000E7    -1.032410972829229E-2   -1.297462486986920E1
 3.182500000000000E7    -8.558353801853193E-3   -1.299430096259409E1
 3.185000000000000E7    -8.463241293554210E-3   -1.300286120760984E1
 3.187500000000000E7    -5.577811603228575E-3   -1.299703684772335E1
 3.190000000000000E7    -7.921744571842733E-3   -1.301433140355361E1
 3.192500000000000E7    -6.901834587986765E-3   -1.302089425319885E1
 3.195000000000000E7    -8.636735406097428E-3   -1.304148197132388E1
 3.197500000000000E7    -8.328831558269918E-3   -1.304930982027456E1
 3.200000000000000E7    -9.917186402410528E-3   -1.306834681934548E1
 3.202500000000000E7    -7.903820765323880E-3   -1.306050783865041E1
 3.205000000000000E7    -7.445870129921192E-3   -1.308048950685130E1
 3.207500000000000E7    -8.423537084629196E-3   -1.308535952474869E1
 3.210000000000000E7    -8.198207884952591E-3   -1.309549378544179E1
 3.212500000000000E7    -9.008137339945360E-3   -1.311454935711759E1
 3.215000000000000E7    -7.978410169172320E-3   -1.311807456979669E1
 3.217500000000000E7    -7.856511768788642E-3   -1.313300013701543E1
 3.220000000000000E7    -6.889396817635235E-3   -1.314357805033481E1
 3.222500000000000E7    -7.830282110045692E-3   -1.314248464501608E1
 3.225000000000000E7    -8.639679546541336E-3   -1.314858238550813E1
 3.227500000000000E7    -7.753675738326995E-3   -1.316623709756654E1
 3.230000000000000E7    -7.103577535080390E-3   -1.317327513856334E1
 3.232500000000000E7    -9.454278794209224E-3   -1.319070468564354E1
 3.235000000000000E7    -7.346835598492572E-3   -1.319032867187359E1
 3.237500000000000E7    -8.520690936434027E-3   -1.321365486599261E1
 3.240000000000000E7    -6.711862499482543E-3   -1.322205482117656E1
 3.242500000000000E7    -9.461034887288519E-3   -1.323170587155721E1
 3.245000000000000E7    -7.911131391838498E-3   -1.324750121822778E1
 3.247500000000000E7    -7.074615711832233E-3   -1.324529440074263E1
 3.250000000000000E7    -8.346109188406324E-3   -1.325417980551442E1
 3.252500000000000E7    -7.129097206263237E-3   -1.326680748281701E1
 3.255000000000000E7    -8.061800812938277E-3   -1.327434641055658E1
 3.257500000000000E7    -7.616525710111353E-3   -1.330392106817386E1
 3.260000000000000E7    -8.108183881891214E-3   -1.330442865630972E1
 3.262500000000000E7    -8.035821200912813E-3   -1.332170837598290E1
 3.265000000000000E7    -7.879294428348296E-3   -1.331942914097661E1
 3.267500000000000E7    -9.216538670804729E-3   -1.333453869529749E1
 3.270000000000000E7    -8.627454631174472E-3   -1.335020724680206E1
 3.272500000000000E7    -7.727304960074269E-3   -1.336392084950247E1
 3.275000000000000E7    -7.171935679604626E-3   -1.335547444862648E1
 3.277500000000000E7    -7.165147052689021E-3   -1.337084820700157E1
 3.280000000000000E7    -9.971957544776448E-3   -1.338315369672533E1
 3.282500000000000E7    -9.886517266866846E-3   -1.339362306103442E1
 3.285000000000000E7    -7.952307978900012E-3   -1.342032578481037E1
 3.287500000000000E7    -7.997449999830640E-3   -1.341718808702019E1
 3.290000000000000E7    -9.826359973214327E-3   -1.341823991660450E1
 3.292500000000000E7    -8.904729284343084E-3   -1.343956733437073E1
 3.295000000000000E7    -7.937146183862787E-3   -1.344063995548884E1
 3.297500000000000E7    -8.064403109809451E-3   -1.344440860758637E1
 3.300000000000000E7    -8.122750862667135E-3   -1.345761739320062E1
 3.302500000000000E7    -8.168660931196163E-3   -1.346001464558359E1
 3.305000000000000E7    -8.741816683933784E-3   -1.349214523428301E1
 3.307500000000000E7    -8.939167705766219E-3   -1.349356108795852E1
 3.310000000000000E7    -8.985827279774622E-3   -1.350335527829840E1
 3.312500000000000E7    -7.730366498412911E-3   -1.351759153232792E1
 3.315000000000000E7    -8.941234137945179E-3   -1.352740521593477E1
 3.317500000000000E7    -8.965152376767389E-3   -1.354659458469360E1
 3.320000000000000E7    -1.045132068848339E-2   -1.353993223250588E1
 3.322500000000000E7    -1.032824933387583E-2   -1.356725271477000E1
 3.325000000000000E7    -9.038903166493664E-3   -1.357686388682616E1
 3.327500000000000E7    -8.846375517681073E-3   -1.357937152630752E1
 3.330000000000000E7    -9.547777446016457E-3   -1.359018322176267E1
 3.332500000000000E7    -9.358157203954269E-3   -1.359224441963783E1
 3.335000000000000E7    -8.411551233542106E-3   -1.360725133287362E1
 3.337500000000000E7    -7.122133443396429E-3   -1.361629768215405E1
 3.340000000000000E7    -7.687388092123063E-3   -1.363547305318744E1
 3.342500000000000E7    -9.459839411796619E-3   -1.363235063621913E1
 3.345000000000000E7    -7.411686259390120E-3   -1.364898240291005E1
 3.347500000000000E7    -9.250343955210036E-3   -1.366945302341850E1
 3.350000000000000E7    -7.856797492331645E-3   -1.367347701510423E1
 3.352500000000000E7    -8.334225939627384E-3   -1.368627232971748E1
 3.355000000000000E7    -5.409203352803397E-3   -1.369487209584368E1
 3.357500000000000E7    -8.605471365539793E-3   -1.370843459970893E1
 3.360000000000000E7    -7.612478790590119E-3   -1.371631211553357E1
 3.362500000000000E7    -9.379434913451511E-3   -1.373046985498573E1
 3.365000000000000E7    -7.706329110089540E-3   -1.374358319997560E1
 3.367500000000000E7    -1.029997243771846E-2   -1.373998450685079E1
 3.370000000000000E7    -7.710265786918200E-3   -1.375774457675878E1
 3.372500000000000E7    -7.926506441407182E-3   -1.375888679829551E1
 3.375000000000000E7    -9.587959084397786E-3   -1.377171927959041E1
 3.377500000000000E7    -9.380715763881617E-3   -1.379073459058685E1
 3.380000000000000E7    -8.131142575577077E-3   -1.378870445054698E1
 3.382500000000000E7    -9.303722257044771E-3   -1.380967320014873E1
 3.385000000000000E7    -8.244492591884296E-3   -1.381998618540943E1
 3.387500000000000E7    -9.306231128018060E-3   -1.383182651079137E1
 3.390000000000000E7    -8.617833889345738E-3   -1.384001179709570E1
 3.392500000000000E7    -7.394247837758328E-3   -1.384471028568737E1
 3.395000000000000E7    -9.536165680641303E-3   -1.385827934551951E1
 3.397500000000000E7    -8.797169898411303E-3   -1.387036529368491E1
 3.400000000000000E7    -9.726369340589968E-3   -1.387072533447548E1
 3.402500000000000E7    -8.608327285135022E-3   -1.389390196034055E1
 3.405000000000000E7    -8.727493479196878E-3   -1.389630420192399E1
 3.407500000000000E7    -1.051869742631003E-2   -1.390530130943890E1
 3.410000000000000E7    -8.877469022247120E-3   -1.390364090265693E1
 3.412500000000000E7    -7.676401357439350E-3   -1.392778948686277E1
 3.415000000000000E7    -9.969715457114382E-3   -1.395194098116815E1
 3.417500000000000E7    -8.992122451394852E-3   -1.394379773819753E1
 3.420000000000000E7    -8.181647717536248E-3   -1.395656766429062E1
 3.422500000000000E7    -8.697392396168372E-3   -1.397045154228187E1
 3.425000000000000E7    -9.246619773970852E-3   -1.396785551008053E1
 3.427500000000000E7    -9.388043791981505E-3   -1.399469728128601E1
 3.430000000000000E7    -8.521722161619023E-3   -1.400383624186665E1
 3.432500000000000E7    -8.893527595122394E-3   -1.401422481995334E1
 3.435000000000000E7    -9.869212522548507E-3   -1.402694453667031E1
 3.437500000000000E7    -8.221762512570036E-3   -1.404009212608584E1
 3.440000000000000E7    -9.666840834202880E-3   -1.403980718623798E1
 3.442500000000000E7    -9.987955145509687E-3   -1.405702442326349E1
 3.445000000000000E7    -7.698149921437849E-3   -1.407261667923157E1
 3.447500000000000E7    -9.447837074049890E-3   -1.406304590120584E1
 3.450000000000000E7    -9.174206662010562E-3   -1.409268348563579E1
 3.452500000000000E7    -1.061817511172514E-2   -1.409991405685476E1
 3.455000000000000E7    -9.648581428353530E-3   -1.410555094224985E1
 3.457500000000000E7    -8.087704551455643E-3   -1.412620376085025E1
 3.460000000000000E7    -9.907194398885148E-3   -1.412400082906052E1
 3.462500000000000E7    -8.546748353004476E-3   -1.413788872703905E1
 3.465000000000000E7    -9.070025934018233E-3   -1.414444482551490E1
 3.467500000000000E7    -8.953851274560012E-3   -1.416078540923484E1
 3.470000000000000E7    -8.730556208952087E-3   -1.416979046720072E1
 3.472500000000000E7    -8.718302409448413E-3   -1.418616445179380E1
 3.475000000000000E7    -7.596654714695114E-3   -1.418694363973840E1
 3.477500000000000E7    -1.016486472497693E-2   -1.419973175554987E1
 3.480000000000000E7    -1.005544317763697E-2   -1.420461446412675E1
 3.482500000000000E7    -8.872629079131148E-3   -1.422288854980380E1
 3.485000000000000E7    -9.203141109068251E-3   -1.422628570554453E1
 3.487500000000000E7    -9.885001305080535E-3   -1.423478121902679E1
 3.490000000000000E7    -8.637277948261980E-3   -1.424571417949367E1
 3.492500000000000E7    -8.186142182400297E-3   -1.425951633011150E1
 3.495000000000000E7    -9.362501635881499E-3   -1.427133060368122E1
 3.497500000000000E7    -8.532024725554590E-3   -1.428011857357347E1
 3.500000000000000E7    -9.427404499474325E-3   -1.429099085137259E1
 3.502500000000000E7    -9.128073765408891E-3   -1.429794848315547E1
 3.505000000000000E7    -9.639185676460882E-3   -1.429813298792633E1
 3.507500000000000E7    -7.681672390736864E-3   -1.433123562735391E1
 3.510000000000000E7    -1.065431217271198E-2   -1.432936852477494E1
 3.512500000000000E7    -8.616280140966218E-3   -1.433349594753266E1
 3.515000000000000E7    -9.355253430932270E-3   -1.435868108803633E1
 3.517500000000000E7    -9.017182373165981E-3   -1.435613199596050E1
 3.520000000000000E7    -7.245552309631672E-3   -1.437247199288560E1
 3.522500000000000E7    -9.590515348363941E-3   -1.437513500022150E1
 3.525000000000000E7    -9.493919914343865E-3   -1.439444747700554E1
 3.527500000000000E7    -8.487416785168300E-3   -1.439805119718632E1
 3.530000000000000E7    -7.139879538638434E-3   -1.441116944136889E1
 3.532500000000000E7    -8.572162208096402E-3   -1.442410137260382E1
 3.535000000000000E7    -1.064073694622325E-2   -1.442267143514344E1
 3.537500000000000E7    -9.880012606585423E-3   -1.444777762201355E1
 3.540000000000000E7    -1.030553583631765E-2   -1.445898292580928E1
 3.542500000000000E7    -9.850870509198454E-3   -1.447937474722350E1
 3.545000000000000E7    -7.509910630490215E-3   -1.448440114084957E1
 3.547500000000000E7    -9.484393690727316E-3   -1.448889033072988E1
 3.550000000000000E7    -8.688836830472882E-3   -1.449563049946306E1
 3.552500000000000E7    -1.027763653048237E-2   -1.451194167912993E1
 3.555000000000000E7    -1.111144405232666E-2   -1.452320729390466E1
 3.557500000000000E7    -7.866699976290900E-3   -1.452599182465830E1
 3.560000000000000E7    -9.438933132109575E-3   -1.452413995924084E1
 3.562500000000000E7    -7.924242507294826E-3   -1.453206557211153E1
 3.565000000000000E7    -9.345634192734370E-3   -1.454424863151851E1
 3.567500000000000E7    -8.559131505169406E-3   -1.455372551951738E1
 3.570000000000000E7    -9.365762907051156E-3   -1.458925440840953E1
 3.572500000000000E7    -8.452967865705314E-3   -1.458191059386011E1
 3.575000000000000E7    -1.093450818495134E-2   -1.458475676281547E1
 3.577500000000000E7    -9.852259064210280E-3   -1.460099751002281E1
 3.580000000000000E7    -9.959300425005008E-3   -1.460880716015148E1
 3.582500000000000E7    -1.069143657402710E-2   -1.463435071049727E1
 3.585000000000000E7    -9.248979820374625E-3   -1.463555290762924E1
 3.587500000000000E7    -1.177832904526128E-2   -1.465034050955477E1
 3.590000000000000E7    -9.367048279149111E-3   -1.465085304551786E1
 3.592500000000000E7    -8.283484368947979E-3   -1.467736702967253E1
 3.595000000000000E7    -9.081122720467070E-3   -1.468046854967627E1
 3.597500000000000E7    -9.422739471835048E-3   -1.468942433215418E1
 3.600000000000000E7    -1.070552100978810E-2   -1.469951554714304E1
 3.602500000000000E7    -9.484995916829792E-3   -1.470388915401994E1
 3.605000000000000E7    -1.005036300943516E-2   -1.472121792052733E1
 3.607500000000000E7    -8.839466951707524E-3   -1.473611901011067E1
 3.610000000000000E7    -1.061972583846003E-2   -1.472589731956522E1
 3.612500000000000E7    -1.014224560602925E-2   -1.474759014261609E1
 3.615000000000000E7    -1.037475656303626E-2   -1.476108567360157E1
 3.617500000000000E7    -9.935638304694319E-3   -1.476943172345596E1
 3.620000000000000E7    -9.167962249354825E-3   -1.478943159845427E1
 3.622500000000000E7    -1.019216336823379E-2   -1.478588748502788E1
 3.625000000000000E7    -9.594865742811218E-3   -1.480641058285668E1
 3.627500000000000E7    -8.451953197063534E-3   -1.480353459302020E1
 3.630000000000000E7    -8.678481306994730E-3   -1.481300243162343E1
 3.632500000000000E7    -9.943865113870279E-3   -1.482939134934277E1
 3.635000000000000E7    -8.339372676935818E-3   -1.484457751766217E1
 3.637500000000000E7    -1.025505948565860E-2   -1.484600071554107E1
 3.640000000000000E7    -9.295108447655754E-3   -1.486036564259407E1
 3.642500000000000E7    -8.552235575878539E-3   -1.488174110863935E1
 3.645000000000000E7    -1.000821423637934E-2   -1.488588179242138E1
 3.647500000000000E7    -1.102929608655006E-2   -1.490238665391899E1
 3.650000000000000E7    -1.082512431562612E-2   -1.490875336231172E1
 3.652500000000000E7    -1.068786209504863E-2   -1.491456343103743E1
 3.655000000000000E7    -9.493044621648966E-3   -1.492744815044217E1
 3.657500000000000E7    -1.100309207143223E-2   -1.493978963146961E1
 3.660000000000000E7    -1.089548629993279E-2   -1.494361304017058E1
 3.662500000000000E7    -8.066499324556872E-3   -1.495553717254180E1
 3.665000000000000E7    -9.046028877303887E-3   -1.496998548178856E1
 3.667500000000000E7    -8.637521466011001E-3   -1.496633423048982E1
 3.670000000000000E7    -9.415527249078244E-3   -1.499064531286049E1
 3.672500000000000E7    -1.142784559393289E-2   -1.500042320926996E1
 3.675000000000000E7    -1.040629633417135E-2   -1.500704861368718E1
 3.677500000000000E7    -7.928519708203755E-3   -1.502234444253895E1
 3.680000000000000E7    -9.050117438183951E-3   -1.503305698546249E1
 3.682500000000000E7    -1.003044970291648E-2   -1.504032447906510E1
 3.685000000000000E7    -9.994023700994004E-3   -1.504425944980918E1
 3.687500000000000E7    -9.444039722767316E-3   -1.507558522894712E1
 3.690000000000000E7    -9.964418870337097E-3   -1.506637414416681E1
 3.692500000000000E7    -9.432430376041943E-3   -1.508013556976148E1
 3.695000000000000E7    -1.008541731019579E-2   -1.508863166186519E1
 3.697500000000000E7    -9.000554843112131E-3   -1.510538547539900E1
 3.700000000000000E7    -1.054486342637919E-2   -1.511526157505195E1
 3.702500000000000E7    -1.005746918363135E-2   -1.513036504374695E1
 3.705000000000000E7    -9.579824415964775E-3   -1.513768153626352E1
 3.707500000000000E7    -9.949253491467091E-3   -1.513825954320313E1
 3.710000000000000E7    -1.074244992933664E-2   -1.515761494142225E1
 3.712500000000000E7    -9.196550558645281E-3   -1.516372902896901E1
