#  HZ   S   DB   R     50.00 
! Rohde & Schwarz Vector Network Analyzer 
! Rohde-Schwarz,ZNB8-4Port,1311601044102961,2.82
! Created: UTC 10/29/2018, 2:23:15 PM
! freq[Hz]                db:S11                  ang:S11                 db:S12                  ang:S12                 db:S13                  ang:S13
!                         db:S21                  ang:S21                 db:S22                  ang:S22                 db:S23                  ang:S23
!                         db:S31                  ang:S31                 db:S32                  ang:S32                 db:S33                  ang:S33
! 
 3.000000000000000E5    -2.414310123189630E1    -1.394051708274517E2    -1.071814736439813E2    -1.701291593415714E2    -1.032031498141374E2     5.029285138907853
                        -6.946523841865595      -1.118621300861592E2    -7.140313927264903E1    -7.038866439559847      -1.088940935547938E2     5.393246837003713E1
                        -7.486056562524921E1    -2.515369426204342E1    -1.088137997759515E2     5.640858626634392E1    -4.118314039343066E-3   -1.641242065008528

 3.010500000000000E5    -2.419879661558161E1    -1.396262361208059E2    -1.072769510554222E2     1.504741483705329E1    -9.921868132505969E1     1.024381155160130E2
                        -6.972152756516365      -1.121449986691571E2    -8.015694239652302E1    -4.201701673666292E1    -1.038927800364479E2     1.708624005250387E2
                        -7.489255430076247E1    -2.577075774011027E1    -1.037965455374585E2    -9.015460903974154E1    -3.213508376720518E-3   -1.651062230444533

 3.021000000000000E5    -2.417447703635826E1    -1.393278916742648E2    -1.055324593876099E2     3.436012269017114E1    -1.170700882850871E2     1.242588817504029E2
                        -6.994809428789179      -1.123563706684554E2    -7.737774892399843E1    -9.458085916380023      -1.043705886452148E2    -1.495571334252186E2
                        -7.499301134735127E1    -2.405019443116376E1    -1.035777538044062E2     5.214712560779602E1    -2.320872654830908E-3   -1.644952892876505

 3.031500000000000E5    -2.421965968422007E1    -1.392669105122637E2    -1.092072776770368E2     5.893933552355986E1    -1.108114859099167E2     1.657891162723479E2
                        -7.012498349417161      -1.125674352324453E2    -7.819524132340021E1    -5.209694468491326      -1.037379089926914E2    -9.237151768392569E1
                        -7.477371381917415E1    -2.398750280390146E1    -1.024569215181663E2    -1.430096022376172E2    -3.778022577449519E-3   -1.667153423310836

 3.042000000000000E5    -2.423558054632582E1    -1.391760713690114E2    -1.121298629699727E2    -1.210709417446056E2    -1.082198905727289E2    -4.199064562670967E1
                        -7.033613943791567      -1.128090440709249E2    -7.144754173440795E1     3.555581472128176E1    -1.020567574811002E2    -2.611756387314643E1
                        -7.479498421626745E1    -2.309671783110121E1    -1.055084042167325E2    -3.400190144764121E1    -2.484960423693697E-3   -1.690262222247174

 3.052500000000000E5    -2.422902142235618E1    -1.391855896258620E2    -1.056366191448063E2    -3.135546537043560E1    -1.060667789054684E2    -1.276742972680393E2
                        -7.049919877695220      -1.130326558970236E2    -6.834303551004727E1     3.771162167476875      -1.042532679625746E2     1.703818443564229E2
                        -7.481830799465628E1    -2.328154093763909E1    -1.132337575060017E2     1.474226214325658      -1.938291046687580E-3   -1.664564342102867

 3.063000000000000E5    -2.428038134607302E1    -1.389945738451615E2    -1.061629861141552E2    -3.055745423865422E1    -1.031913756142400E2     8.927587881284828E1
                        -7.072062941240748      -1.132489206425175E2    -7.443529227944207E1    -3.375677014175563E1    -1.095163538919437E2    -1.894549707908158E1
                        -7.464633430658962E1    -2.441474673947559E1    -1.040486974509779E2    -5.330920025581963E1    -2.445491465728333E-3   -1.671184163412878

 3.073500000000000E5    -2.425169915097421E1    -1.389759865830343E2    -1.102823761715135E2    -3.584050299327990E1    -1.081865887315718E2    -5.879831496090733
                        -7.090196862002816      -1.134291743855058E2    -8.343669784171115E1    -7.541289467116668E1    -1.031787088058547E2    -1.076332071195163E2
                        -7.499289873290269E1    -2.747449558867646E1    -1.020280498786859E2    -4.921348696673241      -2.650662247891738E-3   -1.682219834906600

 3.084000000000000E5    -2.428549341131788E1    -1.387509776967006E2    -1.154727873327893E2     4.452916959839023E1    -1.063824646076875E2    -2.546645382966853E1
                        -7.101041235892524      -1.136247119854460E2    -8.652734998780305E1     1.170527671559899E2    -1.021553328296357E2     1.603257020911190E2
                        -7.495107895773310E1    -2.750135560632372E1    -9.969927772484836E1     4.720449361800998E1    -1.778401035941838E-3   -1.698404192499494

 3.094500000000000E5    -2.428819652795165E1    -1.388483032549495E2    -1.100865213100001E2     3.071623376071787E1    -1.086934827220287E2    -7.061192435211135E1
                        -7.122507250828182      -1.138274434046383E2    -6.849532996730076E1    -3.877490499471305      -1.009292307182066E2    -6.245538964636933E1
                        -7.435678325412904E1    -2.468924337530526E1    -1.130809691602754E2    -1.779447555092213E2    -1.787967108497104E-3   -1.696624815406256

 3.105000000000000E5    -2.433078098258071E1    -1.385714273892382E2    -1.024682669080235E2    -3.741005861954285E1    -1.202408666316734E2    -1.539430891069829E2
                        -7.140672122483810      -1.140003090889703E2    -8.580860599291539E1    -8.697102871264310E1    -1.050840317512806E2     1.756068662035591E2
                        -7.458106317191528E1    -2.277234128561869E1    -1.042837597275995E2     9.529290910749840      -2.498254260603749E-3   -1.717483791229284

 3.115500000000000E5    -2.434152611832072E1    -1.385079409861537E2    -1.074024489678529E2    -1.460146866536264E1    -1.004890444573803E2     1.701434884147297E2
                        -7.151907386176399      -1.142116297234931E2    -7.230909112172965E1    -2.591863371493776E-1   -1.027096776735828E2    -4.530560221520584E1
                        -7.465159255699801E1    -2.666811201137924E1    -1.072412755112025E2    -9.997185232520691E1    -1.724233545724134E-3   -1.712351916454733

 3.126000000000000E5    -2.431105019805120E1    -1.383120939150080E2    -1.065165994645602E2    -2.425316761958000E1    -1.206564329979267E2     1.117445047631268E2
                        -7.166887929037681      -1.143933784683786E2    -7.105495959214396E1     3.890482780601738E1    -1.051493934560909E2     1.796463584613395E2
                        -7.469780726663552E1    -2.280876813229472E1    -1.033517707764495E2     5.765434334601518E1    -2.644092579046030E-3   -1.717558908644139

 3.136500000000000E5    -2.433201333825814E1    -1.380980883440266E2    -1.052725107234676E2    -7.956303676429826E1    -1.045088548175286E2     1.585863375680186E2
                        -7.184844624363284      -1.145414980982954E2    -7.020865342623767E1     5.124136391770815E1    -1.200475000745877E2     1.799482528402560E2
                        -7.471572810201697E1    -2.408342914952122E1    -1.044820214336046E2     4.376722638350059E1    -9.209047117250409E-4   -1.726615446516176

 3.147000000000000E5    -2.435177459501339E1    -1.381826751396785E2    -1.084330163144421E2     1.309628808338130E2    -1.136472635710253E2     1.703539287028154E2
                        -7.195445363211224      -1.147566335834140E2    -6.790598933742425E1     3.388785512829096E1    -9.966393213828339E1     8.038007860200871E1
                        -7.427549177549228E1    -2.428232931912314E1    -1.045800998362164E2     1.681485679477703E2    -1.291573187937568E-3   -1.736772904681871

 3.157500000000000E5    -2.432638551558325E1    -1.380583083815238E2    -1.082702651776560E2     8.440721921471004E1    -1.062940408442497E2     6.646394921198028E1
                        -7.206257192594711      -1.148930982652146E2    -7.802471311130861E1     2.178564560767163E1    -1.054162601253111E2    -1.000034490754485E2
                        -7.445829379243801E1    -2.577836178977368E1    -1.143556216935638E2    -1.648976026123276E2    -2.529376323941369E-3   -1.739369126055488

 3.168000000000000E5    -2.432090738500424E1    -1.381229663958616E2    -1.085694518419485E2     1.536741981153302E2    -1.110946425129348E2     1.644474798375448E2
                        -7.221658068615141      -1.150631271383882E2    -7.064126881883544E1     2.707572585414912E1    -1.067161159512686E2    -1.787533496651924E2
                        -7.473897578552612E1    -2.749867888219776E1    -1.044530254593078E2    -6.777648191447761E1    -7.261283734855354E-4   -1.738774572693564

 3.178500000000000E5    -2.432255824897135E1    -1.380491777844889E2    -1.068493504892013E2     2.681178218965559E1    -1.160182908098242E2     4.827471930300894E1
                        -7.232871570674635      -1.152600331843117E2    -8.789923801798841E1    -1.374865164118519E2    -1.120467551391334E2     1.393802499391954E2
                        -7.482476216178598E1    -2.591423208128550E1    -1.051394494043549E2    -1.492284796717191E2    -2.508180507400010E-3   -1.736467276721928

 3.189000000000000E5    -2.435491102591523E1    -1.379669815228890E2    -1.079441186336608E2     1.328039515526871E2    -1.070277851184650E2    -6.308826084214041E1
                        -7.241406033764619      -1.154151391203636E2    -6.510087355860701E1     4.589413559188546E1    -1.030595840454576E2    -1.285794190910594E1
                        -7.452610916334045E1    -2.903457655664144E1    -1.155059168305870E2     2.384505123254951E1    -2.779691089015221E-3   -1.762446654855364

 3.199500000000000E5    -2.434309749061285E1    -1.377560597941174E2    -1.084368233476292E2     9.225408829626602E1    -1.039884937273634E2     5.544831696985165E1
                        -7.249541477679859      -1.155782917259388E2    -7.606761094603334E1    -9.802478850365989E1    -1.113148283663606E2    -1.294594526949138E2
                        -7.439347135055431E1    -2.711008801726488E1    -1.035148970999521E2     4.222918295608846E1    -2.864142651848879E-3   -1.756171674824934

 3.210000000000000E5    -2.433794255194414E1    -1.376647642155745E2    -1.212917645008733E2     4.599612010724461E1    -1.070421157297860E2    -1.737309515587694E1
                        -7.260115957995634      -1.157299264329183E2    -8.021965760487612E1     5.254082386753455E1    -1.085611270553521E2     7.994935919196433E1
                        -7.455861592412316E1    -2.369112331633392E1    -1.105832829987709E2     1.785373390537484E2    -1.606167425522946E-3   -1.757479588876715

 3.220500000000000E5    -2.435244423745714E1    -1.377623167722196E2    -1.020873346259431E2    -4.694970033647589E1    -1.076264070099673E2     9.042006100646705E1
                        -7.270531283001804      -1.158863965153726E2    -7.206857364184273E1     2.323990837593730E1    -1.091566656433692E2    -1.454744616683570E2
                        -7.443372636875418E1    -2.821556717117401E1    -1.100467149125547E2    -1.149782941781940E2     1.372087808966864E-3   -1.773857639128646

 3.231000000000000E5    -2.435821428172911E1    -1.378006088771008E2    -1.118571692448441E2    -1.493039688000271E2    -1.121193482311148E2     5.342422561157844E1
                        -7.282929469083684      -1.160411251725748E2    -7.118511948985915E1     1.175536668996433E1    -1.133926128941927E2     8.928519882971948
                        -7.433538920022332E1    -2.934533905060911E1    -1.054316666576915E2    -6.111381074769862E1    -2.467547749222616E-3   -1.780305079708986

 3.241500000000000E5    -2.431392557982493E1    -1.376643517021372E2    -1.034153607272723E2    -5.395760155071925E1    -1.156466212258433E2     1.021764780257644E2
                        -7.287323538525557      -1.161893558315379E2    -7.019186195155965E1    -2.961797805448222      -1.017835787775273E2     1.136766707229573E2
                        -7.449151566163454E1    -2.580251015306050E1    -1.032163805011372E2    -1.040970796387361E2    -6.772453965966089E-4   -1.785669380256055

 3.252000000000000E5    -2.434405542641277E1    -1.374863267298510E2    -1.056733247864642E2    -1.611119574504488E2    -1.098856533088824E2    -1.575241702017205E2
                        -7.289991196637508      -1.163350497550594E2    -6.507686087879461E1     1.941556186493266E1    -1.054255671999093E2     8.210770966283027E1
                        -7.412833430809116E1    -2.966319123104534E1    -1.048831342548102E2     8.632697863709363E1    -7.502771185917906E-4   -1.781562947988112

 3.262500000000000E5    -2.433487637488155E1    -1.374260427896729E2    -1.076626582346266E2     1.107028852540318E2    -1.111849089909536E2    -1.088095169009551E2
                        -7.297873320368769      -1.164956466413350E2    -7.618909989438495E1     5.803705901197169E1    -1.078171169571632E2    -8.820891289288909E1
                        -7.414902652424718E1    -3.006661510736603E1    -1.039730966468776E2     1.580372755723319E2    -2.498977687956242E-3   -1.800923233977424

 3.273000000000000E5    -2.432732747562319E1    -1.371926376985197E2    -1.262028704612579E2    -2.395527167149905E1    -1.155607299528889E2    -9.460669655659207E1
                        -7.303263527889793      -1.166545334600173E2    -6.839656246382999E1     3.082537033983760E1    -1.024916283893056E2    -8.442311147992986E1
                        -7.400035965726323E1    -2.986837609951133E1    -1.006851463139223E2    -3.913582039932177E1    -4.120575496493145E-3   -1.799904563152146

 3.283500000000000E5    -2.430803315019829E1    -1.375048583797973E2    -1.108974592065404E2    -7.913156260858388E1    -1.126423388876331E2     1.575168861710839E2
                        -7.310607347054583      -1.168051657387806E2    -7.753299753293281E1     2.043246454837250E1    -1.093989490652143E2     2.874017840049620E1
                        -7.432093984146553E1    -2.725856157065162E1    -1.032699311744895E2     4.113532901393979E1    -1.709297247756559E-3   -1.810794269461438

 3.294000000000000E5    -2.430502893862918E1    -1.371654902807028E2    -1.058594898646885E2    -9.890840608178927      -1.094821881311436E2    -1.530747788355417E2
                        -7.314990317237754      -1.169313707023876E2    -6.654404414226835E1     3.466351835403690E1    -1.084987143361825E2     1.186397748381510E2
                        -7.418548596236094E1    -2.866250235091569E1    -1.054987379741573E2    -1.538241762008619E2    -1.428829293346374E-3   -1.821479974815761

 3.304500000000000E5    -2.430537769201231E1    -1.373248268559908E2    -1.080394303167341E2    -1.601678837499272E2    -1.098352927478694E2    -6.884294195922038
                        -7.317365471778016      -1.171070835194777E2    -6.668885641475416E1     4.000672532591967E1    -1.009461950408031E2    -4.478205952534171E1
                        -7.409930097524412E1    -2.795325054721934E1    -1.041376944060081E2     1.246634643261839E2    -3.386027762145321E-3   -1.813265936744173

 3.315000000000000E5    -2.428177974296773E1    -1.370235372782095E2    -1.051742596967740E2     1.427804989931670E2    -1.097536635832471E2     1.572476335079880E2
                        -7.325072695750048      -1.172138598784723E2    -7.292357642020805E1     4.268198112212089E1    -1.089684082472972E2    -2.986490711268506E1
                        -7.433754941956705E1    -2.883934707705440E1    -9.908846659647880E1     1.777237288623387E2    -2.982973216909553E-3   -1.816708976343161

 3.325500000000000E5    -2.429597722756791E1    -1.372233552399916E2    -1.122716066748819E2    -1.379081968068496E2    -1.123063685392551E2    -4.258443405112860E1
                        -7.328072882212443      -1.173715938582762E2    -7.767030321908057E1     3.091721516743656E1    -9.964971564888758E1     6.225568643399694E1
                        -7.468019755610958E1    -2.979877646407891E1    -9.613253907119946E1    -1.285178260905299E2    -1.706648835905224E-3   -1.832687769084120

 3.336000000000000E5    -2.430003018963194E1    -1.369523185186424E2    -1.166135908373963E2    -1.656706568653121E2    -1.082598005621776E2    -9.632649240550221E1
                        -7.329560640835724      -1.174964123368167E2    -7.208852988459222E1     4.878921281954982E1    -1.039858991037373E2     1.745016354992079E2
                        -7.420767627178476E1    -3.023365497279331E1    -1.111567092351875E2    -1.176720920531607E2    -1.220721043768527E-3   -1.832518701913074

 3.346500000000000E5    -2.427337441040226E1    -1.370449740231530E2    -1.173322039229043E2    -6.834872750027368E1    -1.137766553373927E2    -7.904656228461344E1
                        -7.332128054928791      -1.176614372102750E2    -6.852625462828820E1     6.682225977203819E1    -1.074925446883130E2     3.662109069353775E1
                        -7.437013819739516E1    -2.788748339687572E1    -1.043608233464691E2    -1.747979334136013E2    -1.005668796054096E-3   -1.855544088181128

 3.357000000000000E5    -2.428239102114617E1    -1.369994530270063E2    -1.138373010624699E2    -1.735799647414324E2    -1.122631240139613E2     5.579132340637179E1
                        -7.334809852761543      -1.177867980021788E2    -6.691521093354888E1     2.517233507577127E1    -1.106613531169894E2    -7.470577842025794E1
                        -7.414941387369777E1    -2.960654060519779E1    -9.842035851102509E1     1.312804437994200E2    -4.106296300398602E-4   -1.847184174163859

 3.367500000000000E5    -2.426035110135209E1    -1.369746067053986E2    -1.052471081686350E2     7.124273140035214E1    -1.108116180173758E2     7.175699455625707E1
                        -7.334241881494505      -1.179742442410192E2    -7.402878149547422E1    -6.121000308771985      -1.123589357465804E2     3.217211913561734E1
                        -7.446102302021983E1    -3.007514089322122E1    -1.020668377204798E2     8.285685208953727E1    -4.465121080978472E-3   -1.851199370584143

 3.378000000000000E5    -2.425753905813004E1    -1.371121103930091E2    -9.948776278463748E1     9.430690862586943E1    -1.105709734881881E2    -5.659980833840779E1
                        -7.337765098699608      -1.180970148296232E2    -7.339078885085777E1    -5.632805768607907E-1   -1.058201611595977E2     6.106316031525321E1
                        -7.427019724646250E1    -2.698808507447265E1    -1.069141238236676E2     3.409356180946529E1    -1.980355610006448E-3   -1.852801158566566

 3.388500000000000E5    -2.425313289813451E1    -1.370284612547085E2    -1.035834081652542E2     1.124058602825646E2    -1.131415677671620E2     2.002532164405628E1
                        -7.333996067697264      -1.182449948382753E2    -7.150716151153239E1     2.442189062218829E1    -1.115608530924176E2     3.260630392745109E1
                        -7.366313670627218E1    -2.844857468688246E1    -9.993994946655910E1     1.703296090485432E2    -1.486160624682779E-3   -1.866593825304748

 3.399000000000000E5    -2.421447188722198E1    -1.370848392435648E2    -1.129126386519850E2    -1.191072818267209E2    -1.118103467252242E2    -4.250661060625368E1
                        -7.337529421174370      -1.183870015083568E2    -7.207925000133501E1    -3.163641523855131E1    -1.193621612565815E2     1.025028200708827E2
                        -7.389234620042674E1    -3.137003687805605E1    -1.096232169511922E2    -8.401813187767734      -8.450562431176162E-4   -1.859913988014082

