#  HZ   S   DB   R     50.00 
! Rohde & Schwarz Vector Network Analyzer 
! Rohde-Schwarz,ZNB8-4Port,1311601044102961,2.82
! Created: UTC 10/29/2018, 10:38:25 AM
! freq[Hz]                db:S11                  ang:S11                 db:S12                  ang:S12                 db:S13                  ang:S13
!                         db:S21                  ang:S21                 db:S22                  ang:S22                 db:S23                  ang:S23
!                         db:S31                  ang:S31                 db:S32                  ang:S32                 db:S33                  ang:S33
! 
 3.000000000000000E5    -2.415952934783218E1    -1.391186715025902E2    -1.156703830016656E2    -1.307969896809117E2    -1.124479503533361E2     6.336652078729195E1
                        -6.979966711132119      -1.117722756816517E2    -6.832506190842199E1    -6.844098244956579E1    -1.032647525508389E2     1.003269527203336E2
                        -7.624630994798655E1    -2.616588361089885E1    -1.056455634921079E2     1.780292918310561E2    -2.986782148331368E-3   -1.667029226991441

 3.010500000000000E5    -2.417660057350286E1    -1.393206429175552E2    -1.012567114159927E2     1.327499676697197E1    -1.017347088107500E2     1.457180782513124E2
                        -7.002115685298803      -1.120509798957942E2    -7.180567178308203E1    -3.433547898413580E1    -1.016188921187542E2    -1.345166788095197E2
                        -7.592346217290464E1    -2.423526371433530E1    -1.033648199280868E2     1.797302825862132E2    -2.872128203197221E-3   -1.685439314421971

 3.021000000000000E5    -2.419025686690421E1    -1.391926721753492E2    -1.230236124791370E2    -1.769038293222290E2    -1.161875718202501E2     8.977439884494447E1
                        -7.021979865130299      -1.122756766742931E2    -7.079515752533396E1    -3.822111695638773E1    -1.143131639702729E2     8.638479226656632E1
                        -7.630368322666406E1    -2.172644472598009E1    -1.028418631761544E2     5.486375842775475E1    -1.705826668994488E-3   -1.662056220202296

 3.031500000000000E5    -2.418528638246203E1    -1.390783668331171E2    -1.092340504720326E2    -1.265857274626904      -1.060005741706748E2    -2.352782311409182E1
                        -7.038700223189336      -1.124632885009423E2    -7.484643804410437E1    -1.043148546274598E1    -1.031746910880046E2     1.123767387279732
                        -7.626949737685189E1    -2.399490019845189E1    -1.010879042670775E2     1.086448881045380E2    -4.400178637302410E-3   -1.694677481315824

 3.042000000000000E5    -2.423642175027219E1    -1.389788560690989E2    -1.032741695837655E2    -1.476030894672200E2    -1.007395909983854E2    -3.725080000879819E1
                        -7.060881192191556      -1.127021533596807E2    -6.906343215879952E1    -9.325431293518047E1    -1.090202047591906E2    -7.128427569885645E1
                        -7.607572333313996E1    -2.319409675515605E1    -1.037481629726543E2     1.437951230469950E2    -1.378264447818005E-3   -1.695973210111464

 3.052500000000000E5    -2.422274628238851E1    -1.388970564517957E2    -1.072947567739099E2     1.571619654493102E2    -1.107289665066213E2     1.356145538128014E2
                        -7.078026299684242      -1.129394355348381E2    -6.812490550424535E1    -2.829962300119265E1    -1.037592110257290E2     1.399548278988836E2
                        -7.667254739095426E1    -2.651655371317188E1    -1.035890062895641E2    -4.382066431691423E1    -7.385237498740429E-4   -1.674756746836548

 3.063000000000000E5    -2.425860158926718E1    -1.387272527416546E2    -1.096019999642988E2     1.574048134659621E1    -1.029322545619656E2    -1.552579336670369E2
                        -7.096001623772987      -1.131463692089351E2    -7.164319293369171E1    -3.737956617669822E1    -1.075129429242777E2     9.153463172715486E1
                        -7.636030725673690E1    -2.194466596159943E1    -1.035416356511613E2    -1.099853463778107E1    -1.646680396023370E-3   -1.692472957777247

 3.073500000000000E5    -2.424188202034939E1    -1.387243402003691E2    -1.071395160329138E2    -1.253277708049226E2    -1.123232143603666E2     1.495846764470515E2
                        -7.113781416935834      -1.133175515101487E2    -7.824471386171689E1    -3.696118285411527E1    -1.005855747900675E2    -3.727734634937200E1
                        -7.631973884681423E1    -2.501770264922329E1    -1.010075972725460E2    -2.345442599292653E1    -2.009363164612344E-3   -1.700036949617339

 3.084000000000000E5    -2.428842254222083E1    -1.385613641359194E2    -1.044322540975625E2    -1.920516457252085E1    -1.007591496079357E2    -4.348151663045575E1
                        -7.130744469644546      -1.135282641815026E2    -7.770026449159039E1    -1.697483495460848E1    -1.063323916708553E2    -7.692983917243269E1
                        -7.556050782812721E1    -2.888862724658172E1    -1.006895028517152E2     9.961427346842952E1    -1.219945640480524E-3   -1.708344276857073

 3.094500000000000E5    -2.431587251554090E1    -1.386489406046727E2    -1.041245390024990E2     1.418114578405695E2    -1.077836774297112E2    -9.937450678771292E1
                        -7.145589036493584      -1.137431679450841E2    -7.695971499784855E1    -2.405995762146068E1    -1.085746231096364E2     3.147451717782950E1
                        -7.587947940863548E1    -2.576074880768364E1    -1.156861228542622E2     8.652111773986320E1    -1.261433749742291E-3   -1.728831294721925

 3.105000000000000E5    -2.432713284631415E1    -1.382637536585983E2    -1.084432914281638E2    -4.821702780459312E1    -1.080355672718246E2     1.672144964738366E2
                        -7.164872038933159      -1.139147818754225E2    -7.345677072300697E1    -2.002859543310088E1    -1.001566623448940E2     8.805853480521833E1
                        -7.604273201741142E1    -2.183927377664006E1    -1.125765040522670E2    -7.813319697002064      -2.092501270349498E-3   -1.727601004972769

 3.115500000000000E5    -2.432535138304895E1    -1.383191957493542E2    -1.018584350551548E2     4.923462172645709E1    -1.016890385415052E2    -1.652905991597947E2
                        -7.177058400362536      -1.141129278255517E2    -7.278722562959915E1    -1.180045704871825E1    -1.008219004603489E2    -1.642862237266007E2
                        -7.645113096651920E1    -2.364904465851146E1    -1.068029175373741E2    -1.686831362845340E2    -3.202043276189820E-4   -1.722166180365304

 3.126000000000000E5    -2.429384239684060E1    -1.380577771524151E2    -1.065503930186774E2     2.130178928660553E1    -1.025763501152414E2    -1.452308533349760E1
                        -7.194498506002779      -1.142929011442529E2    -7.213676052466981E1    -7.499987284949622      -1.028489626590212E2     1.869609288516222E1
                        -7.601569199226574E1    -2.519502235111673E1    -1.010377313852554E2    -1.280370869455448E2    -2.081651201463625E-3   -1.738217693835207

 3.136500000000000E5    -2.431464387399193E1    -1.379427484012021E2    -1.117544641492577E2    -1.742004044393547E1    -1.071330259843322E2     4.933461801869846
                        -7.203350337927647      -1.144401098455033E2    -7.391677508423206E1     7.002787795895128      -9.886471138626456E1    -4.317394046374922E1
                        -7.649762457879581E1    -2.391336157853000E1    -1.076275471773515E2     4.655431646246373      -1.161147007390634E-3   -1.736822944674627

 3.147000000000000E5    -2.434841317842679E1    -1.379696861961272E2    -1.002479254435779E2     1.262071000847884E2    -1.046924601876396E2    -3.734062837830506E1
                        -7.219957067827227      -1.146568965658201E2    -6.544530495240001E1     1.242517435871822E1    -1.046895299132643E2     1.086085616866195E2
                        -7.615889908574278E1    -2.532247119203823E1    -1.048850359751729E2    -3.912125165606688E1    -3.518507849224790E-4   -1.747336270896023

 3.157500000000000E5    -2.432860808051775E1    -1.378090156282816E2    -1.137716055770518E2     1.106913937745218E2    -1.031989805684177E2    -1.083104623849617E2
                        -7.230196120508218      -1.148107431371628E2    -8.299119856096661E1    -4.964514436670254E-1   -1.159875821762650E2    -3.021490649330654
                        -7.615673889202472E1    -2.594571613704392E1    -1.067180258838515E2     4.645494557441883E1    -3.879265559281734E-3   -1.745405022281878

 3.168000000000000E5    -2.431398803752997E1    -1.378725782521751E2    -1.153889297725356E2     8.065668979551853E1    -1.077814318764660E2    -1.464872726032179E2
                        -7.246624477155543      -1.149601619674617E2    -7.301827042093316E1    -1.821754767726896E1    -1.106244580086630E2     1.300171536058333E1
                        -7.593916584747527E1    -2.612489529551844E1    -1.134211199846905E2     9.039415943334990E1    -1.174006690418879E-3   -1.763439980404345

 3.178500000000000E5    -2.432785285513996E1    -1.377865327457719E2    -1.026057335987781E2    -1.299723589544888E2    -1.075230426872872E2    -1.411338108225539E2
                        -7.254004122891137      -1.151493305388698E2    -7.589501972425006E1    -1.247617189906729E2    -1.087627994389757E2     2.039556268103661E1
                        -7.626943926079599E1    -3.069357398629686E1    -1.080780118370425E2    -1.206581874426375E2    -2.410933502906187E-3   -1.756792472538840

 3.189000000000000E5    -2.433380219621251E1    -1.377284609997476E2    -1.094391627368029E2    -1.488466275257547E2    -1.017817442934199E2    -1.674601106777502E2
                        -7.265349290232219      -1.153370784044451E2    -6.879105503059944E1     7.258612253526215      -1.074832077957952E2    -2.071614457482232
                        -7.609424137727818E1    -2.630594975806696E1    -1.096819046729648E2    -7.171390010235920E1    -1.864218046645005E-3   -1.779561952976890

 3.199500000000000E5    -2.432772968761032E1    -1.377903520447123E2    -1.069785361303096E2     1.286537540195359E2    -1.073169473771962E2    -7.870492305533779E1
                        -7.271499579007302      -1.154793741196282E2    -7.269992090001037E1    -9.540679822763364E1    -1.093026799694147E2     1.427080925451475E2
                        -7.619219837067793E1    -2.602690075338500E1    -1.015871383294260E2    -7.782161791175876E1    -1.666407082553245E-3   -1.773668849215134

 3.210000000000000E5    -2.432247210568972E1    -1.374662589211908E2    -1.081919820274749E2    -9.765016430035058E1    -1.271275113576309E2    -4.761638566207933E1
                        -7.286581020383260      -1.156154110558249E2    -8.520577953176770E1    -5.507416088490953E1    -1.011409328135214E2    -3.262776899094978E1
                        -7.576355393246597E1    -2.986230579286344E1    -1.020457077634450E2    -5.253274502553223E1    -2.143770259033734E-3   -1.780641448976930

 3.220500000000000E5    -2.433521204448958E1    -1.375026336009468E2    -9.978495166381134E1    -1.346064165999095E2    -1.217097979225066E2     3.212946756542921E1
                        -7.292766775289978      -1.157982359422437E2    -6.997733337629833E1    -1.197109236649038E1    -1.069817105756599E2     1.664262506674185E2
                        -7.622079495945579E1    -2.639842582583039E1    -1.073805317102841E2     1.338883657966523E2    -8.159255710801288E-4   -1.798613064955954

 3.231000000000000E5    -2.434084059438857E1    -1.375904778535503E2    -1.126053679863292E2     8.503408846592745E1    -1.056523980162295E2     3.100593936041349E1
                        -7.303563529167880      -1.159607866259281E2    -7.120873545892228E1    -2.979894328242514E1    -1.060043694064200E2     1.161220830892661E2
                        -7.610763878154488E1    -3.059744859950699E1    -1.134781326365844E2     6.920730896991691E1    -3.122063018890231E-3   -1.793661988687248

 3.241500000000000E5    -2.430171695850967E1    -1.373775551583067E2    -1.212978712330026E2     1.489743742167082E2    -9.951009253328621E1    -1.787123640608363E2
                        -7.310671112280131      -1.161317991928674E2    -6.653556037546987E1    -1.174936026534091E1    -1.041328691110759E2    -1.520491972617476E2
                        -7.590096114429750E1    -2.610677100937821E1    -9.945646246460981E1    -1.375708228875564E2    -3.020181149269267E-3   -1.802202233552212

 3.252000000000000E5    -2.433203717710119E1    -1.371086717384519E2    -1.039512958241271E2    -1.791073587538092E2    -1.074740082200088E2     1.176229033943613E2
                        -7.313965042403777      -1.162444188951582E2    -6.940739442349741E1     1.714756896307964E1    -1.039863907950816E2     1.277555085781816E2
                        -7.606858202860386E1    -2.933995367061585E1    -1.041981796880984E2    -4.925451007494562E1    -7.152979359278421E-4   -1.803616055611069

 3.262500000000000E5    -2.429415051977404E1    -1.373149045115144E2    -1.065050208802209E2     1.243966265792482E2    -1.046211713587939E2     1.724753864115008E2
                        -7.318783912942291      -1.164237403301307E2    -7.451009964877801E1     4.168096449360574E1    -9.982033743946785E1     6.924863115034873E1
                        -7.614982975720146E1    -3.023536682699493E1    -1.024172759502394E2    -9.243984441815829E1    -1.312903991397362E-3   -1.810209268902137

 3.273000000000000E5    -2.432615014666214E1    -1.368857964192778E2    -1.080442599238915E2     9.090629063034946E1    -1.044030116719181E2     6.940168955542390E1
                        -7.328910380084909      -1.165812592756290E2    -6.683265076545395E1    -7.901394767024853E-1   -1.001063053056122E2     5.490070552564372E1
                        -7.602556934981175E1    -2.975411026010406E1    -1.101854220970127E2     1.062898369435684E2    -9.598384263664194E-4   -1.813697388598364

 3.283500000000000E5    -2.429821622737817E1    -1.371759798302546E2    -1.103745354449116E2    -2.999449458944399E1    -1.105663504138081E2    -6.304571782771338E1
                        -7.336580861653900      -1.166997588337200E2    -8.674304675293595E1     1.736164805665705E2    -1.014792991969842E2     1.435690602652418E2
                        -7.626593055768703E1    -2.939515588546784E1    -1.091998785123064E2     1.724685111751436E2     4.266212170304360E-5   -1.834975825489273

 3.294000000000000E5    -2.432757921791446E1    -1.370865520680070E2    -1.105971616674931E2     1.261127372322004E2    -1.049822634500440E2     4.120795112159617E1
                        -7.339968760110214      -1.168590706658324E2    -6.736734055191421E1     2.982830636144745E1    -1.180982240641566E2    -1.192895140620472E2
                        -7.584971421303810E1    -2.526640870056288E1    -1.148328761659664E2     5.978398627379402E1    -1.728963071744582E-3   -1.840751710099534

 3.304500000000000E5    -2.429434512250859E1    -1.370997282728853E2    -1.094810317533762E2     8.576651568543059E1    -1.033014568388712E2     2.408249304593676E1
                        -7.339734787934734      -1.170114742485462E2    -7.106087705928410E1     2.693621447464825E1    -1.115698924482150E2     1.093661301642203E2
                        -7.558400859210033E1    -2.700367389080716E1    -9.502645124689639E1     5.159682911660225E1    -1.941529951788067E-3   -1.846373010632931

 3.315000000000000E5    -2.428285959142317E1    -1.368993934194711E2    -1.121202414839799E2     6.615456966367768E1    -1.173177305100124E2     1.310179371526249E2
                        -7.349419195846450      -1.171396418995157E2    -7.327992009762733E1    -6.345301438699648      -1.058993177553219E2     5.424020242010795E1
                        -7.578319198893129E1    -2.592879655212429E1    -1.099504801865988E2     1.782688185979610E2    -2.556410640016786E-3   -1.834139204394175

 3.325500000000000E5    -2.429596306764778E1    -1.368876834204597E2    -1.033061298690328E2     7.024853428804332E1    -1.083030477984237E2    -1.805941625297296E1
                        -7.348943639178479      -1.172813513677787E2    -7.425554183170073E1     2.488326453969886E1    -1.034145273142471E2     4.010300385806942E1
                        -7.588223029089066E1    -2.777623718901522E1    -1.063237734412276E2    -1.458152963746416E2    -2.233512567137831E-3   -1.844672440714532

 3.336000000000000E5    -2.426762988682152E1    -1.368017328282988E2    -1.031549250364042E2     1.476310394348528E2    -1.194088415874968E2     1.590727899661041E2
                        -7.349864009272825      -1.174061403765011E2    -7.572646582126519E1     7.595877865685685E1    -1.098025850756059E2     2.674404794742365E1
                        -7.560497954640084E1    -2.839562953674393E1    -1.018470560690104E2    -3.075133516534440E1    -3.069217503132379E-4   -1.851455693128125

 3.346500000000000E5    -2.425524289746393E1    -1.368993674839774E2    -1.118064212967473E2     5.466698836346187E1    -1.072692956787514E2    -1.360534016968687E1
                        -7.354963041486458      -1.175523519704575E2    -7.688812215764452E1     2.284553775108480E1    -1.004905259888027E2    -1.620073268457495E2
                        -7.571787580373891E1    -2.961387455866354E1    -1.113801970150975E2    -1.715964647866517E2    -1.532535525254706E-3   -1.866246006396505

 3.357000000000000E5    -2.425681049961955E1    -1.367644554968843E2    -1.023551696126120E2    -1.799247810605835E2    -1.027684809593493E2     1.311957794648670E2
                        -7.355451403801495      -1.177264949091491E2    -6.799913858357822E1     2.274662883850374E1    -1.160485760299979E2    -1.454403902276118E2
                        -7.566850591570962E1    -2.823797915365170E1    -1.051985580207366E2    -9.926399023000916E1    -3.436293574199990E-4   -1.867077229727769

 3.367500000000000E5    -2.424683642883919E1    -1.367947826580072E2    -1.033241269700564E2     1.635175336879587E2    -1.082185102094540E2     1.188601496176352E2
                        -7.358162948713273      -1.178757763186889E2    -6.929811703048928E1    -1.033619936846407E1    -1.153701694026538E2    -1.483006129951317E1
                        -7.546111867212022E1    -2.869928176394516E1    -1.018278258699717E2     1.319633339104143E2    -2.521263535636700E-3   -1.862923794474994

 3.378000000000000E5    -2.425821214799064E1    -1.369188721996326E2    -1.062659694853294E2    -1.501002763234129E2    -1.065090482235541E2    -3.175102912852005E1
                        -7.356320881710947      -1.180145268958795E2    -7.834795617913063E1    -7.290626762903469      -1.106907280818174E2    -1.203316977809520E2
                        -7.534988230725246E1    -2.974273256733359E1    -9.794362365718416E1     2.210749196154548E1    -2.599107086305979E-3   -1.881171476805318

 3.388500000000000E5    -2.425409627808137E1    -1.369178583543099E2    -1.052517820513419E2    -1.373533975152318E2    -1.048264807804998E2     1.771711913621453E2
                        -7.356131729288260      -1.181640125460607E2    -7.114281044140122E1    -2.053654823363269E1    -1.033287250556467E2    -1.656210595659262E2
                        -7.544027199135884E1    -3.073444463885110E1    -9.938969110277674E1     2.425749096252760E1    -2.814240692193301E-3   -1.883934163559629

 3.399000000000000E5    -2.420992543339136E1    -1.368523910564591E2    -1.181411748535798E2     9.039856368832405E1    -1.064629078968693E2    -5.807475580479590E1
                        -7.359579882551306      -1.182882668773249E2    -6.714473904539153E1    -3.214441306402607E1    -1.130595205583629E2     3.962073495837601
                        -7.539288004744763E1    -2.830274418145421E1    -1.038913885269114E2     1.329757566419276E2    -1.849114064765898E-3   -1.880985994235656

