#  HZ   S   DB   R     50.00 
! Rohde & Schwarz Vector Network Analyzer 
! Rohde-Schwarz,ZNB8-4Port,1311601044102961,2.82
! Created: UTC 10/29/2018, 10:53:34 AM
! freq[Hz]                db:S11                  ang:S11                 db:S12                  ang:S12                 db:S13                  ang:S13
!                         db:S21                  ang:S21                 db:S22                  ang:S22                 db:S23                  ang:S23
!                         db:S31                  ang:S31                 db:S32                  ang:S32                 db:S33                  ang:S33
! 
 3.000000000000000E5    -2.418336012839090E1    -1.401527993053676E2    -1.062787766787768E2     2.304438781191747E1    -1.175627020080899E2    -1.648722916536223E2
                        -6.937840542119051      -1.122051866444440E2    -6.991321940661040E1    -5.832588250137292E1    -1.044864176035529E2    -1.345683332731535E2
                        -7.531496959427341E1    -2.467627147675313E1    -9.940135278599472E1     9.052054309873813E1    -4.118539330363583E-3   -1.671701917023622

 3.010500000000000E5    -2.420736562360332E1    -1.402215209742176E2    -1.054745410713625E2    -4.670215039808979      -1.042031159821132E2    -2.591510819477413E1
                        -6.961562983666838      -1.124850711225194E2    -6.824515806568088E1    -5.202159633135899E1    -1.020381408489823E2     8.158735501476268E1
                        -7.520263327789920E1    -2.421620678688367E1    -1.051334053193442E2    -1.674378240463454E2    -2.815666768414984E-3   -1.675623757894841

 3.021000000000000E5    -2.420317195903714E1    -1.401019974917886E2    -1.063730118073365E2     3.480871734287947E1    -1.027666217370587E2     8.762110327728442E1
                        -6.981387679720752      -1.126796333857643E2    -6.517431271360215E1    -4.013544554649519E1    -1.012199961738936E2    -8.792090752703955E1
                        -7.510033962430452E1    -2.568342907959050E1    -1.025517673703152E2    -2.959799897197938E1    -2.847341363635095E-3   -1.671167425804284

 3.031500000000000E5    -2.424049679126896E1    -1.399867890777291E2    -1.071778849157522E2     6.870426047266304E1    -1.083797474565794E2     6.821671505991043E1
                        -6.999825799116585      -1.129013482531157E2    -7.745358715286582E1     5.710836533417561      -1.002758829690001E2     1.165957582534449E2
                        -7.487427978667051E1    -2.305129664957822E1    -1.010687615150950E2    -9.013250217487779E1    -3.544767425976393E-3   -1.690195486600468

 3.042000000000000E5    -2.425552310676769E1    -1.399548236999821E2    -1.064237417711773E2    -1.217600612645197E2    -1.015852871957252E2    -1.324110798725820E2
                        -7.026492803684193      -1.131298997881142E2    -6.630818774977404E1    -6.246556703020180E1    -1.096621992880713E2     8.351018278882943E1
                        -7.507828901685977E1    -2.360182547059804E1    -1.034759889227989E2    -5.687457313742519E1    -6.847550454410326E-4   -1.715513274142448

 3.052500000000000E5    -2.426996011720542E1    -1.399584522394504E2    -1.094330625873831E2    -1.632977865191186E1    -1.191523909183430E2    -1.603926187236559E2
                        -7.043719110629718      -1.133433620506680E2    -6.810670624412708E1    -5.078265911397212E1    -1.067705866751228E2    -1.141969500246327E2
                        -7.522472269040785E1    -2.548766340876902E1    -1.009980480401838E2     9.589798350017674      -8.292945281866632E-4   -1.682694234371746

 3.063000000000000E5    -2.428842723931865E1    -1.396402870605996E2    -1.098374678101633E2     4.887633944983608E1    -1.082839416253919E2     1.362426699557225E2
                        -7.064922224657151      -1.135697960497155E2    -7.569823207240130E1    -6.898460440269540E1    -1.039614142107782E2    -2.813781488441062E1
                        -7.484619411540670E1    -2.173859993289448E1    -1.158158619547584E2     1.105392786475829E2    -2.166157017663148E-3   -1.691493802321733

 3.073500000000000E5    -2.428431085589222E1    -1.395918470738261E2    -1.080723940786066E2     3.574475922113069E1    -1.077882266469518E2     1.266622567805393E2
                        -7.087007030709521      -1.137516849122904E2    -7.514170640604424E1    -5.517318518626228E1    -1.081557015811710E2    -1.373372147956587E1
                        -7.516647287752686E1    -2.786170446793910E1    -1.023838650271670E2    -7.115743613475654E1    -3.516873532230624E-3   -1.712810383953124

 3.084000000000000E5    -2.434037294616000E1    -1.395503024097570E2    -1.045927200172401E2     1.208679197082715E2    -1.023216152112559E2    -3.821875338226131E1
                        -7.106017152100645      -1.139383863079200E2    -7.457858474794492E1     7.749916364086964E1    -1.070604365277808E2    -1.460506438398313E2
                        -7.487286402373707E1    -2.708622014918966E1    -1.003513378999750E2    -1.873510010284927E1    -1.991147428211380E-3   -1.710951153784418

 3.094500000000000E5    -2.434445679212098E1    -1.394171003335447E2    -1.008833391914646E2    -1.545601722627126E2    -1.027089728113492E2     1.632375401871053E2
                        -7.124920949300817      -1.141229474123105E2    -7.581728362447015E1     1.603762471352803      -1.406761699360227E2    -1.187446947428987E2
                        -7.493700153738081E1    -2.331602347800996E1    -1.012203111883908E2     1.493040860722154E2    -1.185882126954692E-3   -1.717255632979186

 3.105000000000000E5    -2.435452560740728E1    -1.391831871858298E2    -1.112212995805421E2    -2.999882806068451E1    -9.975162934961065E1     1.503096946303859E2
                        -7.142548786840781      -1.143255454937298E2    -6.954454537115777E1     9.569050008117782E1    -1.055505615850179E2    -6.866898888886752E1
                        -7.510698224709179E1    -2.794868817446802E1    -1.022609078488181E2    -3.982555715073120E1    -1.500247753743466E-3   -1.736097790334352

 3.115500000000000E5    -2.436292807129546E1    -1.390498167067273E2    -1.168360944904287E2     3.921222824052877E1    -1.091178633303533E2    -1.305271243429608E1
                        -7.156938529558207      -1.144934368368432E2    -6.824102509595271E1    -3.278844419751296E1    -1.092708053731483E2     1.072671231175540E2
                        -7.531568318415881E1    -2.949428120484292E1    -1.062158832508583E2     1.278229770375792E1    -1.449648717251057E-3   -1.729331969213349

 3.126000000000000E5    -2.432192328545336E1    -1.389873915782031E2    -1.034993588920752E2     7.633067643776616E1    -1.095132818677297E2    -1.143645088979759E1
                        -7.173343993227473      -1.146613568693425E2    -7.311335836902968E1    -9.813070764704571      -1.107592896938527E2    -9.075746371693211E1
                        -7.514992321125082E1    -2.701343500147346E1    -1.069441756080206E2    -3.487952537819028E1    -1.963367422713785E-3   -1.751508411979190

 3.136500000000000E5    -2.435980239086139E1    -1.387200039427139E2    -1.024799181427154E2     1.414043384960581E2    -1.084874810161406E2    -7.642652824513898E1
                        -7.189160893715600      -1.148436574184124E2    -7.270930136112472E1    -2.756667914026624E1    -1.079558236758194E2    -6.648860974111016E-1
                        -7.456045151039136E1    -2.916849404456751E1    -1.047238938407091E2    -2.360298326796819E1     8.342009313913729E-4   -1.746328812692231

 3.147000000000000E5    -2.440653431241249E1    -1.386967153609327E2    -1.019164895683363E2    -1.333180070335369E2    -1.042121073602011E2     7.258570457117598E1
                        -7.202565852325251      -1.150031329575944E2    -6.854917417593833E1    -2.233048409564297E1    -1.006518886532250E2     1.408386049615231E2
                        -7.503431137624615E1    -2.771417930437444E1    -9.981788067186854E1     1.697778805943664E2    -1.800170119522321E-3   -1.758279943736356

 3.157500000000000E5    -2.436268569495869E1    -1.385865897355639E2    -1.097592114069961E2    -7.460759456744530E1    -1.024580273137212E2    -6.932487172186601
                        -7.215809405357136      -1.151910960735674E2    -8.199832425641830E1    -6.627403812001357E1    -1.054666405842795E2    -1.551545316306494E2
                        -7.471495925263308E1    -2.497970447252323E1    -1.088431956646088E2    -4.447858627574696E1    -1.438299245060830E-3   -1.755586356876428

 3.168000000000000E5    -2.435395182823906E1    -1.386523175689863E2    -1.116021986520287E2     8.164279905323610E1    -1.063224547682751E2    -4.235150629531525E1
                        -7.232689466827197      -1.153245019242721E2    -6.960960312738114E1     5.501010745999644E-1   -1.041597262193186E2     9.608631794912117E-1
                        -7.481821936846446E1    -2.645589521364731E1    -1.114716582258350E2    -8.980809493201362E1    -4.831198832620390E-4   -1.754459295482185

 3.178500000000000E5    -2.433614905983185E1    -1.385582602727617E2    -1.020470573734346E2     1.327894061928352E2    -1.079576383619086E2    -1.141596678533002E2
                        -7.243938405236570      -1.155167982695967E2    -7.646808594749757E1    -7.910090135866882E1    -1.088367310230242E2     8.758305321397532E1
                        -7.498255915354518E1    -2.944828064874590E1    -1.221675042055802E2     1.234522018458085E1    -3.574549887479257E-3   -1.753744397309993

 3.189000000000000E5    -2.437664499519853E1    -1.384447460954984E2    -1.054902269489082E2    -5.818336303012877E1    -1.038221631266297E2     8.982883740167289E1
                        -7.252590822956693      -1.156265206900258E2    -6.982903272458822E1     7.500129507276685E1    -1.083329817622257E2    -6.018161484640499E1
                        -7.432457601181551E1    -2.517222736773262E1    -9.817308910520573E1     1.338089594126652E2    -3.135369506506170E-3   -1.782355773579421

 3.199500000000000E5    -2.437163699262328E1    -1.383337598405189E2    -1.030312214643450E2    -6.452428465728758E1    -1.092266056016493E2     1.307319387226958E2
                        -7.265102285268764      -1.158157786138577E2    -8.657446114299657E1     7.109652589115518E1    -1.078891819367190E2     1.694382276225656E2
                        -7.501173576905023E1    -2.728777086994367E1    -1.040666187625173E2     8.646848495408054      -3.918024167453932E-4   -1.785710584944480

 3.210000000000000E5    -2.438089581915989E1    -1.379677595840366E2    -1.063481815766119E2     9.045034803163426E1    -1.035746311461100E2     9.991232461464047E1
                        -7.277394730868275      -1.159322523958057E2    -7.597664451717749E1    -2.388554592424379E1    -1.054709340234226E2     1.177940727646720E2
                        -7.491621880860313E1    -2.784318477202547E1    -1.178223913837849E2    -3.475300353773488E1    -3.081262490477394E-3   -1.781930864846421

 3.220500000000000E5    -2.438838058460608E1    -1.382415651218387E2    -1.024187970642133E2    -1.374264817212949E1    -1.022749934154789E2     1.027629862941621E2
                        -7.283665972776060      -1.161252203274619E2    -7.413684613029315E1    -3.553128261514809E1    -1.005006762745128E2    -1.209569907681625E2
                        -7.477045696113707E1    -2.705178908071682E1    -1.040639960808602E2    -1.626309195280679E2     5.752091986072085E-4   -1.803897080371979

 3.231000000000000E5    -2.436028478276906E1    -1.382315335516611E2    -1.083939532022497E2     3.206176412546021E1    -1.066958176727884E2     7.696244240645150E1
                        -7.298951696925425      -1.162314168609551E2    -7.266670030450436E1    -5.713768119123369E1    -1.025432606766046E2     1.414601434668771E2
                        -7.491745149653552E1    -2.798156635645956E1    -1.036910006930393E2    -4.904538490361321E1    -2.516841152089078E-3   -1.802680728845857

 3.241500000000000E5    -2.436419985702628E1    -1.378833293088259E2    -1.049712284863565E2     1.127758349180637E1    -9.924482785989697E1     7.702128300158574E1
                        -7.306262242000406      -1.163999124451069E2    -6.789288280240103E1    -1.708698731960474E1    -1.028720676314537E2     9.846744102422630E1
                        -7.494714359201340E1    -2.856393416010370E1    -1.091993108894419E2    -1.104007073067261E2    -1.407933606963800E-3   -1.808256764762782

 3.252000000000000E5    -2.435857067031103E1    -1.376110504760619E2    -1.041063089440535E2    -1.040686974296854E2    -1.143916901764875E2    -8.488303644026915E1
                        -7.306054920822894      -1.165377138395517E2    -6.767742211406215E1     7.567567405465445      -1.033974213268068E2    -2.089600361650257E1
                        -7.476619851537618E1    -2.835570623744622E1    -1.061542510373581E2    -1.431490037341602E2    -1.379374813625821E-3   -1.810812210078612

 3.262500000000000E5    -2.436172538411366E1    -1.377581450639821E2    -1.134341030804247E2     2.795284468588706E1    -1.069067370609367E2     9.717512474889713E1
                        -7.314006311859329      -1.166773936669483E2    -7.532161312748994E1     5.790926879301355E1    -1.009885704220097E2    -3.573521905787592E1
                        -7.493461385867364E1    -2.650417663163779E1    -1.068396603935693E2    -1.384104312733547E2    -1.301707784334292E-3   -1.822240385601002

 3.273000000000000E5    -2.435654030601942E1    -1.373278992804855E2    -1.089013820663489E2     1.739083476246084E2    -9.802504799752443E1     5.853759594801725E1
                        -7.321659635381379      -1.168212871794570E2    -6.898928295852306E1     4.120892477000838      -1.178366019411236E2    -1.519009066134545E2
                        -7.475756780041326E1    -2.267410264414108E1    -1.121699346301526E2     2.538881734088818E1    -2.461449892711161E-3   -1.821826528525765

 3.283500000000000E5    -2.433908024742400E1    -1.377929114384531E2    -1.154055069751322E2    -1.506729701019904E1    -1.002554128908325E2    -1.096176307341949E2
                        -7.329192998665024      -1.169509288059168E2    -7.394740825758071E1    -8.163479548200417E1    -1.089327108348819E2    -9.068356308077964E1
                        -7.485619203037433E1    -2.925710792454437E1    -9.888968287549022E1     1.015560089867395E2     6.286109232251090E-4   -1.836019873659054

 3.294000000000000E5    -2.435519529650599E1    -1.374380344414150E2    -1.060077907983271E2    -1.214892812374603E2    -1.067224917429640E2    -1.372440995507924E2
                        -7.336507458875908      -1.170939794240630E2    -6.905689252764012E1     1.405442125978532E1    -1.062388306231803E2     1.414612908315721E2
                        -7.478565130075444E1    -2.873873037305397E1    -1.054230873146507E2     3.603527768876579       3.988772524127753E-5   -1.846291398211131

 3.304500000000000E5    -2.433213434230630E1    -1.375514557785819E2    -1.038570801896251E2     1.384904010023636E2    -1.062390096179662E2     3.142875347307956E1
                        -7.336027795065593      -1.172119215261183E2    -6.650756081193950E1     3.027308525078500E1    -1.041495517066043E2     1.208651148198851E2
                        -7.502599619129533E1    -2.794357664804720E1    -1.082000006124662E2    -3.059427498381666E1    -1.610434019315443E-3   -1.847251609259057

 3.315000000000000E5    -2.431433131160744E1    -1.371777811853237E2    -1.109635003497365E2    -1.483179477062528E2    -1.081759780097922E2     8.256525537046532E1
                        -7.344492985980459      -1.173336283960518E2    -7.780091175585432E1    -2.569607661767483E1    -9.845823555310275E1     1.433280190294204E2
                        -7.478246140436318E1    -2.824124669490618E1    -1.016040402743886E2    -1.520522319383385E2    -2.370128539074135E-3   -1.843575473532150

 3.325500000000000E5    -2.433661789986966E1    -1.373756807622841E2    -1.061374844403526E2    -1.721264543143971E2    -1.080246591276445E2    -1.133229240571770E2
                        -7.348313391530929      -1.175059520084400E2    -7.497195125334675E1     5.256504457592133E1    -1.002577210319441E2    -5.681791024747801E1
                        -7.501701739972982E1    -3.260475780783593E1    -1.036479229505926E2     2.852212382885689E1    -2.886801493062740E-3   -1.849858130052723

 3.336000000000000E5    -2.433761178489502E1    -1.370863701827076E2    -1.028078467117973E2     6.040582576583908E1    -1.076330012624305E2    -1.364188803591061E2
                        -7.349980240295212      -1.176213563290927E2    -7.546964431029447E1    -2.726545181186380E1    -1.038299974762940E2     5.927431579737195E1
                        -7.439244821619484E1    -2.819305978807830E1    -1.077689210201561E2     1.218973520421300E2     2.956557384010539E-4   -1.856948286196097

 3.346500000000000E5    -2.430940094028291E1    -1.373272696489453E2    -1.046939444154739E2    -1.226217853941561E2    -1.028681313166252E2    -2.493628278016160E1
                        -7.351894229867570      -1.177664473492412E2    -7.022797102095780E1     8.593833076346160      -9.608430848326344E1     1.627921231633374E2
                        -7.467173402342698E1    -2.950321794160885E1    -1.067225776918792E2    -1.606571338076858E2     1.718454995126571E-4   -1.860379859255451

 3.357000000000000E5    -2.428889057924636E1    -1.370453695287849E2    -1.104050802742742E2     3.121682923428113E1    -1.069238333547726E2     1.402659021663079E2
                        -7.350582926209178      -1.178832973050873E2    -6.397475137029911E1    -2.560209443800724E1    -1.095461027205675E2    -7.600160583052829E1
                        -7.515076085948819E1    -3.015538273934260E1    -1.081381998858081E2     1.291489375347850E2     7.462560019897461E-4   -1.852461418063642

 3.367500000000000E5    -2.427664384883617E1    -1.371644679171799E2    -1.053274646465138E2     1.304965347549027E2    -9.586057660984969E1     4.382763559875336E1
                        -7.355860743128780      -1.180636927138050E2    -6.819723480669903E1    -2.941326380251672E1    -1.043710056538655E2    -1.121889887327985E2
                        -7.460837631320787E1    -2.546491293922514E1    -1.062474748275507E2    -1.150799797938024E1    -2.986804867545315E-3   -1.878842144810632

 3.378000000000000E5    -2.427831849070731E1    -1.372429675097877E2    -1.027792216893093E2     1.613962684749585E1    -1.080985638497553E2    -1.116672883808694E2
                        -7.351241515662100      -1.181483654562668E2    -7.096500078716467E1    -4.740047290805330E1    -1.069566376207228E2     1.477738708500975E2
                        -7.419602397072046E1    -2.773376599210233E1    -1.017628740910331E2    -1.172454766151986E2    -1.064428227423435E-3   -1.869624229360646

 3.388500000000000E5    -2.426033476771055E1    -1.373315481280234E2    -1.056190460677939E2    -1.572267836551838E2    -1.016831972943381E2     8.392902617756469E1
                        -7.352822532663624      -1.182977116101052E2    -7.390189699625122E1    -3.319808295089713E1    -1.006345487204685E2     3.606463002237444E1
                        -7.466401424289987E1    -3.013707819259862E1    -1.074083136171748E2    -4.862882491530042E1    -1.730404946259352E-3   -1.875907292822602

 3.399000000000000E5    -2.425536894747912E1    -1.374334243522790E2    -1.142328026093763E2     9.573635373166647E1    -1.066162416741634E2    -4.847967143208989E1
                        -7.355858469150504      -1.184465716605956E2    -6.799645760469659E1    -3.040632052469170E1    -1.040194644317074E2    -1.075009878857105E2
                        -7.401084184889152E1    -2.783196718415504E1    -1.008166637223778E2     1.616055777510118E2    -1.347280339883396E-3   -1.886621024887885

