#  HZ   S   DB   R     50.00 
! Rohde & Schwarz Vector Network Analyzer 
! Rohde-Schwarz,ZNB8-4Port,1311601044102961,2.82
! Created: UTC 10/29/2018, 2:14:47 PM
! freq[Hz]                db:S11                  ang:S11                 db:S12                  ang:S12                 db:S13                  ang:S13
!                         db:S21                  ang:S21                 db:S22                  ang:S22                 db:S23                  ang:S23
!                         db:S31                  ang:S31                 db:S32                  ang:S32                 db:S33                  ang:S33
! 
 3.000000000000000E5    -2.411703742537926E1    -1.382494128959324E2    -1.020743613612232E2    -3.971196663794580E1    -1.044526774938083E2    -2.753313411192244
                        -7.083958851833771      -1.112382658377368E2    -6.966411204297347E1    -2.255869749673265E1    -1.107537322621784E2    -1.511611268739294E1
                        -7.464725004348485E1    -2.456285455763778E1    -1.008808955623906E2    -1.343187688804169E2    -2.990043099781275E-3   -1.653963349059059

 3.010500000000000E5    -2.417526000800431E1    -1.385614751958645E2    -1.048531666513332E2     1.619383070858856E2    -1.047534972630592E2    -4.759261364770494E1
                        -7.102821252689727      -1.115108476926590E2    -6.744518222580301E1     1.280467044695662E1    -1.022182520356123E2     7.983525096105868
                        -7.453463483654818E1    -2.326487377089874E1    -1.064274090985789E2    -1.725935956223095E2    -1.004005281229367E-3   -1.673354172012007

 3.021000000000000E5    -2.414025569403075E1    -1.382860904538469E2    -1.107252377260312E2    -4.712263380364630E1    -1.089811016576887E2    -1.173162992449261E2
                        -7.119481370922925      -1.117293044331424E2    -7.355546884823947E1    -1.766957724145919E1    -1.138123006956822E2    -7.185278021923485E1
                        -7.505244338188822E1    -2.084062066071276E1    -1.077543145689241E2    -1.226829681895052E2    -2.031736974868591E-3   -1.656960310218031

 3.031500000000000E5    -2.417332872869988E1    -1.382348546538638E2    -1.064851150183478E2     3.932591265128518E1    -1.050425561205323E2     7.872186130032699E1
                        -7.140173629829155      -1.119482382511095E2    -7.586521844857333E1    -6.429393378773946E1    -9.964945133733694E1     2.556437615033615E1
                        -7.543477140603739E1    -2.107003678895390E1    -1.047718336216350E2    -5.597378272428015E1    -4.256174366485508E-3   -1.679936994835696

 3.042000000000000E5    -2.420151590339355E1    -1.381157580901172E2    -1.107107472023198E2     1.572751612831701E2    -1.136964505077135E2    -8.650494468187060E1
                        -7.158020707459651      -1.121720254325528E2    -8.063206530489063E1    -2.524933134479609E1    -1.087406710884502E2     3.516309410991146E1
                        -7.456523830291238E1    -2.585001185729703E1    -9.749980651171498E1     1.536740925704564E2    -2.941284081782609E-3   -1.685533490664424

 3.052500000000000E5    -2.420385344293644E1    -1.381598576727972E2    -1.156645748489031E2    -1.561127487572934E2    -1.119951620902428E2    -1.790323151613972E2
                        -7.176289399348866      -1.124070521073590E2    -7.006918267480847E1    -9.188087939733393      -1.090813780196241E2     1.520997854118666E2
                        -7.490917660090042E1    -2.281141047849243E1    -1.110148776270115E2     7.933221926293638E1     7.242023466062786E-4   -1.673704330164792

 3.063000000000000E5    -2.423047178855364E1    -1.379185713025550E2    -1.233239822728562E2     1.593028348391605E2    -1.080932297127372E2     1.305820841100818E2
                        -7.189357193099170      -1.126095660193392E2    -7.327930519604847E1    -6.868314147169384E1    -1.136471675346501E2     1.582151977914348E1
                        -7.475722856513708E1    -2.382840698417674E1    -1.058217649051252E2     7.015574272741898E1    -2.431932436589207E-3   -1.683621094464500

 3.073500000000000E5    -2.422474557224521E1    -1.379960415220323E2    -1.009619529000436E2     7.201583343040154E1    -1.039766398331612E2     8.823106000314066E1
                        -7.205570504375055      -1.128325106461559E2    -7.085194592859023E1    -2.026299379375561      -1.078096641446719E2     1.620025714243311E2
                        -7.416240666705593E1    -2.721682326751841E1    -9.599524413960623E1    -6.922350034831760E1    -3.849151666597123E-3   -1.700490859240727

 3.084000000000000E5    -2.424517584854702E1    -1.378374981972114E2    -1.092982543425912E2    -1.710409246038063E2    -1.033554412111570E2    -1.369795156233639E2
                        -7.223249712830410      -1.130294197538751E2    -7.646593929535123E1     7.156763164606930E1    -1.020650308579071E2     1.725524392886420E1
                        -7.495949845430340E1    -2.479604993792712E1    -1.083621661818903E2    -6.124151400978508E1    -1.115771367240009E-3   -1.717035687096288

 3.094500000000000E5    -2.426404271003349E1    -1.377593982555623E2    -1.117273763351315E2    -5.449114314572077E1    -1.028284586899322E2    -1.255706111683985E2
                        -7.234078046092342      -1.132640651716446E2    -8.119751559056148E1     2.203819895497862E1    -1.006866106170289E2     8.955472581347189E1
                        -7.448363096530927E1    -2.167577315847575E1    -1.072109328797533E2     1.712201723582403E2    -7.491027075949026E-4   -1.708493009477332

 3.105000000000000E5    -2.428138799950157E1    -1.376693563126397E2    -1.081364163395106E2     2.061524377594630E1    -1.228429683061927E2     9.577165562829907E1
                        -7.253373306794227      -1.134167951066939E2    -7.494115034806565E1     6.522621437889639E1    -1.030648925953373E2    -1.278366921739505E1
                        -7.478540156836131E1    -2.589107016474232E1    -1.039703511350803E2     1.243036208178069E2    -1.430655062288545E-3   -1.726206381087419

 3.115500000000000E5    -2.428157991369065E1    -1.376774558980847E2    -1.001306700214480E2    -1.583484711510232E2    -1.110274075907539E2    -7.270385417059300E1
                        -7.258532213024496      -1.136244961436862E2    -7.408486064766348E1    -1.664473175282355E1    -1.161059238938408E2     1.165174173173783E2
                        -7.473926128466972E1    -2.871616028721056E1    -1.005370462971629E2     1.721828757664268E2    -1.798300162030703E-3   -1.717487318602478

 3.126000000000000E5    -2.427687512248975E1    -1.372418223087151E2    -1.088505570322465E2     9.502266923507482E1    -1.123092377243906E2    -2.046540099352460E1
                        -7.274169019159336      -1.138246822487162E2    -7.532457098817061E1     8.967666646200084E1    -1.130025572984564E2     1.629651920218821E2
                        -7.528065112934984E1    -2.991763550076923E1    -1.015178900039154E2     1.687129327048757E2    -2.339121648863455E-3   -1.726406816211540

 3.136500000000000E5    -2.428048469377304E1    -1.375918559428047E2    -1.123598039117796E2    -9.634047206719490E1    -1.129115529076914E2     9.968159659021566E1
                        -7.286125146395534      -1.140001899348826E2    -7.104082570862830E1     3.263116662951401E1    -1.112217629122948E2    -1.911102222942098E1
                        -7.477704826375354E1    -2.515281254330541E1    -1.093389491324143E2    -8.095304767182928E1    -9.161467348689001E-4   -1.734677538670620

 3.147000000000000E5    -2.430906815728806E1    -1.373581509313798E2    -1.045002526756273E2    -1.595933545672153E2    -1.048808619904534E2     1.248372140449114E1
                        -7.295521350784627      -1.142146740127089E2    -6.667900855351105E1     3.037256137195254E1    -1.156951678987605E2    -3.168601809256403E1
                        -7.513635780369961E1    -2.363065528097199E1    -9.719135062088350E1     6.539345194006287E1    -1.351862028973464E-3   -1.736528621261081

 3.157500000000000E5    -2.429530893750556E1    -1.370936758616898E2    -1.009944296448188E2     1.621839549043449E2    -1.015146314554763E2    -1.665891269674282E2
                        -7.312368171353266      -1.143830783991393E2    -7.257693706735607E1     9.353881312746628E1    -1.047075341375039E2    -1.774844621008179E2
                        -7.470220314733646E1    -2.464653521744030E1    -1.061277893076451E2    -4.460187439636125E1    -1.649181481017632E-3   -1.730143514329536

 3.168000000000000E5    -2.426856086277825E1    -1.374423527791104E2    -1.032382209185606E2    -6.421507756393841E1    -1.076551907293646E2     1.209099796612844E2
                        -7.322318878988315      -1.145341225159778E2    -6.737997341621137E1     1.545970075784196E1    -1.119953600060648E2     1.358680526434450E2
                        -7.448549032354501E1    -2.848704741178969E1    -1.184617080412315E2    -4.273996711369110E1    -2.689404996097557E-4   -1.746208020128590

 3.178500000000000E5    -2.429934686002019E1    -1.372184004695881E2    -1.113767457537943E2    -1.328386482011627E2    -1.081467914523269E2    -9.753896064104519E1
                        -7.327954389180661      -1.147528883402684E2    -7.631590916628922E1    -9.207235051977428E1    -1.047147373709092E2    -2.874448593874395E1
                        -7.433262876173055E1    -2.421593172308506E1    -1.097223131901042E2     6.843000556250532E1    -2.274615469075739E-3   -1.743997330381132

 3.189000000000000E5    -2.429075010959952E1    -1.371942775422035E2    -1.021361490662138E2    -1.302744486379843E2    -1.050384612715939E2     1.338134664087115E2
                        -7.340846736435167      -1.149325385718981E2    -6.545490891993846E1     2.772722567970278E1    -1.064469293291908E2    -1.644356504881505E2
                        -7.463359726770395E1    -2.656130251542395E1    -1.105020311455798E2     1.444276672818737E2    -2.087443861094603E-3   -1.767646914208506

 3.199500000000000E5    -2.430824190790032E1    -1.371795576553014E2    -1.053717941240124E2     1.978323218239359E1    -1.067591768363485E2     7.974817083890530
                        -7.346504796611223      -1.150828685797087E2    -8.011323462412716E1    -2.788917816645060E1    -1.138488881800365E2    -1.763331601641069E2
                        -7.500109002960929E1    -2.844952074869117E1    -1.050465422383463E2    -4.288564486285721E1    -2.097447956552996E-3   -1.765449597015163

 3.210000000000000E5    -2.429601012549258E1    -1.369472531011865E2    -1.099084499920764E2     1.583515606337645E2    -1.095934256566703E2     1.648399039282119E2
                        -7.355480710375637      -1.152473300318203E2    -8.587350174308207E1     1.573392517635477E2    -1.124608449563527E2    -9.452052989492111E1
                        -7.455191785365153E1    -2.737708749329770E1    -1.052905746516011E2    -1.064137751840323E2    -3.869964409645082E-3   -1.771179284745241

 3.220500000000000E5    -2.430522268850523E1    -1.370772119612968E2    -1.011484922361640E2     1.027585778753321E2    -1.041092467602105E2    -1.190512409842091E2
                        -7.365745651071800      -1.153847824909674E2    -8.431835862154111E1    -3.590368679889910E1    -1.044449671944527E2    -5.164680215994726E1
                        -7.418910922258650E1    -2.650137346343694E1    -1.059232548182232E2     6.095958313891399E1     2.113239512349598E-4   -1.786622545513829

 3.231000000000000E5    -2.428154167390920E1    -1.370689796192645E2    -1.099691163540292E2     1.437341401052592E2    -1.017207385709602E2     1.248506602498514E2
                        -7.373609079129454      -1.155800383311140E2    -9.156311513266898E1     1.547853578244980E1    -1.065204831084253E2    -6.698664139736702E1
                        -7.442787056836289E1    -2.746735878234245E1    -9.817503920194650E1     1.823830098620555E1    -1.875427217022182E-3   -1.781723457452537

 3.241500000000000E5    -2.428202943265895E1    -1.368856097759231E2    -1.076709417190571E2    -1.341534325377591E2    -1.069649755704843E2     5.710670960356499E1
                        -7.380527350277534      -1.157296425890002E2    -6.973098808348115E1     1.187398319302750      -1.045505411834464E2    -1.653800927812876E2
                        -7.448667279733121E1    -2.946740213592598E1    -1.053010242037001E2     4.547678894755093E1    -3.123545124228795E-3   -1.784302440002771

 3.252000000000000E5    -2.431097849092024E1    -1.367964373602207E2    -1.097913454458617E2     1.507311236562532E2    -1.065286763900609E2    -1.238584130500612E2
                        -7.383101440238939      -1.159306973509548E2    -6.755108715225559E1     2.840544582087851E1    -1.018375656508014E2     1.032695051145699E1
                        -7.448859601880399E1    -2.776241670034193E1    -1.028022853401790E2    -1.022527315380543E2    -1.782481079012634E-3   -1.790530305381134

 3.262500000000000E5    -2.430147737586628E1    -1.368818906058644E2    -1.137054081534123E2     1.794990145130818E2    -1.294851141550825E2     2.318018959146772E1
                        -7.387006092414056      -1.160903795505780E2    -6.908369741729764E1     5.489231171220271E1    -1.082573393037352E2     1.107808939369631E2
                        -7.424713906801613E1    -2.853440796178158E1    -9.947508959660502E1     6.256426956720236E1    -1.494636144989965E-3   -1.813486574800942

 3.273000000000000E5    -2.427508911824405E1    -1.365449538033454E2    -1.065986950250092E2     1.443319106832724E2    -1.085852104040606E2    -1.227966576196254E2
                        -7.395498739938305      -1.162366842405231E2    -6.580919087660278E1     4.695738148759513E1    -1.031163120999927E2     1.540270225175152E2
                        -7.362391407068338E1    -2.687035554794493E1    -1.097043758487334E2     1.444447337383363E2    -3.433869039392836E-3   -1.803568927320397

 3.283500000000000E5    -2.425473723772946E1    -1.368681490231798E2    -1.073688578915756E2     9.812835038745182E1    -1.005187234290320E2     3.863892838797462E1
                        -7.401394134799646      -1.164036066790975E2    -7.708054873315965E1     2.945764859767395E1    -1.045242850913972E2     9.715222404633904E1
                        -7.468231286375780E1    -2.529704463263755E1    -1.105936495721221E2    -1.710763590731277E2     1.185560993257793E-3   -1.821195061640917

 3.294000000000000E5    -2.427692207860529E1    -1.366582026024423E2    -1.048227050417184E2     5.444719751789504E1    -1.068090466221262E2     1.745910579580807E2
                        -7.402952820337023      -1.165571511352430E2    -7.072021122793721E1     5.106804697667139E1    -1.063124802829380E2    -1.906077582983822
                        -7.433682670794914E1    -2.666871240078667E1    -1.247071828675808E2    -1.572376411365568E2    -2.021519477857714E-3   -1.825111957852759

 3.304500000000000E5    -2.427252034505533E1    -1.367244098696600E2    -1.060926164558693E2     9.571737668199607E1    -1.117696164643414E2    -4.973270251391772E1
                        -7.407375359152622      -1.166998662160534E2    -7.034723764199762E1     5.631088930674347E1    -1.057664844187076E2    -7.963629075576061E1
                        -7.450956678671987E1    -2.901936902975261E1    -1.023616668695243E2     3.024638998185211E1    -2.670494431095504E-3   -1.829218139001249

 3.315000000000000E5    -2.425622492114791E1    -1.364969763494689E2    -1.092939713920750E2    -1.885913674387463E1    -1.155879205351586E2    -6.332096474703760
                        -7.412360048944299      -1.168713407435955E2    -7.800807377587171E1     7.271378212015846      -1.071993556409910E2    -8.164881792589381E1
                        -7.440330264677891E1    -2.844184628553433E1    -1.020042314762707E2    -1.359031546307648E2    -2.790570078653385E-3   -1.825680821165050

 3.325500000000000E5    -2.427612067639506E1    -1.366527333230635E2    -1.041260751201784E2     1.468663319486466E1    -1.041468070626287E2     8.632528662641809E1
                        -7.417274792921266      -1.170320805545930E2    -7.772238504795118E1     5.429756735878418E1    -1.056819246160354E2     1.670452647536101E2
                        -7.447810601005961E1    -2.882581266759469E1    -1.031799788749756E2    -7.338579434988159E1    -3.097848765196701E-3   -1.838263235782093

 3.336000000000000E5    -2.426715888537319E1    -1.364899775686765E2    -1.064683662185332E2     5.024771165259022E1    -1.152309346193536E2     1.442596415561861E1
                        -7.414336382183953      -1.171648228279127E2    -7.161890849076264E1     7.126873872418135E1    -1.003405318813136E2    -8.798189490655275E1
                        -7.409932061808280E1    -2.739506530247988E1    -1.037281489255909E2     1.762250683784762E2    -1.241383049115889E-3   -1.851816916117120

 3.346500000000000E5    -2.425496542172811E1    -1.366774776056626E2    -1.074989815467687E2    -1.200046450855023E2    -1.025486339837179E2    -1.767960947901497E2
                        -7.417226579904432      -1.173251965986421E2    -6.952464049582601E1     1.894012960826120E1    -1.002079350490944E2     8.208180518788703E1
                        -7.441764820663269E1    -2.902839947752209E1    -1.020378181640533E2     1.669688058385036E2     1.601211414022847E-4   -1.859428327376054

 3.357000000000000E5    -2.423428980921958E1    -1.365138757985161E2    -1.058432387167119E2     1.001159743387473E2    -1.072686101362114E2     5.101474886041567E1
                        -7.417130283547815      -1.174957018020696E2    -7.086865570128330E1     1.342887342063425E1    -1.087952230093074E2    -1.036015551516079E2
                        -7.431598644781485E1    -2.911272189126214E1    -1.145771117109729E2     9.742365594511041E1    -1.188003505971045E-3   -1.860846718178394

 3.367500000000000E5    -2.425141689710255E1    -1.365172339651256E2    -9.959855578372256E1    -8.642207483954140E1    -1.079798127282900E2     8.708750653283845E1
                        -7.416383430536127      -1.176494846566822E2    -7.964915272677936E1     3.939844419503957E1    -1.156655792035025E2     1.496482855775954E2
                        -7.416523421157110E1    -2.962150288125243E1    -1.009512405977159E2     1.465499807573184E2    -1.239021421296451E-3   -1.859154516563673

 3.378000000000000E5    -2.423500430560504E1    -1.366498408719396E2    -1.032872431571580E2    -2.005720304155076E1    -1.082345243928383E2     1.381306474805219E2
                        -7.420777856822955      -1.177905783191529E2    -7.435343360140351E1    -9.752703947894158      -1.007700651661293E2     6.418973148518040E1
                        -7.410775261528289E1    -2.782793991106444E1    -1.071950831164271E2     1.657588021141706E2    -3.758254758187863E-4   -1.858698162718851

 3.388500000000000E5    -2.420863931864578E1    -1.367533201429650E2    -1.082734628998567E2    -7.746729315022765E1    -1.027105013576158E2     1.701561635998997E1
                        -7.420412985126643      -1.179580995347836E2    -7.199321610118271E1     2.867253493006086E1    -1.089637109799957E2     5.019200764385421E1
                        -7.407764856918394E1    -3.053411681677554E1    -1.148657897202842E2     1.360320525480328E2    -2.585450150614720E-3   -1.870415159239042

 3.399000000000000E5    -2.419945507818844E1    -1.367728513814534E2    -1.105104877192739E2    -1.552832853666281E2    -1.047631144572628E2    -1.012152229594893E2
                        -7.422292368027158      -1.181052408613488E2    -7.678932519899988E1     9.577233048927983      -1.144141704108440E2     4.002937342181549E1
                        -7.398508183838109E1    -2.917402013967385E1    -1.051885423622119E2    -2.320524463429405E1    -1.309326035759379E-3   -1.870332361000392

