#  HZ   S   DB   R     50.00 
! Rohde & Schwarz Vector Network Analyzer 
! Rohde-Schwarz,ZNB8-4Port,1311601044102961,2.82
! Created: UTC 10/29/2018, 10:08:19 AM
! freq[Hz]                db:S11                  ang:S11                 db:S12                  ang:S12                 db:S13                  ang:S13
!                         db:S21                  ang:S21                 db:S22                  ang:S22                 db:S23                  ang:S23
!                         db:S31                  ang:S31                 db:S32                  ang:S32                 db:S33                  ang:S33
! 
 3.000000000000000E5    -2.411659839189310E1    -1.392016842577591E2    -1.068064556459658E2    -1.195852204568498E2    -1.054161686199823E2     1.513694082374103E2
                        -6.961527507138462      -1.118073267873945E2    -7.341415570641314E1    -9.886669240381552E1    -1.084622008435682E2     1.021662451581454E2
                        -7.638622949381576E1    -2.299756082009047E1    -1.062754868721730E2    -8.565097874461746E1    -3.229468759228258E-3   -1.670017520988550

 3.010500000000000E5    -2.417201884755270E1    -1.393972925857205E2    -1.015018185104212E2     8.022484657501403E1    -1.044746010399008E2    -1.687330136786131E2
                        -6.989083825214003      -1.120404218479513E2    -6.809438984645135E1    -3.921940510227613E1    -1.121891015911036E2     1.458657844157588E2
                        -7.601877512061891E1    -2.604017318991299E1    -1.052994577545142E2    -6.609243444177371E1    -1.982492789389998E-3   -1.669269715740002

 3.021000000000000E5    -2.416665558478822E1    -1.392893394632015E2    -1.018384975877499E2     5.477284254553295E1    -9.915186638391654E1     3.462241037653305E1
                        -7.006477780628341      -1.122798984634749E2    -7.395166614693575E1    -7.003201761649100E1    -1.041756683581932E2     4.357140478215615E1
                        -7.538353902195897E1    -2.544171989641050E1    -1.112755730117324E2    -6.559853835967549E1    -1.562184945175195E-3   -1.676777434132675

 3.031500000000000E5    -2.418775807168863E1    -1.391616169512483E2    -1.062157905388818E2     1.436258195033769E2    -1.057968469374383E2    -7.829221448569899E1
                        -7.029564489904994      -1.124831592352587E2    -7.531776980995227E1    -2.018284568516285E1    -1.025251448945590E2    -9.227921866847893E1
                        -7.628602893175200E1    -2.066589733632795E1    -1.070956805056477E2     1.510755876301644E1    -2.517555155378614E-3   -1.680139455948620

 3.042000000000000E5    -2.418644820468820E1    -1.389142111381653E2    -1.064258614698702E2    -8.879408014011310E1    -1.034061996122270E2     1.717079397466705E2
                        -7.046002738096312      -1.127104229098579E2    -7.453814635299648E1    -8.769362346539269E1    -1.015968740916179E2    -1.211462890542128E2
                        -7.653655471267520E1    -2.634856617475151E1    -1.097673816942641E2     1.291337173175031E2    -1.217316877868746E-3   -1.699736668288052

 3.052500000000000E5    -2.422307782212452E1    -1.391726645733728E2    -1.082030369970034E2     1.205002380189583E2    -9.872468763701222E1     4.524077825988852E1
                        -7.069155076578531      -1.129432413984515E2    -6.775394504581959E1    -6.223723770262311E1    -1.045887425466313E2    -1.469657901934707E2
                        -7.579438137622518E1    -2.340855048053862E1    -1.052325411984232E2     9.359237775626934      -1.569304238417080E-3   -1.687763736702145

 3.063000000000000E5    -2.424941446120588E1    -1.386660017432048E2    -1.073115817635913E2    -1.182727243101082E2    -1.100770784945614E2     9.835826519297005E1
                        -7.079451978964828      -1.131417139290437E2    -7.313935878965478E1    -1.162841897286212E2    -1.055335214396776E2    -1.640114282628939E2
                        -7.598825182763166E1    -2.520648258999528E1    -1.067124342599920E2     1.362102934434782E2    -3.767242652441420E-3   -1.693649432732271

 3.073500000000000E5    -2.421957789257942E1    -1.387683826017691E2    -1.048831622219943E2     1.634723057905073E2    -1.017824172134163E2    -1.114017766856772E2
                        -7.101601827998231      -1.133459988148097E2    -7.352857840491939E1     6.689088560558839E1    -1.104133452064735E2     1.496813466822743E2
                        -7.646588481183518E1    -2.519088677813656E1    -1.097316386950598E2     1.554447085787269E2    -1.092291444745520E-3   -1.704663883519322

 3.084000000000000E5    -2.425484430955466E1    -1.386873043444128E2    -1.063158311729311E2    -1.557660859632934E2    -1.066863685290090E2     4.937588905131810E1
                        -7.117226754786447      -1.135573538027557E2    -7.461140979685816E1    -1.019152889794082      -1.069374858426551E2     7.165902268770024E1
                        -7.580304853768594E1    -2.511633848570862E1    -1.148932560952723E2     1.859308071123218E1    -2.466736417786460E-3   -1.712360981305623

 3.094500000000000E5    -2.429488793616332E1    -1.385677577781769E2    -1.050242753784795E2    -1.613874874170213E2    -1.123270782738216E2    -1.195271815938831E2
                        -7.133690879696961      -1.137700292253165E2    -7.058311016970706E1    -2.978023792592978E1    -9.916705167033079E1    -8.809790455093147E1
                        -7.603013081152544E1    -2.674578642402697E1    -1.176155018158461E2     1.379578361851758E2    -8.640384345332637E-4   -1.722368821948109

 3.105000000000000E5    -2.430605406792395E1    -1.384615629019732E2    -1.090786016663544E2     1.351411207219914E2    -1.205542998848672E2     1.080522236485873E2
                        -7.151788950491543      -1.139177759992372E2    -8.949434200713704E1     2.737112538415768E1    -9.975220657617550E1    -1.324417971226135E2
                        -7.599046477244856E1    -2.499020278731186E1    -1.029594277951446E2     1.360021562682166E2    -1.878073378362891E-3   -1.728641466951364

 3.115500000000000E5    -2.430849487697980E1    -1.384263261393617E2    -1.094426086672744E2    -7.088662446749520E1    -1.161191097000850E2     8.111085145530649E1
                        -7.163872587965594      -1.141282900116772E2    -6.762299474294662E1     4.266848341293533      -1.128783554813492E2    -1.606704629625507E2
                        -7.664636149578081E1    -2.645004858450598E1    -1.035593789945930E2     4.177625028512438E1    -4.114796913623833E-4   -1.732550960785628

 3.126000000000000E5    -2.428957108589655E1    -1.381262610756701E2    -1.049461951345677E2     1.518872090878135E2    -1.115501074173417E2    -1.159982700805669E2
                        -7.178763527450806      -1.142933210634601E2    -7.527778161404359E1    -6.779761355811193      -1.050727562989217E2    -1.172856582209703E2
                        -7.617827475136436E1    -2.737447159346465E1    -1.140828416726846E2    -8.500649386918890E1    -3.273990795290651E-3   -1.724761578900781

 3.136500000000000E5    -2.430565873784484E1    -1.381883939969561E2    -1.071704533450784E2    -6.748539893505524E1    -1.029711682974319E2    -5.422595112367048E1
                        -7.197230724604972      -1.144594454398689E2    -7.473129606797451E1    -4.046604392133821E1    -9.790510223249753E1     1.602779629524135E2
                        -7.630643303849499E1    -2.462652029781405E1    -1.031803976580081E2    -1.609831728530272E2    -1.393793606411238E-3   -1.739101185697402

 3.147000000000000E5    -2.433000289928297E1    -1.379440236772029E2    -1.111076054896468E2     3.038582255572306E1    -1.102137024975487E2     5.816637610126799E1
                        -7.207856106034114      -1.146594147569308E2    -6.863410835455120E1     1.100981790916090E1    -1.217015053864076E2    -1.390774528044979E2
                        -7.593670599271485E1    -2.304919128024210E1    -1.047651309315235E2    -1.400093390755072E2    -1.836538335240539E-3   -1.750041329500787

 3.157500000000000E5    -2.428811506671239E1    -1.380148910757420E2    -9.911762616382151E1    -1.620999130960171E2    -1.062074332377351E2     1.109643153542354E2
                        -7.219750600481921      -1.148231214892773E2    -7.050093656700736E1     6.090545041646430E1    -1.064264368194293E2     1.013061868552363E2
                        -7.587336540019194E1    -2.700915758810099E1    -9.936660342341401E1    -1.647219594501271E1    -3.201785795605788E-3   -1.748320044686553

 3.168000000000000E5    -2.429803507004562E1    -1.379189974300526E2    -1.074509492546645E2    -2.905026548217075E1    -1.164965287694924E2    -8.316490125356513E1
                        -7.233034943601173      -1.149779491585166E2    -7.289529428965474E1     3.606731732100399E1    -1.058426779542095E2    -1.256029676670706E2
                        -7.611826402719943E1    -2.808412024055908E1    -1.039660778290265E2     1.437983198057698E2    -2.942586128220596E-4   -1.757802603519809

 3.178500000000000E5    -2.432317479838764E1    -1.378068547207533E2    -1.081800573160832E2     9.891967529921235      -1.076346645745343E2    -3.355225034124450E1
                        -7.240950527427811      -1.151574103931613E2    -7.774316028662513E1    -1.051048095009772E2    -1.019782013915803E2     1.444128285062755E2
                        -7.626345985601262E1    -2.903926293514164E1    -1.048625798372118E2     6.988260111095960      -2.989309915915259E-3   -1.756615825666014

 3.189000000000000E5    -2.433249071752252E1    -1.375702015065127E2    -1.073757276064382E2    -9.504709270628527E1    -1.039831545775132E2    -1.608657589740017E2
                        -7.255564329230411      -1.152989494062096E2    -6.599912738035746E1     8.533324499645433      -1.112611460811402E2     6.514720873964218E1
                        -7.626734060077227E1    -2.742676932891821E1    -1.055787350004880E2    -1.590285493480469E2    -3.373975756433690E-3   -1.785325264331603

 3.199500000000000E5    -2.431688476354098E1    -1.378522905042664E2    -1.063198150434370E2    -1.040186018493380E2    -1.017871984133401E2    -1.305682423822804E2
                        -7.262511279043396      -1.155086009298873E2    -7.155734668929394E1    -8.848444295497029E1    -1.016492627700087E2     9.992691349351985E1
                        -7.586881235060820E1    -2.617326508693478E1    -1.064016442735009E2     1.597150065574842E2    -1.800237587055258E-3   -1.777380729428063

 3.210000000000000E5    -2.430696737263678E1    -1.374410918948501E2    -1.106340003291275E2    -1.893474644062425E1    -9.995175221705028E1    -1.304229182356098E2
                        -7.273472545198013      -1.156314912815416E2    -7.281906862038493E1    -2.433521661230247E1    -1.121397077911583E2    -1.592249627272377E2
                        -7.633786352522618E1    -2.477019299619685E1    -9.910446384990870E1    -8.608734966746449E1    -3.090737140500212E-3   -1.778630698147692

 3.220500000000000E5    -2.433691135512115E1    -1.374657207117728E2    -1.030797266262475E2     4.718914560488582E1    -1.294880302909396E2     4.343942218255608E1
                        -7.282276220149008      -1.157805109851821E2    -7.671833795508265E1    -1.718270772584149E1    -1.010725676574168E2     9.615039876334178E1
                        -7.654576875987195E1    -2.937208548995265E1    -9.890367565381453E1     1.666650328089653E2    -6.554540155262983E-4   -1.792464179761502

 3.231000000000000E5    -2.431992734151437E1    -1.377059651877553E2    -1.114032628946357E2    -4.913986037329988E1    -1.026771798213021E2     3.475365362328553E1
                        -7.292835070348595      -1.159454790859085E2    -7.561608972957855E1    -6.520063695800607E1    -1.048263418833314E2    -6.858434650431711E1
                        -7.584280896536117E1    -2.480688329149681E1    -1.088064161042836E2     5.264156307104823E1    -2.614292728398090E-3   -1.781183049446791

 3.241500000000000E5    -2.428285779798326E1    -1.372918539443829E2    -1.183517672616075E2    -1.314310189236782E2    -1.057279436352928E2     1.469341647416879E2
                        -7.301343708225021      -1.160928145390718E2    -7.092215916178971E1    -1.466136222085150E1    -1.365114719752877E2    -1.612954449129524E2
                        -7.590823412575293E1    -2.699322398298365E1    -9.950122447858800E1    -1.147793823353446E2    -1.334846547278125E-3   -1.802388647215667

 3.252000000000000E5    -2.432889668668430E1    -1.372984775329373E2    -1.021352077122370E2    -1.238537083053437E2    -1.013532367434981E2     9.643769440524662E1
                        -7.301844437846222      -1.162393285803369E2    -6.568816330584835E1     1.007631661831152E1    -1.061101615518793E2    -1.307815399812746E2
                        -7.582948965439348E1    -3.191705229360971E1    -1.082048478045219E2    -8.038804121276060E1    -8.629721540884977E-4   -1.797144460310359

 3.262500000000000E5    -2.430909880413553E1    -1.374064826378609E2    -1.009796372643697E2     6.753690779081147E1    -1.024318009519421E2     1.615515446558677E1
                        -7.307404204516526      -1.164189108718325E2    -7.053590403068502E1     2.117380562908211E1    -1.127924630453573E2    -1.179537050269518E2
                        -7.639026495553546E1    -2.637603302121194E1    -1.062844839386160E2    -1.121627695875791E2    -1.137401059914237E-3   -1.827768774342676

 3.273000000000000E5    -2.430512899009259E1    -1.370825613267899E2    -1.091971235102656E2     5.408875928926826E1    -1.049599451501074E2    -1.703114330844060E2
                        -7.314858139508695      -1.165708698526443E2    -6.767177724775857E1     7.398979540600258      -1.077264579319771E2    -1.084492865718014E2
                        -7.635547249005201E1    -2.740300404696264E1    -1.054773820436026E2     1.102590569006477E2    -2.260401791240276E-3   -1.819752186088558

 3.283500000000000E5    -2.428326392422557E1    -1.373364344435950E2    -1.151796634432012E2    -1.150202532176862E2    -1.277025528954948E2    -1.727903003073047E2
                        -7.321094014466612      -1.166923287042375E2    -7.458139137717679E1     8.483662665522085E-1   -1.024081884539664E2    -5.097922053335132
                        -7.571162987890466E1    -2.524943024187193E1    -1.026728734501069E2    -4.406325332943657E1     7.143969354859556E-4   -1.828737315852434

 3.294000000000000E5    -2.431065775506434E1    -1.370440549916492E2    -1.029682939763079E2     1.426122228230458E2    -1.007962763315896E2     5.022477336632714E1
                        -7.327615452947599      -1.168803897059932E2    -6.765973345267733E1     3.017410314298674E1    -1.073831094533456E2     1.272971528372625E1
                        -7.572884762927858E1    -3.047790427125691E1    -1.084125817071821E2    -1.308998235128345E2    -7.938239225587007E-4   -1.837034441402852

 3.304500000000000E5    -2.427920014216461E1    -1.368541254528515E2    -1.046680649915559E2    -1.751035414381473E2    -1.027360706776717E2     1.786183378871754E2
                        -7.331468376528760      -1.170151662613282E2    -6.809551698793156E1     2.118931700605269E1    -1.124923213438069E2    -1.140847851228643E2
                        -7.606285984397617E1    -2.848366717707250E1    -1.055994864528147E2    -7.707898101453003E1    -2.082730861649378E-3   -1.841359024837856

 3.315000000000000E5    -2.426893752534516E1    -1.368885820722601E2    -9.969609109710007E1     8.051912487998925E1    -1.052057739102509E2    -3.729539017611496E1
                        -7.334050726715401      -1.171245374331669E2    -7.789075328685918E1     1.897318997279667E1    -1.084459378709768E2    -1.082287842019974E2
                        -7.616611816920535E1    -2.671645102054810E1    -1.057691109638789E2    -1.214244071712606E2    -2.447211308923026E-3   -1.829563727632300

 3.325500000000000E5    -2.426347488156011E1    -1.369195963843293E2    -1.144869575898196E2    -9.857183274604027E1    -1.063962930349307E2    -1.645435319708408E2
                        -7.337737392211757      -1.172815858689663E2    -7.784584184380451E1     4.529340724962574E1    -1.146126938074070E2    -1.164958199096193E2
                        -7.570384598071722E1    -2.863799227815948E1    -1.092273586294670E2    -1.707287599704310E2    -2.455003776525343E-3   -1.841468747023495

 3.336000000000000E5    -2.427594444600368E1    -1.367345378114594E2    -1.072965560638276E2    -1.075637074723444E2    -1.034131186538804E2     7.837545204939558E1
                        -7.337556716419092      -1.173889205919821E2    -7.094963190063932E1     4.926798867592847E1    -1.172751328627084E2     1.316053470254475E2
                        -7.568654529097910E1    -2.860203428210956E1    -1.009922498588272E2    -2.271067751723220E1    -9.023633426081580E-4   -1.859172036887022

 3.346500000000000E5    -2.422946477995371E1    -1.369214670774931E2    -1.160406095694654E2     1.337436329849201E2    -1.046495492650372E2    -1.136318848136180E2
                        -7.346135584074819      -1.175739144610177E2    -7.528479123115893E1     2.380696379519794E1    -1.114189372215454E2    -1.577260291330021E2
                        -7.606877605313137E1    -2.958944726441473E1    -1.075825527470794E2     1.553210048982140E2     1.523063868237928E-3   -1.860183744141227

 3.357000000000000E5    -2.424776875619464E1    -1.368931039579096E2    -1.072749272066779E2     4.630091148050591E1    -1.044410073588512E2     2.397200807545906
                        -7.346267573898677      -1.176753845850799E2    -6.839201609261771E1     3.619986638844826      -1.018431620286081E2    -8.237865689369288E1
                        -7.585835693972423E1    -3.072327851587081E1    -1.006978381109582E2     1.795674599909251E2    -4.269178539184480E-4   -1.865250966315935

 3.367500000000000E5    -2.424126766529216E1    -1.368522175250893E2    -1.045213358789870E2    -1.547871850420779E2    -1.125326392644571E2    -7.823009982057701E1
                        -7.342813445598379      -1.178404851736785E2    -7.413628966586737E1     1.743684098728557E1    -1.123160145025861E2    -3.136344572483439E1
                        -7.557537296017924E1    -3.279440764780122E1    -1.012325609134926E2    -1.084636949178088E2    -2.452967462649813E-3   -1.870593794185690

 3.378000000000000E5    -2.420641938495978E1    -1.369070977189660E2    -1.000014384082050E2     6.530620981032112E1    -1.055008078699433E2     3.942384941010924E1
                        -7.345176192819364      -1.179965453715159E2    -7.034366973876659E1    -1.828814827229624E1    -9.861399145714394E1    -4.883710832502301E1
                        -7.558365855024009E1    -2.820088455856184E1    -1.089056942191392E2    -8.176124957019674E1    -1.337419915837402E-3   -1.865352063564061

 3.388500000000000E5    -2.422256573934195E1    -1.369447608510679E2    -1.061813627600678E2     3.128992151705928E1    -1.077293139254159E2     4.993205577685283E1
                        -7.342579296794904      -1.181270889538200E2    -7.111730706639204E1     2.881610706309970      -9.910522374289700E1    -1.608164396274855E2
                        -7.570934985279116E1    -3.192991622764684E1    -1.041388401568200E2    -1.589774383219251E2    -2.778709559183155E-3   -1.874159194742201

 3.399000000000000E5    -2.418722259797911E1    -1.369451411946905E2    -1.028626524647199E2     1.951770465347000E1    -1.149345610778321E2     1.391221634695019E2
                        -7.348883186653453      -1.182612638799888E2    -6.824090752026538E1    -4.063550227998669E1    -1.008755565143186E2     1.605538242253135E1
                        -7.511309793534713E1    -3.125490211727874E1    -1.039706909212044E2     3.555094245750707E1    -1.118070012186794E-3   -1.879148689898627

